!Created with skrf (http://scikit-rf.org).
# GHz S RI R 50.0 
!freq ReS11 ImS11
500.0 0.001342928904 0.01018057644
500.625 0.02055652272 0.007430710936
501.25 0.03424991565 0.01103162539
501.875 0.006028016668 -0.04360617171
502.5 0.000927320694 0.001318487309
503.125 0.01938763045 0.01254673922
503.75 0.0292294064 -0.006000796821
504.375 0.02796923224 -0.01665458972
505.0 0.02054226329 -0.02493455794
505.625 0.02362728803 -0.04866563962
506.25 0.02345098862 -0.06921197571
506.875 0.02423026703 -0.07101094913
507.5 0.003720857261 -0.06577822639
508.125 0.0589669263 -0.06069677664
508.75 -0.03649823334 -0.0734898648
509.375 -0.02270487853 -0.04815278799
510.0 0.002498917135 -0.05182812439
510.625 -0.03848353697 -0.04792304461
511.25 -0.06064341386 -0.0224336794
511.875 -0.05623094534 0.01538114307
512.5 -0.02435784873 0.03393572581
513.125 0.01358434833 0.04466655922
513.75 0.04353431352 0.03590892453
514.375 0.03233672436 0.02140954145
515.0 0.05528594108 0.03681123276
515.625 0.02116831909 0.1097319561
516.25 0.07390894036 0.03699762509
516.875 0.03046902831 0.1043943335
517.5 0.1120468958 0.06533292892
518.125 -0.007810706106 0.2012156953
518.75 0.06919688892 0.02811054588
519.375 0.05415852044 0.042609472
520.0 0.09229839708 0.01960179758
520.625 0.1011127151 0.01853176954
521.25 0.07361611248 -0.0290244573
521.875 0.05885984788 0.0006451395087
522.5 0.08073181792 -0.04318466077
523.125 0.1643032059 -0.07844425092
523.75 0.07752804474 -0.1867261911
524.375 0.1069329274 -0.147428528
525.0 0.04309305884 -0.04131591411
525.625 0.02847232727 -0.01476079345
526.25 0.04063730541 -0.004644413357
526.875 0.05117814956 -0.0105677377
527.5 0.03636679969 -0.02048834621
528.125 0.02744115305 -0.03478251556
528.75 0.005091599256 -0.04610943339
529.375 -0.02787812246 -0.07362245419
530.0 -0.03395828463 -0.03499618622
530.625 -0.01374909626 -0.009564984206
531.25 -0.06573256389 -0.06767252789
531.875 -0.1410840607 -0.08382658836
532.5 -0.1362969855 -0.009052766329
533.125 -0.1013170039 0.01537507137
533.75 -0.09262601848 0.03591949827
534.375 -0.1001455324 0.01792176114
535.0 -0.07739681905 0.04483913066
535.625 -0.06544457961 0.01664229061
536.25 -0.04132577545 0.03262436961
536.875 -0.06553068278 0.005582978566
537.5 -0.08927247678 -0.03205480314
538.125 -0.07505847325 0.01421935024
538.75 -0.09344539411 0.03467301979
539.375 -0.08164721532 0.008243949994
540.0 -0.07421748703 -0.004571867504
540.625 -0.08850830451 -0.006258603461
541.25 -0.09949349015 -0.02175988824
541.875 -0.07562377106 -0.02021209749
542.5 -0.09084319554 -0.03132330295
543.125 -0.1135431397 0.01249897036
543.75 -0.09225336349 0.09114806387
544.375 -0.04738530471 0.09444053529
545.0 0.03825921992 0.07768629743
545.625 0.07088672134 0.08033378179
546.25 0.06575197833 0.02988281485
546.875 0.07052757862 0.02911514322
547.5 0.09515601769 0.04528717195
548.125 0.09468146947 0.06582702867
548.75 0.06165853616 0.07696463466
549.375 0.06733547986 0.0866054373
550.0 0.02986588229 0.1078790215
550.625 0.008399744307 0.07933499894
551.25 0.003364759752 0.02160669165
551.875 -0.02117973799 0.01937773192
552.5 -0.04152785504 0.04106105564
553.125 -0.05376218198 0.04159153239
553.75 -0.0517240357 0.02722978726
554.375 -0.04770999153 0.04989186009
555.0 -0.04166185988 0.0865521504
555.625 -0.03305647287 0.09470550486
556.25 -0.03749042377 0.04970461491
556.875 -0.04915581438 0.07301865661
557.5 -0.0534936326 0.09213671202
558.125 -0.05560794252 0.09774148735
558.75 -0.04903739565 0.05666731228
559.375 -0.04461517124 0.07307290928
560.0 -0.0310174437 0.05029815116
560.625 -0.02377334629 0.03914179606
561.25 -0.03043574093 0.01674208871
561.875 -0.04828828102 0.03764814632
562.5 -0.03504357472 0.05703243417
563.125 -0.006956105605 0.08023914957
563.75 0.02422990476 0.0896859568
564.375 0.04794237903 0.1049579492
565.0 0.04116121954 0.09601909572
565.625 0.05848297446 0.07585374867
566.25 0.02865924416 0.0713034564
566.875 -0.009589633482 0.07477195323
567.5 -0.02720033291 0.06620656901
568.125 -0.03181509508 0.08556790375
568.75 -0.0405908619 0.07606926813
569.375 -0.03392599071 0.05437816189
570.0 -0.03039679279 0.02898142244
570.625 -0.03338131583 0.04079638845
571.25 -0.03879585985 0.01332921478
571.875 -0.03651324478 0.01860078275
572.5 -0.04288199276 0.03002658964
573.125 -0.03613621487 0.08730782099
573.75 -0.006034391361 0.1086959853
574.375 0.01803727321 0.0761542809
575.0 0.02507971128 0.05899402419
575.625 0.04822719661 0.08026666922
576.25 0.01876254781 0.0833666048
576.875 0.03981292427 0.07882923779
577.5 0.05792527233 0.06282464882
578.125 0.07133154917 0.07043158977
578.75 0.02510093579 0.05498128716
579.375 0.03449448814 0.04842969225
580.0 0.04699047224 0.03856487686
580.625 0.04710585637 0.04032048534
581.25 -0.01156486468 0.02696016512
581.875 -0.01217856959 0.04353195238
582.5 -0.002044735501 0.07451183192
583.125 -0.007928860498 0.0856574586
583.75 0.001537776231 0.07610163094
584.375 -0.01782286149 0.06391949038
585.0 -0.04459758769 0.07137385725
585.625 -0.03509589819 0.07521878079
586.25 -0.02176917121 0.06115876997
586.875 -0.0196731122 0.06129927018
587.5 -0.01852177057 0.07527240762
588.125 0.01128854757 0.07430032523
588.75 0.03684511801 0.05845126714
589.375 0.04397514005 0.03654337748
590.0 0.01463459375 0.04002588977
590.625 0.008418024039 0.04486168113
591.25 0.02173928098 0.05916567878
591.875 0.03063654715 0.08908987782
592.5 0.04876297816 0.08381829939
593.125 0.05569218266 0.05720566587
593.75 0.05492313771 0.05356303335
594.375 0.03078244636 0.07886255363
595.0 0.008374981829 0.07872900229
595.625 -0.009210250428 0.05523910952
596.25 -0.01596524276 0.04734496013
596.875 -0.05593596532 0.01630981987
597.5 -0.05223650439 0.02173023465
598.125 -0.03455731319 0.03314858442
598.75 -0.02900812941 0.01571497861
599.375 -0.01882928161 0.01100931996
600.0 -0.0211815645 -0.002192315097
600.625 -0.04042208269 -0.01344771862
601.25 -0.06305492434 -0.007963406876
601.875 -0.0716251277 -0.006428930849
602.5 -0.07509493562 0.001844583888
603.125 -0.06688470659 0.01425123578
603.75 -0.05303776959 0.02897006185
604.375 -0.05047104288 -0.01643476745
605.0 -0.04131351399 -0.01622219522
605.625 -0.04428982718 -0.01893350611
606.25 -0.05626085862 -0.02730092244
606.875 -0.04499828414 -0.02728532394
607.5 -0.03422755353 -0.003884396818
608.125 -0.02418237887 -0.008300255717
608.75 -0.0124142967 0.004682390513
609.375 -0.002127481597 -0.0446077566
610.0 0.01182185047 -0.03359804322
610.625 0.01599635562 -0.03140972919
611.25 0.01564867604 -0.03651728987
611.875 0.03655806639 -0.05696520065
612.5 0.02587806556 -0.05066629527
613.125 0.02591419915 -0.04879808096
613.75 0.01006252421 -0.02240364286
614.375 0.006819195805 9.224165922e-05
615.0 0.05304166151 -0.03423974819
615.625 0.04566811323 -0.02908753337
616.25 0.02221915886 -0.01302530273
616.875 0.009538866007 0.0205353193
617.5 0.04872590662 -0.00501115895
618.125 0.05350962741 -0.00422477166
618.75 0.0380096554 0.006486003726
619.375 0.02840541392 0.02685061993
620.0 0.06616957896 0.01452414141
620.625 0.05829784869 -0.01621009763
621.25 0.05100560509 -0.02327878542
621.875 0.01983915516 -0.0196689765
622.5 0.001520383843 -0.02299920145
623.125 0.005709213398 -0.005303574476
623.75 0.01067933409 0.02937794496
624.375 -0.01025010592 0.05299992906
625.0 0.01949287134 0.04983910714
625.625 0.002968475898 0.05039526703
626.25 0.003330726511 0.07662029303
626.875 0.01015695619 0.077162215
627.5 0.02671285399 0.07188855
628.125 0.008367441807 0.05668603286
628.75 -0.007569826015 0.05692374201
629.375 -0.008410144471 0.05475856502
630.0 -0.009029438295 0.03689604283
630.625 -0.005831020598 0.03009086067
631.25 -0.01627111125 0.02121224468
631.875 -0.02842078785 -0.01190674639
632.5 -0.03173762617 0.004918010538
633.125 -0.04535574052 -0.01135732539
633.75 -0.04964229254 0.0004794330996
634.375 -0.0573674368 -0.01579968402
635.0 -0.07905292932 -0.01628647241
635.625 -0.06183808282 0.04565816132
636.25 -0.05987327055 0.03012414708
636.875 -0.05156342918 0.00100054022
637.5 -0.06042833908 -0.006193453667
638.125 -0.08599498183 -0.006821121276
638.75 -0.073323905 0.007608426116
639.375 -0.04167094175 0.001952624632
640.0 -0.0233377833 -0.02708322979
640.625 0.00610218211 -0.06684837742
641.25 -0.01263882081 -0.051542437
641.875 0.00126544074 -0.05505455032
642.5 0.0191445318 -0.0667873894
643.125 0.0160132367 -0.0630738743
643.75 0.04189755632 -0.05670572537
644.375 0.02738008265 -0.06731521899
645.0 0.01602651223 -0.07354774755
645.625 0.03057549721 -0.05641188399
646.25 0.02608955657 -0.04172405217
646.875 0.02720275068 -0.04123000099
647.5 0.0457194152 -0.06315764498
648.125 0.04657546769 -0.04743846759
648.75 0.02374212232 -0.02511030547
649.375 0.05278299818 -0.005759310758
650.0 0.08934428372 0.003870834103
650.625 0.09162874909 0.02702382471
651.25 0.06663111548 0.01436718837
651.875 0.06160345134 0.06004630937
652.5 0.03766093282 0.09460142238
653.125 0.02631587073 0.08404492209
653.75 0.03955474357 0.05757142741
654.375 -0.00357022632 0.05623101779
655.0 -0.03432307544 0.0257383594
655.625 -0.04914375712 0.01850435158
656.25 -0.02786489726 0.02625573032
656.875 -0.05066213713 0.05066893563
657.5 -0.07029865753 0.03976665912
658.125 -0.07643418675 0.02823900729
658.75 -0.08431989203 0.07003747197
659.375 -0.06450135567 0.1070524117
660.0 -0.01958335977 0.09842140672
660.625 0.005839353067 0.09336233864
661.25 0.02030091506 0.1043315017
661.875 0.03862702981 0.06629712878
662.5 0.03851207143 0.06211186817
663.125 0.0262827707 0.06810430966
663.75 -0.02075081984 0.06988206139
664.375 -0.06294751224 0.02268234145
665.0 -0.05903601794 -0.005273663316
665.625 -0.08552108253 -0.03618216778
666.25 -0.06570716238 -0.07901229769
666.875 -0.03549589956 -0.09213726677
667.5 -0.04232262688 -0.09223935821
668.125 -0.0664189749 -0.110358712
668.75 -0.04478610057 -0.06930594389
669.375 -0.02480497912 -0.06094517889
670.0 -0.01476615594 -0.05754462499
670.625 -0.02099145285 -0.1017583127
671.25 -0.02449243833 -0.0699460044
671.875 -0.021895637 -0.06100590384
672.5 -0.04729654186 -0.06698603605
673.125 -0.09150533739 -0.0765014581
673.75 -0.07562453309 -0.05869433497
674.375 -0.06982913697 -0.06477627637
675.0 -0.04989683385 -0.09938847312
675.625 -0.008870593047 -0.1183422138
676.25 0.01938783121 -0.08563456596
676.875 0.02069661851 -0.0749928957
677.5 0.03455954141 -0.08470530663
678.125 0.05325268751 -0.04583845134
678.75 0.04169902215 -0.01005209868
679.375 0.06763652125 -0.005358841339
680.0 0.1032445598 -0.03081677446
680.625 0.1034331076 -0.01869936262
681.25 0.08502499589 -0.05922248276
681.875 0.06300400442 -0.094011914
682.5 0.03189902745 -0.1276549518
683.125 0.0207594495 -0.1167367548
683.75 0.03075024335 -0.1066654426
684.375 0.06745267189 -0.06333831382
685.0 0.1050933866 0.002304104907
685.625 0.07349181558 0.04312243783
686.25 0.02563546777 0.06519494971
686.875 -0.01314248149 0.06136015039
687.5 -0.0585842017 0.04633537784
688.125 -0.075392009 0.04965670075
688.75 -0.1057212654 0.05661185813
689.375 -0.1264349278 0.05269717889
690.0 -0.1048142552 0.03139887366
690.625 -0.09744388291 0.05208526143
691.25 -0.08139986838 0.1153804724
691.875 -0.02996099372 0.1612395452
692.5 0.03812382562 0.05981393056
693.125 0.05477159763 0.01799527609
693.75 0.08528984345 -0.00862974775
694.375 0.1304356906 0.009109707284
695.0 0.08276401822 0.05753093711
695.625 0.0205235154 0.08517511014
696.25 -0.083447411 0.07624930592
696.875 -0.1267031271 -0.02684742228
697.5 -0.09551692398 -0.09603255268
698.125 -0.03682225866 -0.09295520105
698.75 -0.04217038591 -0.09122205669
699.375 -0.03136804716 -0.07883896053
700.0 -0.01068408739 -0.08220424322
700.625 0.02640071986 -0.08753365361
701.25 0.05255898984 -0.05444736285
701.875 0.04605867403 -0.05074902693
702.5 0.02012099483 -0.0976670139
703.125 -0.03058747617 -0.1442786696
703.75 -0.1107329767 -0.08045778878
704.375 -0.1011126801 0.01655425353
705.0 -0.09450136154 0.04224015057
705.625 -0.1206437427 -0.02521850333
706.25 -0.04045328217 -0.1037676515
706.875 0.02282326144 -0.07779398163
707.5 0.04717806459 -0.03663951809
708.125 0.07541059844 0.01235091063
708.75 0.03566642337 0.08260948923
709.375 -0.01353068209 0.08947464658
710.0 -0.04923706153 0.07145129909
710.625 -0.06735078487 0.0603826318
711.25 -0.09516772136 0.01777883027
711.875 -0.1077476214 0.03986707258
712.5 -0.1021527605 0.09148102261
713.125 0.006175189048 0.1126439443
713.75 0.07744586864 0.05127132242
714.375 0.08256251978 0.03001281445
715.0 0.08985928238 0.01060762605
715.625 0.06733168021 0.01197053841
716.25 0.02027908916 0.05344884969
716.875 -0.002514707327 0.08845979048
717.5 -0.06889268362 0.09366790972
718.125 -0.07805164782 0.05544221582
718.75 -0.0667585117 0.04566362994
719.375 -0.10289761 -0.01017662466
720.0 -0.0894891663 -0.06483196484
720.625 -0.009175367776 -0.09897030801
721.25 0.05092769225 -0.07936204897
721.875 0.07856036214 -0.005943082946
722.5 0.05802258586 0.01755101234
723.125 0.04615575696 0.02659884974
723.75 0.062657152 0.004661934679
724.375 0.09580015313 -0.02161346157
725.0 0.04529540739 -0.06959961607
725.625 0.005883745919 -0.08197003267
726.25 -0.02085896789 -0.0801391188
726.875 0.03964433949 -0.08872678142
727.5 0.03468388613 -0.0716718821
728.125 0.03340669286 -0.05249734963
728.75 0.06327752781 -0.02649602554
729.375 0.04679288832 -0.0338186558
730.0 0.06625880454 -0.02404092834
730.625 0.05356839914 -0.01262441846
731.25 0.04418590597 0.03140185764
731.875 0.0129425871 0.01665680933
732.5 -0.04638608574 0.0563507789
733.125 -0.05205071935 0.04417391313
733.75 -0.06013176958 0.05051013631
734.375 -0.01318029451 0.04141466141
735.0 -0.01921809139 0.05873163301
735.625 0.0005572247525 0.06130566795
736.25 0.006265408027 0.02799221049
736.875 -0.01558124142 -0.01207675249
737.5 -0.06208523026 0.05201958524
738.125 -0.09120226268 0.03500487609
738.75 -0.08212340142 0.02745976883
739.375 -0.02116546659 0.01029617789
740.0 -0.0626189287 0.02302219269
740.625 -0.04852518308 0.01344219763
741.25 -0.04073506664 0.008102421412
741.875 -0.03799457324 -0.01160098445
742.5 0.01880684115 -0.01667507123
743.125 0.04693693185 -0.007328860714
743.75 0.02700754983 0.01011359485
744.375 0.02562888244 0.01573710503
745.0 0.01546881753 0.03271901747
745.625 0.01745275027 0.0424412669
746.25 0.04554162205 0.03746259873
746.875 0.07622664285 0.0007269987568
747.5 0.05749696865 -0.01670989591
748.125 0.01899071098 -0.06879443456
748.75 -0.004505058578 -0.04583574414
749.375 -0.01833397997 -0.03922817459
750.0 -0.04905796709 0.002458077897
