!Created with skrf (http://scikit-rf.org).
# GHz S RI R 50.0 
!freq ReS11 ImS11
500.0 -0.01030750418 0.02318128727
500.625 0.0273426856 0.01870651766
501.25 0.02885228673 0.01788084705
501.875 0.01511988994 0.03511117243
502.5 0.01057827868 0.04231012129
503.125 0.03291389178 0.02675984064
503.75 0.0492534301 0.02889541141
504.375 0.04038114802 -0.01853710085
505.0 0.04079432303 -0.02931272849
505.625 0.05248965531 -0.04758205464
506.25 0.03757786339 -0.05104734653
506.875 0.04795298875 -0.0685077442
507.5 0.03194297521 -0.058395634
508.125 0.07081443743 -0.02219698592
508.75 0.05406312941 -0.05074911611
509.375 0.01105808121 -0.05522846121
510.0 0.04248500183 -0.04488627383
510.625 -0.01631974741 -0.06524084759
511.25 -0.02969986035 -0.06333319025
511.875 -0.05466434912 0.004126660491
512.5 -0.03240615104 0.01359821749
513.125 -0.01453909548 0.03707480998
513.75 -0.02899021707 0.04339905802
514.375 -0.008578781398 0.05562123048
515.0 0.01030135198 0.08194619134
515.625 -0.04054919007 0.09034879192
516.25 0.02501859408 0.1064119157
516.875 -0.0334000038 0.122816014
517.5 0.0630268485 0.08993071234
518.125 -0.04301348777 0.1222395679
518.75 0.03886121892 0.04117724745
519.375 0.0166513769 0.06428211379
520.0 0.05815793137 0.05809641235
520.625 0.06165201296 0.04647849988
521.25 0.05953656847 0.01998273194
521.875 0.04255714879 0.04207871832
522.5 0.06705026284 0.005294817104
523.125 0.1162785653 -0.02619204515
523.75 0.1139870233 -0.04755356378
524.375 0.07209034504 -0.0478862255
525.0 0.007131194068 0.002838606574
525.625 0.009431763033 0.02932253166
526.25 0.01769073814 0.0175024868
526.875 0.0205084836 0.02306698818
527.5 0.02783611426 0.01881879772
528.125 0.0477578575 0.004183649221
528.75 0.05772823219 -0.01235651096
529.375 0.03060621743 -0.03624506436
530.0 0.01994903782 -0.027641171
530.625 -0.001062817384 -0.08672080693
531.25 0.002839644172 -0.1318201453
531.875 -0.05740843672 -0.1240420791
532.5 -0.08892061802 -0.06396849413
533.125 -0.08636420045 -0.05843880686
533.75 -0.07041951874 -0.03770232423
534.375 -0.06847345193 -0.03162171226
535.0 -0.06879985511 -0.01867089117
535.625 -0.03580771054 -0.03452323754
536.25 -0.02631929824 -0.01633379431
536.875 -0.03397644728 -0.04856263233
537.5 -0.0504601725 -0.08267550689
538.125 -0.08067242869 -0.06137519749
538.75 -0.05492643609 -0.01130096491
539.375 -0.03415428264 -0.03368492913
540.0 -0.05288288058 -0.07144735644
540.625 -0.07629959255 -0.1130917405
541.25 -0.04317950728 -0.06928000123
541.875 -0.0430578072 -0.06733909079
542.5 -0.05737153375 -0.09248482473
543.125 -0.1094455477 -0.0647519189
543.75 -0.08116278459 0.03203449508
544.375 -0.05674461843 0.04333080519
545.0 -0.02851874756 0.06240017057
545.625 -0.01049837489 0.06399444088
546.25 0.01746492867 0.07747415331
546.875 0.02631333722 0.06404115236
547.5 0.02815556572 0.08094676237
548.125 0.009015869692 0.08378727675
548.75 0.005816602487 0.05387224884
549.375 -0.009083693799 0.06630342646
550.0 -0.03593090853 0.03642317871
550.625 -0.02092028063 0.006165792266
551.25 -0.02383673813 -0.02811311538
551.875 -0.04281842679 -0.0381414585
552.5 -0.06562007529 -0.03748859227
553.125 -0.07760074483 -0.01505117807
553.75 -0.06162769475 -0.02333144472
554.375 -0.08994667977 0.008996541897
555.0 -0.08925453602 0.02951701173
555.625 -0.07158432282 0.03345967717
556.25 -0.08586032976 0.02847226805
556.875 -0.08765914418 0.02237260774
557.5 -0.07577832318 0.03045028447
558.125 -0.07604726714 0.03451338121
558.75 -0.0716582961 0.01114521431
559.375 -0.03892589415 0.007198678972
560.0 -0.02310637222 0.001118050994
560.625 -0.03382377568 -0.02656637708
561.25 -0.05834401528 -0.03218837836
561.875 -0.07377779266 -0.01657033434
562.5 -0.07083360712 0.02263235674
563.125 -0.06476351169 0.06371261323
563.75 -0.04705473287 0.0768725916
564.375 -0.0209731577 0.08226531277
565.0 -0.0121036457 0.07495646656
565.625 -0.009076154878 0.06887767799
566.25 -0.0375872642 0.04680445103
566.875 -0.05030198462 0.02794609633
567.5 -0.05244647482 0.01638231523
568.125 -0.06417418315 0.01627222053
568.75 -0.0555685628 0.01344757428
569.375 -0.01472511331 -0.01068282354
570.0 -0.0148607549 -0.03009917486
570.625 -0.0405393607 -0.04135014752
571.25 -0.04552501254 -0.03136527128
571.875 -0.04706932768 -0.0351485867
572.5 -0.08071386027 -0.01718267576
573.125 -0.1076136195 0.02970420782
573.75 -0.05850515738 0.07463095455
574.375 -0.02492590493 0.06359589966
575.0 -0.04133604609 0.06491056794
575.625 -0.05057630801 0.06834368744
576.25 -0.03277314193 0.07154054994
576.875 -0.01100701606 0.07391401249
577.5 0.001918783649 0.07719136831
578.125 -0.01353312636 0.05700649513
578.75 -0.007634621514 0.046378747
579.375 -0.009708499186 0.03856495206
580.0 -0.01780046691 0.02395253274
580.625 -0.02745528296 0.01531689704
581.25 -0.04783366102 0.01778208727
581.875 -0.07224919647 0.01746393748
582.5 -0.07366330152 0.03611107591
583.125 -0.05908251932 0.04776511593
583.75 -0.05437129726 0.04771239309
584.375 -0.0663799335 0.01023575009
585.0 -0.07432648944 0.01329733217
585.625 -0.05731627359 0.02384817884
586.25 -0.0538270653 0.03452829982
586.875 -0.05387044819 -0.00512002415
587.5 -0.05467077004 0.01121253881
588.125 -0.02807815583 0.04384260088
588.75 -0.009386329889 0.0527177399
589.375 -0.03900486878 0.01103403443
590.0 -0.04178201207 0.02215748488
590.625 -0.03986173964 0.05196559864
591.25 -0.02638298648 0.08046662574
591.875 -0.01813793973 0.09469647331
592.5 0.0005771341332 0.07394089874
593.125 0.008796334803 0.06315712107
593.75 0.004851322785 0.06979169142
594.375 -0.03316314831 0.03916087871
595.0 -0.03484437358 0.02611394427
595.625 -0.02932169629 0.01154606686
596.25 -0.0379984601 -0.005682344589
596.875 -0.03840324903 -0.01102939667
597.5 -0.0345896045 -0.01695216268
598.125 -0.02405902738 -0.02043117492
598.75 -0.01882032926 -0.01169676735
599.375 -0.01007608878 -0.04983232992
600.0 -0.02032550505 -0.06308833373
600.625 -0.0273743501 -0.07205991479
601.25 -0.05136462787 -0.05245603173
601.875 -0.05025812095 -0.05603146584
602.5 -0.05627137365 -0.02962384045
603.125 -0.05371112987 -0.02603646872
603.75 -0.03456170683 -0.02645539229
604.375 -0.02497134918 -0.01242894701
605.0 -0.004080048657 -0.04260972512
605.625 0.001981998962 -0.05567457599
606.25 -0.008468989902 -0.04114652129
606.875 -0.02577095582 -0.01136670671
607.5 0.02223712238 -0.01544964972
608.125 0.02914166427 -0.02288625059
608.75 0.02024650022 -0.02491247685
609.375 0.01868725387 -0.01287626705
610.0 0.0501870033 -0.01383920054
610.625 0.06359981996 -0.02097569691
611.25 0.04727401948 -0.02515462253
611.875 0.02938763343 -0.02213282837
612.5 0.05744286769 -0.001085829248
613.125 0.02207694586 -0.006825116306
613.75 0.01169674604 0.00770028561
614.375 0.0289917694 0.01754089497
615.0 0.02832154125 0.01195290784
615.625 0.02122403325 0.007854492749
616.25 0.02294259417 0.01819706397
616.875 0.02283567692 0.03039424801
617.5 0.0319257255 0.03903409712
618.125 0.02867404207 0.03031246046
618.75 0.02312499656 0.02614460003
619.375 0.02867512083 0.03872249907
620.0 0.0445075802 0.04946667001
620.625 0.04454113985 0.01248781001
621.25 0.02394915791 0.004359126051
621.875 -0.002264634217 -0.01886944861
622.5 -0.02323549358 0.01226015145
623.125 -0.02189772756 0.03776031279
623.75 -0.02020044801 0.05131863803
624.375 -0.02356213947 0.04950568194
625.0 -0.04738169683 0.0296533413
625.625 -0.03838506656 0.05563951288
626.25 -0.02231866831 0.08395587717
626.875 -0.0170679681 0.06302653502
627.5 -0.02494420522 0.03364963117
628.125 -0.02061558812 0.05838333831
628.75 -0.02926071998 0.0344025093
629.375 -0.02329974998 0.02432938834
630.0 -0.009491310116 -0.0002233170036
630.625 -0.02097907949 0.007018616433
631.25 -0.006445682767 -0.02325063081
631.875 -0.005271359149 -0.04012855273
632.5 -0.01246446885 -0.06570241313
633.125 -0.04269641911 -0.04538022291
633.75 -0.03169652718 -0.05127047911
634.375 -0.03140687784 -0.0589678855
635.0 -0.04698014749 -0.04826045451
635.625 -0.04568786352 -0.04483015338
636.25 -0.04173107616 -0.01807178469
636.875 -0.03356783129 -0.02518081899
637.5 -0.03879092948 -0.05532394085
638.125 -0.03527896055 -0.05568573394
638.75 -0.04924660776 -0.008647226583
639.375 -0.004260336455 -0.01814255555
640.0 0.03991648035 -0.0267238123
640.625 0.05906666819 -0.02342705341
641.25 0.04151932387 -0.03317215036
641.875 0.03886890764 -0.03005627748
642.5 0.05576642001 -0.00854289521
643.125 0.06624138496 0.008344180295
643.75 0.04931963578 -0.0238450334
644.375 0.04906431363 -0.02605262024
645.0 0.03804083804 -0.01337531022
645.625 0.04767992804 0.01272045835
646.25 0.04328476685 0.003786783884
646.875 0.07181512944 0.01571040932
647.5 0.06361124731 0.01252138887
648.125 0.05331598393 0.01518910658
648.75 0.05293241304 0.0511083715
649.375 0.05228837536 0.06485601072
650.0 0.0466462251 0.06375204398
650.625 0.04227308001 0.06347277597
651.25 0.01669922713 0.07876003831
651.875 -0.00777950167 0.06591421331
652.5 -0.007817519002 0.05274510761
653.125 -0.01960553714 0.04609804852
653.75 -0.03856452308 0.01350468114
654.375 -0.02193668019 -0.01906136199
655.0 -0.02914350791 -0.03748995782
655.625 -0.04614385992 -0.04833949221
656.25 -0.08051827647 -0.05460733709
656.875 -0.07516255308 -0.02573889984
657.5 -0.0663771291 -0.02989771623
658.125 -0.08971365008 -0.03305091543
658.75 -0.1221922805 -0.02859297212
659.375 -0.06991011032 0.03508449827
660.0 -0.0587886357 0.04494244068
660.625 -0.05505380685 0.04135032906
661.25 -0.05979329853 0.03047989607
661.875 -0.03239853262 0.03647560025
662.5 -0.02962388878 0.03143687521
663.125 -0.05977513054 0.02443162851
663.75 -0.07747045968 -0.01854657511
664.375 -0.03981708939 -0.03745739956
665.0 -0.02544030589 -0.07703977913
665.625 0.001262500763 -0.1059673269
666.25 0.01650016287 -0.08874912057
666.875 0.03244251637 -0.0868344088
667.5 0.04618115448 -0.08507668834
668.125 0.04557438843 -0.06525153499
668.75 0.03242876641 -0.04829992663
669.375 0.03672438913 -0.03124553923
670.0 0.05940752831 -0.03134192926
670.625 0.06882113702 -0.02940017615
671.25 0.05559469464 -0.04753020947
671.875 0.04731681105 -0.03436386464
672.5 0.04171645394 -0.07989771061
673.125 0.01882482544 -0.101748517
673.75 -0.005942922149 -0.09849122339
674.375 0.01439923223 -0.08694918379
675.0 0.0523774283 -0.06625296854
675.625 0.05314895799 -0.03832921821
676.25 0.05966067363 -0.02077621413
676.875 0.06427797937 0.002688067371
677.5 0.04032938822 0.03497249117
678.125 0.03667174673 0.04193547684
678.75 0.06304382714 0.06278203532
679.375 0.04756179546 0.07977984836
680.0 0.05354019579 0.07415835494
680.625 0.07479442302 0.04817699869
681.25 0.10646027 0.02290415481
681.875 0.1123806818 -0.008727855171
682.5 0.08676081339 -0.03691603967
683.125 0.058048805 -0.03649850623
683.75 0.07044339731 -0.01482341027
684.375 0.07601462704 0.04225122872
685.0 0.01124284488 0.04409230671
685.625 -0.0271252906 0.0361309222
686.25 -0.05442945934 0.01093852398
686.875 -0.08963276547 -0.01001450954
687.5 -0.07387217281 -0.0413468845
688.125 -0.09944868017 -0.05078126775
688.75 -0.1012817059 -0.05811462295
689.375 -0.09767698599 -0.05044959885
690.0 -0.07992785397 -0.03865963532
690.625 -0.09357247958 -0.04233685178
691.25 -0.09642270504 -0.02142221178
691.875 -0.05259631896 0.02128714551
692.5 -0.03142604965 0.03533477386
693.125 -0.02781434125 0.06578954199
693.75 -0.01355867899 0.1033008861
694.375 0.02248865969 0.09530223788
695.0 0.005379101904 0.1068980481
695.625 -0.08083952131 0.06885955018
696.25 -0.1060386155 -0.03981582859
696.875 -0.04523257016 -0.1061850339
697.5 0.02263325288 -0.105689212
698.125 0.04343108086 -0.08495895581
698.75 0.03328047705 -0.04989955747
699.375 0.04671403014 -0.03291487285
700.0 0.07700198378 -0.03751731626
700.625 0.05303955446 0.03026120385
701.25 0.0572214796 0.02894510937
701.875 0.08898073203 0.0190206109
702.5 0.1279688677 -0.05727310517
703.125 0.08361480132 -0.09237390068
703.75 -0.02831019221 -0.08781209643
704.375 -0.05326892228 -0.05483911896
705.0 -0.04578098052 -0.07500378109
705.625 -0.001510608742 -0.09570492739
706.25 0.04510886541 -0.02512828701
706.875 0.04518893009 0.02069488276
707.5 0.02791227886 0.06211382615
708.125 -0.01094901444 0.0902673496
708.75 -0.06934142173 0.06507184503
709.375 -0.08829428734 0.0318349581
710.0 -0.08697343207 -0.009837283421
710.625 -0.0755183381 -0.0397624554
711.25 -0.06621354499 -0.07518554414
711.875 -0.07169463784 -0.0687294931
712.5 -0.07256955166 -0.008167313275
713.125 -0.0344212557 0.0603392193
713.75 -0.02431070782 0.03961018825
714.375 -0.02837290747 0.06248352229
715.0 -0.01685786555 0.06046070473
715.625 -0.01713381562 0.06128862418
716.25 -0.03282501984 0.07492373827
716.875 -0.1205236826 0.01006265767
717.5 -0.09484027552 -0.02704960532
718.125 -0.07791203709 -0.02427826943
718.75 -0.07210700938 -0.03639597692
719.375 -0.05653858765 -0.06922709439
720.0 0.007344831885 -0.0842704836
720.625 0.05280122441 -0.04514364734
721.25 0.05192560616 0.006584457598
721.875 -0.02437034698 0.03552701763
722.5 -0.05329238017 0.02941022479
723.125 -0.05858077592 0.05736821367
723.75 0.0225917571 0.08529482002
724.375 0.06762689863 0.04334845666
725.0 0.07696557557 -0.014290905
725.625 0.07836570947 -0.04172987526
726.25 0.05946160926 -0.04658141916
726.875 0.03571152044 -0.04256050104
727.5 0.05149680402 0.01575913077
728.125 0.03068497284 0.05624439143
728.75 0.01680201575 0.04706285424
729.375 0.03909206998 0.02528255336
730.0 0.04151338252 0.02478914357
730.625 0.01969180663 0.0487807554
731.25 -0.01146744434 0.05961003636
731.875 -0.03999706076 0.03532164564
732.5 -0.03870160206 0.01186800531
733.125 -0.06507473851 -0.04555757874
733.75 -0.0525758337 -0.01854710435
734.375 -0.0289000017 -0.002448636412
735.0 -0.04411076597 -0.01631799146
735.625 -0.03488986484 -0.004868426684
736.25 -0.03135862912 -0.003007283931
736.875 -0.05528652978 -0.01388790353
737.5 -0.06337192776 -0.02103171934
738.125 -0.07792348729 -0.02243399639
738.75 -0.06662358163 -0.01530178341
739.375 -0.02451951366 -0.01275944141
740.0 0.01416735763 -0.01557911768
740.625 -0.05028178931 -0.05372822962
741.25 -0.03763419519 -0.0341787689
741.875 0.006106374402 -0.02782867048
742.5 0.0300507829 -0.002551654272
743.125 0.02564916896 0.04162979339
743.75 -0.01101505665 0.04058810773
744.375 -0.03031655156 0.04045533298
745.0 -0.05938012627 0.009945648158
745.625 -0.01319522276 0.08895539287
746.25 0.01332733011 0.07671561904
746.875 0.04214395196 0.04168409465
747.5 0.03958622453 0.002753395009
748.125 0.01751601042 0.004157134751
748.75 0.03577232279 -0.01676584996
749.375 0.01940420869 -0.02750015474
750.0 -0.01618037049 -0.03214857574
