!Created with skrf (http://scikit-rf.org).
# GHz S RI R 50.0 
!freq ReS11 ImS11
500.0 -0.01283782693 0.0261889245
500.625 0.01907690008 0.0332152613
501.25 0.02763554036 0.02024825547
501.875 0.02152403986 0.02746919161
502.5 0.01233173004 0.03587589832
503.125 0.0286711129 0.03845363048
503.75 0.04369205327 0.02606958401
504.375 0.04584218667 -0.005152181968
505.0 0.03776526929 -0.03250943651
505.625 0.05822243389 -0.04373314601
506.25 0.05308024063 -0.04396334886
506.875 0.05244796502 -0.06369271759
507.5 0.04514225607 -0.03985437663
508.125 0.06924059914 -0.02021127635
508.75 0.04641334296 -0.04934098086
509.375 0.02962963908 -0.04544957985
510.0 0.07434494385 -0.02749645608
510.625 -0.00449498318 -0.06437664755
511.25 -0.02761771191 -0.05690861054
511.875 -0.0518100582 -0.002641206927
512.5 -0.03210455884 0.01415874325
513.125 -0.02152070827 0.02771472997
513.75 -0.02581117158 0.03764469721
514.375 -0.005929709927 0.05268963718
515.0 0.01642901682 0.07437640526
515.625 -0.06266522944 0.09277240213
516.25 0.02986455677 0.095220781
516.875 -0.0412077214 0.1177151524
517.5 0.03894573354 0.0958259741
518.125 -0.06653843072 0.1121871629
518.75 0.04056086302 0.03890878706
519.375 0.01765066591 0.05943728285
520.0 0.04452594189 0.06098466224
520.625 0.05327429419 0.06224437714
521.25 0.06133242438 0.007727746611
521.875 0.0347913768 0.04210114701
522.5 0.06575180601 0.006239346394
523.125 0.1177326027 -0.005460206908
523.75 0.09735908835 -0.05133267208
524.375 0.05796122784 -0.02133094618
525.0 0.005743600182 -0.005272876527
525.625 0.00144212086 0.03007454327
526.25 0.009841675597 0.03134420487
526.875 0.01300014855 0.02583496798
527.5 0.02117475728 0.01985229189
528.125 0.05159630228 0.01102666313
528.75 0.04067254593 -0.01494580249
529.375 0.02509883955 -0.02870794839
530.0 0.02837099011 -0.02217515036
530.625 0.01368252203 -0.08613668012
531.25 0.02433826274 -0.1527836144
531.875 -0.04582755957 -0.1293990674
532.5 -0.08081112281 -0.08185020011
533.125 -0.08167268145 -0.07165725864
533.75 -0.06337480555 -0.0384555147
534.375 -0.05910876818 -0.03081838019
535.0 -0.05920369348 -0.01245592085
535.625 -0.03310428899 -0.04577922347
536.25 -0.02537737334 -0.02976206292
536.875 -0.03508855774 -0.0613149398
537.5 -0.04202640339 -0.08671973305
538.125 -0.06674869125 -0.06429556552
538.75 -0.05313692277 -0.02513056089
539.375 -0.02679569219 -0.04104610281
540.0 -0.04399359664 -0.07763335152
540.625 -0.05555741219 -0.1141216568
541.25 -0.03609373331 -0.08298539089
541.875 -0.04233359581 -0.08197484545
542.5 -0.04699236569 -0.0929336078
543.125 -0.09659251298 -0.06757111386
543.75 -0.0920897584 0.0200594607
544.375 -0.04924067181 0.03795601189
545.0 -0.02334455005 0.04887706786
545.625 -0.01738850891 0.06451526376
546.25 0.01147341839 0.06038709986
546.875 0.01560627931 0.06151139482
547.5 0.0142843629 0.07365816365
548.125 0.001652306357 0.07329992871
548.75 -0.008396995114 0.06373110852
549.375 -0.0141645716 0.05078975927
550.0 -0.02500724452 0.02282389806
550.625 -0.02521238904 0.0002442722135
551.25 -0.004811482012 -0.03052093343
551.875 -0.03302965203 -0.04890526533
552.5 -0.06297860576 -0.05183749321
553.125 -0.07662504541 -0.02434031828
553.75 -0.06694211609 -0.03095763871
554.375 -0.08430468996 -0.003504510299
555.0 -0.08269750449 0.01756020565
555.625 -0.07838100691 0.03138374675
556.25 -0.0814167601 0.01410369099
556.875 -0.08889601569 0.01404524285
557.5 -0.08188575031 0.02644255153
558.125 -0.07477384327 0.02328864231
558.75 -0.05449195629 0.00602231585
559.375 -0.02817438472 0.003542154577
560.0 -0.02009361478 -0.006063048165
560.625 -0.0391534113 -0.03226761545
561.25 -0.04035565521 -0.04164410914
561.875 -0.06639582594 -0.02449448723
562.5 -0.07153356997 0.01892493228
563.125 -0.07212255733 0.06412337603
563.75 -0.05101786225 0.06438441948
564.375 -0.0238503282 0.07123979373
565.0 -0.01781357895 0.07152111376
565.625 -0.01596314819 0.07099761803
566.25 -0.03225435242 0.02585269318
566.875 -0.04995540117 0.01879806706
567.5 -0.0580205288 0.01556968841
568.125 -0.05779878577 0.005860792616
568.75 -0.04766696396 0.003356518596
569.375 -0.02267664571 -0.01257967703
570.0 -0.01791413118 -0.03628379937
570.625 -0.03728678233 -0.04980987598
571.25 -0.03313241674 -0.03660607291
571.875 -0.05149495539 -0.03592401836
572.5 -0.08673992329 -0.01783636676
573.125 -0.1064166019 0.01434978109
573.75 -0.06042538895 0.06435762929
574.375 -0.03494958773 0.06168075469
575.0 -0.04481855572 0.06053426374
575.625 -0.05484192892 0.06552219727
576.25 -0.03604994585 0.05511726973
576.875 -0.0195466971 0.06388777805
577.5 -0.006465930314 0.06256185124
578.125 -0.01571925807 0.05665200082
578.75 -0.01210537337 0.03406504861
579.375 -0.01453711908 0.03349662895
580.0 -0.02030709673 0.02681756898
580.625 -0.0318089443 0.005183797083
581.25 -0.05492451526 0.005955192636
581.875 -0.07536155277 0.0218551932
582.5 -0.0763324702 0.03181656145
583.125 -0.0614016733 0.0431655326
583.75 -0.05879461995 0.04030015198
584.375 -0.0682047779 0.003649443365
585.0 -0.06902043749 -0.002164850837
585.625 -0.0611285827 0.02350774108
586.25 -0.05629604407 0.01892665975
586.875 -0.05790834201 -0.001184074593
587.5 -0.05457249475 0.01056277851
588.125 -0.0305837781 0.04146181452
588.75 -0.01711160396 0.04503265135
589.375 -0.03786208447 0.009528326807
590.0 -0.0499053876 0.01217966579
590.625 -0.05177224116 0.04651295361
591.25 -0.0265876281 0.08133083668
591.875 -0.04115050261 0.07568184099
592.5 -0.01048870911 0.06925032825
593.125 -0.005240285177 0.05474909228
593.75 -0.0002895664491 0.06209355719
594.375 -0.03604928271 0.03216504443
595.0 -0.03420460921 0.01121752324
595.625 -0.02624802322 -0.003973823366
596.25 -0.03568260861 -0.002180794446
596.875 -0.02615217265 -0.02709266916
597.5 -0.0265694419 -0.02710303926
598.125 -0.01883412159 -0.02065183584
598.75 -0.0131720599 -0.02532378712
599.375 -0.009681832256 -0.04283125582
600.0 -0.01848794477 -0.06368300009
600.625 -0.02428700119 -0.07211855884
601.25 -0.04552707962 -0.05466861397
601.875 -0.04495304445 -0.05704733289
602.5 -0.04927536149 -0.04257538478
603.125 -0.03952534071 -0.04044179339
603.75 -0.03408486247 -0.01972932752
604.375 -0.01700409517 -0.01978131127
605.0 -0.003709673819 -0.0346283156
605.625 0.00179634238 -0.05093862335
606.25 -0.008510546728 -0.03779231075
606.875 -0.01521288239 -0.01584176711
607.5 0.02465014302 -0.00924393037
608.125 0.02300844798 -0.01291793589
608.75 0.01402298722 -0.01177378681
609.375 0.03127148491 -0.01396026268
610.0 0.04508306741 -0.007302144262
610.625 0.0533433786 -0.01618495263
611.25 0.05071620467 -0.02188328097
611.875 0.04064447164 -0.02011591011
612.5 0.04545322949 0.0002510602367
613.125 0.02709496421 0.0005909636708
613.75 0.01917369619 0.0161661476
614.375 0.008482356414 0.01552879181
615.0 0.03879839124 0.03572665364
615.625 0.0241592453 0.01497902675
616.25 0.005090638807 0.01667244956
616.875 0.01085717384 0.03215603979
617.5 0.04109629809 0.05467182008
618.125 0.03059734591 0.03939330865
618.75 0.01737897726 0.03582426493
619.375 0.009110966796 0.03003033524
620.0 0.04359827607 0.05185333436
620.625 0.04802545482 0.01951838957
621.25 0.02173211774 -0.005790474543
621.875 -0.01702519357 -0.02872312271
622.5 -0.010737275 0.01835041432
623.125 -0.02143927581 0.04307625309
623.75 -0.02242331239 0.05597536609
624.375 -0.03973006386 0.03984869197
625.0 -0.04521005893 0.03459019041
625.625 -0.05098148988 0.04594146479
626.25 -0.03224545062 0.06308065931
626.875 -0.01692699041 0.05827457153
627.5 -0.0164171293 0.03367982369
628.125 -0.02417980059 0.04225129823
628.75 -0.03011749745 0.03038943758
629.375 -0.01678982755 0.01105648167
630.0 -0.007996441563 -0.0150467601
630.625 -0.007365698067 -0.01555525189
631.25 0.009740187605 -0.04058109531
631.875 -0.001948128382 -0.04570855663
632.5 -0.006939262755 -0.05899096181
633.125 -0.02788131715 -0.05594962308
633.75 -0.03295022718 -0.04818206712
634.375 -0.03405390184 -0.0531252978
635.0 -0.03412021179 -0.06632374446
635.625 -0.04374232774 -0.03786775003
636.25 -0.0333999077 -0.02658899799
636.875 -0.0162760655 -0.03885852094
637.5 -0.02406283409 -0.06055403109
638.125 -0.02813220309 -0.05194105635
638.75 -0.03421323054 -0.01591205378
639.375 -0.006345317655 -0.0156572406
640.0 0.0420507209 -0.01688229258
640.625 0.06374970338 -0.01716877441
641.25 0.0292853427 -0.03831211087
641.875 0.03599585776 -0.0288397879
642.5 0.05459392491 -0.002947235844
643.125 0.05725629427 0.01315051078
643.75 0.05255188006 -0.00661601814
644.375 0.04661024158 -0.01346821067
645.0 0.04193980619 0.004247331656
645.625 0.04951037068 0.02233406019
646.25 0.04153508236 0.00676848931
646.875 0.06290852742 0.02065326737
647.5 0.05623818104 0.008373305085
648.125 0.05897678281 0.02779062243
648.75 0.04421744205 0.04210315466
649.375 0.0442455699 0.06757923921
650.0 0.04374160866 0.06276985104
650.625 0.03260715691 0.06163253753
651.25 0.01056118889 0.07042258092
651.875 -0.02082602547 0.0608275585
652.5 -0.0211494955 0.04628345549
653.125 -0.02364472377 0.03486747739
653.75 -0.0247295383 0.01104507789
654.375 -0.01406036153 -0.01976023883
655.0 -0.02218992426 -0.04146806609
655.625 -0.05052380266 -0.06604041681
656.25 -0.06441191933 -0.05758861136
656.875 -0.07128863917 -0.03634857792
657.5 -0.07115099363 -0.04779004735
658.125 -0.0879727877 -0.05185747666
658.75 -0.1069166072 -0.0410188362
659.375 -0.07404154867 0.02322555236
660.0 -0.04998897657 0.03676192658
660.625 -0.05271241402 0.03164322204
661.25 -0.06152592758 0.01655279727
661.875 -0.01903235916 0.02378930165
662.5 -0.03008749924 0.01956273782
663.125 -0.06277037785 0.007676550154
663.75 -0.06839528092 -0.02950224369
664.375 -0.0411237703 -0.05403281053
665.0 -0.0214341566 -0.09289115442
665.625 0.01644686662 -0.1127233478
666.25 0.01869333148 -0.07222991321
666.875 0.0344908018 -0.07342197311
667.5 0.04732964805 -0.07959182111
668.125 0.0590243251 -0.05465636503
668.75 0.02119165883 -0.03357987593
669.375 0.04539950556 -0.02475687028
670.0 0.0740014703 -0.02587648733
670.625 0.06993818422 -0.01474010279
671.25 0.06098706785 -0.03266916278
671.875 0.06308558844 -0.0351249818
672.5 0.05316453989 -0.07246366442
673.125 0.02619815359 -0.09242468886
673.75 0.002049386552 -0.07571817196
674.375 0.02464881492 -0.07163209105
675.0 0.04660601489 -0.04626171475
675.625 0.05722439234 -0.03273049194
676.25 0.04450699396 -0.01017288052
676.875 0.05098403011 0.01837880417
677.5 0.02681894591 0.03353089567
678.125 0.03117586269 0.04986045549
678.75 0.05167631429 0.07676139733
679.375 0.04919762317 0.09876427467
680.0 0.04687868949 0.08235878041
680.625 0.07236452637 0.05848297394
681.25 0.1096856781 0.03352210063
681.875 0.09018555181 0.00948826604
682.5 0.07736310726 -0.02614528429
683.125 0.06772339907 -0.03046448452
683.75 0.06752978832 3.354506459e-05
684.375 0.05365421101 0.0536220518
685.0 0.002545095789 0.04390852738
685.625 -0.04029473946 0.03877893196
686.25 -0.06850654338 0.00388573485
686.875 -0.08471720257 -0.02899780497
687.5 -0.08766476299 -0.04912609824
688.125 -0.105625784 -0.06238290757
688.75 -0.09448522354 -0.07210239943
689.375 -0.08519992673 -0.05656135335
690.0 -0.05966809803 -0.04415309001
690.625 -0.07298091614 -0.05297086295
691.25 -0.07054471716 -0.03235976577
691.875 -0.0557568429 0.01841133025
692.5 -0.03129191376 0.006256584747
693.125 -0.04302376078 0.06719936909
693.75 -0.02461203458 0.1109665445
694.375 0.009612686635 0.09754293766
695.0 -0.01368010671 0.105649749
695.625 -0.08768328237 0.03836920729
696.25 -0.08538780253 -0.05491369192
696.875 -0.025633608 -0.1007066952
697.5 0.03831813885 -0.09464704469
698.125 0.05142260889 -0.05806856662
698.75 0.03838562581 -0.03218042005
699.375 0.05753444651 -0.02964480492
700.0 0.0825521297 -0.01264094467
700.625 0.05535166468 0.03517226413
701.25 0.04963931789 0.04022002841
701.875 0.09104659805 0.03292943583
702.5 0.1386982796 -0.04069570265
703.125 0.07637022 -0.05625943009
703.75 -0.01837392151 -0.08534372904
704.375 -0.04574432339 -0.05697942045
705.0 -0.02040627272 -0.0831179516
705.625 0.01929070779 -0.07980272398
706.25 0.04787978275 -0.02531701129
706.875 0.04439133254 0.03209529531
707.5 0.01252417565 0.0719200628
708.125 -0.02164618452 0.08903582891
708.75 -0.07957307238 0.05489349294
709.375 -0.08954548121 0.01093832681
710.0 -0.07347523267 -0.02820375777
710.625 -0.07284802848 -0.04356620228
711.25 -0.04088406484 -0.08589132436
711.875 -0.06991393358 -0.07152423513
712.5 -0.06893685121 -0.01228372375
713.125 -0.03781271012 0.04609589613
713.75 -0.05084499453 0.01511019699
714.375 -0.0539572385 0.04780134247
715.0 -0.03068331699 0.04686299295
715.625 -0.02956528002 0.06261388076
716.25 -0.06029538794 0.07230927108
716.875 -0.111697819 0.01417796083
717.5 -0.08234039777 -0.04141777736
718.125 -0.06691537346 -0.04467507475
718.75 -0.07178527417 -0.03416857436
719.375 -0.01517031572 -0.08245003873
720.0 0.007053378684 -0.07705575331
720.625 0.04375503477 -0.04789318304
721.25 0.04885757237 8.84738454e-07
721.875 -0.02214787246 0.02968157986
722.5 -0.06134192573 0.02236460047
723.125 -0.05664975173 0.05470179998
723.75 0.01682349232 0.07963968819
724.375 0.05732630671 0.07448809073
725.0 0.0848876707 0.005083763639
725.625 0.06585719606 -0.0377600876
726.25 0.05966933718 -0.03259921214
726.875 0.04335998643 -0.02964089725
727.5 0.04155229798 0.006829457254
728.125 0.0211124532 0.06819935957
728.75 0.001024118186 0.06505950286
729.375 0.03054275731 0.02088561573
730.0 0.0323742471 0.06184820728
730.625 0.01132473536 0.04632439668
731.25 -0.01158018771 0.04216124472
731.875 -0.0371924701 0.02663607913
732.5 -0.05085005781 0.00346760876
733.125 -0.04616219298 -0.03541361994
733.75 -0.03312737836 -0.003119927641
734.375 -0.006055508918 0.006386518547
735.0 -0.05842430582 -0.04680423861
735.625 -0.0470393154 -0.02300577026
736.25 -0.03496028458 -0.02771069259
736.875 -0.03367783336 -0.0276508581
737.5 -0.08757759169 -0.04349194184
738.125 -0.06342947791 -0.02699318002
738.75 -0.04553052795 -0.008563590072
739.375 -0.0106247105 -0.01087329859
740.0 0.004523980232 -0.02273304482
740.625 -0.03112097115 -0.05010856688
741.25 -0.03864336924 -0.03616492949
741.875 0.005573023006 -0.03804327858
742.5 0.01305829585 0.01909719341
743.125 0.01891759107 0.05139218646
743.75 -0.00674719172 0.04598742571
744.375 -0.03094940692 0.01790825652
745.0 -0.05041003351 0.006783314736
745.625 -0.0334231344 0.06369521322
746.25 0.01661035245 0.08886281473
746.875 0.04513368181 0.05176909275
747.5 0.02190788238 0.01522553235
748.125 0.02758236446 0.0004724993905
748.75 0.02381056045 0.004044290278
749.375 0.02200540099 -0.0251855288
750.0 0.001827856046 -0.02755392259
