!Created with skrf (http://scikit-rf.org).
# GHz S RI R 50.0 
!freq ReS11 ImS11
500.0 -0.01559517839 0.02560143783
500.625 0.01877960868 0.03058061747
501.25 0.03449232302 0.01940790663
501.875 0.01625461505 0.02835423503
502.5 0.001761656304 0.05870359116
503.125 0.03133662266 0.02253336597
503.75 0.04250830211 0.004136304792
504.375 0.04712216815 0.001185588101
505.0 0.06183490943 -0.01954421537
505.625 0.04178080576 -0.06071495528
506.25 0.03473634649 -0.05629192006
506.875 0.06347759311 -0.04415085046
507.5 0.05325270952 -0.03795297933
508.125 0.07005965964 -0.02483634433
508.75 0.04049166637 -0.05197249444
509.375 0.02381755972 -0.04696271331
510.0 0.06362285041 -0.03654055047
510.625 -0.01255205808 -0.06468545422
511.25 -0.03691257217 -0.04681725066
511.875 -0.05013235341 -0.01261836385
512.5 -0.03640246701 -0.003084701023
513.125 -0.009484674014 0.03755329699
513.75 -0.02226388771 0.03822815989
514.375 -0.02221955185 0.06528586735
515.0 0.03554156216 0.06217003191
515.625 -0.0308537908 0.08682932128
516.25 0.02743952471 0.1031045053
516.875 -0.04846511659 0.1183990296
517.5 0.03609226546 0.104421782
518.125 -0.04092654964 0.1266838177
518.75 0.02971860201 0.04518350011
519.375 -0.002109830864 0.08659756609
520.0 0.06246463571 0.04429360588
520.625 0.06281671411 0.03699216664
521.25 0.06176454487 0.01900581977
521.875 0.0358664241 0.04874848493
522.5 0.06731959037 -0.00108551478
523.125 0.113871337 -0.03083736359
523.75 0.1032692607 -0.05169323015
524.375 0.0585678184 -0.02455297139
525.0 0.01001865666 -0.01795989409
525.625 0.001798295406 0.008979728956
526.25 0.00773671947 0.04211239574
526.875 0.01655489223 0.04192877352
527.5 0.01914394205 0.007431113853
528.125 0.0310007963 0.0008810197971
528.75 0.0526972619 -0.01164013677
529.375 0.05344132263 -0.03994612831
530.0 0.02149628316 -0.02338837008
530.625 0.01177034501 -0.07596310822
531.25 0.01585047918 -0.1546733375
531.875 -0.05518089492 -0.1545887981
532.5 -0.08495169371 -0.06590954699
533.125 -0.06722449434 -0.03775582525
533.75 -0.07348180181 -0.05380287188
534.375 -0.07654965631 -0.04637257903
535.0 -0.05244613821 0.001758115897
535.625 -0.02863079647 -0.02581019593
536.25 -0.03354875302 -0.03594093298
536.875 -0.04407852541 -0.06397444256
537.5 -0.04543004346 -0.08339946202
538.125 -0.06880171278 -0.05841291005
538.75 -0.0588904513 -0.03272197958
539.375 -0.04031861949 -0.05109107818
540.0 -0.0341977972 -0.05758245431
540.625 -0.05460522861 -0.09891769148
541.25 -0.04041288178 -0.08438168042
541.875 -0.0483338513 -0.08394285716
542.5 -0.05209018428 -0.09294696575
543.125 -0.0893848173 -0.05814727992
543.75 -0.09854623903 0.01789179059
544.375 -0.07015621973 0.04024054952
545.0 -0.01058657544 0.04611073892
545.625 -0.009701208327 0.05437437048
546.25 0.01453674721 0.07089766033
546.875 0.0205158607 0.07130094193
547.5 0.02191865475 0.05830068502
548.125 0.004856946111 0.06786215771
548.75 -0.007406051193 0.06931855901
549.375 -0.02278722822 0.08197382288
550.0 -0.01215679618 0.0267204156
550.625 -0.009147718825 0.0007285575917
551.25 -0.01517822908 -0.0274289704
551.875 -0.05981083713 -0.03878471554
552.5 -0.05286939751 -0.04216608205
553.125 -0.06202475016 -0.02498202193
553.75 -0.07730316663 -0.0230026008
554.375 -0.1008070924 0.01254665494
555.0 -0.07391855304 0.0176463616
555.625 -0.06952384242 0.02910686876
556.25 -0.08512373378 0.02092671442
556.875 -0.09255391717 0.01858299805
557.5 -0.08840771995 0.03504367442
558.125 -0.07443566062 0.02720940592
558.75 -0.06609113342 0.009726445708
559.375 -0.04901219821 0.002308668047
560.0 -0.01127567213 -0.002755876563
560.625 -0.02723013495 -0.02944743536
561.25 -0.05264376964 -0.03469621148
561.875 -0.07994863305 -0.01699675596
562.5 -0.06908252592 0.01842160243
563.125 -0.0647886484 0.04882773939
563.75 -0.05138589818 0.08315626487
564.375 -0.02314940633 0.09170567474
565.0 -0.01347423573 0.06269187031
565.625 -0.01270757604 0.05893588551
566.25 -0.03554477529 0.04215611433
566.875 -0.05448841887 0.02823652214
567.5 -0.06037146876 0.02139447836
568.125 -0.06062974026 0.01145465329
568.75 -0.0412651077 0.002544382558
569.375 -0.03019574517 -0.01143064191
570.0 -0.02725902564 -0.02926422982
570.625 -0.03846292476 -0.04357023301
571.25 -0.04075144702 -0.03393954338
571.875 -0.05398013248 -0.03235949331
572.5 -0.08724233978 -0.009633691442
573.125 -0.1058803711 0.02368028803
573.75 -0.05969909897 0.05906681136
574.375 -0.03015417035 0.06739602018
575.0 -0.04433496837 0.05817776237
575.625 -0.05157801897 0.06186339329
576.25 -0.03414791673 0.0661142241
576.875 -0.003630017299 0.08155425565
577.5 -0.009622860122 0.05749467279
578.125 -0.01522614063 0.04766760861
578.75 -0.009205898319 0.0430132687
579.375 -0.009693384002 0.04237569452
580.0 -0.01489812982 0.03462618559
580.625 -0.02977905216 0.009511369685
581.25 -0.05357373086 0.009432996738
581.875 -0.06864390543 0.03241720305
582.5 -0.07357716776 0.04975174668
583.125 -0.06308542132 0.03232561314
583.75 -0.05938742074 0.02228777622
584.375 -0.06778342683 0.02231259165
585.0 -0.07735846685 0.01989021223
585.625 -0.05878219628 0.01768889552
586.25 -0.05498494482 0.009995308297
586.875 -0.05946678447 0.009410953948
587.5 -0.05656695439 0.02374366857
588.125 -0.03340963241 0.03475450388
588.75 -0.02849227426 0.0321039172
589.375 -0.03012479577 0.02694326834
590.0 -0.0334655422 0.02837181248
590.625 -0.05828037522 0.04508106254
591.25 -0.04713168918 0.07648053707
591.875 -0.0261961094 0.08734515638
592.5 0.006421389241 0.07655150598
593.125 -0.01267343834 0.05394102705
593.75 -0.02329072465 0.05643037376
594.375 -0.02720288399 0.04882000686
595.0 -0.02501331587 0.03977249498
595.625 -0.02851983903 -0.01151995067
596.25 -0.03136291558 -0.02137039976
596.875 -0.03292889876 -0.01715613471
597.5 -0.0367948986 -0.007969716056
598.125 -0.01351820796 -0.0316580062
598.75 -0.01721672045 -0.02359273959
599.375 -0.01218207675 -0.03448416406
600.0 -0.0216724886 -0.04509976863
600.625 -0.02489965244 -0.07367296325
601.25 -0.0347777938 -0.07720773511
601.875 -0.05190160068 -0.0437259334
602.5 -0.05703120234 -0.01670400214
603.125 -0.0359635925 -0.05375322425
603.75 -0.02964666498 -0.02881815289
604.375 -0.02022691716 -0.01980123459
605.0 -0.006251533888 -0.03722486126
605.625 -0.01354877386 -0.04054932088
606.25 -0.00822085345 -0.04155053441
606.875 -0.004141862929 -0.0220297627
607.5 0.006060506419 -0.006878135789
608.125 0.01378713759 -0.009511841807
608.75 0.02654024576 -0.02494287069
609.375 0.022919937 -0.015271275
610.0 0.04266800719 -0.01100724884
610.625 0.04096731822 -0.01539248231
611.25 0.05225676302 -0.0254186958
611.875 0.05350171158 -0.02290344563
612.5 0.03840843862 -0.01369422485
613.125 0.001547105207 -0.0122123066
613.75 0.03463533186 0.01800085579
614.375 0.03299363332 0.02319633321
615.0 0.02946403849 0.02100474672
615.625 0.005930058493 0.004540819108
616.25 0.01535641758 0.0193388281
616.875 0.02108592446 0.03519360412
617.5 0.0336333512 0.03995736852
618.125 0.006088296521 0.02216949658
618.75 0.02937406305 0.03825356682
619.375 0.02825888332 0.0467850956
620.0 0.03326379386 0.03679885826
620.625 0.01876663143 0.002031963412
621.25 0.03473086716 0.01216690585
621.875 0.001273216043 -0.00597669179
622.5 -0.02269685284 0.01295764872
623.125 -0.03440820328 0.03916660348
623.75 -0.01054615767 0.06539963324
624.375 -0.02223308899 0.05348606134
625.0 -0.04494615412 0.03076324067
625.625 -0.04493515032 0.04528357404
626.25 -0.04180091549 0.05506731915
626.875 -0.01844553535 0.06426215391
627.5 -0.01018011945 0.04751086856
628.125 -0.02318719963 0.02860423781
628.75 -0.02961396703 0.003138789258
629.375 -0.02171242246 0.02762165132
630.0 -0.01500676558 0.01959989276
630.625 0.001471040631 -0.01670323839
631.25 -0.003392200713 -0.03465843671
631.875 -0.006100897709 -0.04174687485
632.5 -0.01752012785 -0.04602670455
633.125 -0.01676703765 -0.05858019802
633.75 -0.02133222852 -0.06898489478
634.375 -0.05027811691 -0.03993360317
635.0 -0.05023170944 -0.0462539628
635.625 -0.04425150946 -0.04161395013
636.25 -0.03341052718 -0.02444479092
636.875 -0.0164107242 -0.05004202336
637.5 -0.04604161215 -0.04359416296
638.125 -0.05030767555 -0.03470877109
638.75 -0.02954583275 -0.02186605461
639.375 0.01634494477 -0.03275630486
640.0 0.01973564857 -0.0301663533
640.625 0.03844509322 -0.03021491836
641.25 0.03976271602 -0.03475750012
641.875 0.06139792365 -0.02530677226
642.5 0.0526833476 -0.008609720007
643.125 0.05376876022 0.004630586126
643.75 0.05993784312 -0.0001551281335
644.375 0.0650909507 -0.005658827653
645.0 0.03791138735 -0.009873795457
645.625 0.02950802272 -0.0008053616882
646.25 0.05082199512 0.01671298652
646.875 0.08187817644 0.03067715566
647.5 0.05222831976 -0.007510446792
648.125 0.0436844033 0.01119469149
648.75 0.05029649164 0.04659018013
649.375 0.04922074746 0.0767123439
650.0 0.05103226616 0.05601790151
650.625 0.04021431057 0.0615887273
651.25 0.01166410823 0.07445299768
651.875 -0.01853089966 0.0662482474
652.5 -0.02679651857 0.05404201873
653.125 -0.01995725506 0.04108783154
653.75 -0.03409146182 0.01338516486
654.375 -0.03483180328 -0.03148261417
655.0 -0.01699183389 -0.02660861525
655.625 -0.04219612725 -0.04921217865
656.25 -0.07636251196 -0.05865642679
656.875 -0.07675733523 -0.03586917565
657.5 -0.08219537158 -0.04501384603
658.125 -0.07956682247 -0.03400545105
658.75 -0.09775491991 -0.0161469497
659.375 -0.08461089399 0.02148512967
660.0 -0.07574392219 0.04164547693
660.625 -0.03336230736 0.04010304411
661.25 -0.03691608178 0.0266371752
661.875 -0.02820816299 0.03352731114
662.5 -0.04486933911 0.038895425
663.125 -0.05694758543 0.01857182191
663.75 -0.05479281742 -0.0207956735
664.375 -0.05312067778 -0.05446726151
665.0 -0.03375362889 -0.08363318071
665.625 0.007725919694 -0.09478470191
666.25 0.02261412153 -0.08411540864
666.875 0.04005168809 -0.0959247025
667.5 0.03638242098 -0.07670360091
668.125 0.04296040442 -0.05710817603
668.75 0.0273403598 -0.04269322607
669.375 0.04342658 -0.031460584
670.0 0.0623054535 -0.03318805144
670.625 0.06734349094 -0.02454888321
671.25 0.05290782805 -0.03424593753
671.875 0.05945565579 -0.04344239715
672.5 0.04790078816 -0.0968552561
673.125 0.02188017056 -0.09617367786
673.75 -0.00604342121 -0.09144693721
674.375 0.02207264348 -0.09538343558
675.0 0.03365635718 -0.04538530831
675.625 0.05400692539 -0.03559886986
676.25 0.05796104195 -0.01834819262
676.875 0.07388510945 0.01095848251
677.5 0.02447431792 0.03015425339
678.125 0.03261016401 0.04284037789
678.75 0.04504237442 0.06941249069
679.375 0.06051467562 0.09852073318
680.0 0.06034659528 0.0873153777
680.625 0.06646767792 0.04934192499
681.25 0.09062638342 0.02720508064
681.875 0.1116706357 0.0004284421278
682.5 0.09272351487 -0.03619717571
683.125 0.06415114311 -0.03743527607
683.75 0.06499793789 -0.01145741171
684.375 0.05242618666 0.04438975779
685.0 0.01529581958 0.05690409201
685.625 -0.0333669165 0.05236690648
686.25 -0.0573316953 0.002017219123
686.875 -0.07423351192 -0.03031330683
687.5 -0.0910518182 -0.03545523847
688.125 -0.1193950432 -0.05013614963
688.75 -0.08643426769 -0.06377140515
689.375 -0.07494400825 -0.05053408781
690.0 -0.0776589116 -0.04064835554
690.625 -0.1107759661 -0.04137274647
691.25 -0.06450814086 -0.0222964681
691.875 -0.04787426688 0.01706218445
692.5 -0.03010469825 0.02610656574
693.125 -0.03002686149 0.07447223969
693.75 0.0005900108273 0.1202516819
694.375 0.01427280686 0.09511163444
695.0 -0.01933242589 0.08996777326
695.625 -0.0829344658 0.06417062273
696.25 -0.1209676262 -0.03657889335
696.875 -0.02723302915 -0.09531709665
697.5 0.02810662352 -0.09787011454
698.125 0.0472192926 -0.07809209736
698.75 0.03555294408 -0.0570056897
699.375 0.05080161585 -0.02245625525
700.0 0.07262517318 -0.001196180664
700.625 0.06965417236 0.02289135385
701.25 0.06454765922 0.01931906956
701.875 0.07982449333 0.03979247388
702.5 0.1275953151 -0.01490561956
703.125 0.080402031 -0.08307676045
703.75 -0.03015388901 -0.08981773177
704.375 -0.0458192346 -0.05309426756
705.0 -0.03295076664 -0.08228875632
705.625 0.02674194684 -0.0686564704
706.25 0.04215492094 -0.04501517104
706.875 0.05506350608 0.00687220545
707.5 0.0005154913287 0.07357493532
708.125 -0.04263663191 0.08236132573
708.75 -0.06176285019 0.07507795219
709.375 -0.0840547443 0.04670111033
710.0 -0.07077427091 -0.03389941984
710.625 -0.070965337 -0.04402518129
711.25 -0.07034569899 -0.07170606547
711.875 -0.09194223887 -0.06057764046
712.5 -0.06485072505 -0.01692107965
713.125 -0.04344465724 0.02951963603
713.75 -0.0286518339 0.04037863032
714.375 -0.01695059345 0.07178129393
715.0 -0.03745017941 0.0534462754
715.625 -0.02599580699 0.06216505536
716.25 -0.06982865655 0.072984924
716.875 -0.1150461821 0.03699360307
717.5 -0.09687131104 -0.005464809969
718.125 -0.06350790052 -0.05348266871
718.75 -0.06011756749 -0.06288411947
719.375 -0.042487324 -0.07403918297
720.0 0.003260897947 -0.08147567474
720.625 0.04639211483 -0.04453351168
721.25 0.04161587397 0.02306394914
721.875 -4.240921171e-05 0.03457726691
722.5 -0.02114117521 0.03171042503
723.125 -0.06538443991 0.05938705541
723.75 -0.01640452595 0.1084724796
724.375 0.06640628066 0.05205305472
725.0 0.06044508472 -0.02516068424
725.625 0.07309090764 -0.0336736492
726.25 0.05888962044 -0.03598131008
726.875 0.05046804319 -0.02686737589
727.5 0.04644828589 -0.0008897806378
728.125 0.0308154007 0.01860707378
728.75 -0.003864592169 0.08340060795
729.375 0.03442837404 0.06162071289
730.0 0.03308337501 0.03367348056
730.625 0.01605570235 0.03869541911
731.25 -0.01835311404 0.04756918963
731.875 -0.04189664624 0.03204397771
732.5 -0.06270431506 0.004611955418
733.125 -0.051650563 -0.01543634344
733.75 -0.03622739068 -0.0095697106
734.375 -0.03417759389 -0.03114285987
735.0 -0.04373147663 -0.02065898606
735.625 -0.002009181819 -0.007695478393
736.25 -0.04931158406 -0.009778797092
736.875 -0.06376904369 -0.01955503836
737.5 -0.07111645056 -0.03294779091
738.125 -0.06768708657 -0.01962628115
738.75 -0.05164909991 -0.01633301971
739.375 -0.01957367468 -0.01936634998
740.0 -0.01505819874 -0.03472103082
740.625 -0.02181448513 -0.03341066731
741.25 -0.00643573542 -0.0179634142
741.875 0.00239784389 -0.06472047071
742.5 0.03902102776 -0.0007597626969
743.125 0.00198947762 0.03754081559
743.75 -0.03356050763 0.0148181481
744.375 -0.02669993648 0.04577717385
745.0 -0.02909309054 0.0448585432
745.625 -0.03790006983 0.05368588185
746.25 -0.02400861191 0.0706228619
746.875 0.06867104666 0.0513135635
747.5 0.04640491561 0.002637047593
748.125 0.01843881653 0.002854920103
748.75 0.0226644103 0.001236838019
749.375 0.03065948659 -0.002791451456
750.0 -0.01860749243 -0.03213580512
