!Created with skrf (http://scikit-rf.org).
# GHz S RI R 50.0 
!freq ReS11 ImS11
500.0 -0.008257303655 0.02531881255
500.625 0.02490506172 0.02440016452
501.25 0.02487145946 0.03243180548
501.875 0.03911116003 0.004083335683
502.5 0.01414470799 0.02940556651
503.125 0.02775839271 0.0320032592
503.75 0.0430995855 0.01252665754
504.375 0.0446403793 -0.001132259769
505.0 0.04017638281 -0.02541562663
505.625 0.05441819704 -0.04620269908
506.25 0.04993226349 -0.04777125397
506.875 0.05671790625 -0.04835214797
507.5 0.04491004607 -0.05096522197
508.125 0.08028141743 -0.007076362665
508.75 0.02175998011 -0.07209008614
509.375 0.01470127465 -0.04837317026
510.0 0.05340293957 -0.04688294411
510.625 -0.005851620505 -0.06824008153
511.25 -0.04211234835 -0.04968349927
511.875 -0.04906969134 -0.01060490669
512.5 -0.03390312128 0.006324220099
513.125 -0.0170772021 0.03187050689
513.75 0.001824139144 0.04328276541
514.375 0.005406257665 0.04494271726
515.0 0.01567322181 0.07627433392
515.625 -0.0545361747 0.09790761006
516.25 0.05153635141 0.07991872331
516.875 -0.01909606058 0.1155593293
517.5 0.05577123175 0.1004748017
518.125 -0.07790575157 0.1184498546
518.75 0.03028016321 0.04674533908
519.375 0.01133506961 0.06599304176
520.0 0.05061327899 0.05858770195
520.625 0.06200488791 0.05514604141
521.25 0.06360771042 0.01534357398
521.875 0.0431528131 0.03155845189
522.5 0.07055092449 0.001201243488
523.125 0.1310105445 -0.005580059974
523.75 0.09701554045 -0.1093976697
524.375 0.06640027886 -0.04139990126
525.0 0.006019593862 -0.0003229270769
525.625 0.006982216662 0.02109617006
526.25 0.01121468177 0.03897564228
526.875 0.01848728636 0.03827918725
527.5 0.02506899118 0.02074617107
528.125 0.04643753419 0.00529150131
528.75 0.04105395794 -0.01771808885
529.375 0.03656357617 -0.03547887003
530.0 0.02547290241 -0.03300844216
530.625 0.006568473186 -0.05720267557
531.25 0.009772285179 -0.1455227666
531.875 -0.05919657982 -0.1498798888
532.5 -0.08949829932 -0.07934008794
533.125 -0.08280690485 -0.05786711476
533.75 -0.07495349557 -0.05168868529
534.375 -0.06890151014 -0.03714777338
535.0 -0.06614668445 -0.01694640197
535.625 -0.03788352527 -0.0389404118
536.25 -0.03492149084 -0.03152077976
536.875 -0.04540631523 -0.05270118312
537.5 -0.05477586322 -0.09165015241
538.125 -0.06708735288 -0.03887702973
538.75 -0.06192491498 -0.02823854128
539.375 -0.04161862945 -0.04700432113
540.0 -0.0496049163 -0.07709144128
540.625 -0.06081608728 -0.08853362905
541.25 -0.04275795717 -0.07899694768
541.875 -0.04926624563 -0.07026222177
542.5 -0.06400635469 -0.09848852974
543.125 -0.09594767379 -0.056450215
543.75 -0.0979474113 0.02396393141
544.375 -0.06028297316 0.04109352561
545.0 -0.02658301572 0.05952688334
545.625 -0.01183940103 0.06807513174
546.25 0.01953001493 0.04965583576
546.875 0.02427440585 0.05495697548
547.5 0.01917924935 0.08251210113
548.125 0.01457615994 0.06806815362
548.75 -0.002584932563 0.06855715174
549.375 -0.01552983051 0.07272048904
550.0 -0.03682988906 0.03539753799
550.625 -0.02330018373 0.006529485974
551.25 -0.001719232522 -0.02460085718
551.875 -0.04823070505 -0.03975301341
552.5 -0.06861643399 -0.04304528094
553.125 -0.07308229632 -0.01862187712
553.75 -0.0760351821 -0.02108763988
554.375 -0.08787505683 0.00505013844
555.0 -0.09079194402 0.02784894903
555.625 -0.07851603096 0.0403754359
556.25 -0.0660351285 0.01688577775
556.875 -0.08510136597 0.02002030953
557.5 -0.08331260589 0.03723878291
558.125 -0.08154837781 0.03446257206
558.75 -0.0508456927 0.01356129784
559.375 -0.03990398151 0.004132441139
560.0 -0.02491848796 -0.001062419302
560.625 -0.04169621798 -0.02260540592
561.25 -0.04936100287 -0.03410814712
561.875 -0.06817130889 -0.02000292611
562.5 -0.06742117108 0.02081851988
563.125 -0.06544016279 0.06554571119
563.75 -0.05106609242 0.08474803553
564.375 -0.02179982798 0.08448728831
565.0 -0.01463595408 0.07735693169
565.625 -0.008221594212 0.07424689334
566.25 -0.03483479133 0.04394455473
566.875 -0.04556612286 0.02126107941
567.5 -0.05294928839 0.02180076499
568.125 -0.06905945695 0.0225054373
568.75 -0.04447545898 0.008265526316
569.375 -0.03010775254 -0.009538237943
570.0 -0.0247592064 -0.02665318998
570.625 -0.05217958708 -0.03715221415
571.25 -0.0306923743 -0.0357889747
571.875 -0.05237372342 -0.03128687979
572.5 -0.07901587695 -0.009259747627
573.125 -0.1102785816 0.03948370527
573.75 -0.05774052162 0.06401636357
574.375 -0.03150355163 0.06040630013
575.0 -0.03708901619 0.05959183697
575.625 -0.04612610151 0.08094868261
576.25 -0.03018906851 0.06545576824
576.875 -0.01008613016 0.077236394
577.5 -0.0005342755234 0.07297840791
578.125 -0.01072907006 0.06334436161
578.75 -0.01165076356 0.03003725364
579.375 -0.01217092021 0.03409127145
580.0 -0.01314933682 0.03028451211
580.625 -0.02398431193 0.02312194165
581.25 -0.05391930531 -0.001565565366
581.875 -0.06574681303 0.03269569053
582.5 -0.07165138898 0.05075921804
583.125 -0.05871062159 0.05002000886
583.75 -0.05655308437 0.04312464356
584.375 -0.06635156998 0.02515995943
585.0 -0.07333161246 0.005165850788
585.625 -0.0602345739 0.02935045225
586.25 -0.05305494516 0.0171396798
586.875 -0.05774278891 0.01022935325
587.5 -0.05459152307 0.02347218763
588.125 -0.02814791487 0.04602724503
588.75 -0.01734173409 0.04667173706
589.375 -0.03012171104 0.03018631387
590.0 -0.04595354594 0.02055423826
590.625 -0.04038706453 0.05259557216
591.25 -0.02532982983 0.08259397952
591.875 -0.03752901666 0.08558324401
592.5 -0.009986383258 0.0709424246
593.125 0.007657436579 0.06260830418
593.75 -0.00113684093 0.06572303647
594.375 -0.02760206197 0.05100268135
595.0 -0.03376009591 0.03221704774
595.625 -0.029512539 0.01041125013
596.25 -0.03660199083 -0.001254478842
596.875 -0.02932922572 -0.03113574936
597.5 -0.03101039882 -0.02954059522
598.125 -0.02461044404 -0.01861539053
598.75 -0.009839526104 -0.03750073264
599.375 -0.0128685577 -0.03443893463
600.0 -0.02336440964 -0.04719843726
600.625 -0.03535788204 -0.0630037599
601.25 -0.04926771242 -0.05788919429
601.875 -0.05452846031 -0.04325905751
602.5 -0.05829804498 -0.04043803016
603.125 -0.05444274488 -0.0296278318
603.75 -0.04389261947 -0.009396460976
604.375 -0.009888487485 -0.03190214626
605.0 -0.008671058539 -0.04129323537
605.625 -0.01209320374 -0.04431020167
606.25 -0.01768888674 -0.03817251848
606.875 -0.005739106993 -0.02088355683
607.5 0.005083722143 -0.008716699103
608.125 0.0164279273 -0.01982652077
608.75 0.008389515535 -0.007872252315
609.375 0.04897237007 -0.02565652049
610.0 0.05229381908 -0.01209597265
610.625 0.04516275493 -0.01511045116
611.25 0.03995103837 -0.0243038989
611.875 0.05953492297 -0.01902078048
612.5 0.03927001643 -0.01753202317
613.125 0.02767032999 -0.006401710281
613.75 0.01493852726 0.005031151339
614.375 0.006155664217 0.01160636198
615.0 0.04729163703 0.02891167638
615.625 0.0330896185 0.01568822374
616.25 0.02066487429 0.02035822373
616.875 -0.002632563771 0.0285994682
617.5 0.03373169702 0.04116518752
618.125 0.03564768083 0.02984565199
618.75 0.0241402716 0.03023956226
619.375 0.006512020977 0.02965347401
620.0 0.0373432436 0.03645788203
620.625 0.04193938522 0.005916466272
621.25 0.0266515947 -0.003133350513
621.875 -0.009484623497 -0.02052978059
622.5 -0.01969470958 0.009956433717
623.125 -0.005137874058 0.04032717075
623.75 -0.01833648782 0.05925278041
624.375 -0.0424911894 0.0423272466
625.0 -0.02881290304 0.05721960721
625.625 -0.03823439589 0.05751195524
626.25 -0.03682726505 0.06475853357
626.875 -0.01863516344 0.05510566455
627.5 -0.01321917156 0.058628223
628.125 -0.02295632676 0.03203185686
628.75 -0.02804311693 0.01347669637
629.375 -0.01760770175 0.0170717961
630.0 -0.008969706351 -0.001118562709
630.625 -0.00486600019 -0.0124721954
631.25 -0.007914494376 -0.02490474644
631.875 -0.003203470737 -0.04959323055
632.5 -0.02668850201 -0.04173693317
633.125 -0.02014316015 -0.05867736195
633.75 -0.03246155908 -0.04380643423
634.375 -0.03115459682 -0.05678055142
635.0 -0.04206985742 -0.06812842672
635.625 -0.07048318585 -0.01757233917
636.25 -0.04195807755 -0.0161284928
636.875 -0.02392767474 -0.04158401686
637.5 -0.03294610857 -0.05574844544
638.125 -0.03905123352 -0.04595423868
638.75 -0.03384945183 -0.02017028558
639.375 -0.0004619041922 -0.01619672254
640.0 0.04009018989 -0.02357667713
640.625 0.05605302005 -0.02308805505
641.25 0.02958171342 -0.03785459943
641.875 0.04441691499 -0.02831372382
642.5 0.06467649918 -0.001332530027
643.125 0.05165022829 -0.01175935958
643.75 0.05957699923 -0.005397992311
644.375 0.06298019857 -0.01003841329
645.0 0.04575773729 -0.002823760198
645.625 0.04534526377 0.01194054405
646.25 0.0498605429 0.0121645525
646.875 0.05978816944 0.006939230154
647.5 0.0627492977 0.008688218364
648.125 0.05814398823 0.01653126365
648.75 0.04260901582 0.02224587455
649.375 0.05183960701 0.05187643566
650.0 0.05098496933 0.06178578939
650.625 0.04393781425 0.07243635808
651.25 0.0337691845 0.0537318317
651.875 -0.007762141355 0.06591898157
652.5 -0.01980557103 0.05613336127
653.125 -0.02689339344 0.04365490303
653.75 -0.009466354356 0.02767497341
654.375 -0.02162658147 -0.02110549479
655.0 -0.02735473364 -0.0405216361
655.625 -0.05779552569 -0.05510084986
656.25 -0.05854837214 -0.02884243441
656.875 -0.06952433756 -0.0260479577
657.5 -0.08023353891 -0.03477708708
658.125 -0.09131280976 -0.04067483685
658.75 -0.1112227195 -0.02372932504
659.375 -0.08440105587 0.02670488501
660.0 -0.05836538235 0.04248670526
660.625 -0.05444543723 0.04036827216
661.25 -0.05853865977 0.02988565222
661.875 -0.01798795471 0.0318250684
662.5 -0.03708864291 0.03329269232
663.125 -0.06901268943 0.02793814304
663.75 -0.06675249917 -0.01630840507
664.375 -0.05409624512 -0.0498229087
665.0 -0.03345591789 -0.07146372734
665.625 -0.000808541112 -0.1149305037
666.25 0.02078258335 -0.08327112873
666.875 0.02994070281 -0.08227139917
667.5 0.04328784298 -0.08254415261
668.125 0.05639494064 -0.07585923767
668.75 0.01690480897 -0.03971854782
669.375 0.03339489973 -0.03194288588
670.0 0.05508238566 -0.03494869709
670.625 0.07828606856 -0.03457009185
671.25 0.04230304938 -0.03317186169
671.875 0.05454253424 -0.04255092759
672.5 0.04361141514 -0.09229971003
673.125 0.01701713916 -0.1093580312
673.75 -0.007444697762 -0.08372372544
674.375 0.01176863902 -0.07583046935
675.0 0.05056264456 -0.06197560795
675.625 0.06102369356 -0.04586113775
676.25 0.05992716052 -0.02105063289
676.875 0.05054375714 0.003114735256
677.5 0.04098921336 0.02772676184
678.125 0.0432051655 0.03897325813
678.75 0.04532714423 0.0609500366
679.375 0.06247468056 0.08909765824
680.0 0.06348715815 0.08125747228
680.625 0.07723234345 0.05258584327
681.25 0.1092766252 0.0223696441
681.875 0.1159641084 -0.001922363126
682.5 0.07755128656 -0.03491673811
683.125 0.05604906864 -0.04543277488
683.75 0.07742837909 -0.02204363281
684.375 0.05672717737 0.0368451882
685.0 0.02099466324 0.05713305306
685.625 -0.0213641646 0.04706953099
686.25 -0.06325200581 0.01632971707
686.875 -0.07910572593 -0.01835679946
687.5 -0.09055900712 -0.03468390277
688.125 -0.1133627936 -0.04704876513
688.75 -0.1055973432 -0.0654492606
689.375 -0.0894917855 -0.04933634915
690.0 -0.08169168499 -0.04119794103
690.625 -0.09385872829 -0.0440029509
691.25 -0.09600821786 -0.02634991175
691.875 -0.05997293289 0.02932080426
692.5 -0.02597168944 0.0186495795
693.125 -0.03034470166 0.06192392842
693.75 0.004811136636 0.1122312375
694.375 0.02879250502 0.09894516808
695.0 -0.004807630199 0.1009589902
695.625 -0.08406506898 0.07132339374
696.25 -0.1075056746 -0.04404832706
696.875 -0.04283375346 -0.1037164349
697.5 0.01743000668 -0.1147464881
698.125 0.04048154552 -0.05382904635
698.75 0.0354864457 -0.04215635574
699.375 0.05178620859 -0.04076862968
700.0 0.07601968012 -0.0216698037
700.625 0.07001651048 0.01841825654
701.25 0.06088758194 0.02689980018
701.875 0.09201044163 0.01722351249
702.5 0.1312483152 -0.05163179339
703.125 0.08223810879 -0.07676332739
703.75 -0.02210554427 -0.08372971549
704.375 -0.04914357386 -0.05088732746
705.0 -0.06293496279 -0.07600378936
705.625 0.01211418449 -0.08501920126
706.25 0.04310874774 -0.04700683663
706.875 0.05537285417 0.00391590088
707.5 0.03133293734 0.06587781863
708.125 -0.01523129451 0.08974006421
708.75 -0.06189450158 0.07737100522
709.375 -0.08746121382 0.03758199423
710.0 -0.08648396707 -0.01214436344
710.625 -0.08331857605 -0.02627325628
711.25 -0.07517637371 -0.07067962438
711.875 -0.08762896488 -0.05431807407
712.5 -0.07758150042 -0.009641548658
713.125 -0.039496705 0.04738171073
713.75 -0.02386790682 0.04909831675
714.375 -0.05069699202 0.05747269768
715.0 -0.01894099531 0.05817365312
715.625 -0.004511648061 0.05808101688
716.25 -0.06632942108 0.06578423634
716.875 -0.110299535 0.03433124122
717.5 -0.09864782731 -0.01398339622
718.125 -0.07969450118 -0.02535130753
718.75 -0.07594315232 -0.03393669557
719.375 -0.02289209828 -0.08912507135
720.0 0.005593986501 -0.07958493231
720.625 0.04596587389 -0.04542240499
721.25 0.05547001685 -0.00103701652
721.875 0.002101994018 0.03125302323
722.5 -0.02251345795 0.03650018289
723.125 -0.04294749234 0.06127261806
723.75 0.01874195212 0.08767558503
724.375 0.06531614588 0.06424629445
725.0 0.09067490071 -0.002674752159
725.625 0.07362843256 -0.03594959032
726.25 0.04701907392 -0.05509630025
726.875 0.05605774982 -0.01987351875
727.5 0.04909123781 0.002457414919
728.125 0.04080552192 0.02228599599
728.75 0.01959473714 0.05878052253
729.375 0.03746860543 0.02921610496
730.0 0.04541650834 0.04943969072
730.625 0.01972030112 0.05887269178
731.25 -0.01937647643 0.05361299669
731.875 -0.01639316425 0.02394684485
732.5 -0.07294600966 -0.005424502651
733.125 -0.0569263578 -0.01503244468
733.75 -0.04699527535 -0.01625757561
734.375 -0.01942327583 0.001679320644
735.0 -0.04869049257 -0.01566181898
735.625 -0.04901850685 -0.002528936352
736.25 -0.03186322369 -0.003282021612
736.875 -0.02800564219 -0.0272295067
737.5 -0.09636208392 -0.02989588645
738.125 -0.07936448026 -0.02827705913
738.75 -0.05950046571 -0.0198400708
739.375 0.003330841925 0.005427976584
740.0 -0.01686575778 -0.05635805061
740.625 -0.02586433489 -0.03516066996
741.25 -0.02298330028 -0.01888034305
741.875 0.003397725293 -0.02944924668
742.5 0.01144281074 0.01997420469
743.125 0.01233387829 0.03346256918
743.75 -0.01357965108 0.02228078675
744.375 -0.02645771722 0.02837116062
745.0 -0.04237856794 0.03390413854
745.625 -0.03529279638 0.05692616584
746.25 0.01531599697 0.07248603113
746.875 0.04811930183 0.04465094268
747.5 0.03012397691 0.01396729049
748.125 0.04673113166 -0.01542379538
748.75 0.02528035206 -0.007209455139
749.375 0.02395935864 -0.009862187451
750.0 -0.008484905622 -0.02673254282
