!Created with skrf (http://scikit-rf.org).
# GHz S RI R 50.0 
!freq ReS11 ImS11
500.0 -0.02479936006 0.02650156694
500.625 0.0234242906 0.02534208792
501.25 0.03110410001 0.01600281834
501.875 0.01973420544 0.0283830318
502.5 0.003612617948 0.06126937367
503.125 0.02902832149 0.03064682021
503.75 0.03942787552 0.008921304459
504.375 0.04382808799 -0.001771321161
505.0 0.05690163647 -0.02297038856
505.625 0.04422077619 -0.05559216896
506.25 0.0297979021 -0.06090128601
506.875 0.05750344006 -0.04061916239
507.5 0.04436901546 -0.0491877894
508.125 0.07299089918 -0.0256556279
508.75 0.04605943123 -0.05277683242
509.375 0.03357188639 -0.0462368791
510.0 0.05116440127 -0.04401829631
510.625 -0.01118484046 -0.06241023754
511.25 -0.03424867294 -0.05217417637
511.875 -0.04968382851 -0.01372872818
512.5 -0.03511907599 0.002028808586
513.125 -0.01535258397 0.03530717688
513.75 -0.02172835336 0.04032552799
514.375 -0.02002136153 0.07040536253
515.0 0.04041395453 0.05662614339
515.625 -0.01970167183 0.08796007795
516.25 0.03619420145 0.09506106958
516.875 -0.05296911339 0.1254646471
517.5 0.05149871576 0.1004522955
518.125 -0.03208887599 0.1223837259
518.75 0.02671629803 0.05016053296
519.375 0.003043898305 0.0824356215
520.0 0.05898247756 0.04974745864
520.625 0.06528977742 0.02906978023
521.25 0.06338682653 0.01744398939
521.875 0.03773663021 0.05394791135
522.5 0.06882976721 -0.01131761705
523.125 0.1174158052 -0.03304473978
523.75 0.1081170907 -0.06569734729
524.375 0.06973255879 -0.01517729012
525.0 0.01272998855 -0.01992793513
525.625 0.002222008794 0.01335186026
526.25 0.01439754376 0.03979649952
526.875 0.01974345685 0.03890877126
527.5 0.0203799258 0.00914154394
528.125 0.0311861724 4.930970474e-05
528.75 0.05065148689 -0.01689489006
529.375 0.04891076716 -0.04180083933
530.0 0.02087472661 -0.02744017111
530.625 0.002810789767 -0.08055548853
531.25 0.009851956737 -0.1614033595
531.875 -0.05820919044 -0.1509212383
532.5 -0.08937758385 -0.06713112581
533.125 -0.07029350051 -0.03677325464
533.75 -0.07887788775 -0.05787732175
534.375 -0.07662643146 -0.04266373425
535.0 -0.05370135747 0.00462104652
535.625 -0.03026401608 -0.01920406293
536.25 -0.03476712764 -0.03231805928
536.875 -0.04528678575 -0.05567974884
537.5 -0.05034560082 -0.08235864778
538.125 -0.07580385349 -0.05781674162
538.75 -0.0612649119 -0.02861223174
539.375 -0.04391697392 -0.04768278536
540.0 -0.04190557995 -0.06279490385
540.625 -0.06647487599 -0.1035312073
541.25 -0.04599066292 -0.08727560187
541.875 -0.04894389142 -0.07312186448
542.5 -0.05737162761 -0.09045053758
543.125 -0.09682838493 -0.05845515548
543.75 -0.09697287009 0.02371741034
544.375 -0.06824351675 0.04375256232
545.0 -0.007161881763 0.04866382072
545.625 -0.004156042521 0.05318427679
546.25 0.01934804513 0.06559323532
546.875 0.02820897436 0.0769746066
547.5 0.0253511522 0.06426330283
548.125 0.007968407226 0.07404374749
548.75 -0.003318241398 0.07040758933
549.375 -0.01585833519 0.0824012733
550.0 -0.01214352938 0.03097402788
550.625 -0.007195358802 0.002585895367
551.25 -0.01346294823 -0.02306644717
551.875 -0.05756707807 -0.0342065114
552.5 -0.06223893263 -0.04284563927
553.125 -0.06544806575 -0.0218442439
553.75 -0.07905264937 -0.0199820128
554.375 -0.09901932414 0.01628816599
555.0 -0.07683400133 0.02213321681
555.625 -0.06765775301 0.03068737487
556.25 -0.08101499836 0.02641606075
556.875 -0.09463828858 0.02580702352
557.5 -0.08578226507 0.03775446333
558.125 -0.07655138602 0.03245448947
558.75 -0.06286362944 0.01523266578
559.375 -0.05046159225 0.005825760089
560.0 -0.01731899351 -0.0008783051299
560.625 -0.02524136894 -0.02547142713
561.25 -0.05343150027 -0.03105668588
561.875 -0.08229540432 -0.01173117097
562.5 -0.06459825846 0.01731420477
563.125 -0.06230802031 0.04978164169
563.75 -0.05231250351 0.08949522766
564.375 -0.02066353642 0.09240803776
565.0 -0.01258067681 0.07191511295
565.625 -0.01008476629 0.05707957094
566.25 -0.03542845093 0.04738853533
566.875 -0.05617522788 0.03683834837
567.5 -0.05561745992 0.02192981763
568.125 -0.06198266359 0.01751673288
568.75 -0.04676290387 0.007026838235
569.375 -0.03039621824 -0.008857946682
570.0 -0.02832545336 -0.02597342853
570.625 -0.03646727805 -0.04249511123
571.25 -0.038918246 -0.03134681267
571.875 -0.05698445258 -0.02612941211
572.5 -0.08259382994 -0.01128003601
573.125 -0.1059706576 0.02957019042
573.75 -0.05890068494 0.06550292991
574.375 -0.0239677316 0.07225810559
575.0 -0.04131946146 0.05233975969
575.625 -0.05022266603 0.06560994773
576.25 -0.02583386259 0.06728060139
576.875 -0.0007939601163 0.08050371827
577.5 -0.00761046955 0.05794918081
578.125 -0.01531236029 0.04744323992
578.75 -0.006835918085 0.04017041886
579.375 -0.004031247882 0.04816684297
580.0 -0.01234759986 0.03259255562
580.625 -0.0256795065 0.01485880631
581.25 -0.04813802036 0.01520170144
581.875 -0.06684567328 0.03279565559
582.5 -0.07154871786 0.05254708304
583.125 -0.05901789414 0.04177795878
583.75 -0.05842330581 0.0294329103
584.375 -0.06625617541 0.03007881724
585.0 -0.07767197704 0.02522217833
585.625 -0.05916199816 0.02695841737
586.25 -0.05568868141 0.0219950063
586.875 -0.05913696615 0.01115482556
587.5 -0.05734615027 0.02472523689
588.125 -0.03034841243 0.04341990451
588.75 -0.02366557797 0.03941420592
589.375 -0.02571761921 0.03209528505
590.0 -0.03136677591 0.03027081073
590.625 -0.05324085198 0.04837985078
591.25 -0.04424824215 0.07906777805
591.875 -0.0263987281 0.0878537854
592.5 0.01303280408 0.07893442899
593.125 -0.00872478958 0.05664948508
593.75 -0.01823933949 0.06221444683
594.375 -0.02347189197 0.05494750262
595.0 -0.02577322377 0.03993607295
595.625 -0.03015677701 -0.008169979166
596.25 -0.03582642002 -0.02432857379
596.875 -0.03358574398 -0.01911323735
597.5 -0.03883424001 -0.0003872626557
598.125 -0.01801456627 -0.02220941054
598.75 -0.01801108225 -0.0177199129
599.375 -0.01310261844 -0.03531227109
600.0 -0.02314122123 -0.04346243395
600.625 -0.03066647696 -0.07062729512
601.25 -0.04103055166 -0.07369270963
601.875 -0.05593698403 -0.03951026339
602.5 -0.05805316337 -0.01328749673
603.125 -0.04115839172 -0.05313972458
603.75 -0.0323612197 -0.02958685639
604.375 -0.02173073786 -0.01736612362
605.0 -0.01513457823 -0.0313588807
605.625 -0.01646853764 -0.04238741149
606.25 -0.01171007633 -0.04158998938
606.875 -0.01470828784 -0.02134482833
607.5 -0.0004192999082 -0.006281935528
608.125 0.01768020346 -0.0174855508
608.75 0.02479308809 -0.02668592966
609.375 0.02701816595 -0.01570766288
610.0 0.03595167712 -0.01118362243
610.625 0.04255235931 -0.01760525888
611.25 0.04832513606 -0.02623845978
611.875 0.04240877653 -0.02226969342
612.5 0.03541127887 -0.0159238324
613.125 0.003614632687 -0.01326031847
613.75 0.03369367815 0.01269447904
614.375 0.03613088581 0.02117482837
615.0 0.03487201153 0.02101571593
615.625 0.002030643292 0.004139197957
616.25 0.02362049697 0.02155808621
616.875 0.02987373955 0.03228558761
617.5 0.03172066978 0.03349459538
618.125 0.008324621181 0.0231187785
618.75 0.04218538121 0.04382895999
619.375 0.03343452421 0.04453147598
620.0 0.03368630083 0.03180520129
620.625 0.02631950572 0.002640207203
621.25 0.03069465982 0.00231275588
621.875 0.01197555267 -0.0001278681281
622.5 -0.02446843303 0.008559749276
623.125 -0.04336737781 0.04074810927
623.75 0.005155714288 0.06678351854
624.375 -0.02034641604 0.05465017456
625.0 -0.04095117423 0.03588386317
625.625 -0.0488679346 0.0419071628
626.25 -0.03714708958 0.05871229741
626.875 -0.01488668153 0.06115543868
627.5 -0.01651182496 0.04147396583
628.125 -0.02360384257 0.02810150473
628.75 -0.02919602563 0.01136995028
629.375 -0.01944136144 0.02229032936
630.0 -0.01293284274 0.02335304299
630.625 -0.004714053252 -0.01064222885
631.25 -0.01339749579 -0.02551733921
631.875 -0.007562398815 -0.0421275964
632.5 -0.01409368384 -0.05357202677
633.125 -0.01654380291 -0.061046454
633.75 -0.02457822156 -0.06711366393
634.375 -0.04910002267 -0.03817009039
635.0 -0.05093038026 -0.04163063178
635.625 -0.05174090264 -0.03830735262
636.25 -0.03660285568 -0.02807421843
636.875 -0.02050828829 -0.04616196328
637.5 -0.04251928766 -0.05478846535
638.125 -0.04719422654 -0.03754331412
638.75 -0.03471436235 -0.02007202
639.375 0.01056873115 -0.03117971595
640.0 0.02344696133 -0.02807046421
640.625 0.03842541347 -0.03025801473
641.25 0.03567511581 -0.03742915602
641.875 0.05516145762 -0.02752177473
642.5 0.05804184276 -0.01221636598
643.125 0.06048923238 0.00584473324
643.75 0.05997715584 -0.005790889498
644.375 0.06279411991 -0.01084942143
645.0 0.0412843441 -0.01049027501
645.625 0.02922507576 -0.001375985407
646.25 0.0532368489 0.017510306
646.875 0.0865117843 0.02495150226
647.5 0.05238950411 -0.01122098222
648.125 0.04058463174 0.00293053191
648.75 0.05196075108 0.0363890901
649.375 0.05813359692 0.08023095619
650.0 0.05360351579 0.04626629788
650.625 0.04384701737 0.06159350433
651.25 0.02162773715 0.07372542516
651.875 -0.0184176296 0.07374760095
652.5 -0.02380783769 0.05680587142
653.125 -0.02082013383 0.04511038403
653.75 -0.02823854902 0.02417385049
654.375 -0.03586831927 -0.02725663428
655.0 -0.01860155486 -0.02750201131
655.625 -0.04314331436 -0.041321844
656.25 -0.07509282184 -0.04669446684
656.875 -0.08070691764 -0.03235752982
657.5 -0.08062714332 -0.03911054941
658.125 -0.09165828083 -0.03557321566
658.75 -0.1033012787 -0.01902901078
659.375 -0.08510870548 0.02432833037
660.0 -0.0739039488 0.04616872108
660.625 -0.03736296584 0.04279133888
661.25 -0.03830595285 0.0299403666
661.875 -0.02408518231 0.03735948096
662.5 -0.04010461178 0.04047733689
663.125 -0.05876134129 0.02475753675
663.75 -0.0635653003 -0.01994579676
664.375 -0.05360072357 -0.04869797905
665.0 -0.03112809314 -0.07357875321
665.625 9.549525134e-05 -0.0907115368
666.25 0.0202857122 -0.08755447977
666.875 0.03570237486 -0.09812153817
667.5 0.02550075704 -0.07196486305
668.125 0.03916874995 -0.06435673457
668.75 0.02295318562 -0.04626546755
669.375 0.04380606855 -0.03698126396
670.0 0.05000977583 -0.03625858451
670.625 0.06315404384 -0.02803843153
671.25 0.05123124564 -0.04164496086
671.875 0.05851640325 -0.04732100353
672.5 0.04299367063 -0.09684842542
673.125 0.01556098783 -0.09996603642
673.75 -0.00907829468 -0.09144083269
674.375 0.01497445745 -0.1012466168
675.0 0.03107005694 -0.04946492095
675.625 0.04976339459 -0.03815050742
676.25 0.06447019952 -0.02246222162
676.875 0.08066286231 -0.001038587083
677.5 0.02364547812 0.02089351352
678.125 0.03204088413 0.03970508774
678.75 0.05409121573 0.06405902303
679.375 0.06478876002 0.08996484805
680.0 0.06287736785 0.0832846974
680.625 0.07541726975 0.04800772071
681.25 0.08978500194 0.02390477566
681.875 0.1206177241 -0.005337792045
682.5 0.09872312748 -0.04390546105
683.125 0.05744004936 -0.04184460873
683.75 0.06438253727 -0.01627318248
684.375 0.06557142222 0.04128261009
685.0 0.02275303339 0.06093674565
685.625 -0.0259991458 0.04924765592
686.25 -0.05994607755 0.0132012448
686.875 -0.08080991708 -0.02196991035
687.5 -0.08939106159 -0.03379435424
688.125 -0.1174385352 -0.04410086721
688.75 -0.1022212967 -0.06444748409
689.375 -0.08383264102 -0.05046534158
690.0 -0.08493592733 -0.04060786467
690.625 -0.1125811275 -0.03597481368
691.25 -0.07546381866 -0.01999386417
691.875 -0.0469402014 0.01983905338
692.5 -0.02758544019 0.02792372727
693.125 -0.01855213782 0.07664787619
693.75 0.006968051194 0.117338387
694.375 0.022986296 0.09582073478
695.0 -0.01014778333 0.09737777931
695.625 -0.07955332806 0.07591111988
696.25 -0.123977249 -0.03071609968
696.875 -0.02402799427 -0.09182715631
697.5 0.02440501488 -0.09876985104
698.125 0.04153123719 -0.07682817129
698.75 0.03287608421 -0.06217952296
699.375 0.05231645845 -0.03835790937
700.0 0.07524200945 -0.01722427033
700.625 0.07161637751 0.02066335945
701.25 0.06479123065 0.01778126667
701.875 0.08526238416 0.02811473875
702.5 0.1281890471 -0.02667267545
703.125 0.08323302449 -0.08480299108
703.75 -0.03877109918 -0.09337130922
704.375 -0.04031003003 -0.04961703851
705.0 -0.04644307186 -0.07696498954
705.625 0.01548640411 -0.08162552689
706.25 0.04215432599 -0.04717588996
706.875 0.0563663073 0.004609134511
707.5 0.01559505831 0.06937842716
708.125 -0.0332901107 0.08468408101
708.75 -0.05682612787 0.08299992572
709.375 -0.08415819734 0.04753323773
710.0 -0.073776729 -0.03039356064
710.625 -0.07273800924 -0.04358778799
711.25 -0.08174039983 -0.06963062905
711.875 -0.091110982 -0.05893536102
712.5 -0.07734890613 -0.01206414795
713.125 -0.0435147104 0.04025643012
713.75 -0.01622461448 0.05224809039
714.375 0.001548955745 0.0733666839
715.0 -0.03981066039 0.05204508105
715.625 -0.02422427699 0.06252474243
716.25 -0.05106746765 0.07744023014
716.875 -0.1144285437 0.04147801165
717.5 -0.096958847 -0.006463152393
718.125 -0.06783234785 -0.04985763579
718.75 -0.06376284662 -0.06220210039
719.375 -0.04091376045 -0.07505413458
720.0 -0.01181650179 -0.08390903291
720.625 0.05367840166 -0.04435583562
721.25 0.04329760482 0.02809484816
721.875 0.003213537258 0.03493672549
722.5 -0.02119201165 0.03323492819
723.125 -0.05382949144 0.06214336575
723.75 -0.007083930487 0.1094743571
724.375 0.06618909767 0.05172312864
725.0 0.05459407146 -0.03067612126
725.625 0.08261081923 -0.03194508409
726.25 0.05531480501 -0.04442528305
726.875 0.0443209971 -0.03841175755
727.5 0.04451683172 -0.01184001623
728.125 0.03593073938 0.0208065905
728.75 0.009165011178 0.07641546212
729.375 0.03797386917 0.05747443685
730.0 0.04367252862 0.03615778765
730.625 0.01848492502 0.02869043512
731.25 -0.0226869325 0.05771634574
731.875 -0.04862267405 0.03761767762
732.5 -0.05008091055 0.006366578921
733.125 -0.05503966278 -0.01300734867
733.75 -0.04593673424 -0.0184787347
734.375 -0.04838945709 -0.03487962983
735.0 -0.03961361028 -0.006162689563
735.625 -0.003659496084 -0.005364811569
736.25 -0.06328782659 -0.0001577573068
736.875 -0.06714266357 -0.01171517208
737.5 -0.07802328005 -0.02747943287
738.125 -0.06046318091 -0.01631609647
738.75 -0.06265138234 -0.02473033611
739.375 -0.03356824758 -0.02497112887
740.0 -0.00654610735 -0.02830788133
740.625 -0.02200468492 -0.03267955975
741.25 -0.01471758633 -0.01741546726
741.875 -0.003712444582 -0.06016649614
742.5 0.04115386671 -0.003790692981
743.125 0.005143190765 0.02882564189
743.75 -0.02466466476 0.02388482509
744.375 -0.03313376231 0.0370545152
745.0 -0.03058451106 0.03776477762
745.625 -0.03118653005 0.05659601523
746.25 -0.01445038183 0.07164687398
746.875 0.07692516408 0.05150132212
747.5 0.0535555366 0.001103624448
748.125 0.03122997201 0.0003048935972
748.75 0.02287377163 -0.001838444191
749.375 0.02541888717 -0.007767835869
750.0 -0.01126943923 -0.0286049563
