!Created with skrf (http://scikit-rf.org).
# GHz S RI R 50.0 
!freq ReS11 ImS11
500.0 -0.004858419222 0.01425767725
500.625 0.01931849108 0.01773813238
501.25 0.02188542233 -0.002946311295
501.875 0.0140628888 -0.002547937095
502.5 0.00413624949 0.0047850154
503.125 0.02283174074 0.01619192171
503.75 0.03927383478 0.001845538146
504.375 0.02365028076 -0.01818666958
505.0 0.010986941 -0.02712437182
505.625 0.02651568962 -0.0493008304
506.25 0.0300287721 -0.06921757323
506.875 0.009333449105 -0.08001898262
507.5 0.01355000605 -0.05921786599
508.125 0.03469592136 -0.06012343092
508.75 0.005622243079 -0.07457679704
509.375 -0.01089900671 -0.0555646401
510.0 0.02288681702 -0.05540591537
510.625 -0.03955159919 -0.04439418508
511.25 -0.05711103489 -0.04335651359
511.875 -0.04888494295 0.0241232657
512.5 -0.01642946339 0.03687067452
513.125 0.007165481288 0.04794875058
513.75 0.01159875998 0.04665858432
514.375 0.02805379009 0.03395189941
515.0 0.05724242358 0.03076970257
515.625 0.0116771302 0.1222853457
516.25 0.07268635462 0.0625432235
516.875 0.01868955223 0.1150212748
517.5 0.09657393399 0.08399814562
518.125 -0.006899425169 0.1866713296
518.75 0.07244969004 0.008364201458
519.375 0.05367893677 0.02875452812
520.0 0.09302160426 0.02523026876
520.625 0.1030121626 0.025618637
521.25 0.06531322019 -0.03570566769
521.875 0.0632249078 0.009615975689
522.5 0.08735925073 -0.0380510749
523.125 0.1550551878 -0.07345062024
523.75 0.1137553194 -0.1530317125
524.375 0.1238774748 -0.1312844004
525.0 0.03916044127 -0.0467137945
525.625 0.03353372452 -0.008132796691
526.25 0.0336256346 -0.007567195134
526.875 0.03890904793 -0.0127328473
527.5 0.03333157038 -0.0200712127
528.125 0.0332319562 -0.03588987188
528.75 0.003556186499 -0.04327960597
529.375 -0.0296991433 -0.05609233235
530.0 -0.02508801585 -0.02754072916
530.625 -0.02983359473 -0.0295845505
531.25 -0.06892802964 -0.08624545545
531.875 -0.1158967694 -0.07806078423
532.5 -0.1342162708 -0.01582760808
533.125 -0.1084875256 0.01081471675
533.75 -0.07222792587 0.03127015417
534.375 -0.08160918447 0.0172908532
535.0 -0.06981898962 0.0438205533
535.625 -0.06938703401 0.01286863729
536.25 -0.03718723261 0.02639633516
536.875 -0.06621791913 -0.01341160466
537.5 -0.07772565334 -0.0343661108
538.125 -0.09587836112 0.006428336527
538.75 -0.08377628359 0.03006298008
539.375 -0.06291597217 0.004569585258
540.0 -0.07224273609 -0.007085136883
540.625 -0.1136880115 -0.01604631867
541.25 -0.1027520283 -0.03249090633
541.875 -0.08257737053 -0.03306581536
542.5 -0.08079616569 -0.03871501073
543.125 -0.1270131203 0.006786490335
543.75 -0.09147730662 0.08303998569
544.375 -0.03901225615 0.08346818019
545.0 0.03554919568 0.07117853696
545.625 0.06683689819 0.08634999936
546.25 0.07017252351 0.04253923578
546.875 0.07437860703 0.0381775811
547.5 0.08915429617 0.04549964673
548.125 0.09324132599 0.08971469435
548.75 0.05874709231 0.0767112781
549.375 0.05562057705 0.07268932314
550.0 0.02823925797 0.09478366925
550.625 0.001262339991 0.080802387
551.25 -0.003237039321 0.02185578482
551.875 -0.01796067807 0.008924555388
552.5 -0.04960746964 0.03886708769
553.125 -0.0600270179 0.04171609825
553.75 -0.04964622015 0.01727891776
554.375 -0.05047324628 0.04337726598
555.0 -0.0453778652 0.07674701176
555.625 -0.04000530897 0.09027897235
556.25 -0.04391103309 0.06225609444
556.875 -0.05551296036 0.07793881188
557.5 -0.0619244731 0.08611064793
558.125 -0.06042892567 0.08820940441
558.75 -0.05484240068 0.05886571798
559.375 -0.03967835263 0.0597313815
560.0 -0.03111357237 0.04419323057
560.625 -0.02728561093 0.036060823
561.25 -0.03054904568 0.008430160795
561.875 -0.05152282195 0.03689421789
562.5 -0.03950068997 0.06156737401
563.125 -0.008115976951 0.082906603
563.75 0.007638912051 0.08357697798
564.375 0.03061341179 0.09682602778
565.0 0.03769592786 0.09459386528
565.625 0.05653885789 0.07844192401
566.25 0.01688094104 0.06283061791
566.875 -0.01354418433 0.07943713814
567.5 -0.03245269251 0.07046040258
568.125 -0.0386108508 0.07281536788
568.75 -0.04697515946 0.07881993646
569.375 -0.03515036676 0.04667924093
570.0 -0.02976541273 0.01944141884
570.625 -0.03847834282 0.02885909968
571.25 -0.04534014429 0.01942559395
571.875 -0.03767239543 0.01820356595
572.5 -0.04957263702 0.03699090907
573.125 -0.05161236752 0.07888469907
573.75 -0.006866701692 0.1146750691
574.375 0.02072708669 0.07786517155
575.0 0.02630408404 0.06196272045
575.625 0.0332639989 0.08562350159
576.25 0.004554749497 0.08158270168
576.875 0.02802485707 0.07695300431
577.5 0.05018033788 0.06254823103
578.125 0.06817733576 0.07465340686
578.75 0.03009561067 0.06060789509
579.375 0.03668431141 0.05039234117
580.0 0.04418782889 0.04685319805
580.625 0.02723014368 0.04056582582
581.25 -0.001055232725 0.03472202174
581.875 -0.01954323456 0.04361346497
582.5 -0.01611436711 0.07706816453
583.125 -0.01376154912 0.08457213571
583.75 0.0007702569368 0.07694908945
584.375 -0.03141624242 0.0550422268
585.0 -0.04912733611 0.06659223649
585.625 -0.03970283055 0.07433030784
586.25 -0.01808408429 0.06758742557
586.875 -0.02409347745 0.05717362533
587.5 -0.02800262506 0.0723378427
588.125 0.008324907026 0.07248788009
588.75 0.03898143295 0.05877573413
589.375 0.02736399859 0.04310964115
590.0 0.002179254501 0.04116495017
590.625 -0.002132015672 0.04743865838
591.25 0.02331506921 0.05651511548
591.875 0.02501246467 0.09145522622
592.5 0.05027923938 0.08173356056
593.125 0.04342605983 0.06004950972
593.75 0.05445606141 0.04990279021
594.375 0.007267050492 0.08090637995
595.0 -0.01416196308 0.07046807014
595.625 -0.01770026665 0.04512836895
596.25 -0.01246028612 0.04764758043
596.875 -0.05028585422 0.02005149087
597.5 -0.0465600823 0.02234444113
598.125 -0.03215235101 0.02894449165
598.75 -0.01773761622 0.02668752523
599.375 -0.02671945277 0.004604913352
600.0 -0.03303695279 -0.01513041248
600.625 -0.04407900762 -0.02241474885
601.25 -0.055300945 -0.007239860268
601.875 -0.07830716413 -0.0225668799
602.5 -0.07286013897 -0.002270869466
603.125 -0.07427244363 0.002226205498
603.75 -0.06305032117 0.01922480765
604.375 -0.0483370176 0.000959602761
605.0 -0.03690835336 -0.01324699047
605.625 -0.04942279182 -0.03668497015
606.25 -0.05364251033 -0.03691198178
606.875 -0.04931037674 -0.01363030341
607.5 -0.02655929851 -0.01856205984
608.125 -0.01749455908 -0.004674721107
608.75 -0.01253717126 -0.001070185348
609.375 -0.004996304998 -0.02239723738
610.0 0.009177896095 -0.02248172917
610.625 0.01834464402 -0.04203497182
611.25 0.0255641525 -0.04510549394
611.875 0.02145061405 -0.04070987671
612.5 0.0430444244 -0.05276601909
613.125 0.03406118658 -0.04459701426
613.75 0.0202313903 -0.02331709339
614.375 0.009118952077 -0.001831111394
615.0 0.05812642003 -0.02972826277
615.625 0.03618890586 -0.02168616956
616.25 0.01226405462 -0.007193095773
616.875 0.01805395089 0.01017587149
617.5 0.07083204847 -0.007305213978
618.125 0.05904718687 0.001958307232
618.75 0.03901772154 0.008546005184
619.375 0.03019601883 0.02645766877
620.0 0.08898962812 0.01277353281
620.625 0.077291278 -0.01849990527
621.25 0.04754279627 -0.02002006898
621.875 0.007372216587 -0.01417879211
622.5 0.01817557089 -0.02760110348
623.125 -0.001306143381 0.007924802038
623.75 0.01225450148 0.03712767793
624.375 -0.01131057853 0.05044132854
625.0 -0.01001602198 0.04582446244
625.625 -0.01135474041 0.05084717623
626.25 0.01035495181 0.06672890327
626.875 0.01792880946 0.07585986901
627.5 0.003443383538 0.06104446911
628.125 0.01708336887 0.06299786264
628.75 0.009041226906 0.06552486408
629.375 -0.0147080841 0.05164328741
630.0 -0.02033746229 0.03196135078
630.625 -0.008836336387 0.03545331547
631.25 -0.02010616129 0.001649145458
631.875 -0.02592281455 -0.006788063028
632.5 -0.0349160418 -0.02242288297
633.125 -0.04150442059 -0.002287633815
633.75 -0.0541462005 0.003358072029
634.375 -0.05955521872 -0.007841874753
635.0 -0.07531350359 -0.01958337583
635.625 -0.0753787122 0.01624192036
636.25 -0.06567846122 0.0147494284
636.875 -0.04321996789 0.0003248033823
637.5 -0.0657352537 -0.01227469072
638.125 -0.09141658686 -0.02105402387
638.75 -0.0701464231 0.01196939018
639.375 -0.04563555688 0.00919409188
640.0 -0.01780284137 -0.02846559486
640.625 0.01605852386 -0.0745740645
641.25 -0.01663622784 -0.04986717426
641.875 -0.007889344782 -0.04725796877
642.5 0.01281923331 -0.05877217942
643.125 0.05158766877 -0.05810770465
643.75 0.03461169064 -0.05088540936
644.375 0.01803348367 -0.05986952634
645.0 0.01968553168 -0.07318993482
645.625 0.039792646 -0.05591341027
646.25 0.009646235053 -0.03503932648
646.875 0.03516951731 -0.04204301969
647.5 0.0384017042 -0.06033129415
648.125 0.05345077898 -0.04539179779
648.75 0.03916486917 -0.01767099182
649.375 0.06385955932 0.0003090583135
650.0 0.09087045949 0.008787928069
650.625 0.08014874544 0.02549673601
651.25 0.07327956512 0.03725030143
651.875 0.06246580404 0.07297426493
652.5 0.02763729349 0.08539574018
653.125 0.02319562693 0.07839367939
653.75 0.02555570145 0.06599810372
654.375 0.0001934503757 0.04806505682
655.0 -0.03118773156 0.02064414205
655.625 -0.05158771651 0.01445489926
656.25 -0.05263388958 0.02813801013
656.875 -0.06895003236 0.05400718283
657.5 -0.07399990396 0.02578215229
658.125 -0.08235356072 0.02568390533
658.75 -0.09595970632 0.07280888402
659.375 -0.06103820842 0.09562637461
660.0 -0.01704664427 0.09055218299
660.625 0.003829764655 0.08868792122
661.25 0.01309736547 0.1104813019
661.875 0.03473112776 0.05950205014
662.5 0.03142721638 0.04706365631
663.125 0.01886506983 0.05725290185
663.75 -0.03719465154 0.07308778196
664.375 -0.05878764158 0.01462725724
665.0 -0.07512810344 -0.01635982938
665.625 -0.0878015831 -0.04280841536
666.25 -0.05116275642 -0.06441678496
666.875 -0.03106823981 -0.08780619862
667.5 -0.03814048708 -0.09237581475
668.125 -0.05669594092 -0.1134043439
668.75 -0.04157671597 -0.07058307048
669.375 -0.01845938827 -0.06751055263
670.0 -0.009291552994 -0.06967813798
670.625 -0.008791314072 -0.09433335966
671.25 -0.01323923398 -0.08910464966
671.875 -0.01949253576 -0.06521322002
672.5 -0.03070381047 -0.06266074438
673.125 -0.07267592338 -0.0828685288
673.75 -0.06575111389 -0.06088500984
674.375 -0.06781591725 -0.07258320976
675.0 -0.04068008905 -0.08954109245
675.625 -0.0003407145339 -0.1074083887
676.25 0.01629732079 -0.06914184769
676.875 0.02967560381 -0.07821937443
677.5 0.03684900211 -0.07522593158
678.125 0.04954547398 -0.03075189637
678.75 0.05406604394 -0.01313482602
679.375 0.06884853137 -0.00268208778
680.0 0.1138689091 -0.01483724208
680.625 0.1057925775 -0.01346847591
681.25 0.08930837253 -0.05907872312
681.875 0.06573241338 -0.07341903186
682.5 0.04382520268 -0.1354049558
683.125 0.03054999152 -0.1257756093
683.75 0.03539584557 -0.09316633444
684.375 0.07985147101 -0.07084164794
685.0 0.08436029949 0.01079789393
685.625 0.06798138383 0.05981240888
686.25 0.02059736491 0.06660855147
686.875 -0.01915608004 0.06869710669
687.5 -0.0667443566 0.03812960501
688.125 -0.08420743034 0.04331262027
688.75 -0.1108874515 0.05308181809
689.375 -0.1332444323 0.05064315637
690.0 -0.09061989082 0.01864234864
690.625 -0.09370036853 0.04201564764
691.25 -0.08350789337 0.1029925802
691.875 -0.04244634532 0.1506611984
692.5 0.02993576647 0.05515603456
693.125 0.06101482639 0.01811815048
693.75 0.09203260618 0.008567557416
694.375 0.116872504 0.03157361466
695.0 0.08529818059 0.06071038892
695.625 -0.001966650441 0.08121606305
696.25 -0.08861713304 0.06065595671
696.875 -0.1174673599 -0.03443913051
697.5 -0.07614086664 -0.1022698851
698.125 -0.04956278385 -0.1016965973
698.75 -0.03497974989 -0.08981454612
699.375 -0.02912944149 -0.07795285193
700.0 -0.0120518945 -0.08871578668
700.625 0.03712659178 -0.07506937885
701.25 0.05574760699 -0.03599813314
701.875 0.04778674006 -0.04554056076
702.5 0.02104018575 -0.100841635
703.125 -0.004279635059 -0.1438154614
703.75 -0.1157289892 -0.08429262765
704.375 -0.1067424595 0.01494728532
705.0 -0.09521413511 0.02163816572
705.625 -0.1308152109 -0.02774747877
706.25 -0.02658774903 -0.09373720146
706.875 0.03465020716 -0.06185194173
707.5 0.04897338836 -0.03119183112
708.125 0.07561092002 0.0130011403
708.75 0.007246911608 0.08551262226
709.375 -0.03595647133 0.08168558939
710.0 -0.05843217522 0.05879837898
710.625 -0.07919824215 0.04591522959
711.25 -0.1022684823 -0.00912597002
711.875 -0.1246713783 0.03582447517
712.5 -0.1020690686 0.08740798508
713.125 0.00767429282 0.1156285931
713.75 0.04709830773 0.06092989305
714.375 0.08425363765 0.02533888112
715.0 0.08174707842 0.02674220355
715.625 0.05351403995 0.03216152684
716.25 0.03260902426 0.04659701363
716.875 -0.008760146384 0.09179805759
717.5 -0.09846439533 0.06836002361
718.125 -0.08645036647 0.03702690618
718.75 -0.0625743556 0.04877173447
719.375 -0.09771765643 -0.009759911047
720.0 -0.08899425695 -0.05939471544
720.625 -0.01860269554 -0.09609807133
721.25 0.04584782666 -0.07785510068
721.875 0.06975834867 0.01419274221
722.5 0.04113201799 0.04258930633
723.125 0.04176031655 0.03130486869
723.75 0.05423485004 -0.000697844881
724.375 0.1030623547 -0.005949756385
725.0 0.03933199837 -0.06201623386
725.625 -0.0001309999609 -0.07277794197
726.25 -0.00216348068 -0.09520307054
726.875 0.009400617887 -0.08917028577
727.5 0.0292472097 -0.06579953766
728.125 0.06281976686 -0.03857825837
728.75 0.06824179898 -0.01570821484
729.375 0.0310202697 -0.0320921605
730.0 0.07356772836 -0.01334686396
730.625 0.04056395631 -0.01535086388
731.25 0.037000571 0.01976234604
731.875 0.00957518372 0.0397403522
732.5 -0.02253706822 0.04249265243
733.125 -0.07053403037 0.03956001084
733.75 -0.03451916179 0.0448260743
734.375 -0.0005053685029 0.03279185826
735.0 -0.04993780065 0.07165972268
735.625 -0.01651721918 0.06549901912
736.25 -0.003169699876 0.0287341454
736.875 -0.01440666499 -0.008023490437
737.5 -0.06794969892 0.04719060345
738.125 -0.07691273412 0.02114195983
738.75 -0.06306652652 0.02169808784
739.375 -0.03989562126 0.02424266138
740.0 -0.02623322112 0.007849003486
740.625 -0.07142838135 0.01961667434
741.25 -0.06127850699 0.02391695865
741.875 -0.05062306666 -0.01032278114
742.5 0.01579701741 -0.01505251081
743.125 0.07112440626 -0.0165305756
743.75 0.05197600843 0.01696590521
744.375 0.01648959668 0.01870384723
745.0 -0.006366842217 0.03396445753
745.625 0.02810584525 0.04378724244
746.25 0.06391891984 0.0296096958
746.875 0.08000715417 0.001111285549
747.5 0.05805191303 -0.009763406714
748.125 0.02581076378 -0.04743815373
748.75 0.005776731228 -0.04264805593
749.375 -0.03706279627 -0.03659419788
750.0 -0.04560021409 -0.005963708127
