!Created with skrf (http://scikit-rf.org).
# GHz S RI R 50.0 
!freq ReS11 ImS11
500.0 -0.01302969578 0.0262921089
500.625 0.01684310961 0.0348381442
501.25 0.03813482272 0.009926823512
501.875 0.02547823638 0.01702192482
502.5 0.009622745227 0.04400372809
503.125 0.026003274 0.04331925091
503.75 0.04194531516 0.01436376985
504.375 0.04432465971 0.001708783805
505.0 0.04962006729 -0.02274389422
505.625 0.06361936419 -0.03745747979
506.25 0.02712790739 -0.06617291075
506.875 0.05154723695 -0.04754278558
507.5 0.05322419381 -0.04069909675
508.125 0.07126269347 -0.0308656407
508.75 0.03626715535 -0.05871184557
509.375 0.03097436686 -0.05090642312
510.0 0.07812929438 -0.03011669762
510.625 -0.005937513844 -0.06572344101
511.25 -0.03419841138 -0.05200813224
511.875 -0.0444380186 -0.007763882411
512.5 -0.03265351007 0.006001930713
513.125 -0.02674049535 0.02536039693
513.75 -0.01512673256 0.0391930372
514.375 -0.006521978423 0.05546511549
515.0 -0.00123897541 0.09806793293
515.625 -0.01316161802 0.09072511686
516.25 0.03182799024 0.09200829563
516.875 -0.03148316916 0.121329823
517.5 0.03654113032 0.1029412892
518.125 -0.01624025944 0.1376909689
518.75 0.0276688368 0.0419297275
519.375 0.002808312251 0.07271191558
520.0 0.04341117459 0.06783637305
520.625 0.06702842304 0.02626059462
521.25 0.05706024124 0.01216054021
521.875 0.04043218461 0.04006331304
522.5 0.06763930713 0.01668451618
523.125 0.1143623939 -0.051762873
523.75 0.09540870009 -0.07230213903
524.375 0.06454569408 -0.02671415517
525.0 0.003613885306 0.01071002848
525.625 0.001933470098 0.01734762999
526.25 0.003478851273 0.04047575815
526.875 0.01377597348 0.03238604313
527.5 0.02535321649 0.02984571943
528.125 0.03604448729 0.004208595585
528.75 0.04314833019 -0.01053046023
529.375 0.04220960718 -0.03124404105
530.0 0.02379466212 -0.02291300448
530.625 0.009992029587 -0.07532145166
531.25 0.01540179007 -0.1597360427
531.875 -0.04826710602 -0.1392916286
532.5 -0.08485855929 -0.08220568555
533.125 -0.07200385546 -0.04855357259
533.75 -0.06518365373 -0.05415623624
534.375 -0.06725517714 -0.04059536752
535.0 -0.07090262432 -0.02802566597
535.625 -0.02785280465 -0.01914278266
536.25 -0.02927071326 -0.03734014808
536.875 -0.04060353653 -0.06325786502
537.5 -0.04289127159 -0.08121597592
538.125 -0.06655406616 -0.05550948085
538.75 -0.05542748689 -0.03452499001
539.375 -0.03142222082 -0.04593964707
540.0 -0.04952381532 -0.09360230098
540.625 -0.05430601018 -0.1035822583
541.25 -0.04026024997 -0.08671981106
541.875 -0.04617947276 -0.08450093834
542.5 -0.04649838869 -0.08553076644
543.125 -0.09234609159 -0.06270027411
543.75 -0.0989566336 0.01474136278
544.375 -0.06207959934 0.03696004799
545.0 -0.03873856012 0.06016814165
545.625 -0.005673899048 0.04699497671
546.25 0.01170740161 0.06218040443
546.875 0.01949340949 0.06081431021
547.5 0.009846716993 0.0897573244
548.125 0.004478226849 0.06878818494
548.75 -0.01330616085 0.07392444385
549.375 -0.02026427834 0.06535285381
550.0 -0.04486422639 0.02959078462
550.625 -0.005724038283 -0.001965693695
551.25 -0.00694605679 -0.03094149689
551.875 -0.04984043797 -0.04642376646
552.5 -0.07274033611 -0.05104491748
553.125 -0.06778158712 -0.02587227285
553.75 -0.07758272758 -0.02682514432
554.375 -0.09401395872 0.002778718052
555.0 -0.09694668404 0.0230613205
555.625 -0.05945795424 0.02280390639
556.25 -0.07774041503 0.01510994909
556.875 -0.08563901699 0.01576774184
557.5 -0.08577600543 0.02976878929
558.125 -0.07357583476 0.02439730579
558.75 -0.05599624578 0.004514284092
559.375 -0.03948651883 0.001201074096
560.0 -0.02785947516 -0.005072624838
560.625 -0.01441163622 -0.03106396605
561.25 -0.04651426121 -0.04155570304
561.875 -0.0706673578 -0.02173092434
562.5 -0.07532558187 0.02539615081
563.125 -0.06573725814 0.04607835869
563.75 -0.05702346849 0.07528451951
564.375 -0.0250624696 0.08197098162
565.0 -0.019678942 0.07851056989
565.625 -0.01318630373 0.04785269114
566.25 -0.0379161177 0.03262453837
566.875 -0.04798599384 0.01971987165
567.5 -0.06046873766 0.01810816612
568.125 -0.05265718707 0.005139820219
568.75 -0.0433742029 0.002969231378
569.375 -0.03048565995 -0.01446043289
570.0 -0.02132265409 -0.03319546451
570.625 -0.01956948678 -0.04717574576
571.25 -0.03440059194 -0.03767832111
571.875 -0.05356041934 -0.03265641412
572.5 -0.08773897544 -0.01331129605
573.125 -0.09987071055 0.01255245036
573.75 -0.06049653515 0.05981362434
574.375 -0.03234553395 0.05964974251
575.0 -0.03979011071 0.07373988888
575.625 -0.0519147534 0.04671290722
576.25 -0.03572576864 0.06068808391
576.875 -0.01090145668 0.074141481
577.5 0.0001485342774 0.07806354997
578.125 -0.01622999353 0.03560432385
578.75 -0.01242739516 0.03425202214
579.375 -0.01283706877 0.03283561855
580.0 -0.01780180443 0.03155834107
580.625 -0.03120558104 0.00248534309
581.25 -0.05511694849 0.002736854235
581.875 -0.07291417568 0.03026749297
582.5 -0.07518974905 0.03791222954
583.125 -0.05979340099 0.05175031265
583.75 -0.06063829669 0.02850951239
584.375 -0.07118993349 0.01690189894
585.0 -0.07210052491 0.00587903703
585.625 -0.06129987088 0.02740191155
586.25 -0.05506902364 0.01410339449
586.875 -0.05964847313 0.007802746425
587.5 -0.05524084909 0.01708792474
588.125 -0.02720674862 0.04840874606
588.75 -0.02424211876 0.03539903086
589.375 -0.03563027367 0.02310951178
590.0 -0.0439810527 0.02005170049
590.625 -0.03852333547 0.05269098303
591.25 -0.04798398801 0.07539507537
591.875 -0.03951888761 0.08110213897
592.5 -0.006984472112 0.0688880173
593.125 0.009581263951 0.06354171152
593.75 -0.01796883876 0.06280435857
594.375 -0.03245257387 0.04411285554
595.0 -0.03081817263 0.02420677748
595.625 -0.02735245137 0.0143434827
596.25 -0.02793633693 -0.0287740774
596.875 -0.02880857377 -0.02684439279
597.5 -0.02638797489 -0.02516137885
598.125 -0.02460841616 -0.01394909119
598.75 -0.0109435837 -0.03132348042
599.375 -0.01302472618 -0.03548651435
600.0 -0.01963170654 -0.05763283025
600.625 -0.02736586536 -0.07169518117
601.25 -0.03858820957 -0.06863533119
601.875 -0.05193618518 -0.04972180269
602.5 -0.0534551241 -0.03429741002
603.125 -0.05178477997 -0.02114358972
603.75 -0.01607384017 -0.03642657798
604.375 -0.01406420975 -0.02669387717
605.0 -0.004792839364 -0.03276136034
605.625 -0.003462256192 -0.04723993806
606.25 -0.009214870562 -0.03754231869
606.875 -0.008692185046 -0.01701075776
607.5 0.01187017745 -0.01079299559
608.125 0.01703034455 -0.009254642486
608.75 0.04138636401 -0.03117495097
609.375 0.03887314785 -0.01870134128
610.0 0.04763126765 -0.006612091432
610.625 0.04730463482 -0.015998142
611.25 0.05214088669 -0.02285961494
611.875 0.04780170831 -0.02008662893
612.5 0.04130499052 -0.01130677121
613.125 0.01727078291 -0.00609397366
613.75 0.003447696073 0.00331310274
614.375 0.04264039882 0.03825181023
615.0 0.04075291383 0.02950950778
615.625 0.01936053462 0.01657411345
616.25 -0.004151107408 0.01521717815
616.875 0.03933259757 0.05027331304
617.5 0.03992900969 0.04524169989
618.125 0.02175117091 0.03089087669
618.75 0.0007449730553 0.02305926363
619.375 0.03460497625 0.06075539408
620.0 0.0403512224 0.03855855911
620.625 0.03383959288 0.008800255062
621.25 0.01424079019 -0.01039558692
621.875 0.0047507125 0.001785061994
622.5 -0.01551181008 0.0126442637
623.125 -0.01919948464 0.04410463165
623.75 -0.04447329042 0.05082854449
624.375 -0.01813012354 0.06582124776
625.0 -0.03607668773 0.04075095475
625.625 -0.04813741175 0.05090090497
626.25 -0.03597991763 0.05845572763
626.875 -0.01726615224 0.06078831719
627.5 -0.01633757661 0.04266060177
628.125 -0.02055694014 0.03060184873
628.75 -0.02716644252 0.01895617128
629.375 -0.01553977881 0.007128657515
630.0 -0.01401737901 0.01307153035
630.625 -0.0009025079229 -0.02007407043
631.25 0.01029052301 -0.04627522989
631.875 -0.005181220558 -0.04503559414
632.5 -0.01608914163 -0.05409293383
633.125 -0.01517091445 -0.05541305556
633.75 -0.0255884904 -0.05388703587
634.375 -0.01772550245 -0.06828502881
635.0 -0.0615124916 -0.03813757433
635.625 -0.05093347635 -0.03218504764
636.25 -0.03774948532 -0.02378393866
636.875 -0.01502967174 -0.04378342308
637.5 -0.01764217021 -0.06574719218
638.125 -0.04159969258 -0.04366357908
638.75 -0.02674233999 -0.01915274516
639.375 0.008930279714 -0.02230000471
640.0 0.05752046478 -0.01449544321
640.625 0.04832454015 -0.02560920449
641.25 0.03253123834 -0.03459778212
641.875 0.04866389653 -0.02232127533
642.5 0.05434876941 -0.00784048624
643.125 0.05490860347 0.005367972198
643.75 0.05606467738 0.00283392568
644.375 0.0541641174 -0.009033499045
645.0 0.04459036149 0.003659630858
645.625 0.03381999498 0.008777892465
646.25 0.04504153544 0.01974771418
646.875 0.06927183927 0.02418456859
647.5 0.06553194484 0.02149095172
648.125 0.04003811218 0.004242076509
648.75 0.04073811277 0.04188044025
649.375 0.04801734981 0.06559373048
650.0 0.0433939505 0.07420958658
650.625 0.04184204864 0.05381843062
651.25 0.01483681375 0.06383075819
651.875 -0.01614200009 0.06552354274
652.5 -0.02415221443 0.0488023795
653.125 -0.02194397772 0.03909133929
653.75 -0.0240417447 0.01106134551
654.375 -0.02322187568 -0.02901613411
655.0 -0.02910330948 -0.05211762693
655.625 -0.03463260461 -0.03868078929
656.25 -0.06266370004 -0.05300188672
656.875 -0.07027231347 -0.03156664276
657.5 -0.07714860251 -0.04776855356
658.125 -0.09461049982 -0.05505380618
658.75 -0.09817240471 -0.02859102106
659.375 -0.08123479318 0.01739179678
660.0 -0.06437335174 0.03450151573
660.625 -0.06536830027 0.02906684161
661.25 -0.04432513126 0.02382224073
661.875 -0.0234878238 0.0240557746
662.5 -0.04057942351 0.02828677347
663.125 -0.05530078867 0.01692893871
663.75 -0.06048119781 -0.02557674581
664.375 -0.04892034638 -0.0594955278
665.0 -0.02771560864 -0.09552537288
665.625 0.00479894615 -0.08140385495
666.25 0.02484406674 -0.07788599548
666.875 0.04018105887 -0.08222543906
667.5 0.05975420947 -0.08971391906
668.125 0.0283948468 -0.05061509296
668.75 0.02421402295 -0.03393761677
669.375 0.04082582417 -0.02497772605
670.0 0.07591552048 -0.03483438174
670.625 0.0509129677 -0.01791730205
671.25 0.05349890596 -0.03299581548
671.875 0.06416532907 -0.04325823709
672.5 0.05450981559 -0.08269956142
673.125 0.02225880701 -0.08481020735
673.75 0.003118345344 -0.08192901464
674.375 0.01950560878 -0.08098747486
675.0 0.05996316961 -0.05877020118
675.625 0.04054359252 -0.02659729069
676.25 0.05601366556 -0.01056224445
676.875 0.05380342233 0.01409125275
677.5 0.04066799757 0.0398794071
678.125 0.02062446306 0.04198766491
678.75 0.04518859338 0.07260645729
679.375 0.06074276615 0.1043800996
680.0 0.05234780148 0.08549054061
680.625 0.07892001161 0.05844106306
681.25 0.08653944967 0.0314844118
681.875 0.1043488382 0.01204324679
682.5 0.0774231826 -0.02997315298
683.125 0.07054337271 -0.03634240643
683.75 0.05109802466 -0.003836607336
684.375 0.04936117868 0.05165980561
685.0 0.007460457399 0.05648188836
685.625 -0.03746357844 0.04528315914
686.25 -0.06985694899 0.009972177087
686.875 -0.07833799932 -0.03032003077
687.5 -0.09367389874 -0.04136570553
688.125 -0.1119213331 -0.05797376835
688.75 -0.1040031007 -0.07436033262
689.375 -0.07713934437 -0.05371108661
690.0 -0.06913868421 -0.04752548861
690.625 -0.09204263928 -0.05178115769
691.25 -0.09318810463 -0.03765738926
691.875 -0.03430424981 0.01015359621
692.5 -0.03478593339 0.01131587971
693.125 -0.03944333121 0.06234077053
693.75 -0.01614361664 0.1168497558
694.375 0.01104993934 0.09353477193
695.0 -0.01906874424 0.09446762627
695.625 -0.09227689457 0.05149504678
696.25 -0.1040559422 -0.05025105173
696.875 -0.04602760674 -0.1114094525
697.5 0.03539396843 -0.08030711716
698.125 0.04944176397 -0.05812622227
698.75 0.0367653086 -0.04155573487
699.375 0.05792483759 -0.03674935089
700.0 0.0736240422 -0.003167177699
700.625 0.06582821641 0.03068492175
701.25 0.05874051695 0.03036149185
701.875 0.09652565802 0.01934414532
702.5 0.1292357164 -0.02080581465
703.125 0.08191960688 -0.06453323923
703.75 -0.01948075457 -0.08163620302
704.375 -0.0610087091 -0.05625220121
705.0 -0.01988758886 -0.07846608443
705.625 0.02462793566 -0.07186425231
706.25 0.0479459261 -0.03771933352
706.875 0.04804655602 0.02274277089
707.5 0.03013529342 0.0673897788
708.125 -0.03727064868 0.08461834473
708.75 -0.07295660925 0.07020418265
709.375 -0.08874297355 0.02669612581
710.0 -0.08654494686 -0.01262231994
710.625 -0.05612617135 -0.06082964684
711.25 -0.05846530491 -0.08394310925
711.875 -0.08123564221 -0.0674399119
712.5 -0.07646203701 -0.009193186646
713.125 -0.03985741028 0.03316138065
713.75 -0.04343244209 0.03245620058
714.375 -0.051127262 0.05105962623
715.0 -0.01015843493 0.05771938289
715.625 -0.04705950391 0.05673500552
716.25 -0.06916870459 0.06943033984
716.875 -0.1097049245 0.03502350662
717.5 -0.08869767142 -0.02675417261
718.125 -0.07825242486 -0.02313305614
718.75 -0.05393713327 -0.06745866542
719.375 -0.02126514434 -0.08320573316
720.0 0.004352753418 -0.07198009985
720.625 0.03937663877 -0.05741177811
721.25 0.02680734787 0.03361454019
721.875 -0.007776607908 0.0324593513
722.5 -0.04709051798 0.02706788383
723.125 -0.05086145263 0.06055263205
723.75 -0.01594775012 0.09813964196
724.375 0.06181971936 0.06924917186
725.0 0.07623778164 -0.004897122915
725.625 0.05118158486 -0.0480435768
726.25 0.06265878457 -0.03186414362
726.875 0.04597664847 -0.02337127391
727.5 0.03958558224 0.0001422938713
728.125 0.02528193935 0.04463469646
728.75 0.020499433 0.04047258513
729.375 0.03159048861 0.0532249965
730.0 0.03581904117 0.05414648857
730.625 0.003224435338 0.04703500058
731.25 -0.003659685914 0.03090436507
731.875 -0.07092355109 0.02868204549
732.5 -0.05824267371 -0.003329806021
733.125 -0.05091356787 -0.0214439139
733.75 -0.0274534752 0.005345941557
734.375 -0.03891012785 -0.04418354594
735.0 -0.05587971702 -0.02971128752
735.625 -0.03111478125 -0.01020632165
736.25 -0.005856103365 -0.02061634943
736.875 -0.0881388104 -0.02588690521
737.5 -0.08761858964 -0.03612779246
738.125 -0.06437130405 -0.03250160334
738.75 -0.03122364234 -0.0008139824227
739.375 -0.0322129024 -0.0547559909
740.0 -0.002100678599 -0.03765094912
740.625 -0.02578427294 -0.03300108687
741.25 -0.02667099913 -0.02853147618
741.875 0.01480852569 -0.009782275186
742.5 0.05928251837 0.001759621599
743.125 0.01514384526 0.03640236009
743.75 -0.02196380055 0.02899752644
744.375 -0.03573896058 0.01106129804
745.0 -0.04784401294 0.03033921652
745.625 -0.04040826097 0.05295340135
746.25 -0.003813253013 0.07363849104
746.875 0.02001844026 0.04617708375
747.5 0.05871413891 0.004328206363
748.125 0.02726518854 -0.004774329344
748.75 0.01850961622 0.01059874838
749.375 0.02387105623 -0.01410720115
750.0 0.008497474275 -0.02580161111
