!Created with skrf (http://scikit-rf.org).
# GHz S RI R 50.0 
!freq ReS11 ImS11
500.0 -0.004656405798 0.01473307419
500.625 0.01760507285 0.004087805026
501.25 0.01517189815 -0.01834028088
501.875 0.005339006685 -0.03113072999
502.5 0.002404599477 -0.008243226169
503.125 0.008702955992 -0.0008080435107
503.75 0.008554407172 -0.01692086744
504.375 0.00334255129 -0.02726623778
505.0 0.001987978754 -0.02768353049
505.625 -0.004104996219 -0.04179447632
506.25 -0.02916204304 -0.05111065209
506.875 -0.02000955165 -0.08901315438
507.5 -0.03710887014 -0.06159328544
508.125 -0.01944176999 -0.07204408965
508.75 -0.07697550863 -0.06266747851
509.375 -0.07449744253 -0.04262416851
510.0 -0.04725324089 -0.04062696827
510.625 -0.04645680052 0.009785563598
511.25 -0.07098503781 0.0231523251
511.875 -0.04842195127 0.0532216848
512.5 0.001521390991 0.05084402613
513.125 0.06861682524 0.0277256396
513.75 0.09149004312 0.01663760872
514.375 0.0703073828 -0.0113926248
515.0 0.05498347685 -0.03808375077
515.625 0.09694191654 0.00415793328
516.25 0.1018773672 -0.0169720112
516.875 0.08274951991 0.07463674376
517.5 0.1195039374 -0.01777586072
518.125 0.1842928519 0.1511000635
518.75 0.115170711 -0.04185511783
519.375 0.08118845802 -0.02039936512
520.0 0.06574166724 -0.06592900314
520.625 0.0951705043 -0.09031678005
521.25 0.06002998806 -0.09344290769
521.875 0.05588518897 -0.04348885282
522.5 0.0263834862 -0.09567210555
523.125 0.08801653085 -0.2299895796
523.75 0.03926459883 -0.2921594122
524.375 0.03093468732 -0.2835316655
525.0 0.006249113514 -0.139160756
525.625 0.01091097097 -0.1043299299
526.25 0.02923979916 -0.07774012049
526.875 0.001225507105 -0.07866748159
527.5 -0.02690647541 -0.09296964022
528.125 -0.04810057277 -0.05860674865
528.75 -0.06173157586 -0.05067717906
529.375 -0.1257215876 0.008228764765
530.0 -0.09891674647 0.07509044554
530.625 -0.01559728668 0.08097864782
531.25 -0.0245259847 0.06307384156
531.875 -0.06361644762 0.1135749426
532.5 -0.07271605768 0.1541007475
533.125 -0.04273930867 0.1176105596
533.75 0.002207085501 0.09721202247
534.375 0.004276201741 0.1211874754
535.0 -0.001198948256 0.1390890083
535.625 -0.02499181713 0.09447146994
536.25 0.04829772196 0.07291174695
536.875 0.02702917209 0.09205274087
537.5 -0.04762262324 0.08405746598
538.125 -0.03131905124 0.07998067203
538.75 0.009245263594 0.1249221526
539.375 -0.02761201643 0.141361373
540.0 -0.0174558815 0.1145267138
540.625 -0.01434702003 0.09320721544
541.25 -0.01716716282 0.11789817
541.875 -0.04330614705 0.1071826672
542.5 -0.04713441848 0.04808921586
543.125 -0.0291154978 0.07029665917
543.75 0.0369516762 0.1226128278
544.375 0.06699507672 0.1312613803
545.0 0.1086442621 0.02802323486
545.625 0.09994890208 -0.04784649543
546.25 0.1020256193 -0.09245388649
546.875 0.09682437607 -0.07847319318
547.5 0.1010393308 -0.07418410847
548.125 0.1323708626 -0.08052824083
548.75 0.1688997604 -0.03245211467
549.375 0.1576935915 0.001219941177
550.0 0.1490447871 0.03930311466
550.625 0.1732942553 0.05572694018
551.25 0.09375491397 0.1002469367
551.875 0.07014222449 0.0461782033
552.5 0.07746104919 0.02310856228
553.125 0.103314051 0.02993031786
553.75 0.05447227645 0.05263176665
554.375 0.04086295444 0.03133607318
555.0 0.06389070076 0.02985654951
555.625 0.09722222352 0.03390264722
556.25 0.06864892988 0.06258382233
556.875 0.04598227681 0.05206398133
557.5 0.06582271606 0.06726834203
558.125 0.06724235981 0.1049332974
558.75 0.02455933003 0.1164178128
559.375 0.05290060151 0.1000128808
560.0 0.07915956726 0.1013517286
560.625 0.07396512697 0.0736420589
561.25 0.06278142346 0.03329466526
561.875 0.0692325255 0.02245069192
562.5 0.07842289664 0.02087299947
563.125 0.07317797057 0.01963481506
563.75 0.06588795636 0.0023358936
564.375 0.09239367916 -0.02817570929
565.0 0.1428272926 0.0008039635411
565.625 0.1174842455 -0.008561594572
566.25 0.09922796305 -0.004933605172
566.875 0.1101595077 0.003763260495
567.5 0.1058356533 0.06150048519
568.125 0.06311040976 0.08027802706
568.75 0.07665842099 0.08663232118
569.375 0.08181603797 0.09803353579
570.0 0.07236284995 0.08766620065
570.625 0.06065830286 0.05854463603
571.25 0.079752826 0.04136357365
571.875 0.07776586207 0.044912459
572.5 0.05370861753 0.01556460751
573.125 0.04708191363 0.01444676058
573.75 0.08885207841 0.002693826453
574.375 0.1123780372 -0.01666157577
575.0 0.07919132144 -0.022488545
575.625 0.05292031725 -0.03452396975
576.25 0.08201641944 -0.03941954092
576.875 0.09511650744 -0.01931796672
577.5 0.08792148492 -0.01664763923
578.125 0.0847550651 -0.037777022
578.75 0.1122350197 -0.05297774187
579.375 0.1150036984 -0.02859178942
580.0 0.09388424365 -0.03764904071
580.625 0.0878321475 -0.06724727098
581.25 0.07685898093 -0.07600693504
581.875 0.05873835658 -0.03388967524
582.5 0.04723648975 -0.01309691768
583.125 0.07963519523 -0.01489140862
583.75 0.09441186545 -0.002811395093
584.375 0.07549984101 0.007322556914
585.0 0.06159331232 0.0174606373
585.625 0.08077480768 0.02745109256
586.25 0.08393136042 0.03882010573
586.875 0.06587293672 0.01903338835
587.5 0.07328322472 0.002853216113
588.125 0.09594502255 -0.01415962198
588.75 0.1021633496 -0.01800318898
589.375 0.07042836721 -0.05666196243
590.0 0.03121912352 -0.09168284386
590.625 0.02181891284 -0.07950013036
591.25 0.02468465187 -0.0317394537
591.875 0.03348974903 -0.01780020304
592.5 0.0471932678 -0.04553113882
593.125 0.06862002283 -0.05865485652
593.75 0.07038685747 -0.03279273649
594.375 0.0707592397 -0.01428358824
595.0 0.09019290922 3.559872431e-05
595.625 0.09247272571 0.02531069709
596.25 0.06822065267 0.03654788644
596.875 0.05491493323 0.03955492675
597.5 0.05699073917 0.0557803819
598.125 0.06199350994 0.05637073546
598.75 0.07340231992 0.03091073792
599.375 0.07503979275 0.0142075551
600.0 0.06203472004 0.009688691159
600.625 0.03667955138 0.005627211117
601.25 0.01959446221 0.004076525381
601.875 0.01498169138 0.01977191299
602.5 0.007240174937 0.03337113896
603.125 -0.001715834282 0.03763472021
603.75 0.004704599086 0.04334677342
604.375 0.01514661745 0.04971848919
605.0 0.007910431775 0.04305066766
605.625 -0.007836852606 0.02655605927
606.25 -0.02445837636 0.02867596338
606.875 -0.03183233809 0.0463831353
607.5 -0.01560395696 0.05671581728
608.125 0.008976400227 0.04570971708
608.75 0.0130986924 0.03581458421
609.375 0.009221003025 0.03481988919
610.0 0.009264942371 0.02990968632
610.625 0.01490341496 0.01591708439
611.25 0.01283144001 0.002119826251
611.875 0.007178296449 -0.009135490014
612.5 -0.001143561365 -0.01726182888
613.125 -0.01299449772 -0.01471875847
613.75 -0.01458762276 -0.003001030253
614.375 -0.003552888956 0.003240032651
615.0 0.00645272452 -0.003493764085
615.625 0.003343340672 -0.01064487674
616.25 -0.002619437145 -0.003143431565
616.875 0.006874037369 0.007293069115
617.5 0.02248472285 0.004784375245
618.125 0.02823445105 -0.0005836489375
618.75 0.02789930742 0.000132935245
619.375 0.03780372141 0.00546369661
620.0 0.05720117498 0.0001591364631
620.625 0.05875002187 -0.02639340423
621.25 0.05080141229 -0.03594587798
621.875 0.03790112749 -0.04451250242
622.5 -0.00717290391 -0.04013223986
623.125 -0.00643226638 -0.01209519603
623.75 0.009687561306 0.002677264626
624.375 0.02557398255 0.0115616183
625.0 0.02488210405 0.0273199071
625.625 0.02214750333 0.03527006456
626.25 0.03996037994 0.04387005182
626.875 0.06709268123 0.05384979562
627.5 0.06185997418 0.06352901772
628.125 0.0502073326 0.0578703854
628.75 0.05315714573 0.0605710777
629.375 0.05790747258 0.07965574384
630.0 0.04070829915 0.0822157076
630.625 0.02984926925 0.06622226411
631.25 0.02824809731 0.06143264246
631.875 0.01193334316 0.06335240254
632.5 -0.006275621527 0.05296851254
633.125 -0.01563366751 0.04414210163
633.75 -0.013470794 0.06007665395
634.375 -0.0278276361 0.06400260631
635.0 -0.02945985412 0.06326803635
635.625 -0.01947510793 0.07943420812
636.25 -0.01156138095 0.100457915
636.875 -0.0247444174 0.08513180234
637.5 -0.02714165953 0.06113283908
638.125 -0.03732168667 0.08457176806
638.75 -0.06377283166 0.1081337546
639.375 -0.07594309493 0.07261019009
640.0 -0.05928141528 0.03774867608
640.625 -0.07075972497 0.02865463995
641.25 -0.09864919941 -0.006600301434
641.875 -0.07689511694 -0.02935173648
642.5 -0.06687103357 -0.02441288519
643.125 -0.08269066658 -0.03285895034
643.75 -0.08362287319 -0.07219092789
644.375 -0.06905002806 -0.0742319802
645.0 -0.08804547738 -0.04223524321
645.625 -0.1125371135 -0.04002704227
646.25 -0.09887516422 -0.0455374766
646.875 -0.06436476766 -0.05602753821
647.5 -0.07283576528 -0.04717641549
648.125 -0.09060235403 -0.06195830581
648.75 -0.05331247941 -0.0687484426
649.375 -0.02040159876 -0.05859442332
650.0 0.0003442078769 -0.07662501256
650.625 0.03793320843 -0.0895021498
651.25 0.06624752445 -0.06648671493
651.875 0.07836629578 -0.04313895898
652.5 0.1234763547 -0.02578841535
653.125 0.1417475947 0.02909454123
653.75 0.1214441116 0.03865751003
654.375 0.1185620936 0.03340858452
655.0 0.1234312825 0.0588958717
655.625 0.07817760721 0.07658366164
656.25 0.05584281218 0.0439142909
656.875 0.08383772432 0.02376713461
657.5 0.0888290004 0.05741114015
658.125 0.0497038006 0.07755963626
658.75 0.03082086297 0.06813277237
659.375 0.08368160714 0.05917362188
660.0 0.1282275587 0.05767631713
660.625 0.1277257475 0.0403272957
661.25 0.12184943 0.004636635672
661.875 0.1359070273 -0.04334829471
662.5 0.1374921537 -0.06267924003
663.125 0.1168097298 -0.04069472247
663.75 0.1172411493 -0.008271281605
664.375 0.09383412743 0.08592618769
665.0 0.01821830725 0.09746350224
665.625 -0.01368012434 0.07551450098
666.25 -0.03144271244 0.08636459095
666.875 -0.1119824145 0.07384875409
667.5 -0.1174648028 0.01205489841
668.125 -0.1042141702 0.02377934352
668.75 -0.1140867917 0.07292507172
669.375 -0.1437537598 0.06936100646
670.0 -0.1150165668 0.01732042163
670.625 -0.09332887526 0.02020668853
671.25 -0.1099621207 0.06911793038
671.875 -0.1036751298 0.08861753176
672.5 -0.05981972953 0.08489108909
673.125 -0.04024901499 0.07810180102
673.75 -0.06068578571 0.09814611914
674.375 -0.09308516745 0.08551792325
675.0 -0.1070299703 0.05133346212
675.625 -0.13333236 0.02050051035
676.25 -0.1336049938 -0.0498811361
676.875 -0.1179254928 -0.07127594475
677.5 -0.1264043221 -0.04665897564
678.125 -0.1589226181 -0.04762194159
678.75 -0.1010230208 -0.08316489601
679.375 -0.04785502232 -0.05969318865
680.0 -0.05468400044 -0.04752823482
680.625 -0.09343608273 -0.07116507546
681.25 -0.08793688736 -0.09275896237
681.875 -0.06257802175 -0.06876650559
682.5 -0.1028129935 -0.0289356784
683.125 -0.1565242235 -0.01688407583
683.75 -0.1609846821 -0.0664722294
684.375 -0.07623695674 -0.1147175423
685.0 -0.008073124561 -0.1397382655
685.625 0.09221978561 -0.1341399834
686.25 0.1319442424 -0.08333898786
686.875 0.1264720028 -0.05056089713
687.5 0.1216275002 -0.004403879558
688.125 0.09070274296 0.03425372692
688.75 0.06064395106 0.05403422405
689.375 0.07417133712 0.06836861684
690.0 0.07688802622 0.1215702844
690.625 0.04716945014 0.1177543882
691.25 0.07962183749 0.0908346768
691.875 0.1576662876 0.008446843342
692.5 0.1829429939 -0.1248220784
693.125 0.04662258713 -0.1608831761
693.75 -0.05321936249 -0.1051503967
694.375 -0.08362925561 -0.1070180224
695.0 -0.01354241032 -0.167961924
695.625 0.1146105949 -0.07724210908
696.25 0.08749530827 0.03595057387
696.875 0.02503274768 0.1074638951
697.5 -0.07472815645 0.1011127427
698.125 -0.1178450822 0.06854612471
698.75 -0.120108628 0.07482944412
699.375 -0.1248659631 0.07205009442
700.0 -0.1177844475 0.04077634316
700.625 -0.1159923232 0.01476303753
701.25 -0.1445928542 0.01267622271
701.875 -0.1315455375 -0.003002608538
702.5 -0.08054884396 0.01971984884
703.125 -0.06052781118 0.0462231862
703.75 -0.0176143166 0.1410475491
704.375 0.01994262024 0.1889052266
705.0 0.02209131649 0.1329926055
705.625 -0.001713722132 0.1125256854
706.25 -0.09161309657 0.1219835026
706.875 -0.1821353093 -0.02447378923
707.5 -0.09763151629 -0.09411154503
708.125 -0.05734135824 -0.09168746265
708.75 0.00265449829 -0.1083113327
709.375 0.08915804459 -0.06257162016
710.0 0.09448682035 0.01434504147
710.625 0.07901385585 0.03009061657
711.25 0.05950723221 0.05509203718
711.875 0.04562115529 0.06772741855
712.5 0.08022651406 0.07176959413
713.125 0.1527426035 -0.007096930662
713.75 0.09756833436 -0.1251404989
714.375 -0.008260416976 -0.1386049782
715.0 -0.07718466912 -0.1144849774
715.625 -0.06892131261 -0.1483310497
716.25 0.02197134448 -0.1250947583
716.875 0.04938053177 -0.06370326791
717.5 0.07340928864 -0.02977681103
718.125 0.1072096136 0.01029307175
718.75 0.08577265997 0.05690017204
719.375 0.0417339975 0.05604796879
720.0 0.008357247818 0.06417922986
720.625 -0.0724391133 0.04976725857
721.25 -0.09142777218 -0.0646903589
721.875 -0.01574194534 -0.1121875184
722.5 -0.004941932373 -0.1203688041
723.125 -0.05587242604 -0.1053132437
723.75 -0.08665547101 -0.03978281302
724.375 -0.07439774732 0.01356385567
725.0 -0.04537195794 0.04574948499
725.625 -0.02165523177 0.04298071147
726.25 -0.0245413403 0.0284990152
726.875 -0.05230710857 0.01541740801
727.5 -0.0805196539 -0.004255283772
728.125 -0.0781861383 -0.02642637454
728.75 -0.06696257301 -0.01361205072
729.375 -0.05556668352 0.005658339281
730.0 -0.05314257062 -0.000301853156
730.625 -0.04824188407 -0.01148878912
731.25 -0.03309841019 -0.02011179379
731.875 -0.01464406898 -0.02908148461
732.5 0.00418068241 -0.02097915891
733.125 0.008708220692 0.001170841109
733.75 0.01760312345 0.01227142983
734.375 0.02900715453 0.006641407842
735.0 0.02574142059 -0.01259153447
735.625 0.01796063182 -0.01760772431
736.25 0.009558106097 -0.02562966056
736.875 -0.009491548073 -0.02809646623
737.5 -0.02918769918 -0.01367221553
738.125 -0.04122237346 0.007344308006
738.75 -0.03850610007 0.02776421067
739.375 -0.01969540614 0.03431898315
740.0 -0.007772006515 0.02177863853
740.625 -0.01724331806 0.02076860909
741.25 -0.02488073376 0.02830322945
741.875 -0.03668580152 0.0116704342
742.5 -0.02670605894 -0.02834838843
743.125 0.02090360291 -0.03723388554
743.75 0.03976494927 -0.01614253433
744.375 0.0377994065 -0.01727198235
745.0 0.03532366947 -0.02271865929
745.625 0.02939361563 -0.01680719682
746.25 0.04199541013 -0.005618446274
746.875 0.04473529921 -0.03801709253
747.5 0.01338880019 -0.06588250616
748.125 -0.02001728474 -0.06569833831
748.75 -0.04942304793 -0.04226786487
749.375 -0.06947545205 0.005791379292
750.0 -0.03817474283 0.08057978813
