!Created with skrf (http://scikit-rf.org).
# GHz S RI R 50.0 
!freq ReS11 ImS11
500.0 -0.01459624282 0.02824694692
500.625 0.02276952714 0.03119162105
501.25 0.0284159141 0.02005639339
501.875 0.02008722825 0.0300491544
502.5 0.01147463577 0.04274785854
503.125 0.02564627772 0.04687940056
503.75 0.04581586419 0.01259314664
504.375 0.04345627361 -0.005276317783
505.0 0.04956258118 -0.02368101361
505.625 0.07234047543 -0.03116678479
506.25 0.0311373594 -0.06468083383
506.875 0.05441098416 -0.05375205877
507.5 0.04676609338 -0.04029529398
508.125 0.07115140558 -0.007302967956
508.75 0.04348056209 -0.04989514441
509.375 0.03783313608 -0.04107120716
510.0 0.06839215372 -0.02816170247
510.625 0.006036109049 -0.06635116236
511.25 -0.03302962299 -0.05261242525
511.875 -0.04761922759 -0.004818653229
512.5 -0.03167934474 0.001781105184
513.125 -0.03108813499 0.02196204877
513.75 -0.02610678076 0.03539127016
514.375 -0.008570207688 0.05663023527
515.0 -0.01021447549 0.09441036092
515.625 -0.01829421449 0.08939864073
516.25 0.02435206746 0.09605728345
516.875 -0.05498622394 0.1178879945
517.5 0.03911076036 0.09517344637
518.125 -0.03411771548 0.1173361303
518.75 0.0296862351 0.03983138499
519.375 -0.0001785674609 0.07120200251
520.0 0.03500714546 0.07331330015
520.625 0.06492026096 0.02917966867
521.25 0.05363351875 0.01994710522
521.875 0.02900299868 0.04585320473
522.5 0.06162775708 0.01495865697
523.125 0.1109022958 -0.03270478883
523.75 0.09097982112 -0.04837923606
524.375 0.03945258267 -0.007986378482
525.0 -0.002004540695 0.01190086074
525.625 -0.002347901052 0.01319751772
526.25 0.001013292097 0.03295263195
526.875 0.009401974674 0.03727417765
527.5 0.02475040882 0.03463713727
528.125 0.02879875964 0.001891774427
528.75 0.05058872279 -0.001241766926
529.375 0.04076649806 -0.0263276389
530.0 0.03679868887 -0.02585429319
530.625 0.01853866773 -0.07966216468
531.25 0.03926421725 -0.158705309
531.875 -0.03758476626 -0.147799706
532.5 -0.07586555176 -0.09254735806
533.125 -0.06110231452 -0.0383203535
533.75 -0.05708312992 -0.04882380674
534.375 -0.06246688827 -0.04234548794
535.0 -0.06578540593 -0.03298961918
535.625 -0.02410420955 -0.01826369138
536.25 -0.02136284796 -0.03470904697
536.875 -0.03325751725 -0.06308352815
537.5 -0.03851942259 -0.09698960384
538.125 -0.05932747638 -0.05973204589
538.75 -0.04640489167 -0.02828513059
539.375 -0.02980641407 -0.05088975412
540.0 -0.04695178809 -0.1028203319
540.625 -0.04339218793 -0.1033822166
541.25 -0.03140964998 -0.0898290476
541.875 -0.03747225262 -0.08122425352
542.5 -0.04410031349 -0.09813796506
543.125 -0.08568459285 -0.06103714815
543.75 -0.08679262881 0.01269867746
544.375 -0.05770561546 0.03232375946
545.0 -0.04186950352 0.05142529967
545.625 -0.006512577408 0.0420190349
546.25 0.004530739296 0.0626114477
546.875 0.01219101206 0.064067547
547.5 0.0007404352186 0.08928568283
548.125 4.248201547e-05 0.06165145565
548.75 -0.01776222204 0.05961048008
549.375 -0.03013758743 0.05804932409
550.0 -0.04602954744 0.01889703238
550.625 0.000246071956 -0.007712693571
551.25 -0.006961466957 -0.03993898544
551.875 -0.04458413608 -0.05256794919
552.5 -0.06977255342 -0.05764324156
553.125 -0.0596913642 -0.03071742476
553.75 -0.0683720123 -0.03543784193
554.375 -0.08710080448 -0.006112107785
555.0 -0.09864678768 0.01745625511
555.625 -0.06329010312 0.01924965686
556.25 -0.08165329704 0.01096723535
556.875 -0.0928869443 0.009839736889
557.5 -0.08235650413 0.02339710876
558.125 -0.0785779296 0.02000597134
558.75 -0.05515647108 0.0001911705255
559.375 -0.03053545511 -0.001625314221
560.0 -0.02767339492 -0.008772184022
560.625 -0.01141671137 -0.03578462541
561.25 -0.04855501984 -0.04833900383
561.875 -0.06529040379 -0.02650981271
562.5 -0.07536537579 0.01582785621
563.125 -0.06516819884 0.03442753109
563.75 -0.05807741837 0.06384637498
564.375 -0.02804863561 0.07576625146
565.0 -0.02387398026 0.07646313253
565.625 -0.01591113588 0.04084230398
566.25 -0.04135170371 0.02630206237
566.875 -0.05074394559 0.01740679543
567.5 -0.05640607948 0.008640500696
568.125 -0.05836645939 0.001448294985
568.75 -0.03752542658 -0.00139203092
569.375 -0.01872843998 -0.02130638818
570.0 -0.01649380896 -0.03836423052
570.625 -0.02478482715 -0.05224602676
571.25 -0.033633062 -0.04139515549
571.875 -0.05482035719 -0.0405028706
572.5 -0.08523302054 -0.02562790452
573.125 -0.1051219843 0.01086862752
573.75 -0.06082566004 0.05350093895
574.375 -0.03788866551 0.06066733117
575.0 -0.05276256427 0.0610009936
575.625 -0.05578030361 0.04756700894
576.25 -0.03988369995 0.05937842067
576.875 -0.02055134991 0.07013405521
577.5 -0.008809035107 0.07443013114
578.125 -0.01707361957 0.0291358753
578.75 -0.01547109601 0.03283440952
579.375 -0.01626786105 0.03282230642
580.0 -0.02301384648 0.01904215791
580.625 -0.03443761531 0.005062832978
581.25 -0.05739311904 0.0004354885879
581.875 -0.07934209873 0.0173328393
582.5 -0.07597965845 0.03268931662
583.125 -0.0619712017 0.04998632902
583.75 -0.05928673438 0.01047309454
584.375 -0.06951181847 6.249963331e-05
585.0 -0.06623682788 -0.002951021165
585.625 -0.06251675566 0.02417427446
586.25 -0.05385218809 0.003713438137
586.875 -0.05659430506 -0.00645431282
587.5 -0.05318989237 0.008990394438
588.125 -0.02861575177 0.04593525383
588.75 -0.03145492555 0.02176448046
589.375 -0.04112157978 0.004982900926
590.0 -0.04877921503 0.01103342177
590.625 -0.03961990784 0.05198876584
591.25 -0.06136344077 0.06719587734
591.875 -0.04036999566 0.07993184436
592.5 -0.01061330045 0.06384122758
593.125 0.008189454451 0.05997008615
593.75 -0.03126118781 0.04434801564
594.375 -0.03623088377 0.03051802916
595.0 -0.03094454971 0.01805134045
595.625 -0.02726685126 0.01085122514
596.25 -0.02031495746 -0.03683392657
596.875 -0.02603256816 -0.02789650188
597.5 -0.0233932974 -0.02733602057
598.125 -0.02288374296 -0.01270309792
598.75 -0.006541327171 -0.03180679661
599.375 -0.006843657868 -0.04757004118
600.0 -0.016356276 -0.05913132854
600.625 -0.02616499479 -0.06783314834
601.25 -0.02433785716 -0.07737322852
601.875 -0.04378400554 -0.05652806045
602.5 -0.04743678585 -0.04177436138
603.125 -0.05079073203 -0.02027379981
603.75 -0.01757636176 -0.02987624556
604.375 -0.01123850984 -0.02269183683
605.0 -0.004544692533 -0.03341868079
605.625 9.503606338e-05 -0.04409747216
606.25 -0.01425597356 -0.03406703391
606.875 -0.002566015255 -0.0177341841
607.5 0.02478710159 -0.006298339576
608.125 0.02739966568 -0.01113163775
608.75 0.0413483255 -0.02393992472
609.375 0.0355343092 -0.01307054666
610.0 0.04181444332 -0.005452425463
610.625 0.05183058868 -0.01202373882
611.25 0.04213320017 -0.01863242236
611.875 0.04977971307 -0.01192182989
612.5 0.04499876095 0.0009563993187
613.125 0.01968537704 0.002771560132
613.75 -0.005266259445 0.004143322303
614.375 0.03235118123 0.03992361446
615.0 0.03045451458 0.02393517411
615.625 0.01861253925 0.01713666034
616.25 0.004860856988 0.01960260913
616.875 0.02400050937 0.04503414885
617.5 0.03020990324 0.0484556641
618.125 0.02404198001 0.03732963858
618.75 0.005784431773 0.02309070678
619.375 0.02375044734 0.05562687191
620.0 0.03830051307 0.04770519087
620.625 0.03070637118 0.01060270242
621.25 0.005220519711 -0.01513008184
621.875 -0.001129909607 0.004107538618
622.5 -0.02296034929 0.01583327751
623.125 -0.03476661477 0.04690038253
623.75 -0.03959221556 0.04902908737
624.375 -0.02698911124 0.05894655101
625.0 -0.04661288043 0.03352663299
625.625 -0.05394891117 0.03586561768
626.25 -0.03905245994 0.05869443954
626.875 -0.02114605835 0.04645538194
627.5 -0.01757984024 0.04169942207
628.125 -0.0237876836 0.0365473714
628.75 -0.02427543941 0.008874265004
629.375 -0.01427389643 0.001110122113
630.0 -0.0201215868 0.01790229287
630.625 -0.002255294158 -0.01116018132
631.25 0.01180502506 -0.03891217074
631.875 0.01029249747 -0.05243709692
632.5 -0.01164088955 -0.05227566285
633.125 -0.01990945928 -0.05433117582
633.75 -0.02651776488 -0.05279681302
634.375 -0.00821338514 -0.07480598344
635.0 -0.05111145113 -0.04674450795
635.625 -0.04050880981 -0.03984249615
636.25 -0.02547383879 -0.0312479354
636.875 -0.01166291029 -0.04247781406
637.5 -0.006213324834 -0.07096384651
638.125 -0.04327939603 -0.03945466033
638.75 -0.0287864384 -0.01479640266
639.375 0.009654194447 -0.01706302457
640.0 0.06555640508 -0.006571214015
640.625 0.04078722229 -0.0275848995
641.25 0.04232840964 -0.02739104839
641.875 0.05081223725 -0.01736899921
642.5 0.05612615137 0.01353695564
643.125 0.05271817924 0.01041218075
643.75 0.05040797158 0.0009337422862
644.375 0.05498083473 0.004083537581
645.0 0.0407986771 0.01398420883
645.625 0.0283328306 0.001662049098
646.25 0.04119523488 0.01809764945
646.875 0.06373434547 0.02715351743
647.5 0.06094628423 0.02754408541
648.125 0.03820493082 0.006371880615
648.75 0.03964123027 0.05112669492
649.375 0.03938273293 0.07541645548
650.0 0.03537360208 0.07154360845
650.625 0.02929707644 0.06580676702
651.25 0.002224384248 0.06648708209
651.875 -0.02977277929 0.05591610816
652.5 -0.02437427533 0.0438413001
653.125 -0.03358453135 0.02640606117
653.75 -0.02360637725 -0.0007742941411
654.375 -0.01712382685 -0.0278862681
655.0 -0.02661100463 -0.06039787297
655.625 -0.03206811396 -0.04901249876
656.25 -0.05757836815 -0.067561876
656.875 -0.07039218501 -0.04418025607
657.5 -0.06843443394 -0.0524790116
658.125 -0.09121395237 -0.06700331301
658.75 -0.09073110934 -0.0280972815
659.375 -0.07413541653 0.01552231886
660.0 -0.05792278161 0.02968000231
660.625 -0.06946219817 0.01698572358
661.25 -0.03066020181 0.01835375329
661.875 -0.03241348336 0.01922194893
662.5 -0.04546587935 0.02062068543
663.125 -0.07198502015 -0.001516103633
663.75 -0.05291521299 -0.03154491037
664.375 -0.03748908412 -0.06062673246
665.0 -0.01356131361 -0.09390180754
665.625 0.01273653462 -0.07705748645
666.25 0.03020376504 -0.07498120476
666.875 0.04099019076 -0.07382778266
667.5 0.06898746479 -0.07240779064
668.125 0.03490563952 -0.04571352596
668.75 0.0323107312 -0.0301031373
669.375 0.05423357903 -0.02087711149
670.0 0.07683452284 -0.01601828687
670.625 0.06083543065 -0.01135771261
671.25 0.05780704726 -0.01979117947
671.875 0.06963725469 -0.03096622344
672.5 0.06707998157 -0.07685848309
673.125 0.03214198139 -0.09042033103
673.75 0.01431870106 -0.08528626462
674.375 0.028483193 -0.06664416181
675.0 0.06439024736 -0.0454233377
675.625 0.0506936746 -0.01961054678
676.25 0.05187778584 -0.002933155839
676.875 0.05125979666 0.02494091276
677.5 0.02806421493 0.04454345896
678.125 0.02414210985 0.05361729468
678.75 0.03881913372 0.07789642429
679.375 0.03813529807 0.1100773179
680.0 0.04137752 0.08227589741
680.625 0.07380105788 0.06593176862
681.25 0.07409910543 0.03852952518
681.875 0.09362104386 0.02087934197
682.5 0.07384348211 -0.02375012448
683.125 0.06272682223 -0.01937356212
683.75 0.05961375743 0.008828308561
684.375 0.03423699528 0.05195226928
685.0 -0.004207386995 0.04749956554
685.625 -0.04534706781 0.0293349885
686.25 -0.07447386527 -0.002284155199
686.875 -0.06977005495 -0.04358442257
687.5 -0.08537936942 -0.05865188637
688.125 -0.09919765881 -0.07306163515
688.75 -0.09234148126 -0.08370805467
689.375 -0.0621156512 -0.05579107319
690.0 -0.06079648 -0.05147202341
690.625 -0.06987456774 -0.05837326997
691.25 -0.0779779605 -0.04679499117
691.875 -0.03256555299 0.004123099279
692.5 -0.04272462734 0.00686692472
693.125 -0.05474232443 0.0693955581
693.75 -0.03609465345 0.1035818298
694.375 0.007004586859 0.1033094093
695.0 -0.03680694 0.08673176986
695.625 -0.09786885124 0.03693959744
696.25 -0.08482188475 -0.05763198667
696.875 -0.02690801299 -0.112763429
697.5 0.04527439769 -0.08089756547
698.125 0.0543887331 -0.04990801344
698.75 0.03900086782 -0.02866967378
699.375 0.06302695773 -0.02685191737
700.0 0.07168485321 0.01790282623
700.625 0.05067696935 0.04317164712
701.25 0.05170945358 0.04035792256
701.875 0.09868354504 0.0286481674
702.5 0.1188466424 0.01547531486
703.125 0.08241300896 -0.05778441314
703.75 -0.01308353588 -0.08289350822
704.375 -0.03790599063 -0.062551411
705.0 -0.01464559885 -0.09004692623
705.625 0.03346439613 -0.05401737997
706.25 0.05221396401 -0.01936965989
706.875 0.04545705781 0.03055243822
707.5 0.02089558548 0.07527211147
708.125 -0.06042728371 0.06961463187
708.75 -0.08370989074 0.05098235862
709.375 -0.09026947347 0.01399897272
710.0 -0.08182046265 -0.02206152385
710.625 -0.0552120515 -0.05992921617
711.25 -0.03852474975 -0.08801252273
711.875 -0.05865572048 -0.0703909306
712.5 -0.06791069661 -0.009878146029
713.125 -0.04048890625 0.01317231398
713.75 -0.05146738825 0.01299742603
714.375 -0.05110859301 0.0359338133
715.0 -0.02519301784 0.05378509377
715.625 -0.04403169743 0.05964429402
716.25 -0.08475293532 0.05650336809
716.875 -0.115350214 0.006517214751
717.5 -0.08355412372 -0.03404499086
718.125 -0.07413383692 -0.02771260757
718.75 -0.02959245008 -0.08005928931
719.375 -0.01406670338 -0.08164180576
720.0 0.01026904415 -0.07624914409
720.625 0.04736606993 -0.03744455051
721.25 0.01087393383 0.03851720792
721.875 -0.02867551539 0.02822854319
722.5 -0.04800373667 0.01973296739
723.125 -0.0544415333 0.05540124383
723.75 -0.04511122598 0.09918065293
724.375 0.05598205806 0.06648781986
725.0 0.08078441047 0.01175227855
725.625 0.06976686128 -0.03015602849
726.25 0.05274833001 -0.03517662279
726.875 0.04612850129 -0.01500157926
727.5 0.03505061294 0.007391773534
728.125 0.01684711641 0.04581555407
728.75 0.01584365071 0.03195072469
729.375 0.01486235698 0.07275615162
730.0 0.0281138372 0.04762230923
730.625 0.005615991113 0.04444400068
731.25 -0.02048509276 0.03675752417
731.875 -0.05652908508 0.0263943858
732.5 -0.05847903454 -0.009234947657
733.125 -0.04632032963 -0.03790449118
733.75 -0.03115024826 -0.01208167499
734.375 -0.02627156229 -0.05914658144
735.0 -0.04022624241 -0.04099626148
735.625 -0.03705880614 -0.0249388567
736.25 -0.0142657483 -0.01651796213
736.875 -0.07827653192 -0.03659319833
737.5 -0.070968343 -0.04228807995
738.125 -0.05301846874 -0.02112108417
738.75 -0.04073196373 -0.01044086104
739.375 -0.01005540088 -0.02990991852
740.0 0.005354230962 -0.04197838577
740.625 -0.02908220761 -0.04889252517
741.25 -0.01289542673 -0.02685127309
741.875 0.02083331011 0.004494662101
742.5 0.04884125796 0.01586404439
743.125 0.01050819709 0.04597740362
743.75 -0.02620341266 0.02267242566
744.375 -0.03724689628 -0.0007436427669
745.0 -0.0444722152 0.03323297607
745.625 -0.03577882104 0.06444430474
746.25 -0.008533257526 0.07511946047
746.875 0.01754381828 0.04189568452
747.5 0.05450243219 0.01053552208
748.125 0.0179975724 0.004852922869
748.75 0.01471066201 0.01115351444
749.375 0.02596257812 -0.004004785392
750.0 0.01875206239 -0.02503631449
