!Created with skrf (http://scikit-rf.org).
# GHz S RI R 50.0 
!freq ReS11 ImS11
500.0 -0.01551289503 0.02391823236
500.625 0.02351755085 0.0134533565
501.25 0.03149707351 -0.0008897214682
501.875 0.02108380936 0.009239097981
502.5 0.01232148197 0.04774888707
503.125 0.02826888916 0.01844366971
503.75 0.03541006471 0.001143954792
504.375 0.0349244852 -0.01017384067
505.0 0.04492804416 -0.02769278805
505.625 0.03142659838 -0.05455435889
506.25 0.009564558051 -0.06440772909
506.875 0.0514096425 -0.05608971789
507.5 0.02059670569 -0.05899483493
508.125 0.06158050172 -0.04911663548
508.75 0.02454117026 -0.07048212466
509.375 0.01531558193 -0.05554646028
510.0 0.0212756708 -0.0587369444
510.625 -0.02729341436 -0.05678224377
511.25 -0.04624197587 -0.04890954724
511.875 -0.05502637818 -0.0006744136657
512.5 -0.03765394478 0.01745787884
513.125 -0.001507248002 0.04346574227
513.75 -0.001140638943 0.04776397955
514.375 0.007782811442 0.06965566974
515.0 0.05412890145 0.0315786712
515.625 0.01153902819 0.08468519294
516.25 0.0595257111 0.08149543601
516.875 -0.0223029593 0.1409287298
517.5 0.08381820256 0.08867854042
518.125 -0.004415740157 0.1499281344
518.75 0.0464898278 0.04641034933
519.375 0.03611628356 0.07459266429
520.0 0.07636425993 0.04199471675
520.625 0.07925001199 0.01331202006
521.25 0.07495493799 0.00318479416
521.875 0.06253142262 0.04195221963
522.5 0.07342497729 -0.03199884465
523.125 0.1276240351 -0.0646262725
523.75 0.1238801397 -0.1160262265
524.375 0.1219476914 -0.05874089796
525.0 0.02420891309 -0.0380720354
525.625 0.01461355387 0.003533088896
526.25 0.03065101755 0.0200463179
526.875 0.04242834033 0.02142372019
527.5 0.02723959748 -0.005077187057
528.125 0.02610080842 -0.01442546447
528.75 0.03518187403 -0.04102515432
529.375 0.02263009163 -0.0704967073
530.0 -0.004055941002 -0.03119820376
530.625 -0.01926280857 -0.05333744644
531.25 -0.04821506566 -0.1391942288
531.875 -0.1007472296 -0.1309546662
532.5 -0.1125627918 -0.04389713481
533.125 -0.08106358637 -0.01169754297
533.75 -0.1080328884 -0.01972131564
534.375 -0.09460392231 -0.01875726078
535.0 -0.05846435858 0.02520740176
535.625 -0.04272427372 -0.0006440576433
536.25 -0.04874782321 -0.003137119617
536.875 -0.0568528227 -0.03070069812
537.5 -0.07046876146 -0.05877504818
538.125 -0.09436924143 -0.02377567424
538.75 -0.08335116959 -0.005558479018
539.375 -0.06557845165 -0.02442920925
540.0 -0.06042027442 -0.03616916239
540.625 -0.1053591465 -0.0619588239
541.25 -0.08317343696 -0.07107172878
541.875 -0.06414270754 -0.05058922599
542.5 -0.07491670281 -0.06115854667
543.125 -0.1188006383 -0.03117603896
543.75 -0.1020253476 0.05289721963
544.375 -0.06503352824 0.07116653594
545.0 0.0143723001 0.05993008117
545.625 0.02214747054 0.06330201184
546.25 0.04922574106 0.05750463002
546.875 0.06443605263 0.06605613866
547.5 0.05909793721 0.06014564295
548.125 0.04372643825 0.09155700497
548.75 0.0283991051 0.08323903254
549.375 0.02681614083 0.09529374128
550.0 0.0008059468674 0.06330737075
550.625 -0.00296639179 0.03041655231
551.25 -0.01383273387 0.003966303805
551.875 -0.04700197418 0.0007113000666
552.5 -0.06826900475 0.00405372268
553.125 -0.06583444709 0.004761758497
553.75 -0.06911153778 0.005921401792
554.375 -0.07852905783 0.04670820494
555.0 -0.06681782242 0.0519713471
555.625 -0.0560151917 0.05323605318
556.25 -0.06307425255 0.04931063903
556.875 -0.08387333755 0.06392754002
557.5 -0.07712772001 0.06383105926
558.125 -0.07359679462 0.06468049972
558.75 -0.06374323373 0.04081704063
559.375 -0.06254828206 0.04233671803
560.0 -0.02693732021 0.01838903458
560.625 -0.02596926271 -0.001211461344
561.25 -0.05053203165 0.0001554771636
561.875 -0.07910994785 0.0266890618
562.5 -0.05327855891 0.03305059108
563.125 -0.0396761166 0.06482264521
563.75 -0.009679390077 0.1051677615
564.375 0.009097249616 0.109769465
565.0 0.01057650132 0.08916977141
565.625 0.01504953894 0.06749658238
566.25 -0.005310906885 0.07496308605
566.875 -0.0401995381 0.07226806082
567.5 -0.04416033705 0.04589155566
568.125 -0.0548023257 0.04893166363
568.75 -0.05657520183 0.04015299573
569.375 -0.03838443252 0.01961914366
570.0 -0.03295071395 -0.0009520712366
570.625 -0.04581864059 -0.007961799396
571.25 -0.04773302228 -0.007333483719
571.875 -0.05053257235 0.00345335743
572.5 -0.06758906121 0.0120779704
573.125 -0.08292146481 0.06297474919
573.75 -0.04404779494 0.09299005533
574.375 0.004638798366 0.08125297055
575.0 -0.01524631658 0.06017764634
575.625 -0.01889763247 0.08451212774
576.25 -0.006115580705 0.08311947325
576.875 0.02246969268 0.08193189518
577.5 0.0178661714 0.06666788159
578.125 0.00893401642 0.06643075295
578.75 0.0106323207 0.05249219032
579.375 0.02423427718 0.05587243504
580.0 0.0143972881 0.04471875981
580.625 -0.003240140047 0.03480288868
581.25 -0.02447438345 0.02710908896
581.875 -0.0406263818 0.04413397615
582.5 -0.04347096013 0.07581557292
583.125 -0.04031792248 0.06553826459
583.75 -0.04009596673 0.05599393676
584.375 -0.04489492557 0.05367249555
585.0 -0.06278734168 0.06349390126
585.625 -0.05350090098 0.04854086283
586.25 -0.04114512509 0.04996972572
586.875 -0.04756101069 0.04219235265
587.5 -0.04891687446 0.05174099245
588.125 -0.01325909205 0.06195509771
588.75 0.00268725158 0.05644891533
589.375 0.008004321562 0.04762951674
590.0 -0.00407338541 0.0415781813
590.625 -0.02722941862 0.05287702458
591.25 -0.01436568017 0.08102916474
591.875 0.005716678525 0.09603324468
592.5 0.04403624127 0.08084420056
593.125 0.01575385627 0.06388044036
593.75 0.01470844679 0.07412900102
594.375 0.001195612289 0.07496948039
595.0 -0.01197256197 0.06187123216
595.625 -0.03330428594 0.01775018353
596.25 -0.04474513923 0.007043241717
596.875 -0.04459066643 0.001151953648
597.5 -0.04048483198 0.02351598147
598.125 -0.03437696163 0.003297658812
598.75 -0.02261623549 0.005273595098
599.375 -0.02299338105 -0.01679546355
600.0 -0.02702940451 -0.02514573526
600.625 -0.04411255166 -0.04495553256
601.25 -0.06629671849 -0.05490187617
601.875 -0.06714885393 -0.02445785457
602.5 -0.05976714701 0.001697720525
603.125 -0.07228567908 -0.0332387383
603.75 -0.05458981991 -0.0233042772
604.375 -0.03512786831 -0.01068019667
605.0 -0.03046376547 -0.01922346328
605.625 -0.03422436975 -0.03814314019
606.25 -0.0334912916 -0.04481315819
606.875 -0.03479667866 -0.0207520837
607.5 -0.01779358292 -0.008570161983
608.125 -0.005029094108 -0.02396131653
608.75 0.007032670177 -0.03334903274
609.375 0.01411172567 -0.02086906099
610.0 0.01879216919 -0.01282356577
610.625 0.03554923759 -0.02842289838
611.25 0.03696754498 -0.03665278992
611.875 0.03171885241 -0.03349572606
612.5 0.03913572083 -0.0347151334
613.125 0.005674859916 -0.02122971131
613.75 0.03271635157 -0.009584375295
614.375 0.04159887121 0.00119890096
615.0 0.04735977235 -0.0007094819883
615.625 0.00566782098 0.001088501056
616.25 0.03503342712 0.001352293208
616.875 0.03624803097 0.01532865678
617.5 0.03945422451 0.02060435734
618.125 0.01904427082 0.0207899803
618.75 0.05751063574 0.02409648029
619.375 0.05253275776 0.03342263327
620.0 0.04574970632 0.02701577447
620.625 0.03966007458 0.001612224003
621.25 0.04300265128 -0.01061836613
621.875 0.0364658602 -0.009198215772
622.5 -0.01476669226 -0.002193621472
623.125 -0.02888022434 0.04137212501
623.75 0.02702441687 0.04312731529
624.375 0.004628805295 0.0548836805
625.0 -0.02789997309 0.04792586319
625.625 -0.03900571224 0.05221691894
626.25 -0.01778391964 0.07693566543
626.875 -0.003753394791 0.075921688
627.5 -0.009060391324 0.05447527377
628.125 -0.01054090564 0.05054763803
628.75 -0.02892001869 0.03552653044
629.375 -0.01849035896 0.04163583173
630.0 -0.005277232722 0.04123224344
630.625 -0.01125981416 0.00964605332
631.25 -0.02253339996 0.004132908597
631.875 -0.02036264974 -0.02774406133
632.5 -0.0298965578 -0.04079672603
633.125 -0.03782803359 -0.03932431478
633.75 -0.04818004217 -0.05249274885
634.375 -0.05507796063 -0.01873495682
635.0 -0.06440196348 -0.01598167461
635.625 -0.07614376246 -0.01319628575
636.25 -0.05660474559 -0.01807586111
636.875 -0.04364124208 -0.02448239302
637.5 -0.0605880037 -0.03359823619
638.125 -0.06786993689 -0.02664945364
638.75 -0.05501658126 -0.01039533583
639.375 -0.02087311083 -0.0276893813
640.0 -0.003025663065 -0.03149212088
640.625 0.02032645471 -0.04269270874
641.25 0.01866887894 -0.04838889542
641.875 0.03360336312 -0.05091319011
642.5 0.04294463426 -0.04673298622
643.125 0.06494699179 -0.02619006755
643.75 0.05422967195 -0.03123024595
644.375 0.05335802268 -0.04505071969
645.0 0.03837210032 -0.04657859289
645.625 0.02632157113 -0.02367007617
646.25 0.05085723095 -0.01281208447
646.875 0.07977613973 -0.02435075559
647.5 0.04293746461 -0.03989079207
648.125 0.0367763814 -0.02151676201
648.75 0.05266330908 0.005367171019
649.375 0.08661589561 0.0410531488
650.0 0.07052963857 0.02413055627
650.625 0.06588867347 0.04097375614
651.25 0.05546851342 0.05986234434
651.875 0.0204708549 0.09402503687
652.5 -0.001758401406 0.07981127963
653.125 -0.000250651451 0.06718195315
653.75 -0.003839969964 0.0596558855
654.375 -0.04932495615 0.01953743116
655.0 -0.02680979362 -0.00386206523
655.625 -0.04085394601 -0.01256680952
656.25 -0.07195472188 0.004594731098
656.875 -0.09984720938 0.008693386832
657.5 -0.08159674213 -0.0007682974023
658.125 -0.09102335905 -0.0002240455188
658.75 -0.1128611264 0.02779104077
659.375 -0.08816618073 0.06096034282
660.0 -0.05683302741 0.08419801398
660.625 -0.01858334523 0.06977443697
661.25 -0.01998607304 0.06783548813
661.875 -0.005713131606 0.05689338187
662.5 -0.004687236592 0.06352392682
663.125 -0.01955209589 0.05628164834
663.75 -0.06333743419 0.02525722332
664.375 -0.06322382192 -0.01748474174
665.0 -0.0530292686 -0.0374441745
665.625 -0.04190347967 -0.06923581715
666.25 -0.02164149257 -0.1027275837
666.875 -0.003555856653 -0.1077346336
667.5 -0.00664315286 -0.08149336408
668.125 -0.002285363293 -0.09433455358
668.75 -0.001959066358 -0.07225958468
669.375 0.01626202199 -0.06469090602
670.0 0.02118242971 -0.04954833797
670.625 0.03837756716 -0.07105972527
671.25 0.02437630083 -0.06918076053
671.875 0.01911245577 -0.07218537131
672.5 -0.01070790589 -0.09286192286
673.125 -0.03090588646 -0.1001753452
673.75 -0.04815863929 -0.08625233847
674.375 -0.04506477921 -0.1059775333
675.0 0.001642341645 -0.07299886057
675.625 0.03900571449 -0.0696451106
676.25 0.04952678342 -0.06360402952
676.875 0.06649595816 -0.0643498505
677.5 0.03843154999 -0.01635399989
678.125 0.0415128708 0.009297974254
678.75 0.06247125127 0.02051849545
679.375 0.08683720805 0.03812312722
680.0 0.1059698925 0.0477340382
680.625 0.09152930019 0.01942870064
681.25 0.09158209781 -0.01191090621
681.875 0.1081956764 -0.06617173111
682.5 0.09520035154 -0.1139023022
683.125 0.04815319343 -0.07500702236
683.75 0.05380795053 -0.05571723701
684.375 0.09511859172 -0.0176836176
685.0 0.06954816463 0.04605241491
685.625 0.02186102437 0.06181380906
686.25 -0.02255538997 0.04680589038
686.875 -0.06562979656 0.03152777109
687.5 -0.08566688199 0.00424180617
688.125 -0.1094300123 0.009899910941
688.75 -0.1300739959 -0.004691823078
689.375 -0.1182820473 -0.0158090081
690.0 -0.1029421859 -0.003837806533
690.625 -0.11876132 0.02200943002
691.25 -0.1092520605 0.03664301635
691.875 -0.05599157314 0.05996578983
692.5 0.003852151838 0.05443668476
693.125 0.04246717144 0.05440390569
693.75 0.07641520719 0.06827676094
694.375 0.07231294039 0.08182473822
695.0 0.04001131802 0.08857090367
695.625 -0.02796322689 0.1006096651
696.25 -0.124905587 0.04227197435
696.875 -0.06645880629 -0.08120557886
697.5 -0.02374238771 -0.1077916897
698.125 -0.006315500839 -0.1024044353
698.75 -0.002836147793 -0.09688943301
699.375 0.01413428004 -0.07038296901
700.0 0.04064574098 -0.06725435821
700.625 0.0745957674 -0.03775656586
701.25 0.07017973824 -0.01919789391
701.875 0.0725986158 -0.01460960716
702.5 0.08959289702 -0.0782250755
703.125 0.03611247513 -0.1451534259
703.75 -0.08328183204 -0.09490515053
704.375 -0.07216752446 -0.03044945025
705.0 -0.09148053896 -0.02383988993
705.625 -0.06504269697 -0.09525255739
706.25 0.01329270743 -0.0765660394
706.875 0.04944472415 -0.04029825657
707.5 0.05433672229 0.0261587086
708.125 0.02107751142 0.08269167003
708.75 -0.008772648298 0.0955336737
709.375 -0.05241914314 0.07982643187
710.0 -0.08513553951 0.01314888232
710.625 -0.09057587094 -0.009111045531
711.25 -0.10390502 -0.0205343166
711.875 -0.1175037252 -0.01499320954
712.5 -0.1059453101 0.03128809365
713.125 -0.02944351027 0.07975135275
713.75 0.03601225009 0.06441225619
714.375 0.07453650434 0.042981447
715.0 0.003551345617 0.06801756734
715.625 0.01004734174 0.05725139731
716.25 0.001494493389 0.07014859567
716.875 -0.05567439196 0.09341095138
717.5 -0.1021476805 0.0456432566
718.125 -0.09243998082 -0.01288422017
718.75 -0.08739120486 -0.01814206083
719.375 -0.08305592927 -0.04202111875
720.0 -0.05743740525 -0.07707104372
720.625 0.0382710613 -0.07641246473
721.25 0.06947052202 -0.008139624216
721.875 0.0433712146 0.03187686923
722.5 0.01958966578 0.03611701243
723.125 -0.0001833523209 0.06885283488
723.75 0.04974392405 0.0885103831
724.375 0.08750948482 0.01853601537
725.0 0.03319974799 -0.04843853451
725.625 0.06390425253 -0.07320677018
726.25 0.03462009249 -0.08018409034
726.875 0.03349494745 -0.06680398352
727.5 0.03685067477 -0.04799893622
728.125 0.04786076832 -0.02036486746
728.75 0.06791197892 0.05234402652
729.375 0.06951998093 0.02999658405
730.0 0.056378159 0.004070519625
730.625 0.02850553755 -0.0005473800551
731.25 0.01255244577 0.07345253567
731.875 -0.02422524136 0.05429313976
732.5 -0.03864085998 0.0301437768
733.125 -0.06816450692 0.01623188786
733.75 -0.0720989528 0.008925882605
734.375 -0.07038872168 0.0125715612
735.0 -0.03080266984 0.02536594406
735.625 -0.003432096405 0.008774139452
736.25 -0.04477762355 0.03551397185
736.875 -0.05433213005 0.01756486594
737.5 -0.07500265179 0.01055359307
738.125 -0.06237749413 -0.002707992191
738.75 -0.09078915117 0.00283324449
739.375 -0.05785085258 0.005334775836
740.0 -0.02250915435 -0.0113061311
740.625 -0.04453425542 -0.009911669019
741.25 -0.02954752206 -0.00728278107
741.875 -0.04145972613 -0.04203450061
742.5 0.03297580649 -0.04583288714
743.125 0.02182407374 0.01735635138
743.75 -0.001795167061 0.0242252472
744.375 0.007889337895 0.04158263784
745.0 -0.00562061602 0.03878243553
745.625 -0.004379267667 0.05748395992
746.25 0.01380807131 0.07123549531
746.875 0.0975447976 0.01107375952
747.5 0.06463761404 -0.02693683977
748.125 0.03983949868 -0.02501363458
748.75 0.01941484183 -0.01857448508
749.375 0.01458326512 -0.029130266
750.0 -0.03958966131 -0.02007880186
