!Created with skrf (http://scikit-rf.org).
# GHz S RI R 50.0 
!freq ReS11 ImS11
500.0 -0.01347481128 0.02479713876
500.625 0.0258436317 0.01726114459
501.25 0.02885508831 0.01260608036
501.875 0.01958629531 0.02729368382
502.5 0.009829621881 0.03342072076
503.125 0.03078640234 0.02154566083
503.75 0.05097510246 0.02336308934
504.375 0.03501947204 -0.02269271239
505.0 0.03589548409 -0.03036219187
505.625 0.04567650184 -0.05442820652
506.25 0.03790318759 -0.05471861318
506.875 0.03699644531 -0.07651339263
507.5 0.02311043063 -0.05872827341
508.125 0.06962294723 -0.02941107759
508.75 0.04341638035 -0.0584285014
509.375 0.009949390056 -0.0536204634
510.0 0.03662797544 -0.04486970052
510.625 -0.0188828908 -0.06296264802
511.25 -0.0368052035 -0.06090252689
511.875 -0.05370651907 0.01073799745
512.5 -0.0324262628 0.02210648206
513.125 -0.008762068044 0.04020625999
513.75 -0.02185041379 0.04648723497
514.375 0.001267993923 0.05484913683
515.0 0.02518951061 0.08001338699
515.625 -0.03288942746 0.1006081367
516.25 0.03625112413 0.1033694463
516.875 -0.02311696061 0.1213310192
517.5 0.07025892462 0.08819776698
518.125 -0.03610225009 0.1372015113
518.75 0.05155865736 0.03239533051
519.375 0.02575990508 0.06174646279
520.0 0.06825957513 0.05161491223
520.625 0.07113480826 0.04463794747
521.25 0.06588802472 0.008523183782
521.875 0.04952553059 0.03792169251
522.5 0.07485365958 0.002253202818
523.125 0.1261940096 -0.03901485707
523.75 0.1239696247 -0.07187791644
524.375 0.08939902824 -0.05212524906
525.0 0.01678781792 -0.003415996064
525.625 0.01840798251 0.02308656389
526.25 0.02288925183 0.009735009269
526.875 0.0274268454 0.01463503874
527.5 0.02873910829 0.00928801496
528.125 0.04857602627 -0.005565108346
528.75 0.04932533067 -0.02571154639
529.375 0.02232561909 -0.04503385153
530.0 0.01190964335 -0.03132006367
530.625 -0.01171699625 -0.07379853129
531.25 -0.01465547899 -0.1328345978
531.875 -0.07137578773 -0.113800533
532.5 -0.1017771516 -0.05598542141
533.125 -0.0983049399 -0.04335000258
533.75 -0.07656066403 -0.01729588768
534.375 -0.07420029808 -0.02332908822
535.0 -0.07440833589 -0.002591684568
535.625 -0.04689281835 -0.02515412315
536.25 -0.02983037725 -0.007059604929
536.875 -0.04029987913 -0.04203548932
537.5 -0.06055688212 -0.07623578121
538.125 -0.09004809852 -0.04752213651
538.75 -0.06178853569 -0.003048177363
539.375 -0.04027724569 -0.02382495218
540.0 -0.05979030256 -0.05471990412
540.625 -0.09569718685 -0.09458911123
541.25 -0.05584287288 -0.06902267562
541.875 -0.05256463684 -0.06294020393
542.5 -0.06957607987 -0.08233723039
543.125 -0.1202591043 -0.05193498765
543.75 -0.08405160402 0.04015381864
544.375 -0.05672699052 0.05340237758
545.0 -0.0125397888 0.072306098
545.625 0.0007955849899 0.0738199638
546.25 0.03351081852 0.07639637278
546.875 0.03851926901 0.06318765899
547.5 0.0434608442 0.07539957309
548.125 0.02358154498 0.09128338584
548.75 0.01370661886 0.06206412504
549.375 0.00775413116 0.07152396583
550.0 -0.02843776105 0.0545795855
550.625 -0.022264645 0.02018359512
551.25 -0.02235953432 -0.01413058459
551.875 -0.04224453742 -0.02487724167
552.5 -0.0678628849 -0.02115107646
553.125 -0.07733890032 -0.001878991322
553.75 -0.06012189554 -0.01410369929
554.375 -0.08211881203 0.02102795341
555.0 -0.08169507299 0.04338701993
555.625 -0.06958693987 0.04626346948
556.25 -0.07906688364 0.04098427453
556.875 -0.08666585397 0.03704684688
557.5 -0.07602254588 0.04149335774
558.125 -0.07808419731 0.04649913993
558.75 -0.0728363768 0.02476669803
559.375 -0.04653358068 0.01733365453
560.0 -0.02500294749 0.009276699201
560.625 -0.03866810845 -0.01140462538
561.25 -0.0561204158 -0.01889430671
561.875 -0.07582318418 -0.003082927795
562.5 -0.06791532053 0.03367945121
563.125 -0.05243579389 0.07334109451
563.75 -0.03544980799 0.08047242844
564.375 -0.01184756269 0.08983822347
565.0 -0.0007084253306 0.08049925782
565.625 0.005377492574 0.07677585923
566.25 -0.0241448007 0.0576542235
566.875 -0.0484002107 0.0411913793
567.5 -0.05278728901 0.02909506124
568.125 -0.06343513963 0.03403136403
568.75 -0.06024578947 0.02686704079
569.375 -0.02221616319 -0.002317305891
570.0 -0.02047679242 -0.02027869061
570.625 -0.04741216067 -0.02664345738
571.25 -0.05153966932 -0.02157592277
571.875 -0.05115417403 -0.02157052134
572.5 -0.07854371418 -0.002554980177
573.125 -0.1010319091 0.05005379238
573.75 -0.0528847275 0.08570635401
574.375 -0.01609722061 0.06951492434
575.0 -0.02295552964 0.07267625247
575.625 -0.03850927399 0.07911141994
576.25 -0.02529483893 0.07611832793
576.875 0.00209231595 0.07545642989
577.5 0.01803987772 0.07884553138
578.125 -0.0008267079825 0.07056398292
578.75 7.863446298e-05 0.05320316235
579.375 0.001038376294 0.04532356756
580.0 -0.007476176236 0.03557756544
580.625 -0.01683628534 0.02644667307
581.25 -0.0387798882 0.02433260948
581.875 -0.06413384044 0.02680862853
582.5 -0.06839272898 0.04802545263
583.125 -0.05052695382 0.05504722587
583.75 -0.04323482192 0.06026915133
584.375 -0.06241162462 0.0221274695
585.0 -0.07447523747 0.02474224035
585.625 -0.05748858347 0.03354789883
586.25 -0.04762864568 0.04609878582
586.875 -0.05572059149 0.01082985444
587.5 -0.05599481964 0.02348017103
588.125 -0.023095204 0.05089000933
588.75 0.00368474272 0.05787685008
589.375 -0.03113176381 0.02469169672
590.0 -0.03598043107 0.02837861925
590.625 -0.03239829181 0.05215779443
591.25 -0.01004340151 0.07935880769
591.875 -0.00779478862 0.09587693958
592.5 0.01074695706 0.07986626642
593.125 0.01510022216 0.06245184779
593.75 0.02054273141 0.06893719648
594.375 -0.03281440836 0.04958612909
595.0 -0.02885277014 0.03364528523
595.625 -0.02697440339 0.01952172143
596.25 -0.03896421886 0.008833660787
596.875 -0.04261481792 -0.005003938474
597.5 -0.03963005047 -0.006807577033
598.125 -0.03029092041 -0.01187164522
598.75 -0.02217554285 -0.003014306069
599.375 -0.01690404265 -0.04346990954
600.0 -0.02808008057 -0.05672781133
600.625 -0.03847260795 -0.05868465017
601.25 -0.05766298652 -0.04083096278
601.875 -0.05791005799 -0.05313957576
602.5 -0.06417402252 -0.02573787291
603.125 -0.060404114 -0.02242972224
603.75 -0.04484560394 -0.02517060405
604.375 -0.02977639475 -0.01094690906
605.0 -0.01648371902 -0.03657281977
605.625 -0.01003375986 -0.06177592166
606.25 -0.01891134581 -0.04133385749
606.875 -0.03046636404 -0.01380127071
607.5 0.01242328763 -0.02303313515
608.125 0.01596754109 -0.02694676201
608.75 0.01167291593 -0.02371114341
609.375 0.01296071415 -0.01548121031
610.0 0.04054873512 -0.01792448223
610.625 0.0586347465 -0.03096430389
611.25 0.04327574646 -0.03040087652
611.875 0.03061049285 -0.0263575373
612.5 0.06323918894 -0.01385171919
613.125 0.0290249044 -0.01269464211
613.75 0.01802365319 0.001587548152
614.375 0.0267643852 0.009194731676
615.0 0.03499691452 0.01111471688
615.625 0.02292061785 0.006694130988
616.25 0.02165489921 0.008931772331
616.875 0.02732672996 0.02505984411
617.5 0.04489271211 0.03650249061
618.125 0.03828319412 0.02673005206
618.75 0.0224173994 0.02363075819
619.375 0.03183221346 0.03406828221
620.0 0.06202544567 0.04888077237
620.625 0.05207282585 0.01073063704
621.25 0.03541890386 -0.0004376408645
621.875 0.002128990633 -0.01894392952
622.5 -0.01159408192 0.008404067872
623.125 -0.0173817382 0.03593301568
623.75 -0.01794086779 0.0505857293
624.375 -0.01779715943 0.04912009326
625.0 -0.04087440919 0.03487388546
625.625 -0.03529087333 0.05655814353
626.25 -0.01002617386 0.08443960098
626.875 -0.01169721983 0.06778926285
627.5 -0.02040702646 0.04287927779
628.125 -0.01036582394 0.06582828606
628.75 -0.02662546534 0.04876845098
629.375 -0.02196349115 0.03509837951
630.0 -0.01410696777 0.003523956316
630.625 -0.02021425938 0.01980698675
631.25 -0.008048512143 -0.01936564282
631.875 -0.01359073672 -0.03831108847
632.5 -0.02279965679 -0.05655681593
633.125 -0.04929053868 -0.03246499797
633.75 -0.04002908062 -0.03998307388
634.375 -0.04342998285 -0.04866311493
635.0 -0.05291276153 -0.04198856776
635.625 -0.05784099058 -0.03845556339
636.25 -0.04694791489 -0.01431039666
636.875 -0.03753772449 -0.01738942514
637.5 -0.04965385393 -0.04462731973
638.125 -0.04955173923 -0.05748685671
638.75 -0.05670038191 -0.002952738939
639.375 -0.01582883344 -0.01681814421
640.0 0.02312553377 -0.03620096969
640.625 0.05784994881 -0.03637843533
641.25 0.03204152135 -0.04413014296
641.875 0.02945981814 -0.0383250627
642.5 0.05637826466 -0.0226342289
643.125 0.06804023335 -0.005338915999
643.75 0.04547639271 -0.03336680334
644.375 0.04049509558 -0.03907313685
645.0 0.04507200431 -0.02820206052
645.625 0.05293686738 -0.001349519203
646.25 0.0357533279 -0.01156950525
646.875 0.07248760545 -0.001852372496
647.5 0.06923747686 -0.005816500373
648.125 0.05694036184 0.001603770811
648.75 0.05860906003 0.03539564947
649.375 0.06480115972 0.05415958969
650.0 0.05855500199 0.06235078133
650.625 0.0556879838 0.05856637952
651.25 0.03398203793 0.07664322092
651.875 0.002485228355 0.07611263206
652.5 -0.002023769094 0.06157144866
653.125 -0.0135648628 0.05580206964
653.75 -0.03420041237 0.03424507148
654.375 -0.02757865945 -0.002493285582
655.0 -0.03270796636 -0.02338782831
655.625 -0.05305861548 -0.03694766285
656.25 -0.08753241023 -0.0316010072
656.875 -0.08042125017 -0.01587330331
657.5 -0.07009041621 -0.01824289184
658.125 -0.09059752849 -0.01872894761
658.75 -0.1335929788 -0.001330912886
659.375 -0.07068266885 0.04733153916
660.0 -0.05182766689 0.05861610359
660.625 -0.04224225742 0.05789086757
661.25 -0.05878571804 0.05875668141
661.875 -0.0210466248 0.0469726923
662.5 -0.01567123612 0.0390159534
663.125 -0.04809229575 0.04325804019
663.75 -0.0816763573 0.003996275558
664.375 -0.04384902339 -0.02645296707
665.0 -0.04200493581 -0.06925358558
665.625 -0.02568643514 -0.1063413553
666.25 0.001325863471 -0.0905337177
666.875 0.01712349312 -0.09067249521
667.5 0.0276060729 -0.09918365443
668.125 0.03481193179 -0.08685158702
668.75 0.02073553611 -0.05985555586
669.375 0.02892724844 -0.0438313825
670.0 0.04869160335 -0.04886006304
670.625 0.06247153014 -0.05002310449
671.25 0.04290075605 -0.0591550542
671.875 0.03595856293 -0.04933959918
672.5 0.01858754841 -0.08029114478
673.125 -0.002797286605 -0.1085014699
673.75 -0.02424932367 -0.09460420923
674.375 -0.006528566669 -0.09462453431
675.0 0.03493666467 -0.0820266239
675.625 0.05045002439 -0.05301126603
676.25 0.05140423018 -0.03592732328
676.875 0.06757022583 -0.0239293887
677.5 0.0588970422 0.01574218163
678.125 0.04119208632 0.02701436063
678.75 0.06715634215 0.04284014616
679.375 0.06410450949 0.06393371395
680.0 0.07137027083 0.06890433639
680.625 0.08202879504 0.03574433224
681.25 0.1092094152 0.001199130537
681.875 0.1075839669 -0.02952769104
682.5 0.09225164514 -0.06469590467
683.125 0.06066596817 -0.054373374
683.75 0.06443169166 -0.03850657879
684.375 0.09276377556 0.01690990433
685.0 0.02729280286 0.04148277186
685.625 -0.01204464691 0.05090780364
686.25 -0.04392794608 0.02722435315
686.875 -0.08505326894 0.0164011769
687.5 -0.07650982687 -0.02784326529
688.125 -0.1055929848 -0.028247321
688.75 -0.1162050156 -0.0386577749
689.375 -0.1141509754 -0.03636756475
690.0 -0.08505692722 -0.02480456793
690.625 -0.1027710329 -0.01914879946
691.25 -0.1117714648 0.006796911683
691.875 -0.05974746094 0.04072945225
692.5 -0.01498269291 0.04544510396
693.125 -0.001588447957 0.06519762571
693.75 0.02171624507 0.1013283571
694.375 0.04280294802 0.09363394335
695.0 0.02872496769 0.1023390424
695.625 -0.06340076442 0.07822186845
696.25 -0.11612632 -0.01809247838
696.875 -0.0715747928 -0.09942934135
697.5 0.00301206122 -0.1124919757
698.125 0.02344857927 -0.1016604768
698.75 0.02534438209 -0.06505346479
699.375 0.03740485273 -0.0500498841
700.0 0.05985828736 -0.061350602
700.625 0.0617760559 0.01356659361
701.25 0.0618825814 0.01490164884
701.875 0.07941215245 0.0006831592725
702.5 0.1046570563 -0.08301613083
703.125 0.07051196984 -0.1157435344
703.75 -0.04438202924 -0.09075894134
704.375 -0.07491082548 -0.04302957691
705.0 -0.07591178828 -0.05641126982
705.625 -0.03902925484 -0.10473887
706.25 0.03834759694 -0.04082732551
706.875 0.0497767082 0.005430883864
707.5 0.04089658097 0.04329063207
708.125 0.01661719319 0.08765733487
708.75 -0.05997565709 0.07393695657
709.375 -0.08158825285 0.04724515744
710.0 -0.08846380549 0.008599239556
710.625 -0.08354005952 -0.02632510254
711.25 -0.07746723407 -0.06825015239
711.875 -0.09662067505 -0.05817952914
712.5 -0.08895925347 0.0003611323327
713.125 -0.02735973273 0.07508236195
713.75 -0.01138476109 0.05096916729
714.375 0.005441034632 0.06969975753
715.0 0.008257394941 0.06572383557
715.625 -0.005002768672 0.05914940978
716.25 -0.01527237342 0.07203605058
716.875 -0.1118086956 0.04902938407
717.5 -0.1026403697 -0.01296720545
718.125 -0.08309041795 -0.01113372284
718.75 -0.0828626477 -0.01434184126
719.375 -0.07212792815 -0.05879072032
720.0 -0.01455996924 -0.08568367884
720.625 0.04405476436 -0.06643960116
721.25 0.06142070531 -0.01234214483
721.875 -0.007652905169 0.04453567755
722.5 -0.03713742142 0.04317753991
723.125 -0.03599730837 0.06752519839
723.75 0.04123399902 0.06603457496
724.375 0.07783929154 0.0341733244
725.0 0.06948618527 -0.02988258676
725.625 0.06374748143 -0.06468979213
726.25 0.05007545162 -0.0623683753
726.875 0.03489702825 -0.05200628251
727.5 0.05561101377 -0.01132376607
728.125 0.05573310169 0.0480168607
728.75 0.02935860714 0.05213631689
729.375 0.04016615591 0.01149145383
730.0 0.04507632283 0.01795733235
730.625 0.03036198508 0.03585777762
731.25 0.006915028201 0.05629898138
731.875 -0.03135685761 0.04439174576
732.5 -0.03949176796 0.01929488107
733.125 -0.08277983736 -0.03123651995
733.75 -0.05817989076 0.001931056434
734.375 -0.03105212587 0.01102054832
735.0 -0.05408696771 -0.005462816522
735.625 -0.04442008598 0.01012261462
736.25 -0.02016074568 0.005557903502
736.875 -0.04620708087 -0.001782560601
737.5 -0.07009107911 -0.0114579997
738.125 -0.07931845435 -0.01578294138
738.75 -0.06706862788 -0.003894800295
739.375 -0.03726747648 -0.01010857465
740.0 0.003288979076 -0.01806232071
740.625 -0.06502634907 -0.04308491328
741.25 -0.05432516844 -0.02183634992
741.875 -0.006162937439 -0.03893701748
742.5 0.02737814528 -0.008007254481
743.125 0.04460437831 0.04020316548
743.75 0.00290111796 0.04675374501
744.375 -0.007813163444 0.0419074537
745.0 -0.05640191519 0.01948542461
745.625 0.00701013831 0.08442914883
746.25 0.02631493848 0.07346217832
746.875 0.04987389692 0.04172591368
747.5 0.04223967631 0.002112975114
748.125 0.02122352033 -0.002414379633
748.75 0.02725774755 -0.02609825013
749.375 0.009288706401 -0.03959833694
750.0 -0.02671257403 -0.03107286713
