!Created with skrf (http://scikit-rf.org).
# GHz S RI R (50+0j) 
!freq	ReS11	ImS11	
500.0	0.6388307119	-3.670481269	
500.625	-1.180773739	-2.042883956	
501.25	-1.926370597	-2.562272177	
501.875	-1.141889794	-0.2685089905	
502.5	-0.2378566614	-0.4636204294	
503.125	-0.2144027324	0.1536136397	
503.75	0.0930991299	-0.007283725569	
504.375	0.1433240343	0.07459867077	
505.0	-0.03713405168	-0.1760383862	
505.625	0.103087804	0.02715372632	
506.25	-0.3860756625	-0.3949709735	
506.875	0.4252146811	-0.07060969729	
507.5	-1.471451264	-1.616643656	
508.125	0.5799663642	-0.03279623134	
508.75	2.419697702	-3.800236133	
509.375	-2.504286319	-3.40440197	
510.0	-0.3279591113	-0.264263299	
510.625	-0.553637209	-0.7393603343	
511.25	-0.418349655	-0.001305613256	
511.875	-0.3162435488	0.06916994307	
512.5	-0.142151399	0.1319353967	
513.125	-0.1437192774	-0.2383344908	
513.75	-0.09681700372	-0.1660469411	
514.375	-0.365315808	-0.04008575145	
515.0	0.652782666	0.5576981945	
515.625	-1.841126089	-2.040344781	
516.25	-0.4037731634	0.9297028838	
516.875	0.3768648509	-2.330561708	
517.5	-1.022378563	-0.5726070258	
518.125	0.2884780345	-0.1571385749	
518.75	-0.8538576031	-0.3302793936	
519.375	-0.03993048486	-0.03108873928	
520.0	0.4282009069	0.3019216664	
520.625	0.3618049928	-0.3956542214	
521.25	0.0007506353016	-0.3829835894	
521.875	-0.573036789	-0.1418389611	
522.5	0.04405122683	0.03221018579	
523.125	-0.2807749063	0.2363827784	
523.75	0.005346925819	-0.05943425156	
524.375	-0.6867555519	0.1341214471	
525.0	0.2351571251	0.1320715304	
525.625	-0.08524206933	0.2078759959	
526.25	0.09321772583	-0.2432193867	
526.875	-0.1910667635	0.3613447953	
527.5	0.1162233704	0.2437292516	
528.125	-0.1823474194	0.9047913238	
528.75	0.5463497143	0.7160083589	
529.375	-0.1041843773	0.1171343231	
530.0	0.4682909608	0.4359082341	
530.625	0.01783779851	0.5782534467	
531.25	1.521463981	0.04962455648	
531.875	0.2519140722	-0.2340183415	
532.5	-0.2607141492	-0.6903203849	
533.125	0.4231543919	0.5953560857	
533.75	-0.07509658628	-1.099283078	
534.375	-0.1713344504	-0.1480727767	
535.0	-0.8543273669	-0.6023270758	
535.625	-0.0688970444	0.5202447629	
536.25	-0.1329501653	0.1938917775	
536.875	0.3982811967	-0.02581607916	
537.5	-0.002144501443	-0.02539229992	
538.125	0.492030572	-0.1047460293	
538.75	0.1344399469	-0.4323188158	
539.375	-0.07713944406	-0.294468915	
540.0	-0.3905336471	-0.3996625444	
540.625	-0.4124058565	-0.01975314939	
541.25	-0.1477607815	0.04416770475	
541.875	-0.1671014217	-0.05815277811	
542.5	-0.04158862277	-0.08584791046	
543.125	-0.2268087205	-0.1493528919	
543.75	-0.2024810636	0.1218210428	
544.375	-0.05973930879	-0.03198257696	
545.0	-0.009025074204	0.3172641283	
545.625	0.1069780014	-0.1502756824	
546.25	0.2121564893	0.4006100404	
546.875	0.2694520705	-0.3406603205	
547.5	0.1586141468	-0.06690985294	
548.125	-0.1209708469	-0.6089927838	
548.75	-0.3072363983	0.01104671862	
549.375	-0.1294767238	-0.2983349543	
550.0	-0.2963227452	0.1116611503	
550.625	0.02152176112	-0.01834765335	
551.25	-0.3120774929	0.07728083886	
551.875	-0.04503008393	0.2197834791	
552.5	-0.1340183527	0.1305347931	
553.125	0.001491529274	0.1952782066	
553.75	0.08975152211	0.09447104762	
554.375	0.2432348649	-0.008701558242	
555.0	0.2013342808	-0.1804741865	
555.625	0.1813588347	-0.2459328233	
556.25	0.1462068301	-0.3461843319	
556.875	-0.1115995238	-0.3712664823	
557.5	-0.2317172012	-0.2103771737	
558.125	-0.2575031492	-0.08458812925	
558.75	-0.272403021	0.009257699945	
559.375	-0.2119382817	0.07238087359	
560.0	-0.2520409674	0.1492428857	
560.625	-0.06037013149	0.3120972671	
561.25	0.002978347188	0.1261294021	
561.875	0.09296622358	0.2013635937	
562.5	0.04904874677	0.007076579946	
563.125	0.09167809439	0.2570872229	
563.75	0.4092606341	-0.1023455393	
564.375	0.1474841644	-0.1612389205	
565.0	0.2793160653	-0.3722654482	
565.625	-0.2161035852	-0.3055058322	
566.25	-0.125257983	-0.2660512016	
566.875	-0.4527534331	-0.1831876235	
567.5	-0.2448897395	-0.08037745136	
568.125	-0.2366578903	-0.4923889527	
568.75	-0.7041181384	-0.1018121168	
569.375	-0.2746353233	0.3103433894	
570.0	-0.4872014536	0.2444408529	
570.625	-0.005779237773	0.768251413	
571.25	0.0112387394	-0.07075729568	
571.875	0.2706946819	0.5062628913	
572.5	-0.05967751951	-0.2407448256	
573.125	0.5638547025	-0.106010268	
573.75	-0.1137827845	-0.5580870632	
574.375	-0.06374400676	0.1605614954	
575.0	0.3155913705	-0.2678233906	
575.625	-0.2423603195	-0.09899226433	
576.25	0.3757838984	-0.1038317971	
576.875	-0.1623163409	-0.5358768581	
577.5	-0.1185618773	-0.09424783531	
578.125	0.1338959432	-0.4909391199	
578.75	-0.4773720168	-0.2982249463	
579.375	-0.07136478756	0.03457787356	
580.0	-0.06033539857	-0.2819315614	
580.625	-0.2778106589	0.1726574798	
581.25	-0.05804002005	-0.09874368233	
581.875	-0.2146655425	0.6313321206	
582.5	0.5107323256	0.2193528588	
583.125	-0.2143820524	-0.01986611593	
583.75	0.5213950431	0.293750238	
584.375	-0.3853857313	-0.05015050085	
585.0	0.6111355638	0.3182369032	
585.625	0.1619548804	-0.3657746611	
586.25	0.2505191814	0.1961548569	
586.875	0.3313137859	-0.5290858495	
587.5	-0.2911082505	-0.1438929218	
588.125	0.2229631121	-0.2747232883	
588.75	-0.07017197079	-0.5782765031	
589.375	0.060408989	-0.02721922574	
590.0	-0.1048963217	-0.7049799056	
590.625	-0.349638663	0.163028697	
591.25	-0.2994950026	0.04387657454	
591.875	-0.1765333459	0.3679704476	
592.5	0.1997540775	0.1928137097	
593.125	-0.3162851351	-0.06624442006	
593.75	0.4240971799	0.4293162851	
594.375	0.1175098772	-0.06409062297	
595.0	0.3208409594	0.6201897734	
595.625	0.6729331407	-0.2241197838	
596.25	0.05255889931	0.3693072155	
596.875	0.7350004832	0.06153870106	
597.5	0.03480968704	-0.1821308826	
598.125	0.2954185512	0.6754046131	
598.75	0.6212096029	0.0349144583	
599.375	0.2571816968	-0.1062452519	
600.0	0.5014019054	-0.2080944073	
600.625	0.2394728969	-0.5898239033	
601.25	0.1444237229	-0.2326666288	
601.875	-0.17972792	-0.4733026255	
602.5	-0.1987923414	0.1279120576	
603.125	-0.3642178967	-0.00147540611	
603.75	-0.1839726303	0.28217433	
604.375	-0.2422489372	0.1268359307	
605.0	-0.02331120456	0.09732706012	
605.625	-0.4223866317	0.2056754845	
606.25	0.08534788208	0.2665670847	
606.875	-0.6183839932	-0.2561792321	
607.5	-0.1860430963	0.9219364808	
608.125	-0.1282456999	0.1418886902	
608.75	0.5477791032	0.7867886529	
609.375	0.1648846133	-0.4732844504	
610.0	0.5745867078	0.08054846251	
610.625	0.07541376143	-0.6891589585	
611.25	0.03221058962	-0.006339433885	
611.875	-0.3868136679	-0.559637383	
612.5	-0.1506209008	0.03233329102	
613.125	-0.5828665038	-0.06898184133	
613.75	0.04517760351	0.5164718779	
614.375	-0.234317278	0.1895442024	
615.0	0.4038690109	0.08713702923	
615.625	-0.2953006924	0.05308287609	
616.25	0.01069738611	0.6801524594	
616.875	0.02326818018	0.07359677949	
617.5	-0.4347796179	0.6383378103	
618.125	0.2695046516	0.5255761391	
618.75	-0.1428745943	0.2669521583	
619.375	0.4167614593	0.4592506239	
620.0	0.2459790461	0.007078864349	
620.625	0.3623342539	-0.3955705499	
621.25	-0.2739719834	-0.2781845686	
621.875	-0.4542465214	-0.3169785498	
622.5	-0.4008713478	0.3400990581	
623.125	-0.2125472399	0.219826091	
623.75	0.5915969585	0.1508435932	
624.375	-0.2526619743	-0.02365743891	
625.0	0.4257822517	-0.4251745216	
625.625	-0.04695490869	0.162917381	
626.25	0.04874331862	-0.5954122761	
626.875	-0.5535100904	0.1034538577	
627.5	0.117715148	-0.2541941982	
628.125	-0.5792809574	-0.3061570529	
628.75	-0.1881974401	-0.02754296126	
629.375	-0.04106594756	-0.3620857855	
630.0	-0.5845056407	-0.2977736963	
630.625	-0.2926303878	0.2653677296	
631.25	-0.4611530637	0.3826332914	
631.875	0.1174570214	0.6315461892	
632.5	0.2254496519	0.2794231762	
633.125	0.5928137016	0.2487372542	
633.75	0.2718013428	-0.3165331882	
634.375	0.09029753253	-0.2094695333	
635.0	0.08896946376	-0.3584406618	
635.625	-0.6030226309	-0.1712423361	
636.25	0.08873243133	0.2673275264	
636.875	-0.6286745556	0.1660064114	
637.5	0.2973776294	0.453160849	
638.125	-0.4216552856	-0.1567908482	
638.75	0.05030323423	0.8155451528	
639.375	-0.06534612035	-0.01855370185	
640.0	0.2926335741	1.000078856	
640.625	0.81557328	-0.1362750737	
641.25	0.198971549	0.1307662204	
641.875	0.7679918891	-0.2841458059	
642.5	-0.3807662578	-0.7657666274	
643.125	-0.08958970937	0.04698324952	
643.75	-0.3467764198	-0.4223411137	
644.375	-0.402290758	0.3194413503	
645.0	-0.4294847883	-0.02050135874	
645.625	0.3596627178	0.6852503138	
646.25	0.2055998692	-0.06729898329	
646.875	0.1803677877	0.2163521307	
647.5	0.4030438617	-0.2652045111	
648.125	-0.1488614853	0.3036932115	
648.75	1.113965864	-0.01885539671	
649.375	0.1295002183	-1.114938473	
650.0	0.1120512822	0.02927930547	
650.625	1.013942064	-0.9597260364	
651.25	-0.365756295	-0.755573892	
651.875	0.7514424812	0.2588525765	
652.5	0.9844091632	-0.8528226979	
653.125	-0.08524695547	-0.1422640854	
653.75	0.9493100047	-0.5117967808	
654.375	-0.6077986	-0.8647749979	
655.0	-0.3495661507	0.2378914639	
655.625	-0.6426795992	0.01778039536	
656.25	0.3670853032	0.8112114993	
656.875	-0.1399159184	-0.2160434873	
657.5	0.2367248056	0.5071122169	
658.125	0.4052826478	0.03722857468	
658.75	0.3448609557	0.3513613298	
659.375	1.119317993	-0.4861411567	
660.0	0.04015346629	-0.7979207074	
660.625	0.3375662004	-0.3597320236	
661.25	0.7353124589	-0.896926516	
661.875	-0.1706408611	-0.8886738257	
662.5	0.7666589864	0.1114027548	
663.125	0.6469720727	-1.002408019	
663.75	-0.0915353456	-0.327605374	
664.375	0.3373836589	-0.9923935081	
665.0	-1.083170849	-0.1753634392	
665.625	-0.2788196167	0.1763331853	
666.25	-0.4678860951	0.5476799462	
666.875	0.5705424771	0.566518699	
667.5	0.08682726666	-0.02170743146	
668.125	0.8245066068	0.008987003822	
668.75	0.1467385907	-0.460826254	
669.375	0.3526976156	-0.2376729398	
670.0	-0.08929795863	-0.8599382339	
670.625	-0.2054278871	-0.1260035992	
671.25	0.3294031036	-0.3509875211	
671.875	0.4030587156	-0.5663861425	
672.5	0.1550406742	-0.5788974325	
673.125	0.2937199037	0.0360071488	
673.75	0.5756321358	-1.004686294	
674.375	-0.2534312697	-0.1876119168	
675.0	0.1087286243	-0.7713719405	
675.625	-0.9692515268	-0.0617541041	
676.25	0.2769485562	-0.08621426778	
676.875	-0.9705668312	-0.06262678927	
677.5	0.06381662226	0.4669446732	
678.125	-0.3578630822	-0.03602532317	
678.75	0.04723004939	0.8653786341	
679.375	0.6485418028	-0.2880503921	
680.0	0.1455514781	0.09767243567	
680.625	0.4093670663	-0.3842047332	
681.25	-0.250962404	-0.08568010853	
681.875	0.7854891636	0.3540007193	
682.5	0.3355735178	-0.1834739565	
683.125	0.3644391609	0.2726954473	
683.75	0.6907685149	0.3101090167	
684.375	0.9055902343	-0.1928233704	
685.0	0.0372302813	-0.2098218919	
685.625	0.9849018873	0.6885200331	
686.25	0.8060214964	-0.9967497878	
686.875	0.09185919676	0.3353540289	
687.5	1.242117603	-1.535220476	
688.125	-0.7107576149	-0.04002986419	
688.75	-0.8411181673	-1.126858593	
689.375	-0.4768654845	1.647934047	
690.0	0.06427052279	-0.09122467822	
690.625	0.8134764469	1.26438643	
691.25	0.8178173729	0.1070154184	
691.875	0.7794429009	0.7108189443	
692.5	1.51642944	0.514520185	
693.125	1.309607046	-0.3308936161	
693.75	1.30708838	-0.5201923539	
694.375	0.8239170031	-0.9597404004	
695.0	1.049865437	-0.5741310636	
695.625	1.022045495	-0.4706150755	
696.25	0.8733549754	0.5021727458	
696.875	1.735883177	0.7767521209	
697.5	0.5342392873	0.2942097713	
698.125	1.828602663	0.9459723753	
698.75	0.1336857258	-1.799542099	
699.375	-0.1126228868	-0.8538449133	
700.0	-0.772128157	1.570391402	
700.625	0.4471452346	-0.0270880998	
701.25	0.6215412262	1.134360057	
701.875	0.6661069946	-0.1385296418	
702.5	0.4743903493	0.8604291057	
703.125	1.38955855	0.01297089107	
703.75	0.2670143562	-0.09539691214	
704.375	1.16116174	-0.5390133532	
705.0	0.1305230606	-0.6002167841	
705.625	0.5816738984	0.6526696072	
706.25	1.14879447	-0.1590753488	
706.875	0.01324812373	0.5969596266	
707.5	1.228482354	1.211969386	
708.125	0.5464073863	-0.5443082534	
708.75	1.060886121	-0.6533257769	
709.375	-1.241497613	-0.518563678	
710.0	-0.1127853511	0.4084266644	
710.625	0.1843938578	0.4925968727	
711.25	0.2204338934	0.1523994886	
711.875	0.5034415103	0.2541340751	
712.5	0.7102114898	-0.1975064419	
713.125	0.6543500489	-0.3633209319	
713.75	0.128950975	-0.6296192765	
714.375	0.1618621017	-0.3992884485	
715.0	-0.2680797748	-0.7502821299	
715.625	-0.1490170782	-0.04764202829	
716.25	1.11164551	-0.5571492295	
716.875	0.3917375599	-1.554462545	
717.5	0.3498943997	0.8651092143	
718.125	2.829346504	-0.1323304626	
718.75	0.6878701681	-1.796948213	
719.375	3.014873922	0.4584178543	
720.0	-1.028688699	-3.853345543	
720.625	1.02625273	-1.167794922	
721.25	0.02103049312	-3.344591963	
721.875	-2.067811482	-2.350438495	
722.5	-0.910474693	-0.7833500561	
723.125	-2.222303377	-0.6555773201	
723.75	-0.5840310017	1.506280262	
724.375	0.2416598545	0.7958897795	
725.0	0.1136010065	1.005567684	
725.625	0.99222855	0.8890049553	
726.25	-0.08587381193	1.044400649	
726.875	-0.4064699435	2.794237926	
727.5	1.77748234	4.10257895	
728.125	-0.3944270042	1.043097751	
728.75	-1.937066302	9.835689923	
729.375	6.690055353	9.46471458	
730.0	-2.613999248	1.790958467	
730.625	-0.8106731389	20.35644749	
731.25	8.75519149	1.253471566	
731.875	-11.18335503	6.71536713	
732.5	-8.875404762	8.414095151	
733.125	-1.165913354	1.614665672	
733.75	-3.933905493	3.800222211	
734.375	3.353657823	-0.3782673313	
735.0	-0.5254475702	-0.6921470749	
735.625	-1.018895501	-0.2906590234	
736.25	0.2936472067	2.075400119	
736.875	0.4576448926	0.0811007574	
737.5	3.362396029	1.104360614	
738.125	3.76380598	-2.728942368	
738.75	0.8923581703	-2.29947057	
739.375	10.6027313	0.5653477074	
740.0	8.781219389	-14.54539474	
740.625	-6.745769088	-2.602028673	
741.25	0.8614702001	16.73089721	
741.875	20.24405201	29.43179725	
742.5	6.866865711	-8.523672176	
743.125	-2.639063108	-8.599873492	
743.75	-1.649998653	0.02524473805	
744.375	-1.231353124	-1.563573832	
745.0	0.9291692625	0.0760531732	
745.625	0.1739805206	0.3504745877	
746.25	-0.2327871124	-0.3522630841	
746.875	0.0541860756	0.3901926517	
747.5	-0.2897932406	0.6439745363	
748.125	0.5065328537	1.5300356	
748.75	0.7599735604	0.8397914785	
749.375	-0.1592709627	0.8149299241	
750.0	-1.098030815	-3.469475602	
