!Created with skrf (http://scikit-rf.org).
# GHz S RI R (50+0j) 
!freq	ReS11	ImS11	
500.0	-0.1530578046	-2.461358172	
500.625	1.864439766	-2.754985779	
501.25	-2.619675797	-0.660033161	
501.875	-0.6350505673	-1.478293455	
502.5	-0.3708212755	-0.3248058773	
503.125	-0.09151444868	0.1622285516	
503.75	-0.1578726497	0.111632887	
504.375	0.1690141221	-0.06635755153	
505.0	-0.06080281938	0.01471134138	
505.625	0.1112962452	-0.2714174514	
506.25	-0.3255556791	0.1651754119	
506.875	-0.9923913724	-0.6205866546	
507.5	-0.1388429169	0.915991334	
508.125	1.640692289	-2.626331755	
508.75	0.1772003902	-4.251445469	
509.375	-1.946409947	-1.357426387	
510.0	-0.4762612988	-1.244319093	
510.625	-0.8670858782	-0.60762494	
511.25	-0.3124972583	0.0190887175	
511.875	-0.320233778	-0.1308470694	
512.5	0.08863210135	0.06833404836	
513.125	-0.01469614219	-0.2332839406	
513.75	-0.2554939598	-0.2788766588	
514.375	-0.1997885885	0.2258797035	
515.0	0.485378961	-1.136726898	
515.625	-1.596172478	0.3817348484	
516.25	1.844667695	-2.631474056	
516.875	-2.3251169	-1.987970731	
517.5	-0.2151064416	0.3682756804	
518.125	-0.2060327004	-0.4700500925	
518.75	-0.07431165409	0.3312510211	
519.375	-0.3213150815	0.07551802603	
520.0	0.4661294003	-0.004657452744	
520.625	0.2252217366	-0.1435513462	
521.25	0.1733859723	-0.9145506608	
521.875	-0.37482884	0.1788425595	
522.5	-0.1436130892	-0.06454866546	
523.125	-0.004496101606	0.2210069497	
523.75	-0.3512727415	-0.2711615764	
524.375	-0.2434517823	0.4453027482	
525.0	-0.2425952171	0.09285694486	
525.625	0.2799609592	0.2985614588	
526.25	-0.2911412512	-0.06317613473	
526.875	0.08592001034	0.1610573018	
527.5	-0.4030079834	0.3016694739	
528.125	0.4476732043	1.056540858	
528.75	0.1427021495	0.1835884457	
529.375	0.1514465323	0.3984505708	
530.0	0.1694452708	0.02150240259	
530.625	0.3273061919	1.228073039	
531.25	0.7128476056	-0.2178443037	
531.875	0.8780766088	-0.3193128057	
532.5	-0.6855226012	0.06917076452	
533.125	0.7113699996	-0.5184368239	
533.75	-0.384245978	-0.2306076991	
534.375	0.2305651259	-1.09614809	
535.0	-0.9199206495	0.2886717397	
535.625	-0.2746691462	0.02697474069	
536.25	-0.03126946839	0.3821526346	
536.875	0.1332072302	-0.1504436955	
537.5	0.2521956808	0.02476402593	
538.125	0.3018004127	-0.3262988648	
538.75	0.153659438	-0.1803264592	
539.375	-0.1175221593	-0.4594872939	
540.0	-0.4672194353	-0.2859684692	
540.625	-0.3098359918	-0.03824222864	
541.25	-0.2677134106	-0.004993605991	
541.875	-0.0159931578	0.02954882604	
542.5	-0.1374944374	-0.1823274228	
543.125	-0.262346964	-0.02589997546	
543.75	-0.06639546879	0.05489477865	
544.375	-0.2725453177	0.04731085078	
545.0	0.2322047015	0.1421543922	
545.625	-0.1721281769	0.2052269615	
546.25	0.5147551708	-0.006846076873	
546.875	0.01640722203	-0.01652145742	
547.5	0.3953421571	-0.3814183212	
548.125	-0.3489927911	-0.1969854983	
548.75	-0.06568324768	-0.3278796273	
549.375	-0.4141970352	-0.2368615473	
550.0	-0.08474614513	0.1587750557	
550.625	-0.1661822285	-0.1263241288	
551.25	-0.1411133268	0.2153996771	
551.875	-0.13957495	0.07061873713	
552.5	-0.1271273231	0.2584715522	
553.125	0.0001222713565	0.1081133383	
553.75	0.1262935161	0.1393976582	
554.375	0.2091440066	-0.03824371878	
555.0	0.2147384343	-0.1543804417	
555.625	0.1934359455	-0.2654343554	
556.25	0.1285253221	-0.3493777599	
556.875	-0.1041440491	-0.3558779996	
557.5	-0.2230518083	-0.2265719179	
558.125	-0.2783351308	-0.08587103097	
558.75	-0.2361669508	0.0258917823	
559.375	-0.2445795468	0.02276745019	
560.0	-0.2203704086	0.2291352178	
560.625	-0.05989426577	0.1922057268	
561.25	-0.04652337569	0.274026918	
561.875	0.164246011	0.06833027281	
562.5	-0.08091312362	0.09614310737	
563.125	0.2812109952	0.2087771815	
563.75	0.1821015585	-0.07826004175	
564.375	0.3932195744	-0.1520681145	
565.0	0.04348672787	-0.4446331995	
565.625	0.009492174317	-0.2262515747	
566.25	-0.3538448644	-0.3489244865	
566.875	-0.2836683542	-0.008268861874	
567.5	-0.2136241342	-0.3264711987	
568.125	-0.4912396368	-0.4488215012	
568.75	-0.4536427526	0.04872023859	
569.375	-0.5046501249	-0.04618026853	
570.0	-0.3377013067	0.7919515024	
570.625	0.1513464628	0.2107490424	
571.25	-0.3527041952	0.368699515	
571.875	0.4015256594	-0.1317322348	
572.5	0.2282978419	0.375484402	
573.125	0.240790084	-0.6082153002	
573.75	-0.1991369928	-0.02350077037	
574.375	0.3527887063	-0.1208122846	
575.0	-0.2044255669	-0.2963453235	
575.625	0.2783280566	0.06365435807	
576.25	0.1310683576	-0.5312117587	
576.875	-0.1864927766	-0.06147193164	
577.5	0.3050043706	-0.38896427	
578.125	-0.3524847955	-0.5081194912	
578.75	-0.1770088215	-0.04397796444	
579.375	-0.008525849802	-0.2588906647	
580.0	-0.3581170115	-0.1202967681	
580.625	0.1218898142	0.03314684277	
581.25	-0.5472598943	0.1303056335	
581.875	0.3421109791	0.4201419455	
582.5	-0.09331437992	0.003639203136	
583.125	0.1948238305	0.6192244257	
583.75	0.04328390376	-0.4341096803	
584.375	0.08490555488	0.5404837691	
585.0	0.39217678	-0.3033870039	
585.625	0.03624104368	0.2388641225	
586.25	0.6364584977	-0.1299030102	
586.875	-0.1199893465	-0.4132482128	
587.5	0.1678633737	-0.1515771515	
588.125	-0.1403244264	-0.5766341441	
588.75	-0.09393375165	-0.03075258136	
589.375	0.4211804466	-0.4961100934	
590.0	-0.3730856791	-0.2848468728	
590.625	-0.1714741059	-0.2233562052	
591.25	-0.4596050375	0.2850443818	
591.875	0.03892362816	0.4102006438	
592.5	0.08270330785	-0.1298700129	
593.125	-0.1715791889	0.3763224228	
593.75	0.1909016355	-0.06449431806	
594.375	0.1822122058	0.5568057465	
595.0	0.717572342	0.00338107163	
595.625	0.01982685106	0.1892394154	
596.25	0.6558424898	0.285568819	
596.875	0.137071607	-0.3556981979	
597.5	0.1743649167	0.6103420207	
598.125	0.6935187232	0.1895904836	
598.75	0.2593147312	-0.008994662305	
599.375	0.5013876065	0.122103361	
600.0	0.3821624305	-0.5253147539	
600.625	0.181137724	-0.2383683599	
601.25	0.3184410213	-0.4932058697	
601.875	-0.3370931072	-0.204006831	
602.5	-0.1993026535	-0.2149500072	
603.125	-0.2851065497	0.269519646	
603.75	-0.1653396463	0.1065217147	
604.375	-0.156477196	0.2007924017	
605.0	-0.3248808366	0.07490739673	
605.625	0.01279539173	0.3926768241	
606.25	-0.2544513898	-0.2925806619	
606.875	-0.577881806	0.682689462	
607.5	-0.02825987684	0.1272689184	
608.125	-0.4549564603	0.7600357452	
608.75	0.7079871579	-0.03374525813	
609.375	0.3608772361	0.3177658036	
610.0	0.5938952452	-0.5651229779	
610.625	-0.1513960665	-0.1297572691	
611.25	0.2695549979	-0.6054498935	
611.875	-0.2971722504	-0.0119576918	
612.5	-0.2853612128	-0.3272016609	
613.125	-0.5311091059	0.3568226405	
613.75	-0.2088828109	-0.03074853356	
614.375	0.1812641112	0.496369338	
615.0	-0.01344933247	-0.2197348534	
615.625	-0.003490671796	0.5829331289	
616.25	0.1372803498	0.0379609221	
616.875	-0.4987439925	0.4272207744	
617.5	0.1128154366	0.7204186837	
618.125	-0.1332904511	0.1431018084	
618.75	0.1217612831	0.6878538708	
619.375	0.2568835164	0.1184823124	
620.0	0.4303287641	0.2642492578	
620.625	0.1114242723	-0.4403128349	
621.25	-0.08344630058	-0.4181329562	
621.875	-0.5775478168	-0.05144345331	
622.5	-0.3062068331	0.01847357615	
623.125	-0.1953590017	0.6452186352	
623.75	0.2252329642	-0.2432902166	
624.375	0.4041273811	0.07693293969	
625.0	-0.2834066514	-0.03549213812	
625.625	0.4214016721	-0.1862846385	
626.25	-0.5129459259	-0.3213534305	
626.875	0.1566859211	-0.1354423211	
627.5	-0.6417281671	-0.2990709514	
628.125	-0.2965139226	0.102761593	
628.75	0.02876346818	-0.2491276343	
629.375	-0.2900398112	-0.5319399037	
630.0	-0.3578652372	0.02442891623	
630.625	-0.5410283916	0.01737804256	
631.25	-0.2383863098	0.6139058573	
631.875	0.006832939177	0.3205166784	
632.5	0.3525708225	0.6611580954	
633.125	0.4879813029	-0.105998332	
633.75	0.2838134153	-0.1122098723	
634.375	0.1909280008	-0.2139788273	
635.0	-0.1241513581	-0.5766449331	
635.625	-0.1725055321	0.2369443742	
636.25	-0.5921663283	-0.2054099095	
636.875	0.01849332779	0.6565224779	
637.5	-0.0279232957	-0.2490606793	
638.125	-0.2477186523	0.7269392698	
638.75	-0.009780126188	-0.1133218206	
639.375	-0.2748082776	0.9221227346	
640.0	0.8024364975	0.3226803492	
640.625	0.04893330228	0.1630956355	
641.25	0.9403885249	0.2683015069	
641.875	0.2992718064	-0.7966707212	
642.5	-0.2333503427	-0.1474266284	
643.125	-0.125165268	-0.5567557221	
643.75	-0.5763097999	0.1219194792	
644.375	-0.2251280572	-0.3711145054	
645.0	-0.3505725687	0.6720094104	
645.625	0.218385622	0.1685502423	
646.25	0.1735700096	0.4395636222	
646.875	0.5364078739	-0.262974616	
647.5	-0.2624025548	0.01248592854	
648.125	0.6282502294	0.4513782727	
648.75	0.571444814	-0.7549779569	
649.375	0.02823993047	0.04641932721	
650.0	1.10909418	-1.018194388	
650.625	-0.4243934775	-0.8545201658	
651.25	0.6717983272	0.1494241638	
651.875	0.9594397376	-1.069800998	
652.5	-0.1886119195	-0.2233056586	
653.125	1.03702751	0.05782851564	
653.75	0.2006639092	-1.041115238	
654.375	-0.2998178707	-0.1594512627	
655.0	-0.4732259515	-0.6479993162	
655.625	-0.4152658927	0.9854360295	
656.25	0.1719729581	-0.03536037362	
656.875	-0.03886293442	0.4692524766	
657.5	0.3362818224	-0.07206224581	
658.125	-0.04401570276	0.5072651844	
658.75	1.033830641	0.1096322317	
659.375	0.4524320323	-0.5463689063	
660.0	0.3697214678	-0.3303385129	
660.625	0.7197078285	-1.042603959	
661.25	-0.3515301565	-0.7623691587	
661.875	0.7326231323	-0.09690255899	
662.5	0.7209904588	-0.9370844382	
663.125	-0.0112149131	-0.4382732844	
663.75	0.9033779457	-0.5030411013	
664.375	-0.6888685483	-0.883724722	
665.0	-0.2715159511	-0.1173648888	
665.625	-0.8605551669	-0.02492095742	
666.25	-0.04622050748	0.9152109834	
666.875	0.08208608828	0.1113680705	
667.5	0.5968342827	0.3988608184	
668.125	0.3628820537	-0.3405249411	
668.75	0.4488714062	0.01977321122	
669.375	0.2086354234	-0.9098479882	
670.0	-0.1923463064	-0.2143065353	
670.625	0.1764850613	-0.3563352935	
671.25	0.2119448972	-0.5611108759	
671.875	-0.01980342711	-0.5801930638	
672.5	0.3524769887	0.1171051185	
673.125	0.6683643416	-0.8098654317	
673.75	-0.0387958914	-0.3400626876	
674.375	0.4634172497	-0.5571064383	
675.0	-0.8226604779	-0.6073012683	
675.625	0.1352131493	-0.04560133824	
676.25	-0.8577484553	-0.4027147975	
676.875	-0.2662783534	0.5580082772	
677.5	-0.07972802472	-0.2905183579	
678.125	-0.6068042148	0.6027064304	
678.75	0.4764973374	0.3080650669	
679.375	0.1785907165	0.2495660743	
680.0	0.6699917273	-0.3441852791	
680.625	-0.356073817	-0.108299773	
681.25	0.6224465403	0.04218817945	
681.875	0.2546764587	-0.2174394817	
682.5	0.1299498929	0.3095660139	
683.125	0.8280392657	0.3269862384	
683.75	0.7713666739	-0.180333831	
684.375	0.2306531069	-0.1416791904	
685.0	0.6901372952	0.6189843793	
685.625	1.12187723	-0.6291227805	
686.25	-0.2672214175	0.2208208873	
686.875	1.663136349	-0.8373220334	
687.5	-0.4223449754	-0.4711255237	
688.125	0.5736436991	-1.126411615	
688.75	-1.911235991	0.02096669147	
689.375	0.1552108985	0.03886622618	
690.0	-0.03842605183	1.541375346	
690.625	0.8455385094	0.06252461977	
691.25	0.3798815077	0.5965959168	
691.875	1.256662633	0.837190154	
692.5	1.179410666	0.1176458501	
693.125	1.479858173	0.02353237018	
693.75	1.298190174	-0.6985033545	
694.375	0.8167949882	-0.8179837189	
695.0	0.9965530915	-0.8440921108	
695.625	0.9109625933	-0.1086507971	
696.25	1.656621067	0.2010632381	
696.875	0.6546554412	0.2024252316	
697.5	0.9482465273	1.64146095	
698.125	1.686937921	-0.7448202212	
698.75	0.889222857	-0.2154754415	
699.375	-1.680999103	-1.096870014	
700.0	0.284427698	0.7301055619	
700.625	-0.1930424349	1.240358655	
701.25	0.8333741409	-0.1880198869	
701.875	0.1277019509	0.7205008808	
702.5	1.400822667	0.552782106	
703.125	0.3486354929	0.09028846347	
703.75	1.292850768	-0.08364817029	
704.375	0.2892696244	-0.8009355113	
705.0	0.6043293877	0.2816692164	
705.625	0.9163382224	-0.66479165	
706.25	0.07173487006	0.3340144714	
706.875	0.9932121978	1.182285207	
707.5	0.6635550086	-0.1850348784	
708.125	1.138011776	0.7323909378	
708.75	0.4023072742	-1.445137849	
709.375	-0.5236301623	-0.1921962523	
710.0	-0.5366766076	0.5357957727	
710.625	0.4363930937	0.2759473992	
711.25	0.1331840533	0.3263292985	
711.875	0.6180801564	0.1101832292	
712.5	0.7277543057	-0.06116285906	
713.125	0.5129908974	-0.4570882788	
713.75	0.2907806042	-0.4833662569	
714.375	-0.0245200306	-0.7746955227	
715.0	-0.3118094423	-0.09002536784	
715.625	0.6510281545	-0.6544452476	
716.25	-0.3876845207	-1.141766545	
716.875	0.5307038316	0.4524093476	
717.5	2.26690815	-0.1930434344	
718.125	0.4122321293	-1.577481753	
718.75	2.834095302	1.335756411	
719.375	0.9236015769	-3.212871073	
720.0	0.6032384818	-0.5293396521	
720.625	1.482211686	-4.285113026	
721.25	-2.071596591	-2.044267535	
721.875	-0.05293752255	-1.570316287	
722.5	-1.944768256	-2.272706511	
723.125	-2.153760038	0.4427787971	
723.75	-0.5209109731	0.7844233218	
724.375	-0.1161259271	1.436356017	
725.0	0.6550633665	0.442278512	
725.625	0.1556269844	0.9415290963	
726.25	0.01129300952	1.944127527	
726.875	1.278737629	2.450023844	
727.5	-1.110914284	1.297507993	
728.125	-1.004117616	7.96165562	
728.75	5.580849095	4.298621338	
729.375	-3.744003309	1.218277904	
730.0	-1.719616536	20.28336916	
730.625	4.416470684	0.7544014953	
731.25	-8.530756713	8.764885669	
731.875	-2.038788744	16.79207896	
732.5	-1.785065724	-2.377789789	
733.125	-9.434798467	3.022034797	
733.75	-0.01940831908	4.215684913	
734.375	1.68104536	-0.3116797513	
735.0	0.8225406088	-1.295927506	
735.625	-1.556858296	1.384528117	
736.25	-0.3162372374	0.2661520992	
736.875	1.3382919	1.862641051	
737.5	3.05761179	-0.9401513533	
738.125	1.706804855	0.4179655548	
738.75	7.405292179	-3.991462847	
739.375	2.541965405	-9.839101714	
740.0	-3.385313902	0.500036902	
740.625	12.9018899	17.17683383	
741.25	21.98294733	-9.4917342	
741.875	-4.674010881	-11.67347613	
742.5	-12.64597125	-20.71528677	
743.125	-2.479409327	2.17907239	
743.75	1.148931395	-6.120635263	
744.375	-1.342351571	1.570134539	
745.0	-0.3618196174	-0.205433649	
745.625	0.3786749137	-0.1830903071	
746.25	-0.1505411501	-0.01045850562	
746.875	-0.427626696	-0.3478953335	
747.5	-0.05937204975	1.136045931	
748.125	0.9194176948	0.8611332366	
748.75	0.3526463925	0.8372342569	
749.375	0.3811322434	1.267674216	
750.0	-2.778173049	0.151034994	
