!Created with skrf (http://scikit-rf.org).
# GHz S RI R (50+0j) 
!freq	ReS11	ImS11	
500.0	-0.1764073735	-0.7545246354	
500.625	0.7511411468	-0.4653765064	
501.25	-0.569158028	-0.9269907138	
501.875	-0.09872091654	-0.1635442484	
502.5	0.01257072561	-0.1703595392	
503.125	-0.06555134108	0.03383883741	
503.75	-0.02578828668	0.03367226755	
504.375	0.04960582087	-0.01177045441	
505.0	-0.005534561539	0.008897152185	
505.625	0.03580354162	-0.07017634262	
506.25	-0.1135007659	0.008958610872	
506.875	-0.0825321474	-0.2218402541	
507.5	-0.440249176	-0.1594116123	
508.125	0.2370305964	-0.1799096317	
508.75	0.8834156537	-0.8863684844	
509.375	-0.4482099295	-1.220269461	
510.0	-0.1908244348	-0.2531996079	
510.625	-0.09282325488	-0.2062036736	
511.25	-0.08561411914	0.005842270786	
511.875	-0.06507368943	-0.05383026294	
512.5	-0.01759304982	0.06485123825	
513.125	-0.008322529157	-0.01186992606	
513.75	-0.005759314654	-0.07793958252	
514.375	-0.1231063342	0.03281562754	
515.0	0.302668752	-0.2200712663	
515.625	-0.5225779377	-0.2839032048	
516.25	0.298202785	-0.2966350138	
516.875	-0.02499515679	-0.5583695823	
517.5	-0.1004523801	0.01173273874	
518.125	0.04043748364	-0.05055118603	
518.75	-0.09463052252	-0.06396849226	
519.375	-0.04008364884	0.009317112355	
520.0	0.07952105488	0.09319718138	
520.625	0.1509937483	-0.08777455592	
521.25	-0.02156598026	-0.2042531699	
521.875	-0.07476624184	-0.1142479002	
522.5	-0.09767365975	0.01445543408	
523.125	0.01460156202	-0.06396313174	
523.75	-0.2007851974	-0.02250846878	
524.375	-0.04130081505	0.1143012878	
525.0	-0.1577325035	0.03086900442	
525.625	0.07521625505	0.124387721	
526.25	-0.08273962023	-0.05750144311	
526.875	0.008428495766	0.0668477937	
527.5	-0.05537124774	0.06521607115	
528.125	-0.04669903862	0.3050888366	
528.75	0.05166981273	0.1447669876	
529.375	0.0181429411	0.04576677268	
530.0	0.09270256224	0.1869667679	
530.625	0.06481188374	0.08858185339	
531.25	0.3259568876	0.2879852571	
531.875	0.3234039833	-0.1487939589	
532.5	-0.03157452407	0.006641660835	
533.125	0.08161236114	-0.1593073606	
533.75	-0.03238892027	-0.0984128821	
534.375	0.05962880759	-0.2902160625	
535.0	-0.2748069674	-0.05730778255	
535.625	-0.09510242072	0.05265890046	
536.25	-0.03101079383	0.09771715103	
536.875	0.09988652257	-0.01670576956	
537.5	0.04644648258	0.005845411845	
538.125	0.1509065833	-0.08963712332	
538.75	0.06385126806	-0.09060552422	
539.375	-0.0411727533	-0.1494591071	
540.0	-0.1907603209	-0.1574297726	
540.625	-0.08888908812	0.02524545104	
541.25	-0.0838373158	-0.05610550333	
541.875	-0.1243722398	-0.05843120146	
542.5	-0.002092401343	-0.0369652318	
543.125	-0.1263838561	-0.05486526352	
543.75	-0.03982063555	0.05427774959	
544.375	-0.08699584339	-0.02447244463	
545.0	0.05613287504	0.08552665966	
545.625	-0.01131495064	0.03838829963	
546.25	0.1425783007	0.06649959094	
546.875	0.06090148805	-0.04767744843	
547.5	0.1061723157	-0.06815590777	
548.125	-0.06669136139	-0.1835718473	
548.75	-0.09333901164	-0.04860700951	
549.375	-0.0638218951	-0.1083438136	
550.0	-0.09897450106	0.03149724327	
550.625	-0.01869619771	-0.0223605847	
551.25	-0.1013248437	0.0302811563	
551.875	-0.03992435441	0.05942830053	
552.5	-0.06754784118	0.05749144648	
553.125	-0.001633462766	0.06363575844	
553.75	0.02800772961	0.03835875764	
554.375	0.09570664161	0.005798942944	
555.0	0.08386058677	-0.06485237732	
555.625	0.08230061449	-0.08886235065	
556.25	0.06619774777	-0.1279307655	
556.875	-0.02879544095	-0.1450939277	
557.5	-0.08337354756	-0.09267189686	
558.125	-0.1045703286	-0.04404451277	
558.75	-0.1058808625	-0.001712835815	
559.375	-0.09418854017	0.01768024308	
560.0	-0.1022001313	0.05997940257	
560.625	-0.04525274656	0.1148596926	
561.25	0.004578578245	0.06353764577	
561.875	0.02363418043	0.07047852024	
562.5	0.01807982175	0.01509070471	
563.125	0.05284673977	0.1001725827	
563.75	0.1560684285	-0.02048161028	
564.375	0.07941738149	-0.06290306045	
565.0	0.1151563317	-0.146237333	
565.625	-0.07043169117	-0.1505572414	
566.25	-0.03682402881	-0.0729251748	
566.875	-0.1587774526	-0.1051379884	
567.5	-0.1316335081	0.01071970643	
568.125	-0.05057956427	-0.1864893596	
568.75	-0.2586680133	-0.06250442709	
569.375	-0.1257121007	0.07334321186	
570.0	-0.2136740521	0.1449076227	
570.625	-0.0121444603	0.231005943	
571.25	-0.008038216425	0.02397749943	
571.875	0.06837396683	0.1390742886	
572.5	0.04360906783	-0.08448847645	
573.125	0.1356629475	-0.009169474401	
573.75	0.05189011664	-0.1846020453	
574.375	-0.04880817556	-0.001541170244	
575.0	0.1123705896	-0.07788539067	
575.625	-0.04070828898	-0.06713322578	
576.25	0.09545781242	-0.01991403911	
576.875	0.006199285172	-0.2153865867	
577.5	-0.09437632076	-0.0893700063	
578.125	0.04833865601	-0.1014152527	
578.75	-0.1099298966	-0.2107521774	
579.375	-0.1048215105	0.02503787241	
580.0	0.05329264294	-0.1457875408	
580.625	-0.1514603533	0.067110547	
581.25	-0.0327953389	-0.01735643201	
581.875	-0.07204013018	0.2485379692	
582.5	0.1677131959	0.07765165677	
583.125	-0.02078346231	0.01398085876	
583.75	0.09255627989	0.1042954383	
584.375	-0.03270349907	-0.05417358523	
585.0	0.1131293217	0.1599652933	
585.625	0.1784161178	-0.07764265262	
586.25	0.05600151988	-0.01700603959	
586.875	0.1545584684	-0.1338201893	
587.5	-0.0858705458	-0.1310512721	
588.125	0.04642596367	-0.06535976841	
588.75	0.0659892532	-0.2012789647	
589.375	-0.04056255128	-0.1330944183	
590.0	0.06730026309	-0.1425812119	
590.625	-0.2814775829	-0.0328742269	
591.25	-0.01955169201	0.1019394143	
591.875	-0.1518360306	0.0522885187	
592.5	0.0631740339	0.129436031	
593.125	-0.147938061	-0.03340697741	
593.75	0.1396908106	0.1624243336	
594.375	0.03740022388	0.03162308739	
595.0	0.1344318877	0.1854265844	
595.625	0.2284911357	0.03302678505	
596.25	0.0533465824	-0.003343366148	
596.875	0.1880043814	0.1114529632	
597.5	0.1860357835	0.01467097594	
598.125	0.05154578901	0.09274709835	
598.75	0.1932334364	0.1520476229	
599.375	0.1758818747	-0.08988658704	
600.0	0.1325599208	-0.06883224291	
600.625	0.1954663062	-0.1749739496	
601.25	-0.001037394277	-0.2109988959	
601.875	0.03462809087	-0.05044440241	
602.5	-0.2056264776	-0.06419008561	
603.125	0.00439280672	0.07958047666	
603.75	-0.1342798995	-0.04604310787	
604.375	-0.1533064252	0.1418138663	
605.0	0.04123852276	0.02456310944	
605.625	-0.1486800033	0.1269581342	
606.25	-0.02949042129	0.1194372251	
606.875	-0.1213227018	-0.0250681991	
607.5	-0.1497072253	0.2035337857	
608.125	-0.03669202983	0.1887205246	
608.75	0.08142206398	0.1841928342	
609.375	0.3039999124	-0.01106265401	
610.0	0.07933643045	-0.1553820928	
610.625	0.0729400007	-0.08800390266	
611.25	-0.01393646963	-0.2308227996	
611.875	-0.05889221659	-0.01851182901	
612.5	-0.1058220803	-0.1567271608	
613.125	-0.2549164967	0.1107339409	
613.75	-0.001362601298	0.02336408076	
614.375	-0.05770481334	0.1790577909	
615.0	0.114978024	-0.0419930387	
615.625	-0.1204402913	0.03750314321	
616.25	0.06756619514	0.1216096702	
616.875	-0.01505542488	0.06160436655	
617.5	-0.08012168136	0.2527358747	
618.125	0.02068583837	0.2449873302	
618.75	0.03401306362	0.3072490618	
619.375	0.04624625206	0.1944998655	
620.0	0.2039088187	0.1382891519	
620.625	0.05260694708	-0.1567592306	
621.25	-0.006667688882	-0.218956834	
621.875	-0.2516928496	-0.07539902877	
622.5	-0.08696236973	0.08649298064	
623.125	-0.1214228037	0.1887638502	
623.75	0.2197344771	0.01645856753	
624.375	-0.02790637611	-0.001611047629	
625.0	0.09435262322	-0.09101086682	
625.625	-0.007945089805	-0.01904726399	
626.25	0.01657171108	-0.1612605717	
626.875	-0.2012144331	-0.06733367799	
627.5	-0.05968937622	0.01083049412	
628.125	-0.1045065476	-0.1057932046	
628.75	-0.08464807852	-0.1064834219	
629.375	-0.02428158081	-0.1172239164	
630.0	-0.1835436243	-0.1330195371	
630.625	-0.2283237739	0.08575397094	
631.25	-0.01587834529	0.1315237159	
631.875	-0.07422371087	0.2510767601	
632.5	0.1682247831	0.1483630601	
633.125	0.08116215962	0.01851357488	
633.75	0.2439975592	-0.01004986431	
634.375	-0.04978804792	-0.1486125757	
635.0	0.07728547154	-0.08850971267	
635.625	-0.2015164058	-0.1161869933	
636.25	-0.07723711445	0.09256681099	
636.875	-0.110697689	0.01740302151	
637.5	-0.01532963024	0.1774099973	
638.125	-0.03524875456	-0.009967071883	
638.75	-0.1496474514	0.2035764978	
639.375	0.08723819905	0.2329863279	
640.0	0.03505234483	0.1642626255	
640.625	0.2503866966	0.2187497426	
641.25	0.308592174	-0.07013692341	
641.875	0.0712628859	-0.08520700772	
642.5	0.09035388815	-0.2448136201	
643.125	-0.1607588221	-0.02228151202	
643.75	0.05024479073	-0.09016420055	
644.375	-0.3655151466	-0.03640907457	
645.0	-0.00119377539	0.1517853809	
645.625	-0.1339296786	0.166887062	
646.25	0.3996250032	0.09958927568	
646.875	-0.02939996772	-0.08744528545	
647.5	0.1896073572	0.1362148023	
648.125	0.09934018266	-0.08904324906	
648.75	0.2090499271	0.1164069511	
649.375	0.3027556249	-0.3328555402	
650.0	-0.05372545011	-0.2536422101	
650.625	0.2241733962	-0.113643514	
651.25	0.2758873884	-0.340854961	
651.875	0.06674857737	-0.1663630577	
652.5	0.2589077458	0.08639653001	
653.125	0.3361854621	-0.177143337	
653.75	0.0613933572	-0.1634151515	
654.375	0.1424598091	-0.285204053	
655.0	-0.4386906666	-0.06880022899	
655.625	-0.0133327015	0.180813986	
656.25	-0.1143140504	0.1427629679	
656.875	0.1795653923	0.114779472	
657.5	-0.2379532727	0.01425020557	
658.125	0.2350772081	0.2530069143	
658.75	0.2391790923	-0.05788133208	
659.375	0.2641007953	0.05525746186	
660.0	0.3529470872	-0.3639146406	
660.625	-0.04774853391	-0.2760839521	
661.25	0.234135882	-0.1450273736	
661.875	0.2710452453	-0.3249288711	
662.5	0.1033293203	-0.2187053043	
663.125	0.2844579935	-0.0246944919	
663.75	0.1762697764	-0.3722326285	
664.375	-0.06506524579	-0.1916604377	
665.0	-0.1461809648	-0.2704158688	
665.625	-0.3911571988	0.09934879249	
666.25	0.03292354104	0.188798747	
666.875	-0.01406286121	0.2338999604	
667.5	0.3287696967	0.06072499183	
668.125	0.05746795765	-0.02622397126	
668.75	0.3412887368	-0.05751898886	
669.375	0.01217569693	-0.280114929	
670.0	0.1211500596	-0.06159604928	
670.625	0.09200341433	-0.2845750959	
671.25	-0.06902542321	-0.1865495598	
671.875	0.1965213872	-0.01930584467	
672.5	0.2394160197	-0.2534967926	
673.125	0.09559114628	-0.153372388	
673.75	0.1924267621	-0.09776434055	
674.375	0.1043269874	-0.3500665703	
675.0	-0.0951202719	-0.06757384671	
675.625	-0.06812786138	-0.2162474117	
676.25	-0.2619793871	-0.008855255078	
676.875	-0.0412444466	0.05909592894	
677.5	-0.1822902115	-0.1247940096	
678.125	-0.1293278199	0.2568929183	
678.75	0.02082590576	0.08475428106	
679.375	0.1543969394	0.2546149202	
680.0	0.1938884043	-0.3220478453	
680.625	-0.07264467078	0.07620591829	
681.25	0.3062238602	-0.03758477958	
681.875	-0.04859277067	-0.1137999712	
682.5	0.02735847615	0.2183463208	
683.125	0.4787249993	-0.05004799637	
683.75	0.02929480299	-0.0753007761	
684.375	0.2251487503	0.2326525309	
685.0	0.3360630704	-0.02255494538	
685.625	0.09125801956	-0.04206677218	
686.25	0.3247514844	0.2019135179	
686.875	0.3040864348	-0.3141592876	
687.5	0.1771680345	-0.1371225296	
688.125	0.1137303064	-0.4457336712	
688.75	-0.5133137758	-0.1584306226	
689.375	-0.1406246888	0.1363548246	
690.0	-0.0928561217	0.4507881101	
690.625	0.3571090024	0.1634892338	
691.25	0.004305683271	0.2358724098	
691.875	0.5828337492	0.5144207421	
692.5	0.4450660221	-0.06260369059	
693.125	0.4549692334	0.13806504	
693.75	0.7158315249	-0.381263657	
694.375	0.1814387991	-0.4599407896	
695.0	0.4253312137	0.01394200628	
695.625	0.4408235862	-0.2461712597	
696.25	0.3338741473	0.0799339526	
696.875	0.4724279052	0.3412641095	
697.5	0.4489755916	0.5130144696	
698.125	0.391671316	0.03787697379	
698.75	0.5162074543	-0.1683369489	
699.375	-0.3629112367	-0.4951298891	
700.0	-0.1517267596	0.3364923943	
700.625	-0.06437606668	0.1997934573	
701.25	0.368529308	0.2138642562	
701.875	0.1029220036	0.07792823009	
702.5	0.2413904053	0.3572863524	
703.125	0.5001560692	0.009979860106	
703.75	0.1707461237	-0.1150665074	
704.375	0.3681700922	-0.2325499584	
705.0	0.2007076383	-0.2660725457	
705.625	0.07822309083	0.04411743687	
706.25	0.2843378569	0.1626904179	
706.875	0.1541704295	0.2526360272	
707.5	0.2300355164	0.2704732649	
708.125	0.4370011026	0.1716284894	
708.75	0.4521980852	-0.3455680902	
709.375	-0.2038175158	-0.1385964626	
710.0	-0.3385180312	-0.07045761125	
710.625	0.127372917	0.1582344758	
711.25	-0.113757196	0.07728945561	
711.875	0.3480108087	0.1823522891	
712.5	0.1317304305	-0.06062770385	
713.125	0.309767262	-0.04688191265	
713.75	0.1375219907	-0.3179710435	
714.375	-0.05592342217	-0.1351523503	
715.0	0.02864248359	-0.1902756169	
715.625	-0.09091903057	-0.2487457695	
716.25	0.0874810444	-0.0744068446	
716.875	0.4129327248	-0.1058428815	
717.5	0.4583799979	-0.138482892	
718.125	0.4302876012	-0.07366235545	
718.75	0.7761228738	-0.03052239624	
719.375	0.6648581246	-0.5424999243	
720.0	0.4682617391	-0.3839908845	
720.625	1.074500548	-0.836311408	
721.25	-0.3933818923	-0.9072028775	
721.875	0.3584459361	-0.4979947319	
722.5	-0.6112747402	-1.051357815	
723.125	-0.6633220801	0.08176045515	
723.75	-0.3511170992	0.05715482347	
724.375	0.03683676766	0.6590033512	
725.0	0.1884400813	0.1524593563	
725.625	-0.02884652575	0.4576318326	
726.25	0.1729929858	0.7600053667	
726.875	0.1014466597	0.5189573369	
727.5	-0.5564547875	1.100310097	
728.125	0.0856730579	2.114012132	
728.75	0.4989941222	1.616175262	
729.375	-2.013563901	2.681585495	
730.0	0.1930162337	4.493871336	
730.625	-0.1792132466	2.25399495	
731.25	-2.791885944	1.30082548	
731.875	-3.091151441	3.239939039	
732.5	-1.725733429	0.1831030991	
733.125	-2.761090987	-1.218560462	
733.75	-0.6192168355	1.878805851	
734.375	0.4320960115	0.02675174726	
735.0	0.6226588397	-0.5889364921	
735.625	-0.5195399949	0.4195904392	
736.25	-0.3790371815	0.05699836879	
736.875	0.4288709462	0.8297038599	
737.5	0.9922406169	-0.2066026341	
738.125	0.6269056766	0.1306835246	
738.75	2.871864372	-0.6823032588	
739.375	1.182285817	-2.605845751	
740.0	0.7168632052	0.2909503899	
740.625	5.066681311	3.15159017	
741.25	3.228848912	-0.1884629397	
741.875	-2.862013854	-3.322982882	
742.5	-1.806713302	-3.147368147	
743.125	-1.205086522	-0.6334265225	
743.75	0.7582964935	-0.6009116842	
744.375	-0.6125607599	-0.08213900796	
745.0	0.07645040294	-0.03555051502	
745.625	0.1767979293	0.0537672329	
746.25	-0.09168109264	-0.05494820287	
746.875	-0.195386111	-0.1649892177	
747.5	-0.1166880189	0.4242874588	
748.125	0.1854358708	0.377140284	
748.75	0.08685949662	0.3656788677	
749.375	0.1090108875	0.4872977375	
750.0	-0.2096349452	0.2523348593	
