!Created with skrf (http://scikit-rf.org).
# GHz S RI R (50+0j) 
!freq	ReS11	ImS11	
500.0	0.8996770029	-3.589106258	
500.625	-1.516426164	-2.417706318	
501.25	-1.206453213	-3.357469881	
501.875	-1.414026132	-0.608372502	
502.5	-0.1698627355	-0.4320824505	
503.125	-0.1934318167	0.1517971806	
503.75	0.06828870906	0.02104922917	
504.375	0.1470182198	0.07103155653	
505.0	-0.0699471131	-0.1637697517	
505.625	0.1229433859	0.0150155028	
506.25	-0.3706325558	-0.4156685287	
506.875	0.4617892301	-0.004501269359	
507.5	-1.218886058	-1.672450912	
508.125	0.4300713061	-0.03178259936	
508.75	2.581224992	-4.29780599	
509.375	-2.468934208	-3.613434948	
510.0	-0.3327067018	-0.3059409688	
510.625	-0.5039694763	-0.8078410643	
511.25	-0.365034868	0.05990214651	
511.875	-0.3607929786	-0.04063195739	
512.5	-0.1188233738	0.1355351085	
513.125	-0.09304879337	-0.2856808484	
513.75	-0.1115384468	-0.1647772392	
514.375	-0.3289278452	-0.02465230239	
515.0	0.5708127542	0.4828332415	
515.625	-1.796744351	-2.545153846	
516.25	-0.4037079044	0.9625827225	
516.875	0.400657347	-2.38755364	
517.5	-0.9664035141	-0.5449824047	
518.125	0.2881311736	-0.1496799653	
518.75	-0.7716886975	-0.4240985561	
519.375	-0.05453860991	0.00179165151	
520.0	0.4373272635	0.3486361651	
520.625	0.3694365402	-0.4142198243	
521.25	0.0350021659	-0.3396254965	
521.875	-0.6084994547	-0.1448634572	
522.5	0.03883294731	0.04525801107	
523.125	-0.287027752	0.2160607638	
523.75	0.002934076232	-0.07573699454	
524.375	-0.7102388899	0.1427025309	
525.0	0.2268028462	0.1497664874	
525.625	-0.08443340918	0.2148911117	
526.25	0.1020651414	-0.2398017723	
526.875	-0.1926437013	0.3734569896	
527.5	0.1106694986	0.2370479976	
528.125	-0.2144404218	0.8849753875	
528.75	0.530975172	0.7646706535	
529.375	-0.1284185591	0.170002889	
530.0	0.474138326	0.4230908262	
530.625	-0.005748698502	0.5935409731	
531.25	1.592546297	0.1356457206	
531.875	0.2295195755	-0.2585253969	
532.5	-0.2369857906	-0.6948961027	
533.125	0.3691160223	0.5515352801	
533.75	-0.06174750601	-1.145679263	
534.375	-0.1248033775	-0.129952491	
535.0	-0.8306454653	-0.6290614428	
535.625	-0.1121730453	0.5334201931	
536.25	-0.1311108536	0.1811506974	
536.875	0.4053737692	-0.01139755399	
537.5	-0.001246098465	-0.008668965065	
538.125	0.5138439996	-0.1269306777	
538.75	0.1313058591	-0.4133918384	
539.375	-0.05050603759	-0.2961467625	
540.0	-0.4069789026	-0.4228689053	
540.625	-0.4145814203	-0.0232162364	
541.25	-0.1510278911	0.06174492951	
541.875	-0.1488791629	-0.07974283347	
542.5	-0.05884684528	-0.0703397259	
543.125	-0.2225308627	-0.1518350076	
543.75	-0.1948595273	0.1095477875	
544.375	-0.0718222491	-0.02823624009	
545.0	-0.001798840799	0.297851108	
545.625	0.1028345014	-0.1404580699	
546.25	0.2243077673	0.4136252524	
546.875	0.2632383212	-0.3391463076	
547.5	0.157784424	-0.06321522025	
548.125	-0.08861777007	-0.6125716999	
548.75	-0.3138366719	-0.003322417739	
549.375	-0.1246479319	-0.3011368144	
550.0	-0.2990797331	0.1091754895	
550.625	0.01874383618	-0.02709979507	
551.25	-0.3199840928	0.08066971203	
551.875	-0.04674924449	0.2149973494	
552.5	-0.1414255954	0.127079305	
553.125	-0.005191968179	0.1913857237	
553.75	0.08797071975	0.09411285535	
554.375	0.2415183742	-0.001502830197	
555.0	0.2016473006	-0.1758267963	
555.625	0.1898073359	-0.2463242629	
556.25	0.1466110116	-0.3434067954	
556.875	-0.09691016988	-0.3717181843	
557.5	-0.2299635235	-0.222230301	
558.125	-0.2578822576	-0.1009482379	
558.75	-0.2711133477	0.0008691149613	
559.375	-0.2160083266	0.06666548091	
560.0	-0.2543831376	0.1419014737	
560.625	-0.06835231652	0.3130422275	
561.25	-0.009301098454	0.1270422112	
561.875	0.1050466155	0.2041159598	
562.5	0.02884950846	0.003900620568	
563.125	0.09776375648	0.2665744328	
563.75	0.4097425316	-0.101172764	
564.375	0.1488359977	-0.1562880062	
565.0	0.285048841	-0.3615190998	
565.625	-0.2093101935	-0.3221954608	
566.25	-0.1236129682	-0.2597145667	
566.875	-0.4503809723	-0.1896147856	
567.5	-0.229625819	-0.09707031294	
568.125	-0.248563675	-0.5173624209	
568.75	-0.6881133265	-0.09249104799	
569.375	-0.2886575211	0.2718449406	
570.0	-0.508778783	0.2418228918	
570.625	-0.03509285939	0.7719664991	
571.25	0.026982297	-0.07108052247	
571.875	0.2450358779	0.5210192885	
572.5	-0.04745521828	-0.2429922764	
573.125	0.5761812905	-0.1032412345	
573.75	-0.1241451494	-0.5515688836	
574.375	-0.0227423898	0.1869194456	
575.0	0.301281035	-0.2999194855	
575.625	-0.2421620468	-0.08088657058	
576.25	0.388884106	-0.09958435205	
576.875	-0.1429959405	-0.5430414058	
577.5	-0.1253757627	-0.1079805812	
578.125	0.1435819015	-0.4781347369	
578.75	-0.4659425988	-0.3133863526	
579.375	-0.05750252481	0.02257346089	
580.0	-0.0797052075	-0.2904660729	
580.625	-0.2509280999	0.1701919116	
581.25	-0.08733558471	-0.1072623741	
581.875	-0.2072407495	0.6315846684	
582.5	0.509370459	0.231108892	
583.125	-0.2155835068	-0.03045200062	
583.75	0.5141600219	0.3087606977	
584.375	-0.3894462324	-0.05962601301	
585.0	0.619149702	0.315309113	
585.625	0.1376294913	-0.358608033	
586.25	0.2831512266	0.2290670023	
586.875	0.3180526914	-0.5512290153	
587.5	-0.2796558071	-0.1329339031	
588.125	0.2344550764	-0.2728205229	
588.75	-0.03868239145	-0.5881046727	
589.375	0.04967944018	-0.03200574102	
590.0	-0.07768623789	-0.7129290092	
590.625	-0.3519515526	0.155702254	
591.25	-0.3170785053	0.02364069339	
591.875	-0.1695074855	0.396711794	
592.5	0.1900828392	0.145002273	
593.125	-0.3177359519	-0.0316934063	
593.75	0.4050225764	0.422791004	
594.375	0.1232269465	-0.07361031912	
595.0	0.2744426149	0.6559351806	
595.625	0.7191998268	-0.1836416381	
596.25	0.02058782785	0.3663943717	
596.875	0.7372588179	0.08582103501	
597.5	0.01670060243	-0.1734936497	
598.125	0.3155652027	0.7192713293	
598.75	0.6095615963	-0.0004969999474	
599.375	0.2537127431	-0.07829074983	
600.0	0.5287518733	-0.1950509727	
600.625	0.2566417721	-0.5915271058	
601.25	0.144153497	-0.2349235501	
601.875	-0.1601769836	-0.484422195	
602.5	-0.1966659944	0.117981634	
603.125	-0.3637586499	-0.01647962049	
603.75	-0.1784415257	0.2931308225	
604.375	-0.2386473907	0.09409692507	
605.0	-0.05258495841	0.1292860732	
605.625	-0.4071614867	0.1801751519	
606.25	0.07513239805	0.2579901765	
606.875	-0.6143014757	-0.2724780739	
607.5	-0.213403805	0.929696394	
608.125	-0.1350511574	0.1198234507	
608.75	0.5289186499	0.8187806544	
609.375	0.1862421289	-0.4708394882	
610.0	0.589011847	0.09655593256	
610.625	0.08412545227	-0.697013554	
611.25	0.03966916562	0.02230895893	
611.875	-0.3742974002	-0.5772771623	
612.5	-0.157460969	0.05839759734	
613.125	-0.6075082739	-0.1082467623	
613.75	0.01813983261	0.5282881724	
614.375	-0.2478161319	0.1568393144	
615.0	0.4291338334	0.1050807259	
615.625	-0.3194609858	0.05348790072	
616.25	-0.006792949477	0.6857612422	
616.875	0.0207733498	0.04486739197	
617.5	-0.4765963516	0.6462564412	
618.125	0.2683460515	0.5158821687	
618.75	-0.1570275932	0.2520478781	
619.375	0.4180473785	0.476076329	
620.0	0.2417645622	0.01530194557	
620.625	0.3726824605	-0.3892168621	
621.25	-0.2749665685	-0.2856836957	
621.875	-0.4187590078	-0.3217214158	
622.5	-0.4281644354	0.3309370637	
623.125	-0.2212145935	0.219689446	
623.75	0.5741013173	0.1799630032	
624.375	-0.2685321413	-0.04284628574	
625.0	0.449457419	-0.4011869187	
625.625	-0.0595684866	0.1713238054	
626.25	0.07495607031	-0.6227026841	
626.875	-0.5631799935	0.1145182684	
627.5	0.1242844075	-0.2843791589	
628.125	-0.6139074119	-0.2896793575	
628.75	-0.1491486518	-0.01735816566	
629.375	-0.03742722656	-0.3905309344	
630.0	-0.5866247146	-0.30160541	
630.625	-0.3021457814	0.2602263933	
631.25	-0.4618739142	0.3532511268	
631.875	0.09331694756	0.6438365375	
632.5	0.2292541323	0.2892516938	
633.125	0.585907179	0.2555397911	
633.75	0.2589289643	-0.3051339642	
634.375	0.1413552651	-0.2081935724	
635.0	0.05638789974	-0.368322504	
635.625	-0.575276774	-0.157870701	
636.25	0.08804889745	0.2237183548	
636.875	-0.6552387231	0.1861694236	
637.5	0.2976638492	0.4632312848	
638.125	-0.4014027357	-0.1768880285	
638.75	0.01117277988	0.8140827354	
639.375	-0.04001986479	-0.01728846528	
640.0	0.2657677456	1.007399247	
640.625	0.8026924325	-0.1290387365	
641.25	0.1916310476	0.198438698	
641.875	0.8252455245	-0.3883816759	
642.5	-0.4255544553	-0.7057742916	
643.125	-0.06372862748	0.03769179928	
643.75	-0.3575815936	-0.436151913	
644.375	-0.4319914135	0.3007060144	
645.0	-0.3636449948	-0.02136981109	
645.625	0.3102305723	0.7127410856	
646.25	0.2291984847	-0.05927695752	
646.875	0.1733671282	0.2242556995	
647.5	0.3483547342	-0.2866133847	
648.125	-0.0773759518	0.3615260827	
648.75	1.098222919	-0.07765880425	
649.375	0.1099693776	-1.067599448	
650.0	0.1277450629	0.0354655543	
650.625	1.026780721	-0.9904981937	
651.25	-0.3511818914	-0.7674778917	
651.875	0.7420514229	0.2807917288	
652.5	0.9797464736	-0.8706944388	
653.125	-0.08383477027	-0.1149671937	
653.75	0.9741947496	-0.5360075729	
654.375	-0.5954236126	-0.8323563977	
655.0	-0.3290660462	0.2076446198	
655.625	-0.6625923237	0.02564415593	
656.25	0.3772022959	0.8065262866	
656.875	-0.1498167075	-0.2111581672	
657.5	0.239048643	0.5024599611	
658.125	0.3901949604	0.04414019359	
658.75	0.362422569	0.383799601	
659.375	1.091414027	-0.5242819261	
660.0	0.06241337618	-0.7553251156	
660.625	0.3629138826	-0.3662719744	
661.25	0.7422113643	-0.8961854317	
661.875	-0.1616529207	-0.8759815764	
662.5	0.7620558056	0.1367504465	
663.125	0.6613705889	-1.012321857	
663.75	-0.07952538151	-0.3250143459	
664.375	0.3544075444	-1.010904696	
665.0	-1.071296509	-0.1275817068	
665.625	-0.2809873024	0.1037325317	
666.25	-0.4846138697	0.5759791622	
666.875	0.5685290749	0.5682668539	
667.5	0.09421003356	-0.0280451637	
668.125	0.8313362978	0.05057800082	
668.75	0.1537770802	-0.4756881758	
669.375	0.351291031	-0.2270069787	
670.0	-0.09260913822	-0.8651473217	
670.625	-0.1600056731	-0.08970249889	
671.25	0.3337342153	-0.4102180069	
671.875	0.3472826052	-0.5713506695	
672.5	0.1536184769	-0.546552864	
673.125	0.3172104803	0.04396504454	
673.75	0.6080251872	-0.9983549161	
674.375	-0.2803282644	-0.1897903589	
675.0	0.13326788	-0.762595483	
675.625	-0.9835297271	-0.1103465829	
676.25	0.2811100451	-0.1110199478	
676.875	-0.9914619819	-0.02674544412	
677.5	0.08171342956	0.4496426232	
678.125	-0.4285287992	-0.06807803861	
678.75	0.09909085253	0.9041725887	
679.375	0.6199208597	-0.2992615833	
680.0	0.150828506	0.1147818433	
680.625	0.4153948448	-0.3862967679	
681.25	-0.2467179008	-0.09433630049	
681.875	0.7950697044	0.3787476801	
682.5	0.3296510221	-0.1788903002	
683.125	0.3584483515	0.3081867966	
683.75	0.739001164	0.2807142254	
684.375	0.8268293164	-0.2087415582	
685.0	0.0901751078	-0.1294470931	
685.625	0.9815620486	0.6592409523	
686.25	0.826149104	-0.9699958091	
686.875	0.07287284521	0.3304547195	
687.5	1.284252906	-1.50868921	
688.125	-0.7123073188	-0.003109362939	
688.75	-0.8338278064	-1.155964493	
689.375	-0.5123833504	1.65406267	
690.0	-0.02376329661	-0.1371013	
690.625	0.9039702182	1.291981128	
691.25	0.7893875921	0.08538586646	
691.875	0.7498667984	0.725141079	
692.5	1.534986481	0.5451369228	
693.125	1.311036346	-0.3236623234	
693.75	1.376615314	-0.4862207337	
694.375	0.7892315962	-0.9908697143	
695.0	1.04353062	-0.5605859701	
695.625	1.112749145	-0.4730467384	
696.25	0.8206677976	0.4789213356	
696.875	1.676650852	0.8437418877	
697.5	0.51295716	0.3119435498	
698.125	1.815516257	0.9876735589	
698.75	0.1278852454	-1.832159798	
699.375	-0.0570301074	-0.8576696958	
700.0	-0.8247621472	1.541308189	
700.625	0.4715401692	-0.04000246539	
701.25	0.682565803	1.14675793	
701.875	0.690437679	-0.1318470116	
702.5	0.4411872821	0.8529604581	
703.125	1.411667513	0.07401744748	
703.75	0.2607697255	-0.08518921783	
704.375	1.164599578	-0.4558888846	
705.0	0.09765142807	-0.6515597454	
705.625	0.5695919781	0.6693602115	
706.25	1.204326005	-0.1604620578	
706.875	-0.03845122779	0.6082337851	
707.5	1.214017371	1.265784752	
708.125	0.5248000308	-0.544726363	
708.75	1.151728343	-0.6788308721	
709.375	-1.235848174	-0.4766806555	
710.0	-0.08546231568	0.3591245781	
710.625	0.1654736534	0.5009192158	
711.25	0.2401255809	0.138729364	
711.875	0.5036150055	0.2615593163	
712.5	0.7028719943	-0.1911833546	
713.125	0.6640501229	-0.34091474	
713.75	0.1379844758	-0.6496189053	
714.375	0.1722769776	-0.3971042427	
715.0	-0.2367325035	-0.7321960211	
715.625	-0.1348563422	-0.03257121972	
716.25	1.108762762	-0.5978259691	
716.875	0.3448230039	-1.552182568	
717.5	0.408884036	0.9879509706	
718.125	2.882887779	-0.113906603	
718.75	0.6220703315	-1.80817053	
719.375	3.11714956	0.5478217308	
720.0	-0.6862839877	-4.092224495	
720.625	1.03532133	-1.041913113	
721.25	-0.2100647085	-3.704478265	
721.875	-2.092510227	-2.196346756	
722.5	-0.7559754855	-0.9264454545	
723.125	-2.338369746	-0.5829020405	
723.75	-0.589611571	1.490740495	
724.375	0.2326134484	0.8122905936	
725.0	0.06319319441	0.9974348996	
725.625	0.9089274633	0.9567183626	
726.25	-0.08593273904	1.095033506	
726.875	-0.5040762454	2.774739505	
727.5	1.570746009	3.953212045	
728.125	-1.04964797	1.152750969	
728.75	-0.3473787749	12.23618255	
729.375	7.767548297	8.174454245	
730.0	-3.837488233	1.134868272	
730.625	-1.652521003	24.12242148	
731.25	8.321967352	1.751203291	
731.875	-12.88138337	4.755751851	
732.5	-9.249430312	8.473180379	
733.125	-1.145441698	1.284856315	
733.75	-3.917844698	4.347991545	
734.375	3.016411657	-0.4761609002	
735.0	-0.4568664259	-0.7232325139	
735.625	-1.082945499	-0.3648357097	
736.25	0.2306508441	2.080876902	
736.875	0.6135999345	0.07338043712	
737.5	3.222193688	1.219698211	
738.125	4.115994224	-2.596590608	
738.75	0.8313519795	-2.386100569	
739.375	11.22804151	-0.4633261191	
740.0	5.099272084	-13.13149981	
740.625	-6.0722963	0.9654042921	
741.25	-2.714089967	22.35103033	
741.875	15.26577266	11.43016466	
742.5	9.064598369	-15.74776986	
743.125	-2.123929483	-8.809758084	
743.75	-1.942298319	-0.1886656426	
744.375	-0.9887940575	-1.563137888	
745.0	0.9727816285	0.2447043573	
745.625	0.1870982848	0.3455620678	
746.25	-0.1857742779	-0.4039172882	
746.875	-0.7567029476	0.6876606387	
747.5	-0.2923600347	0.4975412157	
748.125	0.7364291236	1.365382811	
748.75	1.224545855	1.076538751	
749.375	0.1848910896	0.7382903622	
750.0	-0.8216338773	6.044210824	
