!Created with skrf (http://scikit-rf.org).
# GHz S RI R (50+0j) 
!freq	ReS11	ImS11	
500.0	0.3755704665	-1.132133557	
500.625	2.361361717	-4.104474868	
501.25	-3.367201375	-1.117029024	
501.875	-1.132984992	-0.2993337125	
502.5	0.08362231938	-0.4404750034	
503.125	-0.3879710444	0.1956534885	
503.75	0.001522567235	-0.03347794127	
504.375	0.217650305	-0.02095193171	
505.0	-0.09241814585	0.04015826791	
505.625	0.1249734993	-0.414196276	
506.25	-0.2427222507	0.3611381473	
506.875	-0.8424632667	-1.043730125	
507.5	-1.733788448	-0.9090800976	
508.125	0.480573461	-0.1411109675	
508.75	3.078168522	-3.814774102	
509.375	-3.857389325	-4.014434607	
510.0	-1.004137286	-1.199057577	
510.625	-0.9805056054	-0.5230336642	
511.25	-0.01983535642	-0.197646633	
511.875	-0.6763120611	-0.2829675222	
512.5	-0.1191203737	0.153354429	
513.125	-0.00785417563	-0.2151728704	
513.75	-0.006726287836	-0.3712123677	
514.375	-0.7283476277	-0.03301084565	
515.0	1.781759457	0.06992543582	
515.625	-2.498054557	-2.051157612	
516.25	1.493707459	-0.3732134449	
516.875	-1.011705241	-2.851578214	
517.5	-0.7073977997	0.3715666572	
518.125	-0.02656427938	-0.5067376242	
518.75	-0.5358732686	0.162623436	
519.375	-0.2323742694	0.005346935102	
520.0	0.5039307473	0.3184319734	
520.625	0.3915451924	-0.3167566816	
521.25	0.3401442777	-0.6568954494	
521.875	-0.5745036231	-0.06554579022	
522.5	-0.02226103745	0.01585976453	
523.125	-0.1861451868	0.2359021645	
523.75	-0.1633817209	-0.2156803416	
524.375	-0.4192803026	0.3975365342	
525.0	-0.2235528845	0.02361730935	
525.625	0.1462877991	0.3832498741	
526.25	-0.246230124	-0.2662820808	
526.875	0.01541445805	0.316164282	
527.5	-0.2095651858	0.1822166613	
528.125	-0.02182632115	1.275316506	
528.75	0.5712770867	0.4408667137	
529.375	-0.02464481507	0.3838619213	
530.0	0.1952286201	0.0882158414	
530.625	0.08838548478	1.424498099	
531.25	1.001861609	-0.2253592139	
531.875	0.8406085925	0.03411075219	
532.5	-0.6994675365	-0.4914182165	
533.125	0.6051292493	-0.01101399732	
533.75	-0.3326065067	-0.7079108912	
534.375	0.3391234802	-0.7217655263	
535.0	-1.079015091	-0.2247067135	
535.625	-0.1786161627	0.1428620175	
536.25	-0.1366104012	0.2938535707	
536.875	0.3638656584	-0.00773335223	
537.5	0.06852415218	-0.009189888345	
538.125	0.4728217441	-0.2120718954	
538.75	0.1431938197	-0.2796633412	
539.375	-0.0003180613689	-0.5105429729	
540.0	-0.6506962566	-0.3428206146	
540.625	-0.1604821956	-0.06676127796	
541.25	-0.3144331615	-0.06886372774	
541.875	-0.1514879059	0.01245724182	
542.5	-0.02260161811	-0.01562274898	
543.125	-0.2162652747	-0.2920199294	
543.75	-0.2802707094	0.3079413653	
544.375	-0.1743476515	-0.1644967675	
545.0	0.1183034181	0.3044361977	
545.625	-0.1249044241	0.03602154084	
546.25	0.5505176343	0.2093621398	
546.875	0.02868052177	-0.1242886172	
547.5	0.4427057411	-0.206900542	
548.125	-0.2918670152	-0.5551514746	
548.75	-0.1941663061	-0.1097129851	
549.375	-0.1791071768	-0.3549255911	
550.0	-0.2999541069	0.1275276142	
550.625	-0.03162713593	-0.1192988363	
551.25	-0.2838277252	0.1956948621	
551.875	-0.104261117	0.04272208517	
552.5	-0.2187465787	0.2563503136	
553.125	0.01236903041	0.1361907311	
553.75	0.07830601957	0.15024414	
554.375	0.2696315857	0.01330631328	
555.0	0.2359356714	-0.1650360748	
555.625	0.236494743	-0.2354222128	
556.25	0.1988644195	-0.3656930712	
556.875	-0.0777367078	-0.4024906583	
557.5	-0.2160957144	-0.2749521019	
558.125	-0.2961290549	-0.1263374019	
558.75	-0.2693128782	0.002305607118	
559.375	-0.2454312032	0.008408537125	
560.0	-0.2959228341	0.180324122	
560.625	-0.08082762471	0.2971393472	
561.25	-0.03469626032	0.1652512808	
561.875	0.1175304442	0.2027539259	
562.5	-0.0372634394	0.02088798837	
563.125	0.2453531183	0.2904229758	
563.75	0.208240036	-0.08600372443	
564.375	0.4410970033	-0.07982651062	
565.0	0.1547705771	-0.5164382057	
565.625	-0.07896289039	-0.2231547521	
566.25	-0.1531766512	-0.3677139652	
566.875	-0.4940305136	-0.2258380206	
567.5	-0.2152924463	-0.09806681901	
568.125	-0.2384171806	-0.6370011564	
568.75	-0.7035009811	-0.05704127941	
569.375	-0.4052890992	-0.02588584756	
570.0	-0.5518845645	0.6932843026	
570.625	0.1236933281	0.3640729107	
571.25	-0.3654531688	0.1553811078	
571.875	0.5410350287	0.2347663759	
572.5	-0.05864882531	0.1360820736	
573.125	0.5750954744	-0.3170567118	
573.75	-0.1154313662	-0.4634238958	
574.375	0.1545215253	0.138227746	
575.0	0.03408310696	-0.4431631846	
575.625	0.1584231114	0.1576743376	
576.25	0.3131849427	-0.5149510792	
576.875	-0.2952778879	-0.2698077591	
577.5	0.2342250605	-0.1462198305	
578.125	-0.005138377516	-0.6531569932	
578.75	-0.408597524	-0.2369966894	
579.375	-0.01078423731	0.002397515629	
580.0	-0.204622469	-0.3775166881	
580.625	-0.01901109047	0.1888309983	
581.25	-0.5163131048	-0.07918240155	
581.875	0.1976003957	0.6009973567	
582.5	0.1299167035	-0.03494123139	
583.125	-0.1734335298	0.4937281627	
583.75	0.5545835019	-0.1945014566	
584.375	-0.3675087867	0.3843960064	
585.0	0.635827162	0.1041130326	
585.625	0.01752335116	-0.08573875963	
586.25	0.6187794381	0.1126802247	
586.875	-0.0511865241	-0.5148859923	
587.5	0.1930251516	-0.1215231735	
588.125	0.02215829171	-0.6341762999	
588.75	-0.2054068183	-0.2884592319	
589.375	0.4826553581	-0.07529434625	
590.0	-0.1903886294	-0.6536971394	
590.625	-0.4165889472	0.004961498217	
591.25	-0.2517260805	0.05488421631	
591.875	-0.314979079	0.3982863123	
592.5	0.2176168858	-0.02822969576	
593.125	-0.1839763781	0.2892355746	
593.75	0.1477896431	0.09951666917	
594.375	0.1303344571	0.4832894011	
595.0	0.7886233553	0.3834412929	
595.625	0.1677580438	-0.1844290317	
596.25	0.2923091186	0.5776621211	
596.875	0.7157518398	-0.1400117452	
597.5	0.03008039	0.1662897906	
598.125	0.4810249247	0.5748216103	
598.75	0.3136637303	-0.009808503365	
599.375	0.5929107449	0.3110578462	
600.0	0.4312079299	-0.5867325709	
600.625	0.187190716	-0.2223725188	
601.25	0.3918915492	-0.3529274186	
601.875	-0.2914919593	-0.4687153642	
602.5	-0.235382868	-0.03700941315	
603.125	-0.1871272668	0.03197781356	
603.75	-0.4377469736	0.05562454659	
604.375	-0.09698943728	0.3696275194	
605.0	-0.2793851453	-0.09266261876	
605.625	-0.2124548475	0.408944559	
606.25	-0.1130579128	-0.1223512666	
606.875	-0.7845181879	0.2976698856	
607.5	0.01060083037	0.3646732863	
608.125	-0.5648824812	0.4063473589	
608.75	0.8770783013	0.5342912211	
609.375	0.1577855664	0.03999259629	
610.0	0.6931463145	-0.1884390143	
610.625	-0.003690731123	-0.4581416363	
611.25	0.4140088934	-0.2874240346	
611.875	-0.4018169003	-0.2851014938	
612.5	-0.09979511693	-0.3042911229	
613.125	-0.6848663251	0.05511994412	
613.75	-0.0811210363	0.250445774	
614.375	-0.06102272002	0.5071731526	
615.0	0.2299740035	-0.1825656912	
615.625	-0.2376952337	0.44011371	
616.25	0.2331626108	0.282581897	
616.875	-0.5216846024	0.2143795432	
617.5	-0.1649681034	0.8623319564	
618.125	0.1013268138	0.232215398	
618.75	-0.2480568715	0.6394165676	
619.375	0.3906367473	0.3263846177	
620.0	0.2801333335	0.2869979981	
620.625	0.3280140984	-0.4724574921	
621.25	-0.0725492769	-0.3567764258	
621.875	-0.5932051823	-0.289975734	
622.5	-0.3290664678	0.08095931672	
623.125	-0.2928541132	0.4368226394	
623.75	0.412297606	-0.04246193464	
624.375	0.1419322719	0.2256720061	
625.0	-0.1280235599	-0.3702076419	
625.625	0.3071559235	0.0655927539	
626.25	-0.2221157448	-0.6726645146	
626.875	-0.264613128	0.135758308	
627.5	-0.1974641074	-0.4243874884	
628.125	-0.4726525931	-0.09294582772	
628.75	0.02846582516	-0.1740033421	
629.375	-0.2260339233	-0.6186868964	
630.0	-0.3791227692	-0.01403990162	
630.625	-0.5806891522	-0.1363499186	
631.25	-0.5044875304	0.5646934731	
631.875	0.03445217362	0.5252827508	
632.5	0.2083027504	0.4385755602	
633.125	0.3903406576	0.3542037668	
633.75	0.5755060712	-0.299492498	
634.375	0.06883905425	-0.1217486646	
635.0	0.1959774425	-0.5557960732	
635.625	-0.4317847001	0.08108303533	
636.25	-0.4762944616	-0.1971200242	
636.875	-0.1436619272	0.5886109377	
637.5	0.04967413743	-0.07419263897	
638.125	-0.6127095396	0.4061980256	
638.75	0.3848827545	0.3035365055	
639.375	-0.4758210281	0.336057219	
640.0	0.3032649981	0.9753285977	
640.625	0.7277866072	0.1763679878	
641.25	0.2490701034	0.1701901282	
641.875	0.8244266697	-0.6738345774	
642.5	-0.2197981881	-0.2080325979	
643.125	0.003999722387	-0.637967286	
643.75	-0.7310690812	0.07187750927	
644.375	0.08316245088	-0.2975219441	
645.0	-0.744155407	0.422366124	
645.625	0.3046415879	0.616874665	
646.25	0.3118254346	-0.1349810582	
646.875	0.1190772078	0.4883398933	
647.5	0.2907785581	-0.5219597557	
648.125	0.2205246361	0.6973758617	
648.75	0.9833788118	-0.557656513	
649.375	-0.007936249241	-0.2530868858	
650.0	1.281264566	-0.6026143731	
650.625	-0.1318532294	-1.310030264	
651.25	0.1144011336	0.160682456	
651.875	1.37731752	-0.2063573909	
652.5	0.5645615108	-0.7961568154	
653.125	0.2140061906	0.2096891104	
653.75	0.9901273272	-0.6714118145	
654.375	-0.50725298	-0.5771149105	
655.0	-0.1370601197	-0.52559894	
655.625	-1.007855214	0.6968368843	
656.25	0.4346294126	0.1245408641	
656.875	-0.2846560224	0.2485517616	
657.5	0.3875251169	0.3468554235	
658.125	0.125107701	0.07871121163	
658.75	0.6372051032	0.7523670395	
659.375	0.9179496415	-0.689296519	
660.0	0.2793705919	-0.4235256172	
660.625	0.8560731518	-0.6314407691	
661.25	0.06736219737	-1.245053097	
661.875	0.3737143833	0.07891360133	
662.5	1.250023366	-0.5348580555	
663.125	0.379954318	-0.8703998782	
663.75	0.3698337872	-0.09246321808	
664.375	0.1484416348	-1.289057861	
665.0	-0.6714648776	-0.104513649	
665.625	-0.7709097834	-0.3007333237	
666.25	-0.2997139021	1.001891184	
666.875	0.1793825458	0.09907722317	
667.5	0.4112275895	0.6192915205	
668.125	0.7095018498	-0.2221563076	
668.75	0.1885317548	-0.2283579464	
669.375	0.5279289206	-0.3444630122	
670.0	0.009142446331	-0.8309458946	
670.625	-0.09235180367	-0.1920615337	
671.25	0.3986408362	-0.4304637849	
671.875	0.2030549006	-0.6350065069	
672.5	0.3450225307	0.02682518156	
673.125	0.7836671504	-0.615287319	
673.75	0.06103261714	-0.5621513697	
674.375	0.3816391809	-0.2119248494	
675.0	0.006223389296	-1.094210068	
675.625	-0.827247023	0.1724322346	
676.25	0.07423842939	-0.5032390597	
676.875	-0.8310579559	0.1627859193	
677.5	0.07917471974	0.007699380378	
678.125	-0.9450012886	0.3372950631	
678.75	0.5326573008	0.3875189385	
679.375	0.1276157411	0.4374006661	
680.0	0.7559649611	-0.1171996221	
680.625	-0.09864298751	-0.5845011923	
681.25	0.07683103067	0.5206476084	
681.875	0.6980362375	0.03135301428	
682.5	0.4868305123	0.01899398584	
683.125	0.2496771076	0.1192817965	
683.75	0.8669824622	0.6855849081	
684.375	0.5916460345	-0.4944762996	
685.0	0.3441059019	0.6191304176	
685.625	1.282356858	-0.06650636429	
686.25	-0.07184420132	-0.2807800384	
686.875	1.640546505	0.3241981876	
687.5	0.02734952293	-1.614226031	
688.125	0.5760771487	-0.1955073805	
688.75	-1.266671026	-1.291323673	
689.375	-0.3965224864	1.111666138	
690.0	-0.5590355319	0.6240732975	
690.625	1.048348613	0.7087120831	
691.25	0.407414782	0.4841106227	
691.875	1.150932346	1.217494751	
692.5	1.451629669	0.1475671889	
693.125	1.404949798	0.1520794632	
693.75	1.514319111	-0.516015678	
694.375	1.070534709	-0.780103414	
695.0	1.133504999	-0.9505517174	
695.625	0.7273238845	-0.1461754781	
696.25	1.650057026	1.068206954	
696.875	1.145598673	0.3054431156	
697.5	0.0410829024	1.535159073	
698.125	2.313778833	0.5966023177	
698.75	0.4836809962	-0.3720462638	
699.375	-0.5444904332	-1.969335604	
700.0	-0.5788066784	1.317759426	
700.625	-0.5622780096	0.4090665487	
701.25	1.127367676	0.5985571527	
701.875	0.3024231568	0.386023275	
702.5	0.9107069457	0.9855180701	
703.125	0.8168790021	-0.2426720635	
703.75	0.9687996295	0.1939965576	
704.375	0.7225531603	-0.7890693582	
705.0	0.1847838073	0.09873163937	
705.625	1.200333298	-0.02045044637	
706.25	0.1575221829	-0.06228014683	
706.875	0.2579138156	1.289416514	
707.5	1.210433747	0.8380732042	
708.125	0.5506684427	0.4906185512	
708.75	1.328900126	-0.9741398397	
709.375	-0.8107610439	-0.5359319865	
710.0	-0.6138587363	0.1220167909	
710.625	0.2930688561	0.6577619378	
711.25	-0.05358896299	0.1935816269	
711.875	0.610800017	0.470278774	
712.5	0.6478435077	0.03135469538	
713.125	0.8226746356	-0.5237365695	
713.75	0.006833559785	-0.331103459	
714.375	0.4492916969	-0.7213917347	
715.0	-0.4772913238	-0.4783667105	
715.625	0.5952252355	-0.09108477238	
716.25	0.4625193944	-1.360382543	
716.875	0.007081424038	0.184472117	
717.5	2.24307551	0.6879076204	
718.125	2.19205396	-1.284407283	
718.75	0.4036962822	1.589865158	
719.375	4.225900859	-1.931466936	
720.0	0.03104508642	-1.662476749	
720.625	1.320183275	-1.600479093	
721.25	0.5121812874	-4.15974958	
721.875	-1.027029704	-1.373693015	
722.5	-0.8896391839	-3.015537593	
723.125	-2.513543407	-0.3650722491	
723.75	-0.5239431342	0.8086836561	
724.375	-0.5270325335	1.164178173	
725.0	0.8083052346	1.102820399	
725.625	0.4936056294	0.6353841655	
726.25	-0.6245292711	1.556681902	
726.875	-0.5156395822	3.757030072	
727.5	1.700108069	2.008748908	
728.125	-4.456916888	4.760593239	
728.75	2.116075849	12.29120249	
729.375	0.5300085996	1.691516956	
730.0	-14.24041901	15.02622638	
730.625	10.24058673	11.66428784	
731.25	-8.072515608	1.777915465	
731.875	-13.76287411	8.941769577	
732.5	-7.871626763	7.164696732	
733.125	-2.96955259	-2.654678598	
733.75	-5.039342947	4.401892304	
734.375	2.199931941	0.7924848026	
735.0	0.7849717083	-0.5390293872	
735.625	-2.436264152	0.635536915	
736.25	0.03338957039	0.08105789513	
736.875	0.6066633263	2.442623042	
737.5	3.661782243	0.6324910383	
738.125	3.125807511	-3.212644406	
738.75	1.406011702	1.830286947	
739.375	17.8710204	-6.263707228	
740.0	-1.309985138	-13.34927448	
740.625	-0.195664229	16.98146654	
741.25	35.61633964	2.871837586	
741.875	-2.372422457	-17.75901044	
742.5	-9.726231485	-25.34870398	
743.125	-6.693144852	0.06561027443	
743.75	3.828017637	-0.4795218543	
744.375	-2.664917952	-1.350348582	
745.0	0.5544502916	-0.1459530826	
745.625	0.1863742735	0.3586869972	
746.25	-0.1407573131	-0.5458768123	
746.875	-0.1595535972	-0.1633771819	
747.5	-0.736002912	1.150380764	
748.125	0.6291095858	1.219460135	
748.75	0.7965262165	1.307509674	
749.375	1.701726265	2.153486431	
750.0	-0.1391575643	0.2437121106	
