!Created with skrf (http://scikit-rf.org).
# GHz S MA R 50.0 
!freq magS11 angS11
500.0 0.0152193011831 174.005833831
500.625 0.0102054153564 80.8195200319
501.25 0.00720290781064 -73.3791043464
501.875 0.0215392126945 -163.39581433
502.5 0.0474680309236 174.246216777
503.125 0.0208498249685 114.990751355
503.75 0.00751492885342 12.2293534914
504.375 0.0203090567937 -58.4134621353
505.0 0.00368700003515 72.9186766681
505.625 0.0181792504296 -65.5095079103
506.25 0.0383511149832 -115.087691151
506.875 0.0823230290997 -89.1352043499
507.5 0.0456457274692 -119.389323383
508.125 0.0540747626155 -86.9984904179
508.75 0.0634447980355 -125.185090312
509.375 0.0578979737492 -129.248113387
510.0 0.0400418752228 -116.027082683
510.625 0.0358606127051 -155.499983928
511.25 0.0599360570166 -172.079616192
511.875 0.0657750350938 153.881587563
512.5 0.0357211819898 90.6486328983
513.125 0.0456285187933 35.3337732915
513.75 0.0554709490736 40.3811393564
514.375 0.0341062853945 0.246048319382
515.0 0.0499647326782 7.36033730037
515.625 0.0789020037448 43.9946672363
516.25 0.102356723077 32.3921208825
516.875 0.107965633174 68.3129533936
517.5 0.12217307468 22.7286738006
518.125 0.198800387242 70.8932129218
518.75 0.0977523396848 17.6947482474
519.375 0.0532591246762 12.0353539335
520.0 0.0826346499051 -4.34646188466
520.625 0.0986619315013 -9.22321918977
521.25 0.0963867933744 -19.9952296909
521.875 0.0641480708458 -1.43126772597
522.5 0.0969033541724 -32.6451206816
523.125 0.182016979008 -35.8694154501
523.75 0.208867100546 -56.7930506854
524.375 0.213624318903 -49.1057264275
525.0 0.0660405280786 -45.9065224594
525.625 0.0361063014213 -28.7830663423
526.25 0.0554236575131 -3.19943920593
526.875 0.0475900440004 -23.9205687397
527.5 0.041801175615 -32.4762329752
528.125 0.0359488526995 -59.1021898829
528.75 0.0781642432689 -70.2727187133
529.375 0.0692982175781 -119.200981431
530.0 0.0501903967736 -125.142258598
530.625 0.041350357841 -138.254070151
531.25 0.140377674316 -138.55158056
531.875 0.163072292295 -146.173050287
532.5 0.133364583699 -169.287806151
533.125 0.0927698807381 175.74509227
533.75 0.136900927353 167.201808319
534.375 0.0923906138452 177.887207495
535.0 0.0842292369265 164.870253345
535.625 0.0599003209608 175.345243328
536.25 0.0722091191224 165.436397235
536.875 0.0813479013469 -159.022215122
537.5 0.100667159881 -142.319698613
538.125 0.105344009407 -171.768893038
538.75 0.114553608394 -177.962134055
539.375 0.0729777882917 -159.715287065
540.0 0.0833774620049 -149.736430341
540.625 0.13268028336 -154.310766574
541.25 0.139975267174 -140.541709698
541.875 0.0994127866553 -141.503822814
542.5 0.114754713988 -142.108900025
543.125 0.142399414355 -165.587724808
543.75 0.13927431204 161.258044072
544.375 0.0833225884329 134.654208222
545.0 0.0853675310206 93.3058281959
545.625 0.0922373271734 83.1132677417
546.25 0.0981504680054 69.2500530731
546.875 0.0828940812998 55.3026733676
547.5 0.102169781433 61.9572799781
548.125 0.117408045487 79.8899131607
548.75 0.0975837705067 92.4394887888
549.375 0.0812224811727 89.0129143385
550.0 0.0802758905154 126.285352809
550.625 0.0402844868467 161.178153598
551.25 0.0443473849193 -144.919500469
551.875 0.0576469231709 -145.76683503
552.5 0.10093203398 -158.088478459
553.125 0.0929885200886 -166.192846131
553.75 0.0965392721379 -172.414997455
554.375 0.0972582675085 174.242256244
555.0 0.119979790465 167.142257497
555.625 0.0942230878468 159.026690368
556.25 0.101732695245 163.296194841
556.875 0.122315682829 166.766967253
557.5 0.113725745698 167.954622613
558.125 0.0971957531747 166.046110899
558.75 0.0877027958279 177.910540059
559.375 0.049574034684 -168.067762476
560.0 0.0401434474343 -137.740163573
560.625 0.0542834451849 -134.357325706
561.25 0.094425562296 -154.386694711
561.875 0.0938368195904 -154.870509329
562.5 0.0951198288167 173.930847742
563.125 0.100765759716 149.406966839
563.75 0.140654630604 128.77275003
564.375 0.0926477459087 125.628159935
565.0 0.0787224860772 123.564613174
565.625 0.0766695272692 120.318152658
566.25 0.10517814722 149.624101772
566.875 0.0728254122845 -176.800406596
567.5 0.0739326893001 -177.071745339
568.125 0.083263223707 -170.773782998
568.75 0.0715172376862 -146.425708813
569.375 0.0536676151017 -115.353571119
570.0 0.0617169846048 -108.822401221
570.625 0.0927983289585 -119.178908224
571.25 0.0938197924355 -121.805421911
571.875 0.0910343427425 -130.679232718
572.5 0.112718456383 -156.590427257
573.125 0.143731626821 -174.284743973
573.75 0.10625093394 162.840577035
574.375 0.083904049356 150.105637999
575.0 0.108068384657 154.458232388
575.625 0.110820504165 155.293223514
576.25 0.0938130391583 143.236896393
576.875 0.0720914365914 137.672697102
577.5 0.0802199851033 137.196701321
578.125 0.054880951752 164.000269732
578.75 0.0502769480115 160.855028053
579.375 0.0522765622578 165.057669982
580.0 0.0697866016808 -176.167608747
580.625 0.0803222984974 -152.161196075
581.25 0.0911830092973 -163.393428535
581.875 0.11741861117 178.425220678
582.5 0.117281245813 -172.954312128
583.125 0.090027439171 -162.00740583
583.75 0.0813704486394 -165.078580503
584.375 0.106386765216 -164.961205552
585.0 0.0864011530574 -132.542558727
585.625 0.0688994202598 -141.383467417
586.25 0.0715598706649 -139.658711082
586.875 0.0849787523624 -141.875571581
587.5 0.0740964332252 -141.592295803
588.125 0.0574571886489 -165.205881722
588.75 0.0683049270701 -161.768060788
589.375 0.0820567363283 -161.249886702
590.0 0.0971995509342 -157.090644293
590.625 0.108302125248 168.249035488
591.25 0.119922375459 159.945176574
591.875 0.101466791379 150.673519149
592.5 0.059228871576 158.3995639
593.125 0.0664999684816 157.8678277
593.75 0.0790139768696 176.456272705
594.375 0.0597002641976 -164.697337181
595.0 0.0490161859787 -103.628060456
595.625 0.0609707459502 -95.6733550559
596.25 0.0740402310232 -79.1394896588
596.875 0.0658376897476 -78.3897731493
597.5 0.0638120528477 -50.9112416591
598.125 0.0745586914841 -51.4396455667
598.75 0.0816270842116 -62.8391820236
599.375 0.0832248927541 -71.5385197277
600.0 0.103965129469 -64.6003205826
600.625 0.10135487862 -63.5463203127
601.25 0.084691005061 -72.8067495552
601.875 0.06775810992 -99.6298423925
602.5 0.0666077396555 -59.8680846211
603.125 0.0426875671802 -47.0258992689
603.75 0.0277733435358 -35.9602305945
604.375 0.0407297325041 -24.3176807903
605.0 0.0519874795581 -26.0751904908
605.625 0.0499156253224 -4.56370754419
606.25 0.0281757915213 16.4250896006
606.875 0.0351630592967 46.7699509398
607.5 0.0418478470295 37.4925256361
608.125 0.0700408383353 28.4431802901
608.75 0.0644390486094 23.8768023722
609.375 0.0624537044289 26.8607587445
610.0 0.0661890437785 39.7714777418
610.625 0.0618815380392 36.8982515161
611.25 0.0525184844435 30.8530170873
611.875 0.0360580027351 48.1072839333
612.5 0.0107518773559 28.3703709805
613.125 0.0511667604663 130.444782789
613.75 0.0557028786262 125.221851509
614.375 0.0466010450112 135.416560528
615.0 0.0151090049635 111.584843995
615.625 0.0515724879353 137.777354867
616.25 0.043250784164 138.882054831
616.875 0.0385192551798 133.418127938
617.5 0.0130025917285 107.273877773
618.125 0.0538429021081 138.798363187
618.75 0.0320662137039 147.284096426
619.375 0.020340188599 170.845461973
620.0 0.0192894219162 -30.5850905374
620.625 0.0224900506251 -165.713198531
621.25 0.0415165101369 -123.907899947
621.875 0.0692374697062 -116.784813358
622.5 0.0720819393874 -147.180909963
623.125 0.0853796986213 169.77697032
623.75 0.0618248648748 163.856378308
624.375 0.0458597193124 -173.095382819
625.0 0.0362593217117 -142.97194812
625.625 0.0314278856243 -139.521556586
626.25 0.0192765819021 170.983476979
626.875 0.00785901527845 25.8042376845
627.5 0.0284365529824 -20.3090349954
628.125 0.0545283030363 -2.53146188036
628.75 0.0322702912355 -36.1433584885
629.375 0.0398821558464 -19.7524856968
630.0 0.062242220276 -15.4034038916
630.625 0.079838469102 21.8798262192
631.25 0.0714196362302 5.64754622285
631.875 0.065087845901 -1.33583246655
632.5 0.0581185549616 -2.15643947566
633.125 0.0521377384386 30.6357239355
633.75 0.0476047084869 -26.0264722321
634.375 0.039620745916 -1.17259840698
635.0 0.0451133178996 17.8406569578
635.625 0.0386512576545 46.1217795313
636.25 0.0595920849813 44.2158840103
636.875 0.0658572416378 39.7336212849
637.5 0.0371020805879 27.9558339856
638.125 0.039161374731 71.4179773732
638.75 0.0962588590056 80.0397433219
639.375 0.0786781380348 77.0899162143
640.0 0.0632389184505 95.9437893991
640.625 0.0523052065125 99.2729389156
641.25 0.0851312564798 130.833605799
641.875 0.0527585074997 133.656216833
642.5 0.0585169212341 165.045298164
643.125 0.0580332246978 161.599958575
643.75 0.0865599127511 178.827127321
644.375 0.067804577375 -175.49000573
645.0 0.071529300614 179.524660157
645.625 0.0859776571701 164.071730002
646.25 0.109309975131 170.851350497
646.875 0.0536207124121 163.812291584
647.5 0.0631768275127 -176.974403155
648.125 0.0812599247553 178.465995052
648.75 0.0839318278125 -158.304194506
649.375 0.0423979443102 -153.5226705
650.0 0.0460423153457 -116.660725341
650.625 0.0745340000331 -86.0809842618
651.25 0.0728628487858 -62.4284326212
651.875 0.0702327088192 -42.2550078655
652.5 0.0918281036602 -23.7392509319
653.125 0.122786042764 -0.145564462498
653.75 0.118615310648 7.87498073286
654.375 0.0906512633167 2.56032635968
655.0 0.103408066797 11.0504153931
655.625 0.0918870511684 22.3567219242
656.25 0.0643607256641 25.1414965372
656.875 0.0704416342859 7.27894551207
657.5 0.0813722716462 24.0453731381
658.125 0.0576666230289 52.4573677773
658.75 0.060926584484 66.1396332214
659.375 0.0963498105558 36.9042482271
660.0 0.0921006484566 27.7703267086
660.625 0.104638551714 20.4023516226
661.25 0.0999111769164 4.27785399921
661.875 0.136618784133 -13.4092191093
662.5 0.106614826418 -21.1642883249
663.125 0.110487044245 -13.3176315224
663.75 0.102219809092 6.46125365228
664.375 0.112752087111 57.601154755
665.0 0.0757309340582 93.5214478813
665.625 0.057847125587 111.982340006
666.25 0.0970034603551 129.322846752
666.875 0.0874010100204 176.063772863
667.5 0.0987224967376 -167.396143437
668.125 0.0979117751919 179.353879546
668.75 0.141769169734 166.147138923
669.375 0.132786100767 177.767251065
670.0 0.0879302037847 -168.811951161
670.625 0.0946589189894 -172.596523471
671.25 0.11475242904 175.642329178
671.875 0.115429046013 168.306081607
672.5 0.068158007217 158.598864155
673.125 0.0904053651237 152.350721414
673.75 0.123533296218 155.950726478
674.375 0.0999028715729 174.568647463
675.0 0.112782189631 -172.152504018
675.625 0.131533251624 -148.87592489
676.25 0.134800841295 -126.401719724
676.875 0.105975888788 -118.374520386
677.5 0.12104612334 -127.309022779
678.125 0.139282218691 -115.497807326
678.75 0.0710465320971 -91.1518195191
679.375 0.0602574559806 -77.6935412216
680.0 0.0770948545876 -78.1876581347
680.625 0.112853849439 -69.6448094471
681.25 0.0989233442931 -70.0471145418
681.875 0.106497439033 -96.4217113242
682.5 0.129305936255 -115.825524943
683.125 0.169056128313 -121.92022791
683.75 0.146663251947 -105.434956149
684.375 0.119075815491 -78.01259533
685.0 0.145523956891 -42.1562993318
685.625 0.128482643718 -1.24800998527
686.25 0.101749391961 26.4187905081
686.875 0.0922938766533 46.541349483
687.5 0.0876474956571 79.3522351402
688.125 0.0831417616358 110.394495635
688.75 0.103403000342 120.661680665
689.375 0.146084185748 121.553066239
690.0 0.143396683538 130.219747242
690.625 0.110747230369 134.133983675
691.25 0.138620263193 102.247854599
691.875 0.177613829348 67.6567477774
692.5 0.155801319029 38.221476229
693.125 0.0895671382715 -14.5422122504
693.75 0.0939203006209 -38.6280310059
694.375 0.142053675597 -29.4365661055
695.0 0.131421513179 13.7501236799
695.625 0.107392579308 50.2620990989
696.25 0.109354187718 125.74930834
696.875 0.139091016711 174.752225202
697.5 0.150446836631 -146.589932772
698.125 0.144050740094 -133.124055384
698.75 0.117218382621 -122.683606733
699.375 0.103466541896 -119.42259972
700.0 0.0979199306935 -112.625772143
700.625 0.121615009569 -96.1460749115
701.25 0.0880038733316 -51.3195503663
701.875 0.0811803804285 -50.9507690176
702.5 0.0980262684893 -80.8549475054
703.125 0.173377908244 -129.005741969
703.75 0.184702085235 -153.237160208
704.375 0.130059658956 170.693662749
705.0 0.113588970661 156.936156994
705.625 0.145851895473 -170.807291811
706.25 0.156299628714 -117.522055725
706.875 0.091036448884 -58.0593827251
707.5 0.0744485316393 -25.2492693422
708.125 0.0891627051557 22.9442915048
708.75 0.114331423439 56.0849818428
709.375 0.106060820427 114.893149321
710.0 0.1034921717 134.815703554
710.625 0.104720185878 152.226307658
711.25 0.119121012403 164.971984362
711.875 0.146268149416 167.59839712
712.5 0.150013228237 151.071507176
713.125 0.127269235775 100.622219732
713.75 0.107328959824 38.0312837335
714.375 0.109119966632 34.1695696789
715.0 0.11322987499 32.7903007011
715.625 0.0863357437271 41.8901028877
716.25 0.081292141989 76.670238176
716.875 0.109128079013 94.834171533
717.5 0.149405683069 157.224665172
718.125 0.117642308978 172.480306415
718.75 0.100867162497 178.955537728
719.375 0.109756654657 -179.000901119
720.0 0.125312279029 -133.723728013
720.625 0.11324866539 -76.4243256277
721.25 0.0927912041878 -17.460412828
721.875 0.0854396425352 17.6769111817
722.5 0.0822835741896 82.3047187479
723.125 0.0900472490541 81.7195171368
723.75 0.10923175566 49.7156025897
724.375 0.0961215561863 -14.1979841463
725.0 0.11004253631 -28.6893620316
725.625 0.0961700259507 -67.3549218967
726.25 0.114536719594 -71.3070457275
726.875 0.103067083651 -50.8871858738
727.5 0.075609035922 -47.6254353673
728.125 0.092291090685 7.2000203527
728.75 0.107311739361 32.3992072106
729.375 0.0884362496732 28.5538218949
730.0 0.0519047664291 -13.3352280803
730.625 0.0645530458135 20.8567263208
731.25 0.0654691572571 64.1822160868
731.875 0.0521688067387 109.778501362
732.5 0.0734193169899 150.855450436
733.125 0.0641619961109 161.102672784
733.75 0.068377928436 170.37675258
734.375 0.0683010090568 -173.697290193
735.0 0.0245345775662 114.827652564
735.625 0.0931879426049 159.289260068
736.25 0.0457859207129 134.233521784
736.875 0.056329641747 -175.882331307
737.5 0.0505673413254 -172.051697249
738.125 0.0814845323125 -171.817731009
738.75 0.0702043171477 179.450471047
739.375 0.0300994863438 172.228616479
740.0 0.0426242880921 -139.60634502
740.625 0.023010104107 -127.351847325
741.25 0.0632297964323 -153.778505508
741.875 0.0566668780318 -112.353924563
742.5 0.0357663949326 -9.8494171216
743.125 0.0232746045586 125.996733392
743.75 0.0580453233494 78.9613729724
744.375 0.0507357511603 101.101829784
745.0 0.0458902016921 140.015450888
745.625 0.0643353988358 143.928793627
746.25 0.100690152008 67.571742049
746.875 0.068413323404 38.636192061
747.5 0.0483502601785 21.9933612516
748.125 0.0139856934281 33.3883824435
748.75 0.0235674632389 56.725617451
749.375 0.0392907181067 -54.2907103399
750.0 0.0336042422762 -115.634452809
