!Created with skrf (http://scikit-rf.org).
# GHz S RI R (50+0j) 
!freq	ReS11	ImS11	
500.0	-0.6412420391	-1.622507708	
500.625	0.7210103548	-0.701363208	
501.25	-0.8355386537	-1.294010121	
501.875	-0.3623067163	-0.2732142572	
502.5	0.01123350212	-0.2394478849	
503.125	-0.1207285183	0.05323095868	
503.75	0.001679725721	0.04212227627	
504.375	0.089868969	-0.01739010805	
505.0	-0.02263653365	-0.02295214162	
505.625	0.06374452734	-0.08389226988	
506.25	-0.2007576	0.007161147658	
506.875	-0.02409202808	-0.3048243494	
507.5	-0.500901745	-0.7357430243	
508.125	0.1534850722	-0.2810285762	
508.75	1.287155834	-1.146848779	
509.375	-0.4486997239	-1.708467793	
510.0	-0.340361611	-0.1210163666	
510.625	-0.1589722727	-0.3572532844	
511.25	-0.1965990115	0.1036810365	
511.875	-0.07473706723	-0.06284099322	
512.5	-0.05944835845	0.07678103869	
513.125	-0.0476835286	-0.05684517568	
513.75	0.0087507383	-0.08983279768	
514.375	-0.2326382545	0.00635075689	
515.0	0.3996954351	0.05572871072	
515.625	-0.6820135615	-0.5732430125	
516.25	0.02129534521	-0.1278237559	
516.875	-0.2095061804	-0.8506780859	
517.5	-0.2834973901	-0.2739522653	
518.125	0.04260360511	-0.09542865915	
518.75	-0.2009339927	-0.1275420406	
519.375	-0.02773171927	0.04411388803	
520.0	0.09309064708	0.1252651834	
520.625	0.2609104826	-0.1245525741	
521.25	-0.08761134398	-0.2816156143	
521.875	-0.103936465	-0.06718668461	
522.5	-0.1609203969	0.08858405931	
523.125	0.0449819978	0.02405575246	
523.75	-0.2983485512	-0.07594934065	
524.375	-0.128927625	0.2654539751	
525.0	-0.1216852931	0.003369260966	
525.625	0.06644543662	0.1918026568	
526.25	-0.1076127595	-0.1180673308	
526.875	-0.05217069112	0.1778535187	
527.5	0.03340829787	0.1142706586	
528.125	-0.09509589634	0.3887533201	
528.75	0.1692849724	0.3368099789	
529.375	-0.01573801976	-0.0222708116	
530.0	0.09846734005	0.3082249202	
530.625	0.2646992268	0.1375857631	
531.25	0.3611202654	-0.1183837175	
531.875	0.3808281369	-0.427789709	
532.5	-0.1147332173	0.05272557756	
533.125	0.217646379	-0.2156586189	
533.75	-0.09571971815	-0.2548244521	
534.375	0.01610589945	-0.4194538294	
535.0	-0.4524738339	-0.05848794403	
535.625	-0.1014672725	0.1371025867	
536.25	-0.04844613322	0.1202132783	
536.875	0.1682021669	-0.01801322741	
537.5	0.03959708132	-0.01640716844	
538.125	0.2406129444	-0.09550696212	
538.75	0.09614280009	-0.1745773987	
539.375	-0.007977301954	-0.2042115332	
540.0	-0.285724552	-0.2640783509	
540.625	-0.1788356187	0.07734754239	
541.25	-0.04452769282	0.03930015059	
541.875	-0.1299860523	0.00955955798	
542.5	-0.0159129529	0.00605084522	
543.125	-0.1795240868	-0.1088305236	
543.75	-0.1789786837	0.1597364756	
544.375	-0.09265709219	-0.00731633111	
545.0	0.05352838818	0.1142593198	
545.625	-0.003570238692	0.005880234477	
546.25	0.1844236817	0.1192027763	
546.875	0.09981020241	-0.1142133057	
547.5	0.1256589225	-0.09661171791	
548.125	-0.08224578226	-0.2819420183	
548.75	-0.2131299551	-0.04596360051	
549.375	-0.07946116002	-0.1200802309	
550.0	-0.1548699588	0.03872365614	
550.625	-0.01090983877	-0.002170320368	
551.25	-0.1491495176	0.04423179205	
551.875	-0.04097171549	0.1040927371	
552.5	-0.08754061612	0.0785145981	
553.125	0.004672141451	0.1063299142	
553.75	0.05215802936	0.04068510284	
554.375	0.1349611173	-0.002538209572	
555.0	0.1154798833	-0.1010747691	
555.625	0.1038851817	-0.1347965192	
556.25	0.08616533087	-0.1900593464	
556.875	-0.05631636949	-0.2079514624	
557.5	-0.1292976022	-0.128737382	
558.125	-0.1503598027	-0.05282764406	
558.75	-0.1520290129	0.001487637523	
559.375	-0.1328979226	0.03645799172	
560.0	-0.1334703475	0.08818011524	
560.625	-0.06229299027	0.1725494647	
561.25	0.0299183217	0.09620953244	
561.875	0.02115313673	0.09221602546	
562.5	0.04748252807	0.03259198603	
563.125	0.05689719789	0.1271401348	
563.75	0.229211484	-0.03011048788	
564.375	0.1035885058	-0.113977799	
565.0	0.1547148372	-0.1903071068	
565.625	-0.1093464371	-0.2363074371	
566.25	-0.09376771485	-0.07447102027	
566.875	-0.2119013894	-0.1739365089	
567.5	-0.2304212303	-0.06236430199	
568.125	-0.05683806856	-0.220925451	
568.75	-0.3818631686	-0.09624121624	
569.375	-0.1347756	0.2049491289	
570.0	-0.2171224989	0.1738259073	
570.625	-0.04752094945	0.3802515246	
571.25	0.05243019813	0.04059652395	
571.875	0.06896174417	0.2419475432	
572.5	0.1521258934	-0.1275872389	
573.125	0.1219162363	0.00530286585	
573.75	0.1178148099	-0.2529531899	
574.375	-0.1207467172	-0.02609414713	
575.0	0.1636478334	-0.03491439835	
575.625	-0.07519179121	-0.1343369188	
576.25	0.08978467452	-0.02272813627	
576.875	0.02183072203	-0.2887539255	
577.5	-0.1220780313	-0.1887439235	
578.125	0.02432355833	-0.09086254828	
578.75	-0.1054079394	-0.2858919459	
579.375	-0.2342874472	0.06573220049	
580.0	0.07444928288	-0.07701492998	
580.625	-0.2553540422	0.04310003945	
581.25	-0.01116361551	0.03734179293	
581.875	-0.18658272	0.349181364	
582.5	0.2386214749	0.2296318377	
583.125	0.03913919084	-0.02699804374	
583.75	0.07855821234	0.1690032408	
584.375	0.02654462594	-0.09363621771	
585.0	0.09078860049	0.1981504867	
585.625	0.2940677257	-0.08966780817	
586.25	0.06563216866	-0.09849463077	
586.875	0.2215959243	-0.1955274116	
587.5	-0.1363293768	-0.2444858555	
588.125	0.01177712284	-0.05952020709	
588.75	0.1120324227	-0.2710438472	
589.375	-0.04891214292	-0.2422165226	
590.0	0.02649909429	-0.1534440216	
590.625	-0.35901352	-0.08675331529	
591.25	-0.02192286422	0.212921494	
591.875	-0.1164338751	0.02699823929	
592.5	0.04530727114	0.1960054464	
593.125	-0.06069451334	-0.06041197678	
593.75	0.1584070655	0.2732858014	
594.375	0.1196761728	-0.04249073793	
595.0	0.1054374984	0.1947774093	
595.625	0.3423492831	0.1419920904	
596.25	0.1234374538	-0.0536126611	
596.875	0.2096127402	0.1636044465	
597.5	0.2933631231	0.03506217952	
598.125	0.1166034499	0.05595779869	
598.75	0.2396978021	0.2003765308	
599.375	0.2481370263	-0.1324742937	
600.0	0.1243002602	-0.1194504667	
600.625	0.2617874273	-0.2314120611	
601.25	0.005538664831	-0.3321924284	
601.875	-0.07897718415	-0.04294369449	
602.5	-0.2455857306	-0.1145123709	
603.125	-0.07808824661	0.1769776129	
603.75	-0.129726575	-0.06444050918	
604.375	-0.2342664743	0.1567221774	
605.0	0.1089133967	-0.04157147651	
605.625	-0.2283054291	-0.004713029036	
606.25	-0.1133354921	0.2174862816	
606.875	-0.09498204755	0.02797718185	
607.5	-0.2207965599	0.3510731299	
608.125	0.1283630427	0.3487600984	
608.75	0.2054335665	0.2315041602	
609.375	0.4153694253	0.002157019294	
610.0	0.2259865463	-0.1692149081	
610.625	0.09599262881	-0.07407540971	
611.25	0.04146666815	-0.3330246549	
611.875	-0.1642241739	-0.01249736496	
612.5	-0.08934552407	-0.1279983368	
613.125	-0.3791582108	0.124947495	
613.75	0.05201551148	0.1581838082	
614.375	-0.1113477727	0.1819141284	
615.0	0.211143355	0.04475438725	
615.625	-0.1165771035	0.004986437447	
616.25	-0.1130651057	0.3501972029	
616.875	0.005992713446	0.1339080607	
617.5	-0.1795683246	0.2702678778	
618.125	-0.01166257589	0.4153512571	
618.75	0.154118075	0.1405047182	
619.375	0.1671022335	0.1628400801	
620.0	0.2396285991	0.1012423911	
620.625	0.03685388681	-0.1633918873	
621.25	-0.03474886353	-0.2839576451	
621.875	-0.3843394174	-0.1450266505	
622.5	-0.1804236701	0.2017327962	
623.125	-0.1639956623	0.1654953214	
623.75	0.2802590796	0.02967260264	
624.375	-0.08871305622	-0.0597254209	
625.0	0.1572864295	-0.09264815265	
625.625	-0.05918478179	-0.09913384084	
626.25	0.03998548515	-0.1787451937	
626.875	-0.2815102107	-0.1429296068	
627.5	-0.1466458393	0.05697920037	
628.125	-0.09208940109	-0.1476939197	
628.75	-0.2176168128	-0.1593058624	
629.375	-0.06438886585	-0.09948057507	
630.0	-0.2433833698	-0.1765773744	
630.625	-0.3663796283	0.1224694237	
631.25	-0.1142186794	0.1930447057	
631.875	-0.08601740933	0.3620478397	
632.5	0.3048360031	0.198852158	
633.125	0.1740022341	-0.08855335281	
633.75	0.2909476664	-0.03565834893	
634.375	-0.04724250988	-0.2459006643	
635.0	0.06736108466	-0.02935040072	
635.625	-0.2864249332	-0.1699619341	
636.25	-0.08543976593	0.2070169763	
636.875	-0.09565336751	0.04722519125	
637.5	-0.05454065376	0.258726441	
638.125	0.01206747837	0.01266989311	
638.75	-0.2294919534	0.2326893205	
639.375	0.1496191843	0.3801884066	
640.0	0.1237437072	0.1574554163	
640.625	0.3140846381	0.3030391566	
641.25	0.4460966073	-0.1347051388	
641.875	0.09390151428	-0.1603196671	
642.5	0.09852313333	-0.3263326751	
643.125	-0.3256036513	-0.03978938751	
643.75	0.07020838417	0.03855586189	
644.375	-0.3651835656	-0.04965868694	
645.0	-0.009382889805	0.2594701676	
645.625	-0.1144330478	0.1302169513	
646.25	0.4624120052	0.3378260827	
646.875	-0.0084683638	-0.1866557772	
647.5	0.1131413344	0.2225336942	
648.125	0.2292925336	-0.1728122927	
648.75	0.1706161958	0.07296610858	
649.375	0.5205753112	-0.422786912	
650.0	-0.015930567	-0.4923784712	
650.625	0.1925156564	-0.1363108378	
651.25	0.4229927533	-0.4160110647	
651.875	0.08581924407	-0.4319986354	
652.5	0.2851977612	0.06009143471	
653.125	0.5011302858	-0.2881143038	
653.75	0.01034435147	-0.3269378719	
654.375	0.07525021631	-0.3462115963	
655.0	-0.5804595119	-0.06777534899	
655.625	0.03490792352	0.3736660576	
656.25	-0.09224307536	0.1450675599	
656.875	0.2924016068	0.32640115	
657.5	-0.07520171717	-0.07680497751	
658.125	0.2850648926	0.3624000185	
658.75	0.4180960515	-0.1082913081	
659.375	0.220047885	0.01143764967	
660.0	0.4711538225	-0.4149859878	
660.625	-0.04002621242	-0.5382100755	
661.25	0.2081755023	-0.1668932004	
661.875	0.4020779636	-0.4494961244	
662.5	0.1960673151	-0.4014896751	
663.125	0.2593289396	-0.09577056055	
663.75	0.2675396737	-0.5195268439	
664.375	-0.2369259505	-0.2772637768	
665.0	-0.2202140711	-0.2833295506	
665.625	-0.5354968771	0.1661461301	
666.25	0.06392309535	0.3639116228	
666.875	0.02634977069	0.2683264781	
667.5	0.3828306746	0.1338029939	
668.125	0.1079826622	-0.1623962516	
668.75	0.3448777334	-0.02806754461	
669.375	-0.004492196451	-0.5607555376	
670.0	-0.06302788571	-0.1080852273	
670.625	0.1628146953	-0.343820351	
671.25	-0.03670956252	-0.337660953	
671.875	0.1913340781	0.0686351463	
672.5	0.433513413	-0.2718515275	
673.125	0.09201152436	-0.3035085769	
673.75	0.1885371708	-0.171796152	
674.375	0.1292496795	-0.4542462271	
675.0	-0.3161008613	-0.2167847482	
675.625	-0.06699453103	-0.2114291005	
676.25	-0.3920280349	-0.03535312481	
676.875	-0.09502631023	0.1467029961	
677.5	-0.1846251557	-0.1214483502	
678.125	-0.1901980757	0.3870996201	
678.75	0.1339081651	0.1160302438	
679.375	0.116572922	0.279770467	
680.0	0.3718562683	-0.2717476765	
680.625	-0.1387554394	-0.05384635125	
681.25	0.4175570376	0.1035627543	
681.875	0.1493637026	-0.269036042	
682.5	-0.001110342116	0.2381502246	
683.125	0.5469916743	0.3011157366	
683.75	0.1955334782	-0.2854600586	
684.375	0.1498379782	0.2263197062	
685.0	0.539765528	-0.09949327858	
685.625	0.264721487	-0.2404669613	
686.25	0.277200839	0.1953077031	
686.875	0.5617658476	-0.4945847716	
687.5	0.2078302655	-0.2683386243	
688.125	0.09608920564	-0.5729245779	
688.75	-0.8022213116	-0.1884023125	
689.375	-0.04756102822	0.4189522815	
690.0	-0.06197001466	0.5003926999	
690.625	0.5682665575	0.2805135418	
691.25	0.2375777359	0.1650212073	
691.875	0.6431919589	0.7813288142	
692.5	0.9621170319	-0.102959967	
693.125	0.5457852904	0.2549513386	
693.75	0.9673285094	-0.2163604811	
694.375	0.4435507307	-0.7941029345	
695.0	0.354307305	-0.1692272339	
695.625	0.9297306803	-0.2714905988	
696.25	0.6616148056	-0.1161730869	
696.875	0.3678159542	0.4152392631	
697.5	0.6064927043	0.5722142722	
698.125	0.8420823211	-0.2102436347	
698.75	0.4659196102	-0.3950424893	
699.375	-0.7326663996	-0.5699044653	
700.0	-0.1408655811	0.6359343218	
700.625	0.1517146418	0.155414342	
701.25	0.5097879704	0.3969446864	
701.875	0.3090871778	0.02694777953	
702.5	0.2820176706	0.4208860192	
703.125	0.7559854617	0.1563680811	
703.75	0.2531102163	-0.2362205794	
704.375	0.3955683287	-0.02280811216	
705.0	0.4103336571	-0.3466659151	
705.625	0.1607973162	-0.1098024892	
706.25	0.478950851	0.2466303542	
706.875	0.5730878139	0.2433114522	
707.5	0.2189399662	0.2418313327	
708.125	0.6594735451	0.1524947464	
708.75	0.4026680809	-0.5010934925	
709.375	-0.3017685063	-0.125884798	
710.0	-0.4205130459	0.2825770519	
710.625	0.2690581759	0.3754466484	
711.25	-0.03009300352	-0.02342932767	
711.875	0.4163335685	0.239429611	
712.5	0.2840227833	-0.2507011171	
713.125	0.3323601278	-0.03437080923	
713.75	0.2638129862	-0.4627892441	
714.375	-0.1487424762	-0.260353761	
715.0	0.1167187852	-0.189979532	
715.625	-0.03586188343	-0.4342444326	
716.25	0.02355802176	-0.1836909915	
716.875	0.4488937848	-0.09445188928	
717.5	0.8649000371	-0.3503153922	
718.125	0.4216011778	-0.1119161581	
718.75	1.069552986	-0.02086938086	
719.375	0.8836957831	-1.019930099	
720.0	-0.4484009804	-1.262703309	
720.625	0.4931412671	-1.398982505	
721.25	-0.8443950346	-1.918850582	
721.875	-0.2478176404	-0.3447703952	
722.5	-0.9191608058	-1.217143842	
723.125	-1.077975202	0.2883798728	
723.75	-0.2271434169	0.2817825588	
724.375	-0.1322074141	0.9361271376	
725.0	0.4783928085	0.2271557781	
725.625	-0.04191311201	0.4752935689	
726.25	0.05892787741	1.18586343	
726.875	0.4303749045	1.091779032	
727.5	-0.412015192	1.02289519	
728.125	0.08862159351	3.38623724	
728.75	1.419791582	2.709955629	
729.375	-1.690893765	2.862246047	
730.0	0.7119634638	6.98730911	
730.625	3.504155076	4.036988113	
731.25	-2.157758758	4.446395136	
731.875	-4.582283877	5.582173034	
732.5	-1.714692633	2.253935512	
733.125	-2.849604361	-1.231780407	
733.75	-0.7690160035	2.638408562	
734.375	0.9239909203	-0.4624088938	
735.0	0.4213883361	-0.5747891904	
735.625	-0.8785823063	0.5991010854	
736.25	0.1095389045	0.1552435198	
736.875	0.4671537765	1.381405814	
737.5	1.862543858	-0.3700467506	
738.125	0.7126562078	-0.7346495705	
738.75	3.439047562	-0.4160263668	
739.375	3.792735377	-5.129947919	
740.0	0.2072542432	-1.358408121	
740.625	4.357735099	4.162686272	
741.25	7.582157442	2.858337126	
741.875	-2.020361232	-3.172091805	
742.5	-3.131488026	-5.255854151	
743.125	-1.556534864	-2.054727606	
743.75	0.489556689	-0.8830432004	
744.375	-1.008796153	-0.07480888561	
745.0	0.1995930213	-0.04936652704	
745.625	0.1820196788	0.1373411565	
746.25	-0.1563987895	-0.1502780687	
746.875	-0.1942059322	-0.02163180975	
747.5	-0.2371214656	0.6603376535	
748.125	0.3834022588	0.6408784586	
748.75	0.1634216585	0.4652609221	
749.375	0.04606093766	0.7992742894	
750.0	-0.3524856088	0.5385140195	
