!Created with skrf (http://scikit-rf.org).
# GHz S RI R (50+0j) 
!freq	ReS11	ImS11	
500.0	-0.01270125411	-4.915364663	
500.625	0.1003858869	-1.775131637	
501.25	0.01781898476	-2.232355589	
501.875	-1.752743722	-2.744396194	
502.5	-0.4286751876	-0.06580691919	
503.125	-0.1763498438	-0.111100387	
503.75	0.2925105103	0.4331286292	
504.375	-0.03559927172	0.07305022733	
505.0	0.1126285677	-0.2298442575	
505.625	0.05028222881	0.1147053732	
506.25	-0.445330343	-0.7025981122	
506.875	0.68347312	0.3702884966	
507.5	0.6184070896	-1.724274728	
508.125	-0.4217482749	-3.157896285	
508.75	-0.2140999819	-1.598936408	
509.375	-0.07915655337	-5.248016688	
510.0	-1.948957846	0.8240112422	
510.625	-0.2538564178	-0.7346004786	
511.25	-0.69454621	-0.03505607262	
511.875	-0.2272557162	-0.204518552	
512.5	-0.119507373	0.1640851595	
513.125	-0.02798829388	-0.3973164426	
513.75	-0.3358713619	0.0705101458	
514.375	0.1366267376	-0.4546819467	
515.0	-1.727491578	0.5335804642	
515.625	2.214241937	-2.040488643	
516.25	-3.954679335	-1.732473105	
516.875	0.610590867	-0.09936801938	
517.5	-0.2139051962	-1.382098857	
518.125	0.1057740793	0.3428162676	
518.75	-0.2480292142	-0.922286739	
519.375	-0.1125191368	0.2215238391	
520.0	0.2113485575	0.1547784983	
520.625	0.707500194	-0.2101819354	
521.25	-0.2835601598	-0.6976424809	
521.875	-0.2062537111	-0.234304672	
522.5	-0.1818172583	0.2616243143	
523.125	-0.1913539965	-0.1523207545	
523.75	-0.2473332579	0.2183118603	
524.375	-0.436341644	-0.1944806379	
525.0	0.2251204605	0.6483153043	
525.625	-0.1275463555	-0.06167045507	
526.25	0.1797295397	0.0731706176	
526.875	-0.3389800187	0.03305191187	
527.5	0.1308079587	0.8333772452	
528.125	0.02837509966	0.3065397033	
528.75	-0.159596229	1.014405738	
529.375	0.282694249	-0.05776452962	
530.0	0.04137284116	0.8296186441	
530.625	0.1226535866	0.3092736822	
531.25	1.511074695	0.8692657804	
531.875	0.186531637	-0.7578866778	
532.5	0.2413575822	-0.3481009928	
533.125	-0.6235334529	-0.1178272382	
533.75	0.7618980238	-0.6775898454	
534.375	-0.6601826425	-0.5927408521	
535.0	-0.2692200478	-0.4853409187	
535.625	-0.7319885119	0.5962229453	
536.25	0.08557669185	0.1161819614	
536.875	0.2228077572	0.1761722008	
537.5	0.2123561716	-0.2017365829	
538.125	0.1242879848	-0.02531548566	
538.75	0.5284665965	-0.3956262981	
539.375	-0.2618661117	-0.2323374473	
540.0	-0.218395852	-0.4911313612	
540.625	-0.611807801	0.009880181697	
541.25	-0.05273036307	0.05852473946	
541.875	-0.08970372305	-0.1160034004	
542.5	-0.2171019605	-0.150545591	
543.125	-0.06096980049	0.1006666412	
543.75	-0.2829961116	-0.2420653733	
544.375	0.02349743686	0.2882058026	
545.0	-0.2430903222	0.05429580849	
545.625	0.388573383	0.1413373827	
546.25	-0.05780181124	0.09626820016	
546.875	0.6186724958	-0.07210217532	
547.5	-0.09733818926	-0.213803821	
548.125	0.1361726648	-0.3839265653	
548.75	-0.4239522497	-0.4327039881	
549.375	-0.2914518723	0.00949705773	
550.0	-0.1580114556	-0.1744642493	
550.625	-0.1293819377	0.1745287543	
551.25	-0.1799973912	-0.08597958771	
551.875	-0.2166442357	0.3101005633	
552.5	-0.04832237256	0.0868254883	
553.125	-0.09474063831	0.2042393536	
553.75	0.1362919519	0.1043800128	
554.375	0.2097201268	0.02047261397	
555.0	0.2722424235	-0.1645720661	
555.625	0.2057028683	-0.2734246018	
556.25	0.1672769977	-0.3336668442	
556.875	-0.06900678743	-0.4134520796	
557.5	-0.2436558252	-0.2593665432	
558.125	-0.2657992895	-0.1008578379	
558.75	-0.2725810739	-0.03756306348	
559.375	-0.2846873698	0.07769069837	
560.0	-0.1941570636	0.1492696715	
560.625	-0.1860251105	0.2570885052	
561.25	0.06806023311	0.2955977059	
561.875	0.00451304706	0.02654032372	
562.5	0.1106667498	0.2233958569	
563.125	0.03217837261	0.1358294337	
563.75	0.4702309277	0.05654064185	
564.375	0.1632415272	-0.3063513432	
565.0	0.2914699741	-0.1796775755	
565.625	-0.1217727204	-0.5296394397	
566.25	-0.3168775937	-0.1359978389	
566.875	-0.1697298035	-0.2265739374	
567.5	-0.456983801	-0.416300645	
568.125	-0.4072511926	-0.1516157245	
568.75	-0.4318446181	-0.4846544384	
569.375	-0.6682917418	0.4510446547	
570.0	-0.1913666197	0.2465855443	
570.625	-0.4362725571	0.5679093109	
571.25	0.3533731002	0.2341431502	
571.875	-0.2035432932	0.3409808492	
572.5	0.6190768069	-0.1903355159	
573.125	-0.07847079416	-0.1220178492	
573.75	0.4409893405	-0.135383052	
574.375	-0.1835753467	-0.4212829758	
575.0	0.1983476494	0.2011328251	
575.625	0.02141087338	-0.4762469312	
576.25	-0.0306074817	0.05754345993	
576.875	0.2517943033	-0.5622379419	
577.5	-0.2564412558	-0.4993476521	
578.125	-0.06845777195	-0.123847342	
578.75	-0.0009905978477	-0.426062801	
579.375	-0.4513812421	-0.2659520188	
580.0	0.07557571859	0.1354405236	
580.625	-0.3574891516	-0.2869528092	
581.25	0.01499605445	0.3121354214	
581.875	-0.2852603928	0.1653981837	
582.5	0.1980313678	0.7133281867	
583.125	0.3643285319	-0.1976531865	
583.75	-0.272038955	0.3499042077	
584.375	0.4871538294	-0.1483503886	
585.0	-0.1380600508	0.3168584467	
585.625	0.7261092675	-0.01344486889	
586.25	0.05423024062	-0.2592647748	
586.875	0.4991669236	-0.1550644249	
587.5	-0.2740010259	-0.5183257735	
588.125	0.06680853999	-0.02765388958	
588.75	0.346206647	-0.4982158748	
589.375	-0.03974406608	-0.5492027342	
590.0	0.05025852574	-0.2295589077	
590.625	-0.436664646	-0.3291496933	
591.25	-0.3461746779	0.4342418186	
591.875	0.01011600316	0.1075075755	
592.5	-0.1338768903	0.2665024189	
593.125	-0.02840437676	-0.09549118305	
593.75	0.1704267832	0.5047596891	
594.375	0.419974428	0.0374545214	
595.0	0.07964452997	0.2419889308	
595.625	0.6065297228	0.6268086777	
596.25	0.3897256347	-0.4016088063	
596.875	0.1223404102	0.4237483322	
597.5	0.664207761	0.2418842591	
598.125	0.1231653865	0.07137030954	
598.75	0.6434824853	0.519681491	
599.375	0.3327602368	-0.2912803603	
600.0	0.4536343514	-0.06774849078	
600.625	0.5068446427	-0.5673010694	
601.25	-0.05071898082	-0.4428720867	
601.875	0.01405941977	-0.2796655371	
602.5	-0.3515134837	-0.1050384476	
603.125	-0.3664705143	0.09697531484	
603.75	-0.065175711	0.1624160408	
604.375	-0.3747981761	-0.007731714042	
605.0	-0.09881093588	0.4050211015	
605.625	-0.2124179737	-0.1377241717	
606.25	-0.3639315388	0.3926245172	
606.875	-0.1313215945	0.04034078021	
607.5	-0.8459148184	0.3804504486	
608.125	0.3737975179	0.6148857076	
608.75	-0.0209251854	0.4453598452	
609.375	0.9552400741	-0.07529305934	
610.0	0.04626701057	-0.2558255943	
610.625	0.5025388173	-0.3250396889	
611.25	-0.1601252908	-0.4023297632	
611.875	0.1398113064	-0.334923469	
612.5	-0.6577230352	-0.09415198495	
613.125	-0.2344404083	-0.04082374238	
613.75	-0.4298066769	0.4575406771	
614.375	0.2714241131	0.07060984897	
615.0	-0.004129586897	0.3945313187	
615.625	0.1536508574	-0.07982810422	
616.25	-0.4258310097	0.3895632442	
616.875	0.03744960909	0.6918701748	
617.5	-0.2429646944	0.1482853107	
618.125	-0.1535107494	0.8016902826	
618.75	0.2357981051	0.2866527091	
619.375	-0.05099215117	0.470688919	
620.0	0.5862065983	0.04115820524	
620.625	0.2573308672	-0.209857012	
621.25	-0.2497479367	-0.5189953613	
621.875	-0.301821521	-0.1776079776	
622.5	-0.6571026404	0.07051091605	
623.125	0.07735651212	0.3271178695	
623.75	0.197930288	0.3441275479	
624.375	0.05422446396	-0.3740250527	
625.0	0.2482164326	0.2747766687	
625.625	-0.05028558763	-0.6197659489	
626.25	0.1193188649	0.01501090652	
626.875	-0.4046829442	-0.5145058464	
627.5	-0.425553089	0.1389032516	
628.125	-0.005465431466	-0.202881149	
628.75	-0.3824437463	-0.4766345638	
629.375	-0.05367996805	-0.1739452281	
630.0	-0.4603739702	-0.4579953024	
630.625	-0.5729428855	0.3196052197	
631.25	-0.2032595775	0.2113949558	
631.875	-0.3063774811	0.6643434888	
632.5	0.3908804436	0.5068298477	
633.125	0.5241286005	0.07009731856	
633.75	0.2456886641	-0.01544897981	
634.375	0.3935177285	-0.5285134136	
635.0	-0.1419914018	-0.05167800719	
635.625	-0.2918402264	-0.5387355307	
636.25	-0.3683581223	0.3965738154	
636.875	-0.1320986842	-0.07574193486	
637.5	-0.2285950552	0.6091508043	
638.125	0.1496194234	-0.1113907423	
638.75	-0.6764553843	0.3902543724	
639.375	0.2949294362	0.8780094417	
640.0	0.2995501977	0.2195585855	
640.625	0.2833140772	0.699691611	
641.25	0.961349215	-0.1056604261	
641.875	0.1191687338	-0.2105226837	
642.5	0.3717974335	-0.8053822167	
643.125	-0.4461696307	0.1599761763	
643.75	0.003185532345	-0.453027987	
644.375	-0.8017578691	0.1029906219	
645.0	-0.03508741332	0.3784970051	
645.625	-0.1697557299	0.2534231081	
646.25	0.5297943225	0.6299597419	
646.875	0.2205662691	-0.4666429966	
647.5	-0.05423159112	0.5377736833	
648.125	0.6696208539	-0.3336927185	
648.75	0.1591550183	0.4545994913	
649.375	1.038643687	-0.953068729	
650.0	-0.2574010727	-0.7523902663	
650.625	0.653507711	0.01975552343	
651.25	1.058859306	-1.228788185	
651.875	-0.2012231673	-0.5767318674	
652.5	0.6939673918	0.407561531	
653.125	1.059016184	-0.5454100703	
653.75	-0.01183160593	-0.3915630169	
654.375	0.4893694244	-0.9624485503	
655.0	-0.9996344558	-0.008033886787	
655.625	-0.03264075881	0.184647526	
656.25	-0.4717530944	0.5584271644	
656.875	0.623341649	0.1890406165	
657.5	-0.4071405557	0.1489445002	
658.125	0.5520596541	0.652010384	
658.75	0.7308032972	-0.04119446509	
659.375	0.4344847023	-0.04096155181	
660.0	1.133345586	-0.8567785302	
660.625	-0.203599308	-0.7113769075	
661.25	0.6952663518	-0.335233769	
661.875	0.8106588367	-0.964037417	
662.5	0.0279218284	-0.6230515809	
663.125	0.8623578843	0.2181591209	
663.75	0.4171856679	-1.234311225	
664.375	-0.2286703448	-0.3195257722	
665.0	-0.3821145497	-0.9025687611	
665.625	-0.8709381081	0.5844482052	
666.25	-0.3212565406	0.1909139385	
666.875	0.2467557989	0.8381790543	
667.5	0.5410992275	-0.04908661062	
668.125	0.1866771657	0.2552735351	
668.75	0.8748851501	-0.4024301077	
669.375	-0.02456948416	-0.5800941626	
670.0	0.06645696821	-0.3175691866	
670.625	0.2427913795	-0.562060507	
671.25	-0.181365296	-0.5348254671	
671.875	0.538678892	-0.1410577948	
672.5	0.5569888635	-0.5769968492	
673.125	0.2292871393	-0.3422481797	
673.75	0.725291246	-0.1897111962	
674.375	0.01185201637	-1.187565629	
675.0	-0.3234112157	0.0891682299	
675.625	-0.1146095842	-0.8533129055	
676.25	-0.875354854	0.08370550234	
676.875	0.184364344	-0.005963069313	
677.5	-0.9591457835	-0.03405347869	
678.125	0.1392485829	0.2816781919	
678.75	-0.414344319	0.5216377303	
679.375	1.021179158	0.2111727769	
680.0	-0.1287276057	-0.2552406135	
680.625	0.44202899	0.09643993673	
681.25	0.3632794285	-0.3261486539	
681.875	0.07791072734	-0.05816264487	
682.5	0.3278818824	0.5006979259	
683.125	0.9634709975	0.1877375409	
683.75	0.3954214434	-0.1098019387	
684.375	0.4346250214	0.526755014	
685.0	1.240020741	-0.1725331877	
685.625	-0.01906674644	0.2126592707	
686.25	1.41909262	0.1157424243	
686.875	0.2107990905	-0.9229510329	
687.5	0.8214584331	0.226082461	
688.125	0.1648616873	-2.003193742	
688.75	-0.7762464907	0.3533082093	
689.375	-1.328219789	0.03805258969	
690.0	0.6067956833	1.127889459	
690.625	0.1180798624	0.3068511502	
691.25	1.193544248	1.109593179	
691.875	0.8414646839	0.3425471877	
692.5	1.285049705	0.7730212129	
693.125	1.766138131	-0.03495040731	
693.75	1.258551702	-0.6717004443	
694.375	1.010887304	-0.9032814401	
695.0	0.814953081	-0.5206757833	
695.625	1.708186364	-0.1155266244	
696.25	0.9731758618	-0.1554734695	
696.875	0.3021677239	1.535516677	
697.5	1.769306636	1.044737542	
698.125	0.4499563576	0.6211790753	
698.75	1.990252927	-1.070310117	
699.375	-1.379629802	-0.4961699413	
700.0	-1.050664198	-0.1988194663	
700.625	0.7705899272	1.183565668	
701.25	0.1413640854	0.1625155763	
701.875	0.897013489	1.116990209	
702.5	0.5974504253	0.0283688737	
703.125	0.948849619	0.6835240342	
703.75	1.061182029	-0.6038941923	
704.375	0.3583808312	0.05179890467	
705.0	0.9435117678	-0.5744920768	
705.625	0.09209771203	-0.1767132725	
706.25	0.6608172368	1.078461356	
706.875	1.054821081	0.3200205403	
707.5	0.02887158772	0.9438072211	
708.125	1.565495974	0.5971745502	
708.75	0.3720042093	-0.8910767309	
709.375	-0.2341764714	-0.9869793096	
710.0	-0.6269217877	0.8564934488	
710.625	-0.003503630167	0.1233928548	
711.25	0.3506886502	0.4938201415	
711.875	0.4427284536	0.1952614706	
712.5	0.743459328	0.02110368928	
713.125	0.5023828828	-0.3003860411	
713.75	0.6033105252	-0.6144375035	
714.375	-0.3737700206	-0.6577502676	
715.0	0.504333609	-0.1450837362	
715.625	-0.2968852944	-1.037264896	
716.25	0.1214948051	0.1248973354	
716.875	1.755192757	-0.3835731513	
717.5	0.8880592624	-1.326067909	
718.125	1.089032447	2.108623959	
718.75	3.626651834	-1.139100318	
719.375	0.4117869558	-1.371092966	
720.0	3.12566652	-0.6290457591	
720.625	0.3168455178	-4.116010478	
721.25	-0.09489238758	-1.203077263	
721.875	0.03145279912	-3.248325255	
722.5	-2.203048685	-2.115569285	
723.125	-0.9978263753	-0.4108667552	
723.75	-1.732764165	1.183502449	
724.375	0.4906239964	1.050247807	
725.0	0.2237783474	0.7087107466	
725.625	0.003811343074	1.286637004	
726.25	0.72281001	2.42716923	
726.875	0.3203893874	0.6466378465	
727.5	-2.350062999	4.346461288	
728.125	2.8465028	8.197074426	
728.75	-0.6515025196	0.6978580178	
729.375	-6.826596593	18.30665284	
730.0	5.086875377	9.27208191	
730.625	-8.840037219	2.212307105	
731.25	-2.15908232	19.3234582	
731.875	3.989881968	5.535413128	
732.5	-11.15030913	-3.876193344	
733.125	-8.832560013	2.058931073	
733.75	-1.24921884	3.93100987	
734.375	0.1908664625	2.191321147	
735.0	-0.6119147135	-2.483959031	
735.625	-0.4532710468	-0.2010597707	
736.25	-0.977696537	1.591358331	
736.875	2.161686102	1.373647181	
737.5	1.023306763	-0.2812215134	
738.125	4.646049413	1.583878678	
738.75	8.290716964	-6.185800662	
739.375	-0.5095256349	-7.623381548	
740.0	7.594810619	10.22134919	
740.625	26.7861462	-15.04683293	
741.25	-14.78062583	-13.65793239	
741.875	-18.16868015	6.091481217	
742.5	-1.682001988	7.834386159	
743.125	6.902228226	-7.132015064	
743.75	-2.075934663	-4.958963929	
744.375	-0.5159320302	0.7100957114	
745.0	-0.2761663053	0.1149427602	
745.625	0.3796805115	-0.2242695564	
746.25	0.1884435418	-0.05130351736	
746.875	-1.065280482	-0.1354213426	
747.5	0.07921274266	1.02077249	
748.125	-0.09070257534	1.172582742	
748.75	1.777131294	2.642528014	
749.375	0.8561624831	1.746562003	
750.0	-1.041109664	0.5563433378	
