!Created with skrf (http://scikit-rf.org).
# GHz S RI R (50+0j) 
!freq	ReS11	ImS11	
500.0	0.6800461165	-1.497096718	
500.625	-0.4415739825	-1.618485133	
501.25	-0.008144280434	-0.6016976302	
501.875	-0.6665143001	-0.7355126953	
502.5	-0.09888221022	-0.09924890329	
503.125	-0.103810896	-0.03439734682	
503.75	0.1195432073	0.151599605	
504.375	-0.001637389175	0.003208814589	
505.0	0.05946714487	-0.06731076688	
505.625	-0.05418117855	-0.01613375893	
506.25	-0.06247126448	-0.2347307153	
506.875	-0.1525835359	0.3338495059	
507.5	0.3508142238	-0.646682506	
508.125	-0.002582925429	-1.311425092	
508.75	0.002135518236	-1.100462319	
509.375	0.8390405923	-1.453226168	
510.0	-1.008983702	-0.1843137807	
510.625	-0.08959533943	-0.06752177628	
511.25	-0.2215528674	-0.189488557	
511.875	-0.1991539738	0.0562237131	
512.5	-0.05286827776	0.04545286573	
513.125	0.01388958682	-0.1882996623	
513.75	-0.1047389331	0.008068577068	
514.375	0.005444665992	-0.1131119671	
515.0	-0.3773289581	-0.08073492666	
515.625	0.8658774845	-1.057099341	
516.25	-0.7693914694	-1.62524707	
516.875	-0.3594312405	-0.06731885227	
517.5	0.111266093	-0.3363978629	
518.125	-0.06540949026	0.06353890896	
518.75	0.1051470319	-0.1615607439	
519.375	-0.09129094038	0.08430092832	
520.0	0.1598823534	0.007070836715	
520.625	0.233061763	-0.08548631345	
521.25	0.04919932403	-0.4880696521	
521.875	-0.2329227643	0.1239516358	
522.5	-0.01054330497	-0.046576784	
523.125	-0.1784047159	0.08912119709	
523.75	0.05458272625	-0.002350920458	
524.375	-0.3891599868	-0.07119331732	
525.0	0.1331834742	0.2731847384	
525.625	-0.05492493646	-0.02176236766	
526.25	0.05704274827	0.06414962844	
526.875	-0.137739048	-0.006718924221	
527.5	-0.1013253634	0.4152263564	
528.125	-0.0109518452	0.1965886025	
528.75	-0.1488925382	0.2294746886	
529.375	0.1123997305	0.07622712057	
530.0	-0.04473590367	0.118359724	
530.625	0.174832746	0.585031641	
531.25	0.5225371	-0.1979976934	
531.875	0.1347274509	-0.2253014791	
532.5	-0.08087541362	-0.3127435299	
533.125	-0.3139973474	0.004570940525	
533.75	0.1942073416	-0.4220355407	
534.375	-0.299572556	-0.236557826	
535.0	-0.2192927264	-0.2018031337	
535.625	-0.3259515614	0.190972514	
536.25	0.04010319748	0.08825912632	
536.875	0.09652093351	0.07294070788	
537.5	0.1082330382	-0.102952817	
538.125	0.0671449399	-0.03690505955	
538.75	0.2688268015	-0.1463067562	
539.375	-0.14742262	-0.1912251164	
540.0	-0.1042949915	-0.152942174	
540.625	-0.2452450453	-0.08194871446	
541.25	-0.1106665659	0.09638415265	
541.875	0.01120961945	-0.02850085723	
542.5	-0.1242197841	-0.1050644626	
543.125	-0.02392175832	0.04854260032	
543.75	-0.1695959146	-0.05658245006	
544.375	0.003393459183	0.1342446795	
545.0	-0.07195786253	0.05692476657	
545.625	0.1797282101	0.1406965778	
546.25	0.05050730689	0.002258828344	
546.875	0.2233289533	0.007101156753	
547.5	0.01831367051	-0.199820025	
548.125	-0.004763708165	-0.1353049487	
548.75	-0.1689160401	-0.2198670559	
549.375	-0.2056177763	-0.02824808218	
550.0	-0.0502656517	-0.03624849784	
550.625	-0.1229852966	0.04373594748	
551.25	-0.04829326698	0.0146444545	
551.875	-0.1350333042	0.08875542944	
552.5	-0.01085258405	0.1160822455	
553.125	-0.02871187915	0.05193526848	
553.75	0.07914590218	0.05976867348	
554.375	0.1087224157	-0.007300218396	
555.0	0.1362457512	-0.09189123667	
555.625	0.1090703644	-0.15412554	
556.25	0.07888981107	-0.1815041221	
556.875	-0.04318066473	-0.2088306057	
557.5	-0.1375225232	-0.1410339803	
558.125	-0.1562307061	-0.04549761883	
558.75	-0.1372052319	-0.004969404532	
559.375	-0.1534824491	0.02716236153	
560.0	-0.1125303325	0.1084090316	
560.625	-0.07480201332	0.1132721292	
561.25	0.003577873418	0.1606073081	
561.875	0.04920642286	0.02128293892	
562.5	-0.007208030005	0.1118744894	
563.125	0.1212612228	0.03938735341	
563.75	0.1471449785	0.04470438043	
564.375	0.2109745453	-0.160003647	
565.0	0.02814434801	-0.1778464114	
565.625	0.03240984962	-0.1583131298	
566.25	-0.2154250582	-0.1628947226	
566.875	-0.1233487233	-0.05232204397	
567.5	-0.1450719853	-0.24045345	
568.125	-0.3105534859	-0.1711116776	
568.75	-0.1504707396	-0.09010727429	
569.375	-0.4052192126	0.1132509641	
570.0	-0.01225938392	0.3307841159	
570.625	-0.1249308763	0.08367167403	
571.25	-0.01272835509	0.2663116739	
571.875	0.05705295983	-0.01772379672	
572.5	0.2317059899	0.1133156947	
573.125	0.06276209637	-0.2791230813	
573.75	-0.002424644258	-0.0008297103118	
574.375	0.1252850463	-0.1510605587	
575.0	-0.0957342356	-0.03226054033	
575.625	0.1698294193	-0.07408540123	
576.25	0.007717592971	-0.2466511899	
576.875	-0.02724187332	-0.0758508468	
577.5	0.1023813373	-0.2559176468	
578.125	-0.1952983125	-0.2970092383	
578.75	-0.07990835516	-0.03319987564	
579.375	-0.0609343758	-0.1906090674	
580.0	-0.248167046	0.0442307826	
580.625	0.08570060866	-0.1292042001	
581.25	-0.2258952455	0.2002778537	
581.875	0.1441750415	0.1244096209	
582.5	-0.1183107942	0.1666795207	
583.125	0.1720495368	0.2185275119	
583.75	-0.08281715985	-0.125650989	
584.375	0.07407445559	0.2115535182	
585.0	0.1654120238	-0.0570036504	
585.625	0.1057618903	0.08186019724	
586.25	0.3196378383	-0.1510104829	
586.875	-0.04072175403	-0.1827154471	
587.5	0.09127661177	-0.1575192839	
588.125	-0.06776990514	-0.2885917732	
588.75	-0.04821505258	-0.1048083673	
589.375	0.2161362004	-0.173859893	
590.0	-0.2018953666	-0.247933449	
590.625	-0.1229293869	-0.01475675604	
591.25	-0.3373957671	0.07040188654	
591.875	0.04890302552	0.2779208008	
592.5	-0.04550050616	-0.05540254617	
593.125	0.01822668833	0.1719071834	
593.75	-0.1279357085	0.02031716821	
594.375	0.1925668597	0.2707252332	
595.0	0.3214797567	0.002863531106	
595.625	0.08697698024	0.06251898711	
596.25	0.3420243649	0.07263939249	
596.875	0.2176733852	-0.07512491225	
597.5	0.07791891005	0.1317438877	
598.125	0.3007181279	0.2109202911	
598.75	0.1993736331	-0.002110143162	
599.375	0.2565719011	0.04509306746	
600.0	0.2329192785	-0.2507873161	
600.625	0.05564577311	-0.2417834065	
601.25	0.1249967847	-0.1464108926	
601.875	-0.167183687	-0.2777329284	
602.5	-0.0947894754	0.07762835318	
603.125	-0.1836034314	-0.0442228092	
603.75	-0.0989183224	0.2984057964	
604.375	-0.02493006796	0.01258982775	
605.0	-0.2183780317	0.08762755054	
605.625	0.1014711428	0.1080314312	
606.25	-0.1956294496	-0.05610828005	
606.875	-0.217088399	0.2393013713	
607.5	-0.05699967789	0.1841696346	
608.125	-0.05626846058	0.3825196306	
608.75	0.2689662935	0.1740675267	
609.375	0.1642196772	-0.1351567461	
610.0	0.2872255296	-0.0514494928	
610.625	0.1189980038	-0.2489123902	
611.25	-0.05636575978	-0.1035561825	
611.875	-0.03829316012	-0.2536806198	
612.5	-0.2976707956	0.04812181705	
613.125	-0.1100965194	-0.0296705753	
613.75	-0.2567707858	0.2274929445	
614.375	0.2267861861	0.1184351345	
615.0	-0.1206729874	0.03231181291	
615.625	0.1311206532	0.2133468921	
616.25	-0.04294317517	0.04513454393	
616.875	-0.1878441886	0.3193713892	
617.5	0.0348473802	0.4248876291	
618.125	0.01855427919	0.1088957114	
618.75	-0.02833272918	0.3103244513	
619.375	0.1099193498	0.2273373727	
620.0	0.1429111005	0.06489090259	
620.625	0.2039041003	-0.2047730747	
621.25	-0.2453007669	-0.1455814256	
621.875	-0.1496958168	0.06047480967	
622.5	-0.367345928	0.06460081037	
623.125	0.07451869162	0.2732623835	
623.75	0.0405616498	0.01911609808	
624.375	0.1928848997	-0.08592124936	
625.0	-0.05153204421	0.0222086639	
625.625	0.1611882876	-0.140673982	
626.25	-0.1730084196	-0.1935235876	
626.875	-0.06893424189	-0.0546101903	
627.5	-0.2407238113	-0.1426998559	
628.125	-0.1989463682	0.0009949669761	
628.75	-0.0301152161	-0.1342253335	
629.375	-0.1795155114	-0.2953063877	
630.0	-0.3187462296	-0.1066728849	
630.625	-0.2730786991	0.01948026839	
631.25	-0.2435411332	0.2898257569	
631.875	0.1037618991	0.3301407167	
632.5	0.06466329596	0.1796404585	
633.125	0.3701892031	0.07534537035	
633.75	0.1129504928	-0.1547922385	
634.375	0.1502092359	-0.1322909841	
635.0	-0.1145281264	-0.3474497712	
635.625	-0.1016326987	-0.001503172825	
636.25	-0.2871778054	0.01876568598	
636.875	-0.03140617877	0.3166528761	
637.5	-0.0109056663	0.002613546824	
638.125	-0.2120685573	0.1673292723	
638.75	0.07259642486	0.2135642893	
639.375	-0.1040299809	0.2417622748	
640.0	0.2734525898	0.421853966	
640.625	0.3745876124	0.04665246234	
641.25	0.2532138179	0.07795201171	
641.875	0.333806825	-0.3444410379	
642.5	-0.1699281667	-0.2323451872	
643.125	0.009405933221	-0.1705002922	
643.75	-0.3219285086	-0.1235758401	
644.375	-0.02739969073	0.1950808386	
645.0	-0.3485522609	0.1375795177	
645.625	0.3529191525	0.4966427581	
646.25	0.1126895498	-0.06737105321	
646.875	0.20580321	0.1400535646	
647.5	0.04703213198	-0.1747418207	
648.125	0.1513777867	0.3821685641	
648.75	0.4631283953	-0.2594452651	
649.375	0.09075059568	-0.2632681558	
650.0	0.3568315594	-0.238921395	
650.625	0.2160224811	-0.6568172859	
651.25	0.02671838364	-0.2064052218	
651.875	0.4707502865	-0.08949464508	
652.5	0.4180705964	-0.3677483863	
653.125	0.111873433	-0.1270921008	
653.75	0.405906979	-0.3098893241	
654.375	-0.3199808082	-0.4211593066	
655.0	-0.1939171094	-0.01663829617	
655.625	-0.4115737814	0.04958312174	
656.25	0.2498404763	0.3084555309	
656.875	-0.07618419994	-0.02374920566	
657.5	0.1995826561	0.3793201689	
658.125	0.184581501	0.01405313058	
658.75	0.2263139039	0.4251038091	
659.375	0.6040696401	-0.3651041036	
660.0	0.06739724821	-0.3457922894	
660.625	0.2786968173	-0.3196830535	
661.25	0.2218100119	-0.5882125433	
661.875	0.03964926094	-0.3259076522	
662.5	0.4541827793	-0.1270116802	
663.125	0.3354816749	-0.4645514377	
663.75	0.04890391475	-0.2315007982	
664.375	0.06106586327	-0.4615742562	
665.0	-0.5315736807	-0.1934890589	
665.625	-0.226575408	0.1322279975	
666.25	-0.2410384236	0.3369812163	
666.875	0.3010462136	0.2776379588	
667.5	0.0900894846	0.0164298187	
668.125	0.461924681	0.1222105561	
668.75	0.1583187105	-0.3240817841	
669.375	0.1034014862	-0.150643648	
670.0	0.1284930415	-0.4596076052	
670.625	-0.2762477713	-0.1749480616	
671.25	0.2609074542	-0.1190021708	
671.875	0.1992277896	-0.374988968	
672.5	0.08603169425	-0.1843001583	
673.125	0.3374948713	-0.09412155176	
673.75	0.2185220847	-0.4830587769	
674.375	-0.08357599001	-0.2134979951	
675.0	-0.004295129859	-0.3356381918	
675.625	-0.4169210854	-0.1624616846	
676.25	-0.1117669851	0.1268954004	
676.875	-0.2531867007	-0.1447341948	
677.5	-0.1971382006	0.2279173646	
678.125	-0.07260338206	0.05466203855	
678.75	-0.05478705366	0.4216453762	
679.375	0.4421140379	-0.08309425178	
680.0	-0.06918297595	0.02284547454	
680.625	0.2716798624	-0.1039931515	
681.25	-0.1485912762	-0.2923294037	
681.875	0.02394809522	0.310888217	
682.5	0.5268822805	0.0891413895	
683.125	-0.03026942816	-0.0265721706	
683.75	0.3578936219	0.3285958017	
684.375	0.5175576585	-0.1649636643	
685.0	0.07276996324	-0.1581454859	
685.625	0.6313679992	0.09432499576	
686.25	0.4393594295	-0.3415346355	
686.875	0.2840323328	-0.1229544836	
687.5	0.5323011864	-0.3829121358	
688.125	-0.3539378571	-0.5166058028	
688.75	-0.2885871758	-0.1199485953	
689.375	-0.3958677447	0.408163481	
690.0	0.4033384446	0.4649679725	
690.625	0.07494926015	0.1810115149	
691.25	0.6041313016	0.5606116519	
691.875	0.6083062098	0.003227672824	
692.5	0.5395289344	0.374232727	
693.125	1.104596572	0.01642513483	
693.75	0.3437163584	-0.5003838041	
694.375	0.6512871099	-0.2184232572	
695.0	0.4515535364	-0.7850498744	
695.625	0.450427335	-0.3284182801	
696.25	0.4233686786	0.3625477301	
696.875	0.8347106399	0.4785551018	
697.5	0.5039857755	0.4002602411	
698.125	0.7371151224	0.3416541546	
698.75	0.5472731781	-0.8397976472	
699.375	-0.6443195962	-0.09175019868	
700.0	-0.1202425591	0.3309934112	
700.625	0.4021337544	0.509834459	
701.25	0.2017289921	0.0365603279	
701.875	0.2358916364	0.4740633195	
702.5	0.7628069558	0.2688032081	
703.125	0.3204622681	0.01835003498	
703.75	0.6001885573	0.02310373289	
704.375	0.3625526173	-0.4534167878	
705.0	0.1237728402	-0.06920003536	
705.625	0.4711726677	-0.1136695674	
706.25	0.4140214467	-0.01864584452	
706.875	0.27807441	0.3995378651	
707.5	0.4708869989	0.617727769	
708.125	0.7122268214	0.248760354	
708.75	0.3254007907	-0.3213506137	
709.375	-0.447814117	-0.4123398158	
710.0	-0.04211571638	0.4308389436	
710.625	0.09300791601	-0.05277174188	
711.25	0.3111930857	0.2494634691	
711.875	0.2213014405	-0.1653993916	
712.5	0.4767226751	0.09935842917	
713.125	0.4547165782	-0.4463205938	
713.75	0.007742608337	-0.2771590113	
714.375	0.1859992101	-0.290378208	
715.0	-0.1630361621	-0.3673599189	
715.625	-0.01261433549	-0.1246692187	
716.25	0.3718980338	-0.2865896258	
716.875	0.3503847853	-0.5062187989	
717.5	0.423239153	0.0227442326	
718.125	1.19244185	0.1654211508	
718.75	1.143125747	-0.3976665875	
719.375	0.6544126552	-0.1950663569	
720.0	0.9238253517	-1.730625425	
720.625	-0.5381875935	-1.569149124	
721.25	0.04417805731	-0.4349274013	
721.875	-0.5089040291	-1.690845392	
722.5	-1.435782277	-0.4337987165	
723.125	-0.8445414116	-0.4018464541	
723.75	-0.8764901287	1.058062275	
724.375	0.2855077883	0.4562628807	
725.0	-0.01998234575	0.4811997191	
725.625	0.4572360337	0.8666379573	
726.25	0.2416896099	0.4904772564	
726.875	-0.5009397256	1.202344605	
727.5	0.1500733273	2.314803687	
728.125	0.9258593787	1.875436444	
728.75	-1.12709718	3.369904586	
729.375	0.3560580655	6.688201859	
730.0	1.437312085	2.70777237	
730.625	-1.873468175	6.062801824	
731.25	0.9433626411	7.040078806	
731.875	-0.3984201141	2.878694796	
732.5	-5.345129317	0.6612580142	
733.125	-3.40100232	2.122117271	
733.75	0.5362656499	1.265805836	
734.375	0.814699257	1.402588353	
735.0	-0.6498190137	-1.011435945	
735.625	-0.3037472724	0.0471650016	
736.25	-0.3468955436	1.001098917	
736.875	1.236558367	0.3436833105	
737.5	0.5245945173	0.3453350296	
738.125	2.886984378	-0.420796535	
738.75	1.437101833	-2.952488528	
739.375	0.9590697611	-0.8140007771	
740.0	7.516896949	0.6134071501	
740.625	4.215374913	-5.040261807	
741.25	-3.425777252	-0.9918239119	
741.875	-8.113248754	4.104027335	
742.5	-2.099473331	0.5883984453	
743.125	1.361817258	-2.556151001	
743.75	-0.8516413023	-1.819798118	
744.375	-0.3546143597	0.3006612825	
745.0	-0.264267316	0.1193887545	
745.625	0.05195368937	-0.1715002223	
746.25	0.07524277664	-0.154380592	
746.875	-0.4085894497	0.09785811054	
747.5	0.1353049966	0.456063881	
748.125	0.04901430266	0.5755578878	
748.75	0.4097136025	0.8024718537	
749.375	0.3495182941	0.5006149136	
750.0	-0.5113405846	0.2875350251	
