!Created with skrf (http://scikit-rf.org).
# GHz S RI R (50+0j) 
!freq	ReS11	ImS11	
500.0	-1.637270303	-4.250483903	
500.625	0.6559583567	-1.609572701	
501.25	-0.9053920815	-3.687282165	
501.875	-2.693551746	-1.152647271	
502.5	-0.1944404403	-0.0135070593	
503.125	-0.3265928325	-0.09610183445	
503.75	0.3501500592	0.1973037335	
504.375	0.06940560407	0.1126266115	
505.0	-0.03734935506	-0.2260878102	
505.625	0.2497114653	0.000512865906	
506.25	-0.6758641552	-0.302898048	
506.875	0.6289471044	-0.2818667903	
507.5	-0.07700579611	-2.212710064	
508.125	-1.34605472	-2.461236682	
508.75	1.604824616	-0.8974741485	
509.375	-1.459297246	-6.590033854	
510.0	-1.430464447	0.2650843238	
510.625	-0.3655670788	-0.8857211765	
511.25	-0.5162906726	0.2052622658	
511.875	-0.2408878582	-0.2231101295	
512.5	-0.1074540687	0.2275055241	
513.125	-0.09353100212	-0.3912229993	
513.75	-0.1023696626	0.07099988589	
514.375	-0.2227627167	-0.5091624269	
515.0	-0.5166324964	1.400809806	
515.625	0.6628956965	-3.316539238	
516.25	-2.582670426	0.1251612824	
516.875	1.142666312	-1.572541653	
517.5	-0.8041775773	-1.107131362	
518.125	0.2873584783	0.08556164658	
518.75	-0.4406181513	-0.9003391407	
519.375	-0.04103656201	0.1427499629	
520.0	0.2663999131	0.3295516728	
520.625	0.6557898045	-0.2644705419	
521.25	-0.2350899096	-0.5691174838	
521.875	-0.4301305251	-0.3661482106	
522.5	-0.1152613866	0.1884313073	
523.125	-0.2243210444	-0.02319399654	
523.75	-0.07239774404	0.09818141523	
524.375	-0.6863947771	-0.06455992341	
525.0	0.3006496903	0.3081781772	
525.625	-0.1618094001	0.1382071965	
526.25	0.1963857059	-0.1078911335	
526.875	-0.3790948721	0.2670065293	
527.5	0.2445725217	0.5513001603	
528.125	-0.2408089641	0.5505120012	
528.75	0.1686681721	1.173436332	
529.375	-0.05563104567	-0.04725215655	
530.0	0.3817891694	0.7253877988	
530.625	-0.2149242123	0.6202100763	
531.25	1.806920185	0.4021393356	
531.875	-0.01081765866	-0.3021779533	
532.5	0.1456279287	-0.6732211355	
533.125	-0.1443414012	0.264519476	
533.75	0.4694648242	-0.8402882584	
534.375	-0.4363726541	-0.1777467713	
535.0	-0.5774478919	-0.6997052595	
535.625	-0.4097912184	0.6069793124	
536.25	-0.02959107919	0.1186541813	
536.875	0.314348947	0.1587698888	
537.5	0.1303331509	-0.217543799	
538.125	0.2940274085	0.06598823001	
538.75	0.3654177422	-0.5278905756	
539.375	-0.09542594462	-0.2406746273	
540.0	-0.3842835097	-0.6113730865	
540.625	-0.4794809516	0.1669396243	
541.25	-0.09801623463	-0.08318940859	
541.875	-0.1683292367	-0.09910629765	
542.5	-0.2168364504	-0.08336076955	
543.125	0.02331335561	-0.09098825329	
543.75	-0.4172738441	-0.1122267155	
544.375	0.1900228453	0.1097662766	
545.0	-0.2122553913	0.2499208605	
545.625	0.2822617329	-0.01690023211	
546.25	0.0133097684	0.3391582438	
546.875	0.4703188564	-0.3447572917	
547.5	0.06780277507	-0.05143324982	
548.125	0.09392151175	-0.5656789475	
548.75	-0.503504885	-0.2794171173	
549.375	-0.1101241845	-0.04356948666	
550.0	-0.3220777757	-0.1163710784	
550.625	-0.01562867212	0.1101177136	
551.25	-0.3042011935	-0.04846985358	
551.875	-0.09285429498	0.2937194461	
552.5	-0.1555341508	0.08022109971	
553.125	-0.04810481852	0.2198992638	
553.75	0.1091729677	0.0958161701	
554.375	0.2314771171	0.04481501178	
555.0	0.2731467	-0.1824103036	
555.625	0.2072236784	-0.2556764204	
556.25	0.1918390711	-0.3428794842	
556.875	-0.0765646798	-0.4243992039	
557.5	-0.243633935	-0.2553442685	
558.125	-0.272553545	-0.1170283706	
558.75	-0.2940826306	-0.02672606132	
559.375	-0.2548502312	0.0764264365	
560.0	-0.2325953102	0.127528637	
560.625	-0.1786292652	0.3053908263	
561.25	0.09638565417	0.232365594	
561.875	-0.04030261475	0.1282147331	
562.5	0.1393229357	0.09356182322	
563.125	0.05384606361	0.2632233856	
563.75	0.4569446389	-0.06892324163	
564.375	0.1365506659	-0.1462067717	
565.0	0.379280846	-0.3349646136	
565.625	-0.1942864241	-0.4428747311	
566.25	-0.2191153984	-0.1373331606	
566.875	-0.2406220563	-0.3449529005	
567.5	-0.5421680157	-0.2735982931	
568.125	-0.153179858	-0.2152698006	
568.75	-0.702673284	-0.4379723	
569.375	-0.4493289979	0.404199205	
570.0	-0.4565714856	0.2232962247	
570.625	-0.1847308297	0.7499831809	
571.25	0.1565886598	-0.01836988819	
571.875	-3.095914259e-05	0.5448223055	
572.5	0.3523481171	-0.358171551	
573.125	0.1332661446	0.06443409786	
573.75	0.4251353074	-0.461989643	
574.375	-0.2827855576	-0.1530693711	
575.0	0.3928380292	-0.009929517337	
575.625	-0.2139589347	-0.2841736369	
576.25	0.3435819073	0.02260726392	
576.875	-0.02522144269	-0.6578594718	
577.5	-0.2621720383	-0.2699486681	
578.125	0.1307010478	-0.2465081724	
578.75	-0.1653512215	-0.557894673	
579.375	-0.4343031596	-0.0105635625	
580.0	0.1591917273	-0.09197028264	
580.625	-0.4699508227	-0.05375996714	
581.25	0.04357386784	0.03764611449	
581.875	-0.3606881988	0.4745787568	
582.5	0.4735137599	0.4993930918	
583.125	-0.0004625766236	-0.1975597754	
583.75	0.1115909169	0.5488432853	
584.375	0.05287083045	-0.3542652257	
585.0	0.2120342778	0.6029166785	
585.625	0.5448482973	-0.2865757385	
586.25	0.05420558854	0.05983621261	
586.875	0.5104338744	-0.447309422	
587.5	-0.3272916312	-0.2319286602	
588.125	0.2468531307	-0.2100324009	
588.75	0.1741230146	-0.6339924163	
589.375	-0.1073265713	-0.3059843551	
590.0	0.1564513111	-0.4238611456	
590.625	-0.6149056796	-0.2352647215	
591.25	-0.1846553295	0.3300446568	
591.875	-0.2008216223	0.104094857	
592.5	0.064540298	0.3179733787	
593.125	-0.2674213598	-0.03896025149	
593.75	0.3001313219	0.3680405606	
594.375	0.2424625296	0.04808957142	
595.0	0.1159070656	0.5311994279	
595.625	0.9161033592	0.3084283481	
596.25	0.03580116709	-0.168383583	
596.875	0.4925247618	0.5111273912	
597.5	0.5520494455	-0.03789685237	
598.125	0.004367611571	0.4141594649	
598.75	0.7702193604	0.1913651126	
599.375	0.2317767649	-0.06064651945	
600.0	0.7007202161	-0.1852487565	
600.625	0.322170798	-0.6458208674	
601.25	0.03989037121	-0.2930002714	
601.875	0.009284557948	-0.3983867979	
602.5	-0.3305922852	-0.051543946	
603.125	-0.2914646917	0.2067372334	
603.75	-0.1756239018	0.008374369146	
604.375	-0.4762601382	0.1718487313	
605.0	0.060605843	0.2085190055	
605.625	-0.429109147	0.007376230754	
606.25	-0.1324839628	0.3297004265	
606.875	-0.3755088934	-0.1514450973	
607.5	-0.6665837994	0.7453802801	
608.125	0.1561210982	0.2475608792	
608.75	0.08638000328	0.7278786077	
609.375	0.7557746189	-0.4273075723	
610.0	0.2479422414	0.04642913275	
610.625	0.4177524931	-0.5860255091	
611.25	-0.1386374356	-0.2059788548	
611.875	-0.01676143504	-0.6275503368	
612.5	-0.4595696672	0.02828876313	
613.125	-0.4367169295	-0.2443932426	
613.75	-0.278818427	0.5301998094	
614.375	0.02665767521	0.0950980822	
615.0	0.2777242737	0.3271007273	
615.625	-0.1712969086	-0.1165644735	
616.25	-0.2609757811	0.5899393626	
616.875	0.1447135882	0.3775488328	
617.5	-0.5128004829	0.3765857859	
618.125	0.1156023325	0.7680227752	
618.75	0.05726838483	0.1668792002	
619.375	0.1000409437	0.6879236948	
620.0	0.4537802861	-0.04718017632	
620.625	0.4442906059	-0.2660482381	
621.25	-0.2943898473	-0.4402770047	
621.875	-0.3363393256	-0.2754932025	
622.5	-0.6263674745	0.1839931984	
623.125	-0.1225740285	0.2204020864	
623.75	0.3443471319	0.2931355753	
624.375	-0.103666314	-0.2352688832	
625.0	0.542369393	0.03342596947	
625.625	-0.3142963451	-0.2008719121	
626.25	0.3005437379	-0.3358510766	
626.875	-0.6006506135	-0.3337770979	
627.5	-0.1705285644	0.1182341888	
628.125	-0.1402527963	-0.465112513	
628.75	-0.3636175179	-0.1225302699	
629.375	0.06173709662	-0.3876300904	
630.0	-0.6367516203	-0.3801026059	
630.625	-0.3303014715	0.2696236891	
631.25	-0.5024669607	0.2007395821	
631.875	-0.1363968387	0.7588213615	
632.5	0.3435670583	0.500551155	
633.125	0.4409998322	0.07841567609	
633.75	0.4192099848	0.1573392655	
634.375	0.05775699329	-0.5762180717	
635.0	0.1488992572	-0.1576319405	
635.625	-0.5209844623	-0.4313974924	
636.25	-0.1193935066	0.2749727148	
636.875	-0.555589391	0.1261880406	
637.5	0.1490034564	0.4860306361	
638.125	-0.1980224453	-0.2178579017	
638.75	-0.494034341	0.7423461238	
639.375	0.3978514714	0.4768908075	
640.0	-0.06756332845	0.3747191901	
640.625	0.6524754434	0.7307236541	
641.25	0.697622024	-0.309154355	
641.875	0.4259467085	0.0353299353	
642.5	-0.1984288632	-0.9787501411	
643.125	-0.03861804088	0.01503931728	
643.75	-0.3415339808	-0.6142964265	
644.375	-0.5303145429	0.3780811543	
645.0	-0.1037804376	0.04148446189	
645.625	-0.2708959724	0.6727259312	
646.25	0.7478231804	0.2562286374	
646.875	-0.1008938655	-0.2943043317	
647.5	0.3966533512	0.5245669485	
648.125	0.03005757225	-0.3811467078	
648.75	0.9586681224	0.4771200796	
649.375	0.5120892884	-1.146105294	
650.0	-0.02452767186	-0.2322091897	
650.625	1.246636947	-0.5232530935	
651.25	0.0906675778	-1.388025324	
651.875	0.1106021241	0.1785445962	
652.5	1.273906178	0.07713565872	
653.125	0.5638452036	-0.7326392333	
653.75	0.3519810953	0.08398603159	
654.375	-0.04104601102	-1.29326435	
655.0	-0.707011527	0.14448877	
655.625	-0.3670122982	-0.1367194567	
656.25	-0.1433084473	0.9528358115	
656.875	0.3573452898	-0.3009252887	
657.5	-0.1850133901	0.5816204652	
658.125	0.5880290882	0.384875652	
658.75	0.4738424401	-0.01161449185	
659.375	0.9792760635	0.2104814072	
660.0	0.4909199631	-1.21085533	
660.625	0.211095637	-0.3451003315	
661.25	0.850250779	-0.6582370985	
661.875	0.3428467259	-1.171136677	
662.5	0.1436748531	0.1100668997	
663.125	1.32824471	-0.354348203	
663.75	0.01992454111	-0.9513540129	
664.375	0.2366870236	-0.3952110402	
665.0	-0.8292888964	-0.9416450024	
665.625	-0.3629355907	0.3830164069	
666.25	-0.6842524391	0.4594238249	
666.875	0.5260924218	0.7067084425	
667.5	0.216338712	-0.0502889357	
668.125	0.6170120669	0.4434331377	
668.75	0.562803013	-0.6308656563	
669.375	0.07346206355	-0.4062776739	
670.0	0.2370068262	-0.3783208798	
670.625	0.04405781864	-0.751680141	
671.25	-0.033723657	-0.1137746542	
671.875	0.5684041989	-0.4936286365	
672.5	0.3687362393	-0.5310901083	
673.125	0.4150897682	-0.0407238726	
673.75	0.8689556732	-0.730050969	
674.375	-0.4004211107	-0.6957382907	
675.0	0.3090102426	-0.1878945999	
675.625	-0.5993563158	-0.8370752861	
676.25	-0.5585047784	0.3999335812	
676.875	-0.1068825709	-0.5248610948	
677.5	-0.6641417989	0.4952407754	
678.125	-0.1560116417	-0.101313357	
678.75	-0.2884255413	1.012735811	
679.375	0.6854513123	-0.2925114885	
680.0	0.1848447402	0.1918716989	
680.625	0.5300836808	-0.2134920307	
681.25	0.1022506342	-0.3774206265	
681.875	0.007030900511	0.343067881	
682.5	0.7107373762	0.4706907648	
683.125	0.6841241381	-0.08900477188	
683.75	0.2661493862	0.1581262557	
684.375	0.979715788	0.5941708936	
685.0	0.5580520484	-0.5467253923	
685.625	0.6038765532	0.7204748075	
686.25	1.217272864	-0.4581290703	
686.875	-0.05346536657	-0.1950727023	
687.5	1.590629359	-0.2326489826	
688.125	-0.9679422551	-1.589624767	
688.75	0.008432329105	-0.4353427376	
689.375	-1.540369429	0.8030847027	
690.0	0.6287909858	0.6861563286	
690.625	-0.07545056866	1.058952312	
691.25	1.2311937	0.4665007922	
691.875	0.6785043149	0.6961496381	
692.5	1.49727348	0.8485040407	
693.125	1.704782061	-0.2040054707	
693.75	1.36258218	-0.3465722622	
694.375	1.03473273	-0.9251597709	
695.0	1.225719588	-0.4110939363	
695.625	1.487715465	-0.5503520589	
696.25	0.5604003561	0.3174047579	
696.875	1.200123204	1.705153792	
697.5	1.134714111	0.4583613401	
698.125	0.8704538015	1.514042316	
698.75	1.587812535	-1.694121671	
699.375	-0.4491824151	-0.216065698	
700.0	-1.678129203	0.4833467761	
700.625	0.7979419698	0.7274668648	
701.25	-0.1244563487	0.8107349524	
701.875	1.177035625	0.5267017129	
702.5	0.4016751117	0.4953623466	
703.125	1.275348317	0.6108800208	
703.75	0.6136819092	-0.5405835033	
704.375	0.8876260553	-0.07880833116	
705.0	0.5041102797	-0.7594072702	
705.625	0.2851959834	0.3591200926	
706.25	1.13598124	0.6809607069	
706.875	0.2015498513	0.115552408	
707.5	0.3306419185	1.384437225	
708.125	1.566611104	0.1887624878	
708.75	0.5617504716	-0.3466318048	
709.375	-0.6373573577	-1.308944513	
710.0	-0.2484594253	0.707980762	
710.625	-0.2759859699	0.4068882907	
711.25	0.5133952092	0.2641372077	
711.875	0.3452389738	0.3367608148	
712.5	0.8291888376	0.009043979432	
713.125	0.637868346	-0.1715160754	
713.75	0.4915747394	-0.86127162	
714.375	-0.2607193563	-0.1378178994	
715.0	0.3742526037	-0.8237078871	
715.625	-0.4960376011	-0.3961765651	
716.25	0.8692703113	-0.005272253802	
716.875	1.349320407	-1.2415872	
717.5	-0.2518297882	0.2300679607	
718.125	2.892813805	1.326948739	
718.75	2.423444913	-1.724349616	
719.375	0.6305545563	0.7768908362	
720.0	3.675123481	-3.195709686	
720.625	-0.8231991139	-2.369420245	
721.25	1.15731684	-2.201959871	
721.875	-0.3192532662	-3.612102933	
722.5	-1.780239983	-0.9839357242	
723.125	-1.826239191	-1.457892477	
723.75	-1.174731697	1.500808556	
724.375	0.1813683637	0.8068337735	
725.0	0.09071006217	0.7995502103	
725.625	0.4483985314	1.685285586	
726.25	1.070493144	1.168432354	
726.875	-1.428715574	1.644553306	
727.5	-0.8606699445	5.865550717	
728.125	3.074676997	2.990572307	
728.75	-8.368614865	6.97644547	
729.375	3.185132118	16.95463139	
730.0	0.6107892656	1.606492789	
730.625	-9.860208866	17.57665552	
731.25	5.673650358	15.04175173	
731.875	-6.447258889	-2.190042099	
732.5	-13.4282518	0.852054924	
733.125	-7.547801988	2.553559201	
733.75	-1.01022271	1.262969861	
734.375	2.765394167	3.244902742	
735.0	-0.5782791874	-1.039923815	
735.625	-0.8373404938	-0.5024906199	
736.25	-0.4476441998	2.306341714	
736.875	1.332387013	0.1339003078	
737.5	1.604054003	2.077002117	
738.125	6.450334613	-0.6603724353	
738.75	4.608236597	-7.522553057	
739.375	-1.521056758	0.3661323741	
740.0	26.01073569	1.560055591	
740.625	2.23612386	-15.72773791	
741.25	-17.29465978	12.95556289	
741.875	-7.238527964	20.0197426	
742.5	7.399567101	-1.995914989	
743.125	3.689802246	-11.67385673	
743.75	-3.103332891	-2.731263502	
744.375	0.04434643858	-0.2396653773	
745.0	-0.3604646671	0.7769013508	
745.625	-0.1547385612	-0.3112949836	
746.25	0.2576916319	-0.4757848281	
746.875	-0.451956136	-0.05507393844	
747.5	-0.1481777398	0.5891412674	
748.125	-0.301348965	1.766680496	
748.75	1.680980744	1.147733034	
749.375	-0.4364980936	1.294755247	
750.0	-0.4859521628	0.4180768582	
