!Created with skrf (http://scikit-rf.org).
# GHz S RI R (50+0j) 
!freq	ReS11	ImS11	
500.0	1.690221337	-1.675742188	
500.625	2.26400096	-4.326871904	
501.25	-2.605793424	-1.962377242	
501.875	-0.6018375878	-0.2682637251	
502.5	-0.05448667095	-0.7380630915	
503.125	-0.1642201381	0.2591412819	
503.75	-0.1625999681	0.1952925403	
504.375	0.1216853885	-0.1196476163	
505.0	0.07925250154	0.1128063456	
505.625	-0.1131940187	-0.3710182074	
506.25	0.1298818646	0.2467427253	
506.875	-1.130990479	-0.6573278886	
507.5	-1.662361209	-0.1137446338	
508.125	1.467942191	-0.909119351	
508.75	2.208482552	-4.644579061	
509.375	-2.280722002	-1.769191051	
510.0	-0.8542743134	-2.141982663	
510.625	-1.057142269	0.2821806125	
511.25	-0.2541430233	-0.2824224854	
511.875	-0.6367359955	-0.03056922778	
512.5	0.1255262091	0.1001440636	
513.125	0.08553912444	-0.2466848725	
513.75	-0.2278052738	-0.4559995223	
514.375	-0.4040514761	0.444529928	
515.0	0.9952028941	-1.109860806	
515.625	-1.660391192	-0.003224688304	
516.25	1.569090842	-2.645357989	
516.875	-2.27480531	-1.724942038	
517.5	0.09785906419	0.3925793049	
518.125	-0.3757170181	-0.4723726463	
518.75	0.06127745573	0.2085080171	
519.375	-0.3476482931	0.08723878992	
520.0	0.4989396056	0.1149091872	
520.625	0.246130726	-0.09778236852	
521.25	0.2198341439	-0.9351429526	
521.875	-0.4834544139	0.05666812202	
522.5	-0.07427841949	-0.01252613183	
523.125	0.04250978524	0.2257057042	
523.75	-0.3755429467	-0.110295881	
524.375	-0.1657684168	0.2776830554	
525.0	-0.337747302	0.2212604094	
525.625	0.3138861588	0.2408978625	
526.25	-0.2723700233	-0.03360577867	
526.875	0.07063292087	0.1525219492	
527.5	-0.4046616879	0.3175115759	
528.125	0.4667667173	1.198362731	
528.75	0.1705998157	0.1687208768	
529.375	0.1753870186	0.4213006148	
530.0	-0.1367110558	0.07921189538	
530.625	0.3882650521	1.296089476	
531.25	0.8356421822	-0.01098914857	
531.875	1.02823334	-0.321941898	
532.5	-0.495640573	-0.1609990015	
533.125	0.5902670232	-0.408148475	
533.75	-0.180923832	-0.2705815005	
534.375	0.157249749	-1.29030864	
535.0	-0.8662109663	0.08799768455	
535.625	-0.3221867377	0.03176561394	
536.25	-0.08007446444	0.3416676232	
536.875	0.2515856662	-0.09901665156	
537.5	0.2316300744	0.03565753747	
538.125	0.284753843	-0.3269365507	
538.75	0.2468141543	-0.0847727034	
539.375	-0.1936670375	-0.6248887475	
540.0	-0.4792271797	-0.1018935253	
540.625	-0.2720716441	-0.2045071357	
541.25	-0.2899310041	-0.006134903069	
541.875	-0.1685315132	0.004989313315	
542.5	0.05048481499	-0.09309941141	
543.125	-0.3433106926	-0.1935938793	
543.75	-0.03489939062	0.1447290569	
544.375	-0.3026152827	0.057804968	
545.0	0.1484422478	0.1014185121	
545.625	-0.08360084068	0.3256036689	
546.25	0.4407234319	-0.07648717932	
546.875	0.06467962478	0.08760903531	
547.5	0.414222157	-0.4019741757	
548.125	-0.3140668204	-0.3476688795	
548.75	-0.08946338848	-0.2473746985	
549.375	-0.3535167091	-0.328131882	
550.0	-0.1179522501	0.1598829132	
550.625	-0.225454822	-0.1356039566	
551.25	-0.0886505035	0.1881411821	
551.875	-0.2440726034	0.04190362367	
552.5	-0.1230872023	0.3009623655	
553.125	-0.02227257671	0.1106285244	
553.75	0.1028996168	0.156313341	
554.375	0.2465770502	-0.01475218587	
555.0	0.2323950617	-0.1502037522	
555.625	0.2345083036	-0.2617821194	
556.25	0.1629272439	-0.3580850694	
556.875	-0.07536646832	-0.3875776227	
557.5	-0.2227235454	-0.2741774162	
558.125	-0.2957128057	-0.104367057	
558.75	-0.2476742611	-0.0002749207477	
559.375	-0.2688939295	0.005608007744	
560.0	-0.2567321817	0.2180886676	
560.625	-0.07492994368	0.224291788	
561.25	-0.06774935412	0.2536522629	
561.875	0.1653235584	0.09019149681	
562.5	-0.09994657358	0.1364685269	
563.125	0.2966223034	0.1404493925	
563.75	0.1720559101	0.05567545518	
564.375	0.4690194598	-0.2140582419	
565.0	0.05054764869	-0.4381922217	
565.625	0.02027253768	-0.2535436379	
566.25	-0.2645732398	-0.4046457454	
566.875	-0.3991507908	-0.04796386191	
567.5	-0.1549313974	-0.3063052303	
568.125	-0.4901361698	-0.5289510553	
568.75	-0.4258915846	-0.03396519886	
569.375	-0.7019843392	-0.03544770944	
570.0	-0.2579934179	0.7328944865	
570.625	0.02002186596	0.1538889247	
571.25	-0.3703133872	0.44151244	
571.875	0.3721243593	-0.1140493968	
572.5	0.21488026	0.3805780926	
573.125	0.307705608	-0.5757652019	
573.75	-0.1714192824	-0.06941763059	
574.375	0.39364122	-0.20632397	
575.0	-0.275695846	-0.1439874278	
575.625	0.3776024682	-0.03623301921	
576.25	0.07865969176	-0.5610149181	
576.875	-0.1630322526	-0.05682192051	
577.5	0.3055086857	-0.3773336325	
578.125	-0.2786017068	-0.5610169412	
578.75	-0.227003302	-0.08256830035	
579.375	0.001838747393	-0.3106467023	
580.0	-0.3801744715	-0.0437608031	
580.625	0.1208851755	-0.1714918017	
581.25	-0.4944654574	0.275825539	
581.875	0.3002798581	0.3201622703	
582.5	-0.1572473969	0.05184996212	
583.125	0.1717635261	0.6615284159	
583.75	0.1337249431	-0.4713096742	
584.375	0.01402516996	0.575268591	
585.0	0.4127697191	-0.2410868732	
585.625	0.1328155613	0.3515125321	
586.25	0.6796563352	-0.3545324646	
586.875	-0.0945298476	-0.1468055357	
587.5	0.2950901403	-0.3781195084	
588.125	-0.2258249901	-0.5432836639	
588.75	-0.08302448532	-0.03361015987	
589.375	0.5053978839	-0.3551949121	
590.0	-0.277830102	-0.488095549	
590.625	-0.257267865	-0.06329070654	
591.25	-0.4579768144	0.1449017428	
591.875	0.03488960389	0.417555974	
592.5	-0.1239560449	0.0004846115476	
593.125	0.04654565259	0.1999317576	
593.75	-0.02981780691	0.1444372232	
594.375	0.3878563642	0.5809019852	
595.0	0.7565206192	0.01628885621	
595.625	-0.03687112731	0.1307827192	
596.25	0.6791640951	0.4922033521	
596.875	0.2965273524	-0.2936944179	
597.5	0.114606197	0.4882704343	
598.125	0.6702193839	0.1910381604	
598.75	0.07875403776	0.1754308207	
599.375	0.8657702646	0.05400292471	
600.0	0.1610805248	-0.4356628963	
600.625	0.3404748336	-0.1713352227	
601.25	0.3763677921	-0.522034623	
601.875	-0.2964491471	-0.316356125	
602.5	-0.2241153671	-0.06734589731	
603.125	-0.2854375032	0.02380921805	
603.75	-0.3685028481	0.214307073	
604.375	-0.0884647157	0.1010958116	
605.0	-0.3310117709	0.1535648789	
605.625	-0.01220062412	0.2727541987	
606.25	-0.3869011776	-0.1098384065	
606.875	-0.4685120461	0.510475821	
607.5	-0.1831461896	0.07395955268	
608.125	-0.5305231065	0.8743164046	
608.75	0.6261256143	-0.008257224685	
609.375	0.3483683824	0.2926290873	
610.0	0.6422405372	-0.4487634876	
610.625	-0.05430568222	-0.08291453891	
611.25	0.2889176639	-0.6326014481	
611.875	-0.3030162139	-0.1154767803	
612.5	-0.2685389865	-0.3849321042	
613.125	-0.5626418329	0.2543588804	
613.75	-0.224163592	0.1318495524	
614.375	0.2183160755	0.5346092525	
615.0	-0.06032398444	-0.1263347418	
615.625	0.08282213597	0.4571006361	
616.25	-0.000600781682	0.0287425621	
616.875	-0.5315936494	0.5546454332	
617.5	0.1047639067	0.7163631236	
618.125	-0.1908274817	0.1644517571	
618.75	0.02495311721	0.7467665075	
619.375	0.2170514618	0.1814605143	
620.0	0.4290323879	0.3536132859	
620.625	0.1678231489	-0.4249404756	
621.25	-0.0324154082	-0.3985792434	
621.875	-0.5526408916	-0.1584317105	
622.5	-0.3989932938	0.0537177784	
623.125	-0.2085801359	0.5202945333	
623.75	0.2142918957	-0.06766746502	
624.375	0.4752479386	0.03955852642	
625.0	-0.2125004272	-0.06651027731	
625.625	0.4380785081	-0.1259459677	
626.25	-0.4795147842	-0.4044840302	
626.875	0.07510973046	-0.09375203795	
627.5	-0.5719342788	-0.3083097439	
628.125	-0.226577874	0.1062097716	
628.75	0.07943531772	-0.504072358	
629.375	-0.5229809616	-0.3154363827	
630.0	-0.1477750448	-0.274717217	
630.625	-0.6803142891	-0.0001356486169	
631.25	-0.3421107676	0.6035310061	
631.875	-0.03049855534	0.4738986477	
632.5	0.1949100986	0.4747739463	
633.125	0.5799407807	0.2704406486	
633.75	0.317645095	-0.249657651	
634.375	0.2549410619	-0.1917112202	
635.0	-0.1818846017	-0.5215654549	
635.625	-0.102257742	-0.2144293473	
636.25	-0.567733896	0.1473261167	
636.875	0.07839649225	0.3818786092	
637.5	-0.2172044046	-0.1516855899	
638.125	-0.180847517	0.7694039753	
638.75	0.07761692305	-0.05757403788	
639.375	-0.4366644203	0.6839591436	
640.0	0.611734527	0.7255159489	
640.625	0.3882317403	0.07639357803	
641.25	0.7930858583	0.4651766549	
641.875	0.2185762204	-0.6929441335	
642.5	0.2724809246	-0.1979016313	
643.125	-0.4549333546	-0.6937219655	
643.75	-0.1914011228	0.3438425676	
644.375	-0.4069009861	-0.4860592585	
645.0	-0.4961651547	0.5829665838	
645.625	0.3409954424	0.4236319645	
646.25	-0.0173707304	0.08363088518	
646.875	0.7071496887	0.1648616397	
647.5	-0.3213163374	-0.08923138575	
648.125	0.7284230182	0.4190855529	
648.75	0.3874570499	-0.6140169649	
649.375	0.6207535604	0.1719179238	
650.0	0.7587456109	-1.369139383	
650.625	-0.3728221562	-0.5553064422	
651.25	0.8338002992	0.1149000625	
651.875	1.069488458	-0.9869938744	
652.5	-0.02289241314	-0.3185422027	
653.125	0.9458847091	0.2309964227	
653.75	0.4569165242	-1.015717896	
654.375	-0.09106645689	-0.1984019517	
655.0	-0.6051119967	-0.8702938969	
655.625	-0.3296172422	0.9262267259	
656.25	0.05732105632	-0.01658981206	
656.875	-0.05750078488	0.5423796933	
657.5	0.2975382929	-0.09286107405	
658.125	-0.08368396774	0.6310104432	
658.75	1.039241109	0.1433142777	
659.375	0.5165818613	-0.3958607756	
660.0	0.5947100156	-0.2823369212	
660.625	0.640403037	-1.236809695	
661.25	-0.2637680264	-0.5288761703	
661.875	0.8907187653	-0.1081308084	
662.5	0.8983438342	-0.9230625594	
663.125	0.06456266187	-0.4885397014	
663.75	0.9735931108	-0.380381964	
664.375	-0.5792780105	-0.9500643594	
665.0	-0.1065408437	-0.390658085	
665.625	-1.211426801	0.04991734553	
666.25	0.1596384372	0.740576419	
666.875	-0.1337166069	0.3562819264	
667.5	0.6023510504	0.4793891698	
668.125	0.4876313808	-0.3209345658	
668.75	0.3115339621	-0.02900611086	
669.375	0.5117024335	-0.6866879071	
670.0	-0.2394848487	-0.4021953972	
670.625	0.2160585786	-0.3907703062	
671.25	0.09550331886	-0.6356679702	
671.875	0.1071889231	-0.14505469	
672.5	0.7635078497	-0.3318250427	
673.125	0.4183215285	-0.6649255796	
673.75	0.07063906065	-0.2919807575	
674.375	0.5874445455	-0.4395859863	
675.0	-0.5234951891	-1.04164263	
675.625	-0.001358536871	0.2384583047	
676.25	-0.7656265379	-0.5866400051	
676.875	-0.3014642999	0.5029732977	
677.5	-0.3115845309	-0.5891286071	
678.125	-0.3085260369	0.9819160663	
678.75	-0.04385343057	0.01783664643	
679.375	0.3960900145	0.6167781154	
680.0	0.6827778708	-0.504664161	
680.625	-0.3337791373	-0.1502576524	
681.25	0.5951001533	0.2285975261	
681.875	0.4470529211	-0.1161555245	
682.5	0.2871172812	0.06643935267	
683.125	0.4950147193	0.5322040051	
683.75	0.8509693566	-0.1033190285	
684.375	0.3330847753	0.1753457243	
685.0	0.8637492375	0.4628734249	
685.625	0.7919566853	-0.5934386686	
686.25	0.2105441516	0.6406437941	
686.875	1.576343812	-0.8890529532	
687.5	-0.319704054	-0.4843366833	
688.125	0.8940474326	-1.064846631	
688.75	-1.749050352	-0.6121796866	
689.375	-0.03712338915	0.1646422349	
690.0	-0.2157160215	1.554175374	
690.625	0.7708627946	0.1228827222	
691.25	0.2431718298	0.9121421611	
691.875	1.591792157	0.678251653	
692.5	1.098894538	0.3388792139	
693.125	1.536427661	0.1350382726	
693.75	1.402017905	-0.6388691048	
694.375	1.06311367	-0.8706738847	
695.0	0.9446555565	-0.8266111244	
695.625	1.102917183	0.1262305975	
696.25	1.65852384	0.2558080026	
696.875	0.5593935835	0.5686167562	
697.5	0.9253603151	2.001804747	
698.125	1.549734049	-0.1354572918	
698.75	1.222886147	-0.08288639608	
699.375	-1.320804084	-1.640639752	
700.0	0.01966090264	0.732585402	
700.625	-0.3423373685	1.297453188	
701.25	0.8416651393	0.02745807319	
701.875	0.1335815117	0.7015593689	
702.5	1.447332594	0.4862466732	
703.125	0.475480496	0.2350002024	
703.75	1.224512829	-0.06755754814	
704.375	0.330595256	-0.6684321665	
705.0	0.8321876751	0.2536882963	
705.625	0.7963485881	-0.6018318167	
706.25	0.09038713336	0.4569614357	
706.875	0.956994266	1.272912656	
707.5	0.7378689245	0.2393685104	
708.125	1.125711979	1.01824571	
708.75	0.7965212343	-1.350564899	
709.375	-0.2360433242	-0.3635595647	
710.0	-1.025824471	0.4265152938	
710.625	0.4654241181	0.2001942143	
711.25	-0.00323151064	0.4761173841	
711.875	0.5511375738	0.1949868912	
712.5	0.8203409856	0.1377332631	
713.125	0.4912633464	-0.610552587	
713.75	0.4301215458	-0.2693496205	
714.375	0.0407515238	-0.8517673069	
715.0	-0.1972571624	-0.1231053177	
715.625	0.5351316572	-0.9465960348	
716.25	-0.2482412841	-0.6850722836	
716.875	0.9685843075	0.3519935763	
717.5	2.464079441	-0.531717351	
718.125	0.2469073067	-0.9554259277	
718.75	3.297656302	1.702176036	
719.375	1.977674348	-2.713153994	
720.0	0.7298705667	-0.9249080917	
720.625	2.316598719	-2.98499078	
721.25	-1.550525949	-2.511407475	
721.875	0.7022707667	-2.661077431	
722.5	-1.809110034	-2.487189126	
723.125	-1.9036561	0.1541092913	
723.75	-1.02450976	0.3331259599	
724.375	-0.0307916838	1.615819097	
725.0	0.6241184057	0.610508923	
725.625	0.1553096671	0.8045355035	
726.25	-0.3821519223	2.102667038	
726.875	1.180684551	2.666050417	
727.5	-1.733393862	1.686673107	
728.125	-0.1433795806	8.086272406	
728.75	4.747647559	3.958707693	
729.375	-9.02973013	3.762703507	
730.0	5.075489809	20.85049621	
730.625	1.797234821	1.425300964	
731.25	-10.75358233	10.85170219	
731.875	-7.559271114	14.96082002	
732.5	-1.814905914	1.069616187	
733.125	-9.747588642	-2.183366168	
733.75	-1.691769065	4.222005725	
734.375	1.076478631	0.4167059731	
735.0	1.141987416	-2.493210812	
735.625	-0.5983187518	1.168386114	
736.25	-0.9698596566	0.8004136355	
736.875	1.259734043	2.076208228	
737.5	3.572859084	-0.3029526923	
738.125	0.9974049695	-1.088700736	
738.75	9.057123515	-0.4087806322	
739.375	5.366952923	-11.65064199	
740.0	-2.591188439	1.356186456	
740.625	18.25564812	10.49551392	
741.25	17.23570071	-13.89889987	
741.875	-13.32899702	-10.73554575	
742.5	-12.07256893	-1.537368639	
743.125	0.8795144805	2.470784463	
743.75	3.486506309	-3.844207248	
744.375	-2.009701529	0.4841154604	
745.0	0.1388749026	-0.02592653623	
745.625	0.4575433837	-0.01945234878	
746.25	-0.1725893461	-0.07267891308	
746.875	-0.5766617731	-0.4068362896	
747.5	-0.1420399042	0.9478008826	
748.125	0.2470023384	0.8804647901	
748.75	0.4945413287	1.638191771	
749.375	0.9450914117	1.26823367	
750.0	-0.2820885085	0.5286984703	
