!Created with skrf (http://scikit-rf.org).
# GHz S MA R 50.0 
!freq magS11 angS11
500.0 0.0223985788935 -167.492211
500.625 0.00982588430982 112.284000418
501.25 0.0154458481411 -151.877365212
501.875 0.0150922685386 -114.391775281
502.5 0.0373540760975 174.632928478
503.125 0.0152126423707 69.3112194868
503.75 0.00789999981385 28.6285666297
504.375 0.00755674491254 -58.1065351645
505.0 0.0117783126063 -49.8537962143
505.625 0.0293343948845 -67.6276089184
506.25 0.0343237299455 -109.857789414
506.875 0.072038858415 -92.6609121663
507.5 0.0406195930055 -122.56282857
508.125 0.0528031091622 -100.737494829
508.75 0.0822037969191 -117.178486142
509.375 0.0524893670688 -172.29298701
510.0 0.0298511693934 -128.055258923
510.625 0.0464750476975 -158.492054101
511.25 0.0660779596055 -168.967552891
511.875 0.059386618742 152.121535458
512.5 0.038686876554 103.720978927
513.125 0.0545783580565 49.5754235363
513.75 0.0717618798323 47.6304336173
514.375 0.0305518372197 -0.588129631207
515.0 0.0389813046997 -2.84196600496
515.625 0.0806654482515 50.0885445394
516.25 0.111338868185 30.4158316136
516.875 0.083524396265 62.5093066921
517.5 0.116274789176 20.3589484178
518.125 0.182773730119 64.3149911935
518.75 0.0929064781841 15.6880116475
519.375 0.0693256839059 17.9951220105
520.0 0.0986967967367 -2.49615352575
520.625 0.100344671483 -4.25360361887
521.25 0.0945678204249 -19.411644339
521.875 0.0529618314472 -9.05590899149
522.5 0.085758700436 -36.3136055245
523.125 0.173137503693 -40.3255037244
523.75 0.228787080133 -54.0856164509
524.375 0.191084734327 -65.2863684156
525.0 0.0657147683336 -53.4280149157
525.625 0.0371253687386 -33.0026213131
526.25 0.048962480563 -7.31942888318
526.875 0.0570175013548 -21.150980698
527.5 0.0458320112371 -28.0290502807
528.125 0.0414743673977 -55.7668047783
528.75 0.0765325069418 -72.3415795373
529.375 0.0888618317285 -113.236243632
530.0 0.0474381034733 -135.131839149
530.625 0.0455236838817 -148.514782436
531.25 0.0953913345933 -132.318246268
531.875 0.178523222399 -148.323071097
532.5 0.151200503103 -170.286189089
533.125 0.100833313847 175.541260522
533.75 0.130353911739 166.733155855
534.375 0.111531818734 178.644879656
535.0 0.0793441463189 161.501373221
535.625 0.0648689941865 178.604035635
536.25 0.0642394512954 162.610038797
536.875 0.0779339703037 -160.410537265
537.5 0.093305487695 -146.546611829
538.125 0.11375970715 -175.280549041
538.75 0.107094074386 178.989863479
539.375 0.0800101375079 -165.036833018
540.0 0.0952528660627 -153.990930921
540.625 0.138150673301 -158.171518924
541.25 0.113820228005 -141.363551226
541.875 0.0960431783699 -143.150812013
542.5 0.103122449258 -143.396992115
543.125 0.144300565771 -167.496745853
543.75 0.129090325331 158.864025266
544.375 0.095183634636 135.409349982
545.0 0.0798418566599 91.268622058
545.625 0.0997945996524 83.6276918496
546.25 0.104253148694 66.1090870508
546.875 0.0712431609314 54.0656102768
547.5 0.110694621784 59.2216825528
548.125 0.124574618519 77.8235124869
548.75 0.0845096145078 88.6091976738
549.375 0.0975655138958 86.3102577841
550.0 0.0809770065804 125.484448841
550.625 0.0503635215285 155.34218272
551.25 0.0454339804337 -151.965507665
551.875 0.0622934051675 -161.606564866
552.5 0.112753755026 -164.698536376
553.125 0.0934998961967 -168.275764954
553.75 0.0934712974346 -171.649735228
554.375 0.104717258742 167.865141109
555.0 0.124143058928 164.114787697
555.625 0.0940155609293 157.783382961
556.25 0.105655916866 158.771425371
556.875 0.102886561588 168.804958515
557.5 0.115317044814 165.9528891
558.125 0.0969519613465 163.606861158
558.75 0.0917600366526 174.967885425
559.375 0.0652320604615 -172.296602931
560.0 0.0462300633595 -147.262963371
560.625 0.0567258163964 -136.917592666
561.25 0.0929385068108 -155.445903871
561.875 0.0967575341846 -158.863164588
562.5 0.0896759785427 175.625728182
563.125 0.10617057809 144.965039701
563.75 0.138477865658 127.896649411
564.375 0.103989545506 120.177133066
565.0 0.0885507206029 119.480367378
565.625 0.0823037912603 117.734816157
566.25 0.103138910745 148.616132778
566.875 0.0643518241556 -173.500810291
567.5 0.0727497793094 -177.036602252
568.125 0.0747627036342 -170.185706087
568.75 0.073376730825 -151.472703768
569.375 0.0497144694133 -110.617190037
570.0 0.0610605278259 -111.733148245
570.625 0.0858611034324 -112.244128779
571.25 0.094300007008 -126.277902399
571.875 0.0852923186577 -123.406531132
572.5 0.111962676186 -156.145587505
573.125 0.134917190155 -174.068050649
573.75 0.108126757127 160.416439048
574.375 0.074165385805 156.714349153
575.0 0.100630566293 157.614895173
575.625 0.1015771994 157.450258118
576.25 0.0946493125549 142.816813749
576.875 0.0819117875775 130.017704029
577.5 0.0783266892697 140.654826519
578.125 0.0595094578312 161.138516031
578.75 0.0526295331732 153.556881564
579.375 0.0496990082606 177.457394493
580.0 0.0673553068699 -175.622769155
580.625 0.0750923536965 -148.837493353
581.25 0.0873858735882 -170.063765903
581.875 0.112192978084 -178.646817254
582.5 0.117112639097 -177.475780532
583.125 0.0947829960233 -169.602906164
583.75 0.0826792294779 -168.127848582
584.375 0.106052728514 -164.636440679
585.0 0.0908022625634 -140.368303319
585.625 0.0745014521657 -152.044634446
586.25 0.0719379890632 -144.87157369
586.875 0.0816674814229 -135.6277356
587.5 0.0729127584108 -145.262655141
588.125 0.0602347931359 -176.631497472
588.75 0.0675591009554 -166.567462139
589.375 0.0824443533693 -159.317287459
590.0 0.0927197368107 -165.691865733
590.625 0.104623635202 165.07690851
591.25 0.122842683434 153.160872524
591.875 0.103590205173 149.078151789
592.5 0.0596078964239 157.380043228
593.125 0.059620826807 153.322320359
593.75 0.072960653959 170.065397239
594.375 0.0609239825063 -163.667996861
595.0 0.043193878735 -119.31929453
595.625 0.0639027127839 -96.7077172884
596.25 0.0747702777123 -87.2046618858
596.875 0.0638443252599 -85.6705879077
597.5 0.0665491126128 -49.5619500952
598.125 0.0650166165335 -61.6160729649
598.75 0.0717641644668 -73.3245833032
599.375 0.0863326100083 -66.1202772576
600.0 0.0998966925028 -68.3706267682
600.625 0.0968086628051 -71.4938683584
601.25 0.0842097105167 -76.0667054381
601.875 0.0693582572232 -96.9403610586
602.5 0.0646122898057 -72.4444912827
603.125 0.0472635825703 -47.7552955019
603.75 0.0337558652633 -23.1191245971
604.375 0.0302683450511 -41.1991055115
605.0 0.0744828853406 -5.04228393607
605.625 0.0508869791896 -13.7008510499
606.25 0.0212708287463 -2.35781240352
606.875 0.0261835865256 45.2721260661
607.5 0.047171567291 37.2947222741
608.125 0.0724996330673 30.322335922
608.75 0.0650129726443 23.6822879081
609.375 0.0475957372406 19.8817940534
610.0 0.090235107648 53.9945805503
610.625 0.0629966772038 34.89771857
611.25 0.0479703858114 28.9347629862
611.875 0.0329362717867 29.5373544683
612.5 0.0164303063791 66.3570959545
613.125 0.0331972739624 128.784251667
613.75 0.0514453752454 122.457866016
614.375 0.052190890295 125.091400271
615.0 0.0160080302017 101.341705221
615.625 0.05216085245 133.995873938
616.25 0.0583144288457 134.863996504
616.875 0.0647615448025 135.315770522
617.5 0.0224498562545 106.912132954
618.125 0.0357220345349 133.16679434
618.75 0.0496248505221 143.969375383
619.375 0.0276655666863 156.4745454
620.0 0.0118955743794 -14.9315974187
620.625 0.0195806210523 -100.658795286
621.25 0.0411348929467 -91.6548993759
621.875 0.0610005624566 -111.255615693
622.5 0.0690751434397 -154.599230636
623.125 0.0994725683293 159.433836826
623.75 0.0778800463532 159.055717821
624.375 0.0517305067745 179.719123909
625.0 0.0293256817256 -113.100771488
625.625 0.0680694789645 -159.171363785
626.25 0.0215116450163 173.31762233
626.875 0.010625426281 -35.2063886538
627.5 0.038713142369 -12.2911794062
628.125 0.0443494861105 -10.0747567418
628.75 0.0370729458109 -15.6390831807
629.375 0.0527566260384 -1.66741674653
630.0 0.0656499553242 -2.42480917846
630.625 0.0707435930489 9.77341482737
631.25 0.0665682407841 -5.80420130826
631.875 0.0735600052832 0.0553652044667
632.5 0.0646230776069 5.65355538422
633.125 0.0478834260445 18.9992628943
633.75 0.0440341675225 -6.29518527854
634.375 0.0404631750645 1.68955769665
635.0 0.0402381473171 10.5417502747
635.625 0.0528334231243 47.9447287627
636.25 0.0402137305615 9.82343499329
636.875 0.0645721409307 37.7532568321
637.5 0.0459246381005 48.7926015813
638.125 0.0393900559271 69.6643526696
638.75 0.0817152741847 76.8731397556
639.375 0.093445174759 89.5999678544
640.0 0.067666848105 102.996030981
640.625 0.0551710457379 103.665888217
641.25 0.081778490665 127.983886525
641.875 0.0633901675818 149.16521151
642.5 0.0649512965322 151.58460778
643.125 0.0686190381443 162.785265857
643.75 0.0762503272143 172.368675987
644.375 0.0776027928107 -172.705078949
645.0 0.0853094265311 -178.978955176
645.625 0.0907998415322 167.32069657
646.25 0.103959357366 168.471982126
646.875 0.0562484742324 166.948064167
647.5 0.0574242392561 177.667200429
648.125 0.0842996501668 -176.512712322
648.75 0.0917815136816 -158.835026311
649.375 0.0368117757543 -176.505475266
650.0 0.033716925752 -123.691103909
650.625 0.0599352759008 -95.8936437594
651.25 0.0818992497155 -66.6578283407
651.875 0.0464980410989 -45.8130672469
652.5 0.0906788249216 -24.9214086898
653.125 0.124987098745 -3.91934586978
653.75 0.123718778779 5.63736096215
654.375 0.106713792041 3.20410704021
655.0 0.111675540632 11.7151023839
655.625 0.0938090355952 22.7029742978
656.25 0.0728072550238 22.9753153476
656.875 0.049191690203 -5.43037289857
657.5 0.0802971819128 21.0104496733
658.125 0.0756886197222 47.7997872139
658.75 0.0595383617651 64.0768776649
659.375 0.0870679706756 38.1657015398
660.0 0.111068492014 24.4892315295
660.625 0.111642949809 18.7888420927
661.25 0.108909308853 4.3717867147
661.875 0.135695813831 -14.6244457953
662.5 0.124120002525 -20.8040850716
663.125 0.105449881629 -21.3036059642
663.75 0.104549535646 5.10868990061
664.375 0.102860752538 52.2511771374
665.0 0.0716813522753 89.4231104202
665.625 0.0638834821488 111.986595338
666.25 0.0918010361336 128.087017932
666.875 0.108056654609 172.952758043
667.5 0.0902582877904 -167.218930388
668.125 0.098428916656 -177.850295719
668.75 0.141128689234 164.037109221
669.375 0.103188500504 175.721163879
670.0 0.0819171703799 -171.779578833
670.625 0.079719652721 -174.135382472
671.25 0.122155977958 173.279118694
671.875 0.0925374565116 166.976223772
672.5 0.0796100230865 154.127629195
673.125 0.0740270335155 150.544563607
673.75 0.122320119977 154.796643064
674.375 0.101869855117 171.181577298
675.0 0.107336723221 -171.352661337
675.625 0.11460378885 -150.386684473
676.25 0.13221118372 -127.505380442
676.875 0.0981730758337 -118.294129742
677.5 0.114924995073 -126.366534286
678.125 0.115492677834 -120.828125031
678.75 0.0769954408707 -95.0284812155
679.375 0.0494256274045 -72.5074776723
680.0 0.0799105901985 -78.0170930662
680.625 0.124135660105 -78.5800428061
681.25 0.107954162335 -74.1855829968
681.875 0.104644374649 -96.5125174648
682.5 0.122380711208 -113.461223054
683.125 0.159645532408 -122.432095235
683.75 0.129200019759 -105.834059453
684.375 0.123275174496 -81.5277768056
685.0 0.143193512096 -42.9589812193
685.625 0.128073451499 -2.57153980263
686.25 0.116419112506 20.0623753406
686.875 0.0955687956959 44.0393402601
687.5 0.0703860978795 75.8714825324
688.125 0.0811100554728 107.826217908
688.75 0.105516151185 110.009106497
689.375 0.143455331231 118.680552632
690.0 0.140876402753 129.598022327
690.625 0.117151572244 126.037233242
691.25 0.142051674999 98.499836519
691.875 0.184331530778 69.2423863891
692.5 0.1574443232 36.4101709047
693.125 0.0727854243713 -9.17122263468
693.75 0.0945173653274 -39.2830261633
694.375 0.13058130226 -33.5550794184
695.0 0.131265594628 11.1573157008
695.625 0.106718687751 50.0550521726
696.25 0.116459517672 114.226562408
696.875 0.133586172421 176.848249493
697.5 0.134598970255 -143.668140731
698.125 0.146691394662 -138.960158257
698.75 0.125059299984 -129.087358347
699.375 0.115382860593 -128.250071119
700.0 0.0981373282137 -115.442523915
700.625 0.11508896559 -93.2819566012
701.25 0.101984054371 -64.5005267717
701.875 0.082314370118 -60.4844843427
702.5 0.0995416911783 -85.459276243
703.125 0.171356100431 -129.703580526
703.75 0.166946637751 -146.703933201
704.375 0.125654681168 173.895005423
705.0 0.106344482069 158.698857821
705.625 0.148282203366 -173.850103268
706.25 0.151014658577 -114.397136936
706.875 0.093744679966 -64.9910412695
707.5 0.0773639950882 -36.9301000183
708.125 0.0936050159986 15.1608645986
708.75 0.11300404693 56.1438450045
709.375 0.105405396747 103.848988428
710.0 0.103679570427 134.266131886
710.625 0.104446458165 160.302360188
711.25 0.118985737312 165.525873659
711.875 0.143883752505 166.721989597
712.5 0.156561728073 141.55924113
713.125 0.126626650067 98.9355675897
713.75 0.106674126356 39.6652987172
714.375 0.108111670718 38.6165399437
715.0 0.115134408748 38.1626154762
715.625 0.0826348765451 55.3278141481
716.25 0.0766620957335 68.8727068691
716.875 0.115829361607 107.139719249
717.5 0.145228531936 144.099105937
718.125 0.121537770081 170.513192924
718.75 0.101500855925 169.262898253
719.375 0.109339393471 176.048707788
720.0 0.137492192965 -115.565984621
720.625 0.116223931243 -70.6688364113
721.25 0.0976751365149 -23.5771471181
721.875 0.0881989911089 24.0134466893
722.5 0.0734347924806 65.0728072291
723.125 0.0772948957618 60.5822400267
723.75 0.109901080526 39.2771901406
724.375 0.0970610495794 -14.6842954558
725.0 0.104714094631 -33.0134871209
725.625 0.110874131825 -62.6474327504
726.25 0.114809756421 -69.4318953467
726.875 0.0963278628423 -62.4055522645
727.5 0.0856036349079 -23.6492988042
728.125 0.0780650762182 -4.97714962917
728.75 0.0988297256833 21.1925318503
729.375 0.0855304264858 17.1533319825
730.0 0.0562551487912 -14.5200053358
730.625 0.0928633446826 37.8171898262
731.25 0.0838609917053 69.3402141042
731.875 0.079420314938 121.958739535
732.5 0.0577392787801 141.927828497
733.125 0.077586093853 169.212907736
733.75 0.0815762988231 177.207690864
734.375 0.0609242568851 166.362679266
735.0 0.0357107237787 129.750544241
735.625 0.0616297026692 146.102813377
736.25 0.0650692284173 145.019338743
736.875 0.0580133538003 165.415090743
737.5 0.0484069598306 -173.045924444
738.125 0.127528619054 -169.402926127
738.75 0.0874435760134 -173.789656198
739.375 0.0663437264198 -160.416879229
740.0 0.0233775647944 -128.446976126
740.625 0.035398243398 -144.081296739
741.25 0.0441115017988 -154.240495723
741.875 0.0442377195432 -114.777193784
742.5 0.045884981284 -17.2129227835
743.125 0.0174513028342 95.0168580407
743.75 0.0340756971673 104.384118237
744.375 0.030703787923 140.868701716
745.0 0.0436051057904 140.678008696
745.625 0.0663778940225 125.790695714
746.25 0.075481136519 84.0120777013
746.875 0.0830582927739 31.9667483662
747.5 0.0440957925112 7.78352284357
748.125 0.0161224498272 66.9962444565
748.75 0.0362822065886 -13.6086755855
749.375 0.0286922262904 -28.0000609821
750.0 0.0296953165739 -63.7454390235
