!Created with skrf (http://scikit-rf.org).
# GHz S MA R 50.0 
!freq magS11 angS11
500.0 0.013918433424 175.037419753
500.625 0.00799028194428 99.2540194881
501.25 0.00817302324416 -162.895991666
501.875 0.0309003173926 -173.142587914
502.5 0.0377002798732 169.737184696
503.125 0.0256980017576 116.843286372
503.75 0.0078105147512 71.396420201
504.375 0.0215516853149 -62.615331417
505.0 0.00544577233184 80.5577579629
505.625 0.0190991407943 -70.1358128173
506.25 0.0405886069865 -112.270456438
506.875 0.0814570142931 -93.1198994818
507.5 0.0443042300528 -128.849756656
508.125 0.0452759476634 -94.8289778082
508.75 0.0589959776616 -130.431936779
509.375 0.0606225739995 -130.601069691
510.0 0.0347620765692 -131.116015027
510.625 0.0258022507116 -170.673367494
511.25 0.0549032088755 -172.853227188
511.875 0.0634277374526 151.3092931
512.5 0.0346686902616 80.0578300884
513.125 0.0460056375719 28.6018053173
513.75 0.0559751967845 34.7527298221
514.375 0.043080024622 4.33479224893
515.0 0.0486245367192 3.57473988907
515.625 0.0846665708497 42.4271116682
516.25 0.0890670028998 29.7360569039
516.875 0.114833128393 67.7521276269
517.5 0.118986484505 18.7157062252
518.125 0.219980899626 70.3585033133
518.75 0.0990394582823 14.5386195391
519.375 0.0524293509559 6.39174472833
520.0 0.0818079770078 -8.42139818938
520.625 0.105344554649 -12.3708025811
521.25 0.0952612279533 -23.7605058717
521.875 0.0699451348743 -2.36747691987
522.5 0.0970487796744 -35.219360504
523.125 0.193363402923 -34.4583386455
523.75 0.211581769495 -59.3651155754
524.375 0.226380507396 -48.8152150153
525.0 0.0702328682326 -49.2686905387
525.625 0.0360351847867 -46.1092902214
526.25 0.0582049319839 -8.90958395799
526.875 0.0422657090949 -37.3505513209
527.5 0.0454158338263 -34.3845625769
528.125 0.0363635239609 -65.8353526908
528.75 0.0711780236849 -74.2294510794
529.375 0.0677850973648 -126.34886098
530.0 0.0433367799794 -137.153536512
530.625 0.0382073414636 -143.864862844
531.25 0.133982655226 -142.965870134
531.875 0.140367247889 -150.730893422
532.5 0.125824183785 -173.225302606
533.125 0.0929328684383 170.976481648
533.75 0.134731661791 162.93825948
534.375 0.0884307966994 172.067893831
535.0 0.0848699914349 159.799577867
535.625 0.0623036526568 170.906873745
536.25 0.0730728877682 159.448123347
536.875 0.0744591646689 -161.888869755
537.5 0.0935804020051 -144.995552676
538.125 0.10377814362 -174.246292629
538.75 0.118362575062 178.451918343
539.375 0.0630731296083 -167.860928886
540.0 0.084551572143 -156.026472307
540.625 0.128673550348 -158.090729432
541.25 0.140927133855 -144.943257447
541.875 0.0965951631126 -144.93390532
542.5 0.110355572588 -143.034026619
543.125 0.135266116423 -167.486612061
543.75 0.142843871599 158.073260418
544.375 0.0836661016996 131.885521678
545.0 0.0861360024931 89.6755052779
545.625 0.0963638211384 77.8396389272
546.25 0.0952342896444 65.7636138534
546.875 0.0911759585906 52.7900984846
547.5 0.107117206994 57.1962684964
548.125 0.118139732193 76.8890100649
548.75 0.100539849954 87.8996801884
549.375 0.0767027735847 83.3808208817
550.0 0.0853223601449 123.201417387
550.625 0.0428567569078 146.879078144
551.25 0.0421641616658 -149.310570002
551.875 0.0525956806925 -149.206795611
552.5 0.0968508491971 -163.799885525
553.125 0.0847061799112 -168.576451653
553.75 0.0949463747151 -177.199866171
554.375 0.0967841838658 169.555605743
555.0 0.12229314523 161.698658307
555.625 0.100132583001 155.558162087
556.25 0.0997260166336 161.329385059
556.875 0.12715470111 161.322119524
557.5 0.110359291542 165.067860286
558.125 0.0942085686617 164.009147348
558.75 0.0864265697017 175.234305667
559.375 0.0509348964662 -174.351785597
560.0 0.0407717623191 -149.807886666
560.625 0.0535072232888 -145.230037619
561.25 0.0900656868976 -155.938750334
561.875 0.0964752810127 -162.122649076
562.5 0.0937064470589 170.882255949
563.125 0.100291542875 145.014487799
563.75 0.141151877427 124.715334766
564.375 0.0922776053355 122.362929245
565.0 0.0815272489484 120.048499965
565.625 0.0790124507989 115.29678117
566.25 0.103118342034 145.104590875
566.875 0.0770669245253 176.856948314
567.5 0.0732610516613 179.673282535
568.125 0.0823336521315 -173.433035152
568.75 0.0690203010777 -150.383481866
569.375 0.0535281281429 -122.705339236
570.0 0.0578945626931 -104.985701902
570.625 0.0918595579885 -121.50306982
571.25 0.0905113323191 -123.199245005
571.875 0.0895307730838 -134.21226863
572.5 0.110648980554 -158.802446633
573.125 0.142455199265 -176.265119376
573.75 0.104313374097 160.557450629
574.375 0.0873457280765 142.828398759
575.0 0.107007162827 150.519789106
575.625 0.113511051661 150.442224864
576.25 0.0925292824615 140.339420656
576.875 0.0727432433275 134.374704056
577.5 0.0844155934171 133.471884273
578.125 0.0593540761259 155.578279334
578.75 0.0501525511606 160.104598343
579.375 0.0564286705967 154.898925407
580.0 0.0662758230935 179.189882121
580.625 0.0782719402089 -152.373972955
581.25 0.0888959416249 -166.024354687
581.875 0.115073713069 174.356551519
582.5 0.112081859724 -172.684626166
583.125 0.0918082112649 -167.558093539
583.75 0.0793702835513 -164.764631221
584.375 0.106084193715 -169.858625358
585.0 0.0910203047387 -139.527408194
585.625 0.0692825582316 -142.812474213
586.25 0.0712588934801 -142.063565352
586.875 0.0846735255601 -147.357370996
587.5 0.0697432857345 -142.583526232
588.125 0.0577424219892 -170.541482512
588.75 0.0637540495325 -160.842508395
589.375 0.0805956194083 -167.550741296
590.0 0.0946521612879 -161.389564225
590.625 0.105041161905 164.185229659
591.25 0.119352095431 154.128715041
591.875 0.102037419196 150.847070114
592.5 0.0625611089149 147.524855688
593.125 0.0622673444595 150.427788993
593.75 0.0672268486166 178.86041233
594.375 0.0611167569586 -171.838404008
595.0 0.048645678921 -104.104850616
595.625 0.0607176576841 -102.372787159
596.25 0.0736197169755 -85.6564638642
596.875 0.0675726608261 -79.099170669
597.5 0.061115461483 -62.7215144037
598.125 0.0744661500653 -56.5941278502
598.75 0.0790086575819 -65.1481168441
599.375 0.0799167400856 -75.4418864773
600.0 0.108627746965 -61.4789796286
600.625 0.10530925132 -61.5323763226
601.25 0.0831844732296 -71.4604574293
601.875 0.0690482037094 -103.662949905
602.5 0.0660903461521 -73.5034973994
603.125 0.0457657866341 -55.1906223462
603.75 0.0279404117809 -57.404444907
604.375 0.0399974038385 -26.2214284941
605.0 0.0508087411004 -36.1700805419
605.625 0.0609331453032 2.12253893747
606.25 0.033464267356 21.983392154
606.875 0.0342137011211 42.6499379181
607.5 0.0371329990957 34.6818412211
608.125 0.069140942776 26.2038147824
608.75 0.0516338313302 16.231483364
609.375 0.0652868571556 26.2514833943
610.0 0.059729671555 30.340249373
610.625 0.071488964675 42.3509681346
611.25 0.0601886753598 38.300006199
611.875 0.0388721572083 42.9833793931
612.5 0.0116862394758 9.09958761437
613.125 0.0477947211808 125.533218525
613.75 0.0502071160145 120.217467394
614.375 0.032148821329 120.019896939
615.0 0.0254498979657 108.336957941
615.625 0.0390134850917 131.78612421
616.25 0.0471283954503 135.807676785
616.875 0.0395306319513 124.800568425
617.5 0.0188010267177 103.353135138
618.125 0.0507687388771 135.611082706
618.75 0.0258526901112 141.596027894
619.375 0.00996397095945 146.157462175
620.0 0.0181905210888 -30.3556932833
620.625 0.0257417727628 -178.229202425
621.25 0.0390881735244 -125.009823364
621.875 0.0721997640146 -112.606638121
622.5 0.0695236157934 -152.050678011
623.125 0.0763316926994 173.576714152
623.75 0.0615513207496 168.048300739
624.375 0.038989654172 -163.953879176
625.0 0.0418595301416 -152.148203639
625.625 0.0225672675203 -137.155336436
626.25 0.036437577928 178.806582251
626.875 0.0103364757457 159.473049536
627.5 0.0246840431034 -23.8081904023
628.125 0.0551882855917 -5.87474666002
628.75 0.0331624742918 -60.3813524252
629.375 0.0339672818031 -30.8369110048
630.0 0.0681127970516 -14.5437775664
630.625 0.0829287391503 19.0816443645
631.25 0.0677073694624 -0.36799574976
631.875 0.0653430552008 -17.6925637809
632.5 0.0592246408324 -6.97489887536
633.125 0.0560539642327 25.3386139963
633.75 0.048203504475 -25.8577111137
634.375 0.0378257131116 -0.0141382186018
635.0 0.043633049995 29.4195439125
635.625 0.0344637759016 35.4667994161
636.25 0.0665945593792 45.4142974703
636.875 0.0579133152276 22.2609086218
637.5 0.036502662166 21.2426451891
638.125 0.0294282451351 54.5592936326
638.75 0.096971884829 75.3071928816
639.375 0.0776393756583 72.898710208
640.0 0.068802075807 95.4483865137
640.625 0.056868057272 92.4061066527
641.25 0.0748943048084 121.42336581
641.875 0.0518603577154 121.852941566
642.5 0.048938098648 155.229230956
643.125 0.0568773007286 158.221613787
643.75 0.0881033664088 173.301251635
644.375 0.0573170414889 171.541889822
645.0 0.065115818045 174.285340501
645.625 0.0852357827602 159.394444979
646.25 0.11043157623 165.869254165
646.875 0.0651037143524 164.681137063
647.5 0.06327603382 177.919445037
648.125 0.0822725079449 176.065487042
648.75 0.0793269246224 -164.494550263
649.375 0.0523551761623 -154.970688599
650.0 0.0490513778899 -124.961729776
650.625 0.0680294287062 -89.5088941788
651.25 0.0687725900094 -66.2923030067
651.875 0.074678812631 -46.3576148497
652.5 0.0744618169293 -26.310125172
653.125 0.1096528456 -6.2312490108
653.75 0.113484390376 5.54700416297
654.375 0.0913225158831 -0.541180742613
655.0 0.110711584396 6.72707235741
655.625 0.105460887258 21.9068467737
656.25 0.0621139727791 18.7162670688
656.875 0.0789573424128 4.18868117844
657.5 0.0722132248574 14.37343804
658.125 0.0548327932565 43.3260182441
658.75 0.0505237204362 60.6622745498
659.375 0.0933694175139 31.7177235004
660.0 0.0894577905999 23.7451974384
660.625 0.106955131509 15.5338101644
661.25 0.100247012858 -0.607967627116
661.875 0.12986050839 -15.9890353396
662.5 0.100702277826 -26.8316087333
663.125 0.102457511053 -17.5035382855
663.75 0.0978188171707 0.759800906774
664.375 0.11691136238 50.5938508188
665.0 0.0740294004563 87.1051892645
665.625 0.0656943459207 101.348426891
666.25 0.0927000904761 123.829412654
666.875 0.0904150849606 170.241955242
667.5 0.100100117142 -172.447199077
668.125 0.10551076788 177.490324311
668.75 0.132593353323 162.803230352
669.375 0.143969399077 172.781371361
670.0 0.0882321933792 -174.435258761
670.625 0.0927607938297 -175.989555792
671.25 0.114601127636 170.922079247
671.875 0.116687480185 162.62015377
672.5 0.0598247112493 154.798939217
673.125 0.0841342996715 150.462801791
673.75 0.116222086181 152.811443086
674.375 0.107083900979 168.789664656
675.0 0.111088556464 -177.181174735
675.625 0.136334724597 -155.156594025
676.25 0.133973838643 -130.529686707
676.875 0.11375346236 -123.963825698
677.5 0.125717397023 -132.088526608
678.125 0.132589633206 -119.582297328
678.75 0.0729887337857 -97.7522675052
679.375 0.0605889609002 -85.3126853174
680.0 0.0702609865405 -80.9008622557
680.625 0.10691541183 -74.9714636428
681.25 0.0994074472475 -75.7743224895
681.875 0.103915320404 -99.7105018631
682.5 0.137336717839 -120.80154752
683.125 0.162349012912 -124.422875819
683.75 0.143411925472 -108.503174769
684.375 0.119328327057 -81.3904099313
685.0 0.146541502481 -47.0910956765
685.625 0.127656563788 -4.93611970012
686.25 0.100064305708 21.5875562384
686.875 0.0881571268741 40.1773397771
687.5 0.0877005721367 71.4338555968
688.125 0.0782496005545 110.065181744
688.75 0.0968622714452 116.28299511
689.375 0.132455031626 119.210673352
690.0 0.143161758546 126.408272084
690.625 0.110522233803 130.166823181
691.25 0.137536621509 96.6526809759
691.875 0.194127745781 62.6970578097
692.5 0.156584246057 35.4319719588
693.125 0.0991852631622 -22.3225919072
693.75 0.0888626178966 -39.9341412743
694.375 0.130333306071 -30.7526338686
695.0 0.12162048705 9.5847662807
695.625 0.107070035146 45.693234475
696.25 0.106882034306 120.736798348
696.875 0.137353433171 168.619741812
697.5 0.146113549415 -150.070945673
698.125 0.140496796014 -135.745863611
698.75 0.125065835373 -130.391119588
699.375 0.102301659562 -122.920094019
700.0 0.0926218313253 -116.66687161
700.625 0.122009354199 -103.555788434
701.25 0.087843500454 -57.0641872438
701.875 0.081236053505 -59.6825453069
702.5 0.0959444653633 -83.4324071292
703.125 0.167351902335 -130.358633833
703.75 0.192656707559 -161.185414066
704.375 0.133004265701 168.139167032
705.0 0.109453000522 157.382920916
705.625 0.140171416304 -172.62287628
706.25 0.159481537763 -124.779549491
706.875 0.0864694512649 -58.7837333071
707.5 0.0754622259852 -33.9264648427
708.125 0.083387117141 18.4582311789
708.75 0.111171592331 49.2796635731
709.375 0.105284427413 113.293826907
710.0 0.102300191842 129.315985397
710.625 0.10718143956 146.305246495
711.25 0.116575668317 160.480538148
711.875 0.153313734251 166.424460474
712.5 0.150587972717 148.06288323
713.125 0.125321670677 99.6157290972
713.75 0.110149564307 34.6966942126
714.375 0.106996544686 18.2680649262
715.0 0.114330121157 20.291735683
715.625 0.0882133669987 43.0523303449
716.25 0.0789596978038 72.150819713
716.875 0.105836667259 89.0886343302
717.5 0.152196337542 157.074139226
718.125 0.118627989012 166.055378793
718.75 0.0983207635852 170.774953658
719.375 0.112541166801 -179.007862356
720.0 0.127178383445 -141.919138122
720.625 0.11592984376 -78.9211856062
721.25 0.0985310609036 -22.1883464128
721.875 0.088482854683 9.21423077092
722.5 0.0830959409161 84.5641946512
723.125 0.0964823617881 77.9032995464
723.75 0.114242522832 45.109518305
724.375 0.102029782126 -12.1110365905
725.0 0.0947697971711 -35.4661058256
725.625 0.0997708601579 -68.763838036
726.25 0.124411510837 -66.3169771905
726.875 0.103979299003 -55.1247717113
727.5 0.0775325703773 -52.0065409864
728.125 0.101047544392 9.12761869605
728.75 0.0998335364994 24.0359075574
729.375 0.0867801060942 24.8766424288
730.0 0.0594947574775 -8.52110647821
730.625 0.048595119998 6.29679864785
731.25 0.0694148792239 60.6855732951
731.875 0.0613734852027 102.806889146
732.5 0.0731384781666 146.839350397
733.125 0.0598503756583 154.772943872
733.75 0.076311571215 170.849174058
734.375 0.0584501453736 174.638955215
735.0 0.0319207458774 114.642361634
735.625 0.0860847801412 152.391033389
736.25 0.0360257243621 133.415994797
736.875 0.0392463885757 174.693524773
737.5 0.0602349288315 176.236644753
738.125 0.0669188929656 179.185094557
738.75 0.0726165273865 -176.030791433
739.375 0.0371079449057 175.937119112
740.0 0.041714711198 -148.605491196
740.625 0.0194157850818 -120.892067367
741.25 0.0826419738187 -156.111834536
741.875 0.0491577798457 -115.437204102
742.5 0.0256745956576 -0.592527360899
743.125 0.0221845836358 123.183062396
743.75 0.0679185991805 75.9763134562
744.375 0.0565170426748 84.5707211587
745.0 0.0538572203058 122.304569835
745.625 0.0657220160045 146.300935964
746.25 0.100830194517 64.1961936663
746.875 0.0709388834514 39.9054732189
747.5 0.0421586840024 19.1377054006
748.125 0.0215039278772 -9.35663688359
748.75 0.0229811495097 47.8214494941
749.375 0.053567017054 -69.9466752823
750.0 0.0387691876477 -129.901906062
