!Created with skrf (http://scikit-rf.org).
# GHz S MA R 50.0 
!freq magS11 angS11
500.0 0.0177817124862 128.710925459
500.625 0.00758767043647 111.134744061
501.25 0.0131829025819 -156.191908999
501.875 0.0286572219232 -161.954059831
502.5 0.00387554091515 123.469908352
503.125 0.0157764936774 96.5643099252
503.75 0.00708084331151 31.2805991773
504.375 0.00760274428109 -48.4080690248
505.0 0.0261707817051 -66.6321261136
505.625 0.0201893654918 -72.4229070502
506.25 0.0279720804168 -120.994558424
506.875 0.0616065619434 -100.351441861
507.5 0.0467768519732 -120.813095493
508.125 0.0524093897112 -91.2043819725
508.75 0.0682624727171 -126.386338897
509.375 0.0586735672826 -133.088932448
510.0 0.0332963338669 -140.971807973
510.625 0.0401474437502 -161.735455814
511.25 0.0683133190238 -170.741661506
511.875 0.0551077443046 144.473641726
512.5 0.0461563136494 109.626702534
513.125 0.0517607121946 43.4373740608
513.75 0.0652685213259 37.2463542122
514.375 0.0616478644233 28.5010475306
515.0 0.032666874939 -20.7320912947
515.625 0.0633921948884 43.8995758598
516.25 0.0856062850578 25.8247543988
516.875 0.128991238819 68.782641564
517.5 0.119921703054 19.4890090763
518.125 0.184633460673 67.455145604
518.75 0.0836748206418 11.2663735667
519.375 0.0825150987161 22.6113632467
520.0 0.0883419138409 -5.05107180191
520.625 0.0916823999575 -10.2733003456
521.25 0.0807241975347 -25.6159165938
521.875 0.0787788868522 -0.281135494199
522.5 0.0803065853227 -41.8131694505
523.125 0.173491615864 -38.0600076854
523.75 0.212600089072 -58.2588805692
524.375 0.227093586397 -49.2263124069
525.0 0.0673224630154 -63.9572346584
525.625 0.0388077923197 -29.7740353443
526.25 0.0461488026297 -9.2190587828
526.875 0.0660640318152 -17.3023731674
527.5 0.0411096556746 -37.783107418
528.125 0.0357130319487 -58.275077319
528.75 0.0547984436963 -76.3871234333
529.375 0.105555061888 -107.326489079
530.0 0.050301994749 -131.631452217
530.625 0.0457605525156 -149.094557926
531.25 0.131466163458 -139.531491332
531.875 0.197485302077 -148.814272283
532.5 0.140185779863 -171.659298794
533.125 0.0939891801161 174.556775033
533.75 0.118629883174 167.429438021
534.375 0.12755014363 179.42564794
535.0 0.0728631224237 156.567285612
535.625 0.0560023346456 175.15476226
536.25 0.0618566769254 163.706631003
536.875 0.0836755217093 -162.852493362
537.5 0.0985057226851 -145.125495162
538.125 0.109249742649 -175.44820004
538.75 0.105375092899 179.95952038
539.375 0.0908682682844 -163.990869165
540.0 0.0826885387496 -153.056447142
540.625 0.140959465549 -159.223789793
541.25 0.135703856946 -143.141051945
541.875 0.0968147082806 -143.349455373
542.5 0.109694255856 -142.817935296
543.125 0.143993332277 -167.382100308
543.75 0.131471393369 159.560744701
544.375 0.104251648559 136.054129818
545.0 0.0713645158409 89.1281533084
545.625 0.0880258260042 83.4527596817
546.25 0.0863137157978 65.1251757096
546.875 0.0998031329938 52.2129543443
547.5 0.0998848193562 58.3927399132
548.125 0.125079348378 78.002894457
548.75 0.0926904079747 90.7360700617
549.375 0.108936354415 85.3918771735
550.0 0.0699772067348 121.930619361
550.625 0.0406791000276 158.988538697
551.25 0.0350255906865 -137.693142063
551.875 0.0712943825513 -168.641530845
552.5 0.104822114158 -165.095022505
553.125 0.093846258991 -167.90936726
553.75 0.091256454314 -170.716424774
554.375 0.116106948466 162.276046473
555.0 0.11457874202 164.543398462
555.625 0.0937122368034 159.237756889
556.25 0.0973355664598 161.322455866
556.875 0.128008708732 162.213241959
557.5 0.119840744772 165.046938085
558.125 0.0981287479062 164.31332005
558.75 0.0771425008464 177.375646458
559.375 0.0754625969079 -175.655887288
560.0 0.0404093883559 -142.968407529
560.625 0.0549697215891 -133.60749322
561.25 0.0834838503629 -147.77324803
561.875 0.110790195822 -167.530219723
562.5 0.0855228490217 176.774918103
563.125 0.100775536495 147.982783954
563.75 0.13157236848 129.749839914
564.375 0.113264411798 118.281042482
565.0 0.0837706616961 120.61802701
565.625 0.0748633875944 121.183774436
566.25 0.0896234113716 152.185593431
566.875 0.0819326887109 174.164863723
567.5 0.0730027729865 -177.836068153
568.125 0.0801950102118 -172.445662246
568.75 0.0738312490889 -150.999868445
569.375 0.0503288093127 -113.477267564
570.0 0.0616963723868 -115.446804024
570.625 0.0899910388556 -115.865943299
571.25 0.0865519518386 -118.984635889
571.875 0.0894703851248 -131.520538835
572.5 0.110076810899 -156.846193582
573.125 0.139772354621 -175.582334247
573.75 0.108393859036 160.389799957
574.375 0.0875498760972 142.566215135
575.0 0.0960168561074 161.584007527
575.625 0.108023008351 155.809330721
576.25 0.0831538933415 144.725324569
576.875 0.0847987283605 123.897404731
577.5 0.0714111454985 144.569304828
578.125 0.0558207421119 164.836785886
578.75 0.0435536624102 162.984551707
579.375 0.0580220853072 149.894133546
580.0 0.0654197730283 179.380680772
580.625 0.0785345610742 -153.049685392
581.25 0.0869738778222 -167.031870973
581.875 0.114898865255 -179.028322271
582.5 0.121470103946 179.373545192
583.125 0.091156357176 -166.736088369
583.75 0.081443920016 -166.21003975
584.375 0.104351100252 -160.074287769
585.0 0.10043437542 -150.921590943
585.625 0.0721172501954 -147.394768765
586.25 0.0718057157238 -146.462046999
586.875 0.0820588580219 -138.651821059
587.5 0.0744482960143 -148.588587179
588.125 0.0575581748714 -174.421057514
588.75 0.0684427688504 -166.21550654
589.375 0.0833873741437 -156.149521023
590.0 0.0911250436937 -175.590478436
590.625 0.107590816363 168.610694478
591.25 0.121963220796 156.968781325
591.875 0.0891502624459 159.793566993
592.5 0.0689165770782 134.4547347
593.125 0.0597276391344 162.11716407
593.75 0.077571931827 173.109426492
594.375 0.0585423357549 -156.135027414
595.0 0.041238664435 -133.203460329
595.625 0.0681397697342 -90.0881066106
596.25 0.0789382182671 -79.575477955
596.875 0.0671459849138 -68.7392984299
597.5 0.0530930693795 -77.9289505703
598.125 0.0652171408884 -56.4283166357
598.75 0.0730980026356 -66.2392962774
599.375 0.0870306777098 -66.6197541898
600.0 0.095845756581 -74.3128789629
600.625 0.100036803894 -67.9963584636
601.25 0.0857929430327 -73.7578177402
601.875 0.069076550295 -90.5701870029
602.5 0.0616523027357 -103.898297664
603.125 0.0497736174287 -36.1524518416
603.75 0.031997622671 -30.8971994478
604.375 0.0345298483799 -26.8737020345
605.0 0.0514809024684 -31.7992878682
605.625 0.0464918581199 -25.7113867458
606.25 0.0234524794826 9.84521352231
606.875 0.0233787707197 38.2638914883
607.5 0.0586347761626 39.7222536359
608.125 0.0712532972115 23.1367868859
608.75 0.0685907813206 24.2423110553
609.375 0.0599627857587 31.6494342572
610.0 0.0570572750299 31.3032670959
610.625 0.0576408540955 29.4071773712
611.25 0.0491899471652 30.6930271472
611.875 0.0276298600653 23.78374214
612.5 0.0209968009279 81.9717080804
613.125 0.00919507774626 139.324587482
613.75 0.0613892999128 127.494923521
614.375 0.0565759982476 124.505588849
615.0 0.0436279105807 124.441257246
615.625 0.0104312780572 165.394947319
616.25 0.0654830085358 135.843637782
616.875 0.0544478523255 128.082918699
617.5 0.0413699814795 117.942482156
618.125 0.0070932263181 129.216899543
618.75 0.0597770203664 146.431846179
619.375 0.0320095653016 148.754281094
620.0 0.00496531189644 74.6535878929
620.625 0.0310915963484 -67.4714697089
621.25 0.0321719276071 -103.740097674
621.875 0.0646629956699 -125.108492015
622.5 0.0727041364285 -170.654743845
623.125 0.0642760431436 -170.564421104
623.75 0.0876774052437 158.920106265
624.375 0.0542228992755 179.831214628
625.0 0.0409621667415 -143.525537075
625.625 0.0232756490768 -130.172040933
626.25 0.0123557209943 175.770088336
626.875 0.00525303767399 14.4803539329
627.5 0.0428614584499 -13.4530830292
628.125 0.0373536945072 -19.9252724555
628.75 0.0474832786992 -2.15169216054
629.375 0.0459349070327 -13.1879032871
630.0 0.0582751054043 -16.0917416257
630.625 0.0717073560024 9.71625227223
631.25 0.0701697779146 -10.270580983
631.875 0.0686043838558 -2.04202941452
632.5 0.0657092673654 8.66218638914
633.125 0.0469157351802 7.77219409067
633.75 0.0487464483231 25.0727098271
634.375 0.0462884233321 -13.78801889
635.0 0.0352918116049 2.65091695905
635.625 0.0404091215607 31.3771503471
636.25 0.0685275331477 46.5430041924
636.875 0.0684527171409 44.1137252633
637.5 0.0397751414283 36.6261305691
638.125 0.0399232168975 68.72584348
638.75 0.0767610056645 76.1221119817
639.375 0.107104184693 96.7217680494
640.0 0.0661350257356 93.4348225721
640.625 0.0507852471417 96.396429329
641.25 0.057341102353 111.123855104
641.875 0.0790619235813 155.753799392
642.5 0.0581255098865 157.2169201
643.125 0.0688404839573 160.135283431
643.75 0.0704443952789 172.089154939
644.375 0.0907496334683 -171.153832522
645.0 0.0776245525957 176.615427832
645.625 0.0817108158251 163.9803043
646.25 0.0934694554344 164.607131328
646.875 0.0879101547833 -179.300802892
647.5 0.0492396244978 167.943538036
648.125 0.0715682046517 177.253813953
648.75 0.0730688573791 -170.306517077
649.375 0.0629334164874 -147.101083811
650.0 0.0271642639177 -138.184208826
650.625 0.0654501250395 -92.7480564917
651.25 0.0688035379012 -67.89241257
651.875 0.0742971166562 -46.3812698394
652.5 0.0966314059169 -27.3107707216
653.125 0.12123245138 -4.49402534265
653.75 0.10674071573 1.31707347513
654.375 0.120969877467 6.35027055157
655.0 0.103565737095 5.5789121676
655.625 0.0867216064967 20.6991095174
656.25 0.0604732253757 17.8222700284
656.875 0.082134515495 4.73431626229
657.5 0.086517836081 18.8510831772
658.125 0.069168093672 41.7071589576
658.75 0.0612436586362 60.4709335594
659.375 0.0850359804263 38.437406893
660.0 0.13030962884 21.7612731199
660.625 0.102195489506 16.7674018939
661.25 0.100594203648 3.98652541611
661.875 0.111353050362 -16.7194610015
662.5 0.138560316304 -22.3321244767
663.125 0.108080609326 -17.8039520871
663.75 0.105958892497 3.90100356215
664.375 0.101600448394 52.4835914437
665.0 0.0687551881993 85.8345214887
665.625 0.0548623956575 111.35588849
666.25 0.0779793520049 128.671050541
666.875 0.129072711356 164.205917109
667.5 0.0823372229631 -167.717093658
668.125 0.0968769767934 -178.178978979
668.75 0.117886251556 164.093555592
669.375 0.143329944651 173.145186834
670.0 0.0779128347449 -174.400310277
670.625 0.0865078364368 -172.588132801
671.25 0.122715255699 171.032894914
671.875 0.112164488465 164.718720541
672.5 0.0890723971437 150.419564068
673.125 0.0805873917143 150.806985822
673.75 0.0992490017388 156.078394418
674.375 0.125099082962 163.457601324
675.0 0.0971623038275 -171.737553006
675.625 0.124802697061 -151.988592863
676.25 0.12147545257 -126.266437266
676.875 0.125976637121 -124.754550001
677.5 0.104785554214 -127.394680019
678.125 0.12363782327 -119.589995306
678.75 0.0798240135256 -96.6396175082
679.375 0.0566667806684 -78.2530897119
680.0 0.0792047827652 -85.9818011511
680.625 0.117469854996 -78.7538631579
681.25 0.0994485951161 -72.2818398364
681.875 0.0983769197916 -93.8251518298
682.5 0.143813200779 -127.176284778
683.125 0.157922985116 -122.246413039
683.75 0.138218489256 -105.214061506
684.375 0.124407993109 -83.023304955
685.0 0.136627495562 -42.4302733033
685.625 0.130876649671 -3.58432600203
686.25 0.107811601107 19.71513995
686.875 0.0953647128064 42.5722444536
687.5 0.0815700869736 80.3142693596
688.125 0.0866534604367 105.003689834
688.75 0.100939535888 112.068057705
689.375 0.144721521157 116.051976498
690.0 0.133446843271 132.423071737
690.625 0.126736566893 120.490920186
691.25 0.135752721074 100.944455091
691.875 0.178631307091 69.0362771875
692.5 0.132124343176 39.0481434721
693.125 0.099844369019 -21.5493791846
693.75 0.0970803973646 -44.239107451
694.375 0.137999467974 -32.8012429036
695.0 0.135877088206 9.13583409851
695.625 0.101486125203 54.8414967645
696.25 0.120728655015 104.006908097
696.875 0.128292978842 -179.778169831
697.5 0.142626340561 -145.30776412
698.125 0.134369978949 -134.456323236
698.75 0.142590410849 -138.90646371
699.375 0.109727335754 -125.52696634
700.0 0.0989106710039 -116.842541915
700.625 0.115657243067 -93.7748786855
701.25 0.110317886135 -73.5584735912
701.875 0.0816235435993 -55.2451853781
702.5 0.100983570455 -83.3560704699
703.125 0.162091577698 -119.7055883
703.75 0.197763204363 -163.217768526
704.375 0.121117652412 176.462496284
705.0 0.110416461311 156.083595439
705.625 0.148609208703 -176.106896676
706.25 0.147861563298 -115.377006287
706.875 0.100187459779 -70.7610225856
707.5 0.0713158281615 -31.8413384432
708.125 0.089692782358 18.6222768676
708.75 0.11182433383 60.469143452
709.375 0.106814145608 95.7973947582
710.0 0.103706576639 140.133436905
710.625 0.10659116558 154.996609831
711.25 0.119020009122 170.035666006
711.875 0.138864458662 163.564952026
712.5 0.154093100089 144.231803455
713.125 0.129244921706 97.7590034152
713.75 0.102464179189 46.3053039564
714.375 0.115369767771 4.34273320952
715.0 0.110911551494 45.582091108
715.625 0.0860371058316 50.6192242541
716.25 0.0754281308912 65.6465864504
716.875 0.111398213158 96.9878752909
717.5 0.140680325096 134.273602114
718.125 0.121896040861 175.961512355
718.75 0.105209002037 175.98863508
719.375 0.119174984455 -166.248311196
720.0 0.125413801884 -138.502898751
720.625 0.113874845013 -67.7766403021
721.25 0.0982446968847 -15.8354500279
721.875 0.0846095492922 26.9128680218
722.5 0.0709895117166 48.7703579605
723.125 0.0827926828933 71.0853110581
723.75 0.118369308975 45.2478570307
724.375 0.112351449853 5.83174486352
725.0 0.0793958777022 -57.2297293762
725.625 0.114304084079 -57.6067778996
726.25 0.114810810998 -71.9879206804
726.875 0.0985776584513 -63.4703604888
727.5 0.077437714692 -46.4037139551
728.125 0.0683520093616 -24.1322119325
728.75 0.106091388238 30.491876494
729.375 0.0938451945687 23.563553801
730.0 0.0737848437929 12.1757172898
730.625 0.0413941713029 2.42600680085
731.25 0.0927154600243 76.3707783982
731.875 0.075701284451 111.059783469
732.5 0.0573583848204 142.560290113
733.125 0.0828908314114 170.365534106
733.75 0.0867380991426 -178.24877186
734.375 0.0838790591264 176.479021165
735.0 0.0606299855829 151.538274538
735.625 0.0219431478915 114.792724145
736.25 0.0770265329625 151.379513024
736.875 0.0632285697824 165.340404857
737.5 0.0951446646342 176.988112168
738.125 0.0637032758754 178.199271289
738.75 0.0911597758113 -165.256991003
739.375 0.0552321052736 -169.400502244
740.0 0.0239469484311 -129.686019998
740.625 0.04803852842 -148.795422693
741.25 0.0213438617297 -150.177064407
741.875 0.0654760132515 -108.110270557
742.5 0.0514983941522 -21.9753219749
743.125 0.0277096371915 53.9268749713
743.75 0.0226355832877 143.325651159
744.375 0.033522498762 111.468269106
745.0 0.0436148187343 137.446978783
745.625 0.0631334503919 122.037694522
746.25 0.0677694550225 102.627789354
746.875 0.10001029003 28.1480409135
747.5 0.0567372053148 2.10384405435
748.125 0.0280905679894 -1.20902413174
748.75 0.0202617258539 29.1687030937
749.375 0.033611127179 4.18620451506
750.0 0.0341660073151 -91.8321809675
