!Created with skrf (http://scikit-rf.org).
# GHz S RI R (50+0j) 
!freq	ReS11	ImS11	
500.0	1.346699368	-1.251902439	
500.625	0.5695024112	-5.534260002	
501.25	-2.098703467	-2.096830921	
501.875	-0.7524465723	-0.3101242861	
502.5	-0.05894658625	-0.7556760375	
503.125	-0.1824080432	0.2810362194	
503.75	-0.1921016679	0.1533106766	
504.375	0.1475552245	-0.1277850201	
505.0	0.07073063659	0.1278883204	
505.625	-0.1449956394	-0.3951643535	
506.25	0.1721663804	0.2293293514	
506.875	-1.489239527	-0.4320675347	
507.5	-1.355596433	0.2119104789	
508.125	1.711869347	-1.013931398	
508.75	1.179170116	-4.697035484	
509.375	-1.877754735	-1.953306843	
510.0	-1.053154595	-2.192981513	
510.625	-1.121466401	0.01967629166	
511.25	-0.2528163394	-0.3516994985	
511.875	-0.6531246404	-0.02831821665	
512.5	0.06291328907	0.1368826583	
513.125	0.007677505751	-0.2712618913	
513.75	-0.2462417394	-0.4478377271	
514.375	-0.5418917024	0.4850726812	
515.0	1.404289136	-1.333806441	
515.625	-1.774526996	0.2080728495	
516.25	2.576054761	-3.084176534	
516.875	-2.726848077	-1.782244805	
517.5	0.1385155169	0.4342876626	
518.125	-0.3869624659	-0.4411465209	
518.75	0.148679463	0.1754914078	
519.375	-0.307579177	0.09928282629	
520.0	0.49960945	0.07931864091	
520.625	0.2591580232	-0.1315028496	
521.25	0.2455987006	-1.062197476	
521.875	-0.4349643403	0.1790618516	
522.5	-0.1298466863	-0.09560838889	
523.125	0.02502537838	0.2654975162	
523.75	-0.4211661676	-0.2658168843	
524.375	-0.1351891048	0.3953242139	
525.0	-0.4130835211	0.1540818725	
525.625	0.3775074106	0.281949279	
526.25	-0.3207094484	-0.001198619229	
526.875	0.08454519647	0.1508809622	
527.5	-0.4819986711	0.3309047424	
528.125	0.4939473304	1.236245547	
528.75	0.1111257846	0.184137728	
529.375	0.2159557641	0.4183702258	
530.0	-0.1922210042	0.07842531178	
530.625	0.7462056367	1.419409491	
531.25	0.5465935701	-0.02436876539	
531.875	1.187207653	-0.3053745517	
532.5	-0.6013461315	0.007874304239	
533.125	0.63680861	-0.440783611	
533.75	-0.264171403	-0.1542661127	
534.375	0.2234725581	-1.355162024	
535.0	-0.9020887557	0.2040305567	
535.625	-0.3425037731	-0.01048462367	
536.25	-0.07606288924	0.3621654846	
536.875	0.2611500917	-0.1022040287	
537.5	0.2162516326	0.03521288391	
538.125	0.314094343	-0.3303172655	
538.75	0.2178642175	-0.1084707834	
539.375	-0.185311519	-0.6383500145	
540.0	-0.4940395292	-0.09683738231	
540.625	-0.2837225125	-0.2329548644	
541.25	-0.3080746906	0.00604285339	
541.875	-0.1549217067	0.01115837668	
542.5	0.0514603014	-0.1084272624	
543.125	-0.3864656165	-0.2551333864	
543.75	0.01889663648	0.2145191858	
544.375	-0.3481827667	0.0208391358	
545.0	0.2182722767	0.1068041151	
545.625	-0.1088504493	0.3267249643	
546.25	0.4658864742	-0.09990010259	
546.875	0.04838170708	0.1267982456	
547.5	0.4397006261	-0.4595682142	
548.125	-0.328388717	-0.3177786165	
548.75	-0.08898788442	-0.2399496219	
549.375	-0.3477405739	-0.3434204792	
550.0	-0.1378712313	0.1733305183	
550.625	-0.2083205153	-0.1516172905	
551.25	-0.1001702996	0.2063579409	
551.875	-0.2452069465	0.03590991568	
552.5	-0.1162096957	0.3105490027	
553.125	-0.02311113252	0.107333344	
553.75	0.1037208517	0.1630105336	
554.375	0.2551221323	-0.01371889247	
555.0	0.2321161673	-0.1532559715	
555.625	0.2434110236	-0.2620322896	
556.25	0.1706639522	-0.3674511574	
556.875	-0.07221742377	-0.3914755716	
557.5	-0.220446239	-0.2766053449	
558.125	-0.3003272735	-0.1082108	
558.75	-0.2476074729	-0.001101308182	
559.375	-0.2763776128	0.002344356924	
560.0	-0.2578437788	0.2243366672	
560.625	-0.07736512165	0.2335580551	
561.25	-0.07149965816	0.2492932343	
561.875	0.1724958102	0.1096198257	
562.5	-0.1035343695	0.1209397995	
563.125	0.3040774721	0.1579642935	
563.75	0.169514282	0.06429775614	
564.375	0.484445015	-0.2294364124	
565.0	0.03396329798	-0.4340708882	
565.625	0.03848501129	-0.2674854259	
566.25	-0.2740643792	-0.4193486337	
566.875	-0.4169704469	-0.04592460306	
567.5	-0.1500708246	-0.2968561135	
568.125	-0.4981401604	-0.5644899545	
568.75	-0.454821506	0.003723915717	
569.375	-0.7050074314	-0.06234927391	
570.0	-0.2564156608	0.7586333213	
570.625	0.009958363158	0.1469901911	
571.25	-0.3764784689	0.4851850331	
571.875	0.3717265677	-0.145644139	
572.5	0.2157469107	0.3888033355	
573.125	0.3340167827	-0.5728480366	
573.75	-0.1835298361	-0.1005447108	
574.375	0.3938488829	-0.1802547868	
575.0	-0.2819518888	-0.1560264222	
575.625	0.3909328013	-0.04926523257	
576.25	0.04733261061	-0.5712133134	
576.875	-0.144301184	-0.03766647745	
577.5	0.3194902074	-0.4140702708	
578.125	-0.2726564747	-0.5800471449	
578.75	-0.2585597662	-0.09445386459	
579.375	0.0307555471	-0.2810347507	
580.0	-0.4035920374	-0.08657823214	
580.625	0.1445730039	-0.1440387119	
581.25	-0.5189124614	0.2748633982	
581.875	0.30891247	0.3146655926	
582.5	-0.1781475219	0.07966451552	
583.125	0.2206541933	0.6933927659	
583.75	0.1252694831	-0.4854917482	
584.375	0.01044325363	0.5954250579	
585.0	0.436995259	-0.2326422471	
585.625	0.1199809994	0.3227330832	
586.25	0.6976077691	-0.3204365618	
586.875	-0.08936496312	-0.1545228431	
587.5	0.3041676241	-0.4060371159	
588.125	-0.2720828226	-0.5220114498	
588.75	-0.03667948944	-0.0008395118051	
589.375	0.5183749968	-0.4296464582	
590.0	-0.2934600866	-0.4633181351	
590.625	-0.2877169721	-0.06469469965	
591.25	-0.4354472375	0.09066883708	
591.875	-0.02860733772	0.4875609608	
592.5	-0.07492969389	-0.0462891751	
593.125	0.01703971022	0.232616955	
593.75	-0.03726470216	0.1508063334	
594.375	0.4399840739	0.5718011682	
595.0	0.7041116126	-0.02244568281	
595.625	-0.0572608386	0.185237032	
596.25	0.6982978419	0.4915801302	
596.875	0.2760741571	-0.3094472533	
597.5	0.1321260555	0.4872585531	
598.125	0.6646883684	0.2191139596	
598.75	0.06812501178	0.1986110503	
599.375	0.8872181573	0.03308336996	
600.0	0.1556198679	-0.4264949171	
600.625	0.3944664814	-0.1704231956	
601.25	0.3704189595	-0.5548688459	
601.875	-0.3088090945	-0.2615091618	
602.5	-0.2592974777	-0.1130327937	
603.125	-0.2380019049	0.03094945163	
603.75	-0.4224358274	0.2389478559	
604.375	-0.01377560681	0.132123466	
605.0	-0.3889769119	0.1047258287	
605.625	0.01629443215	0.29971826	
606.25	-0.4002165167	-0.152296254	
606.875	-0.4886884525	0.5615669231	
607.5	-0.2014239072	0.03264667293	
608.125	-0.5547382013	0.9127659189	
608.75	0.6388274421	2.882987189e-05	
609.375	0.4233257309	0.3708227136	
610.0	0.6205185483	-0.5065620512	
610.625	-0.02801040414	-0.09045483461	
611.25	0.2655982031	-0.6848551881	
611.875	-0.2523360744	-0.04431731719	
612.5	-0.2892465675	-0.4633379238	
613.125	-0.5747725405	0.3784501077	
613.75	-0.2633823318	0.00709758537	
614.375	0.2182671304	0.5530063659	
615.0	-0.08911138058	-0.1924614586	
615.625	0.133024035	0.6032151847	
616.25	0.00661681513	-0.03587120204	
616.875	-0.5502820328	0.5791951547	
617.5	0.1422850979	0.7083852783	
618.125	-0.2678864449	0.1710807406	
618.75	0.0771977602	0.7609805605	
619.375	0.2119831081	0.1757660125	
620.0	0.4658383934	0.3462365525	
620.625	0.1618371811	-0.3977919028	
621.25	-0.02286761811	-0.493342413	
621.875	-0.5637374969	-0.1348551671	
622.5	-0.4038253677	-0.02188934208	
623.125	-0.2046158951	0.6299748117	
623.75	0.1577268857	-0.1265308532	
624.375	0.4848312725	0.01744238811	
625.0	-0.2936000694	-0.01308030996	
625.625	0.5190042741	-0.1465398699	
626.25	-0.4995165361	-0.4018213158	
626.875	0.08359476017	-0.1107379136	
627.5	-0.5982000889	-0.3147782247	
628.125	-0.2493835362	0.08036596513	
628.75	0.07647444612	-0.460781331	
629.375	-0.5174880254	-0.3441212645	
630.0	-0.1444009324	-0.2830587339	
630.625	-0.7000246286	0.007981352734	
631.25	-0.3406964599	0.6202618915	
631.875	-0.04683571419	0.4509279722	
632.5	0.1916581708	0.4727461561	
633.125	0.6023504323	0.3319848852	
633.75	0.32072046	-0.312396797	
634.375	0.2755717452	-0.105705865	
635.0	-0.1514054006	-0.6241520366	
635.625	-0.002419150561	-0.1243818389	
636.25	-0.6530519997	0.1109069168	
636.875	0.08276458999	0.3943000242	
637.5	-0.2728188089	-0.1811528716	
638.125	-0.116290174	0.7803647681	
638.75	0.00444605181	-0.1255869744	
639.375	-0.4606691371	0.7634076572	
640.0	0.6102668081	0.7277939055	
640.625	0.4347755048	0.07894182332	
641.25	0.6982919089	0.5257531112	
641.875	0.3175631248	-0.7395197122	
642.5	0.2427074143	-0.1599498147	
643.125	-0.4485570165	-0.7442771491	
643.75	-0.1455886721	0.3549782785	
644.375	-0.455985958	-0.50414753	
645.0	-0.4922774462	0.6073202825	
645.625	0.3232016014	0.4259784191	
646.25	-0.05109983678	0.05310517022	
646.875	0.7495553804	0.2682911713	
647.5	-0.3664346316	-0.1924840373	
648.125	0.7317805289	0.501973669	
648.75	0.4033983902	-0.672815704	
649.375	0.641033266	0.2500780019	
650.0	0.7486555805	-1.432706569	
650.625	-0.3731382107	-0.5220609235	
651.25	0.9374426839	0.1484031637	
651.875	1.071034426	-1.042158266	
652.5	0.005255637023	-0.3341722283	
653.125	0.9170869332	0.2868804046	
653.75	0.5567940436	-1.006338118	
654.375	-0.1043407239	-0.2016107665	
655.0	-0.6060859464	-0.9369456414	
655.625	-0.3428309545	0.9107052662	
656.25	0.03598152557	-0.03188905778	
656.875	-0.05298294629	0.5672715752	
657.5	0.3132567972	-0.06154928272	
658.125	-0.1285611683	0.5775165812	
658.75	1.076770352	0.2647845692	
659.375	0.542710753	-0.4607417235	
660.0	0.5708541779	-0.2368872044	
660.625	0.7138439029	-1.292651407	
661.25	-0.2370889083	-0.5147329702	
661.875	0.9678244719	-0.1416427738	
662.5	0.9038156778	-0.9321317627	
663.125	0.05696427823	-0.4699405895	
663.75	0.9969459983	-0.3635100583	
664.375	-0.5296490971	-1.027212202	
665.0	-0.1245312525	-0.3510173514	
665.625	-1.1864754	-0.01801125515	
666.25	0.1321626106	0.7612325489	
666.875	-0.1662786046	0.4130401881	
667.5	0.6382391009	0.4712296695	
668.125	0.4658339264	-0.318072185	
668.75	0.3546789803	0.01396552039	
669.375	0.5260850843	-0.7019716376	
670.0	-0.2386317911	-0.4684647316	
670.625	0.1976669158	-0.3333773872	
671.25	0.2024457794	-0.6332916671	
671.875	0.04524240789	-0.2342788546	
672.5	0.8008872901	-0.2429819135	
673.125	0.4400565057	-0.6637861978	
673.75	0.1124526796	-0.2705399486	
674.375	0.6572544706	-0.4711830558	
675.0	-0.6008592216	-1.065088678	
675.625	0.02784288195	0.2341932203	
676.25	-0.7353928958	-0.6408339509	
676.875	-0.3461662369	0.5076087202	
677.5	-0.262533219	-0.5773318527	
678.125	-0.4254196313	0.9569251505	
678.75	-0.06337257063	0.0282971073	
679.375	0.4137347017	0.6498816386	
680.0	0.6754050807	-0.5319438248	
680.625	-0.3568573209	-0.04594012989	
681.25	0.626773066	0.2119648979	
681.875	0.4180980791	-0.1052718571	
682.5	0.3485682392	0.07889121226	
683.125	0.4096245071	0.5443094313	
683.75	0.9999363617	-0.02615261524	
684.375	0.2707614072	0.07717063578	
685.0	0.8414707732	0.5936288728	
685.625	0.8211765876	-0.6294473322	
686.25	0.203323451	0.7351064393	
686.875	1.634930019	-0.9014358811	
687.5	-0.3520063132	-0.4098935731	
688.125	0.9715134748	-1.061800631	
688.75	-1.817384807	-0.5949134591	
689.375	-0.08296123059	0.2426288237	
690.0	-0.2367213633	1.557076057	
690.625	0.7228255413	0.1546632777	
691.25	0.2729801322	1.00730721	
691.875	1.604822851	0.7118469159	
692.5	1.035084049	0.4410392193	
693.125	1.664030598	0.2032494167	
693.75	1.451109448	-0.6413633676	
694.375	1.168037037	-0.7955754162	
695.0	0.9570560319	-0.8657438255	
695.625	1.028476323	0.3129897392	
696.25	1.905243578	0.2750010792	
696.875	0.4414241438	0.4605757723	
697.5	0.8718566677	2.214759543	
698.125	1.550157726	-0.2343167295	
698.75	1.427991418	0.09302586269	
699.375	-1.372978092	-1.668805166	
700.0	0.03647001773	0.7139045007	
700.625	-0.2992164197	1.487409148	
701.25	0.7542102095	-0.05939551813	
701.875	0.1460200517	0.8708488236	
702.5	1.41571898	0.5410634577	
703.125	0.404179394	0.3457282264	
703.75	1.395872563	-0.1163420091	
704.375	0.2602197865	-0.7145884774	
705.0	0.9439054342	0.3050275826	
705.625	0.7901489019	-0.6519740144	
706.25	-0.006594836807	0.5363977782	
706.875	1.026931554	1.367934911	
707.5	0.6201008006	0.1668686998	
708.125	1.046203464	1.074547689	
708.75	0.8735625253	-1.276274998	
709.375	-0.2430307219	-0.4693603873	
710.0	-0.9730869635	0.4167016666	
710.625	0.4313739676	0.2629173191	
711.25	0.02658463896	0.4677299929	
711.875	0.5560495377	0.224444187	
712.5	0.8875780684	0.1564178644	
713.125	0.5271570941	-0.591784423	
713.75	0.500651208	-0.218807105	
714.375	0.02191603642	-0.9718402056	
715.0	-0.2277498742	-0.01230415022	
715.625	0.6352518893	-1.001195619	
716.25	-0.416271501	-0.7239528705	
716.875	1.063762934	0.4949017833	
717.5	2.58888859	-0.5185800035	
718.125	-0.06727764106	-0.9050498467	
718.75	3.341044003	1.814785039	
719.375	1.93183722	-2.754059019	
720.0	0.94889877	-1.100181225	
720.625	2.627210882	-2.742091886	
721.25	-1.347244468	-2.825658585	
721.875	0.7841471955	-2.484182856	
722.5	-1.701573095	-2.647217657	
723.125	-2.018970878	0.1430389798	
723.75	-1.083474261	0.3158074083	
724.375	-0.0972377504	1.678662819	
725.0	0.6788703471	0.6544701352	
725.625	0.09385610726	0.7584086785	
726.25	-0.5394912976	2.294393414	
726.875	1.394910009	2.954684306	
727.5	-1.900052117	1.136912004	
728.125	-1.168344771	7.750862901	
728.75	2.947262066	4.509895693	
729.375	-11.0121158	2.284756033	
730.0	9.001380979	18.96646571	
730.625	1.100723366	0.7872968202	
731.25	-15.15145706	8.073101724	
731.875	-8.797729856	14.96022423	
732.5	-2.107136677	1.40867199	
733.125	-8.967849283	-2.603922806	
733.75	-2.144067609	4.51389599	
734.375	1.221858395	0.3982754332	
735.0	1.497040707	-2.305300459	
735.625	-0.5558938933	1.162467339	
736.25	-1.088865586	0.8838077811	
736.875	1.352651014	2.174458839	
737.5	3.532884956	-0.380829842	
738.125	0.753140488	-1.009174466	
738.75	8.978210049	0.4871925225	
739.375	8.509956523	-14.70020927	
740.0	-3.391695571	0.4937760293	
740.625	13.52224469	16.23931564	
741.25	10.85231273	-19.38617695	
741.875	-12.25533489	-13.56711121	
742.5	-18.34791316	-0.7562331411	
743.125	2.519162728	2.988690322	
743.75	3.849229316	-6.197285171	
744.375	-1.908255379	0.4213842958	
745.0	-0.06094788541	-0.175701313	
745.625	0.3553660241	0.1532996529	
746.25	-0.09622127173	-0.1108542492	
746.875	-0.6448650685	-0.6080777652	
747.5	-0.2999664406	0.9709905698	
748.125	0.279031309	0.9742069068	
748.75	0.2525820869	1.418649948	
749.375	0.6500788478	1.904200861	
750.0	-1.496566575	-0.2348682634	
