!Created with skrf (http://scikit-rf.org).
# GHz S RI R (50+0j) 
!freq	ReS11	ImS11	
500.0	0.4544742026	-1.097511281	
500.625	1.908904268	-3.083141553	
501.25	-2.724791512	-3.046778899	
501.875	-0.7527410762	0.2407331921	
502.5	-0.1075641531	-0.6557537822	
503.125	-0.1429066839	0.238380947	
503.75	-0.1441038435	0.2446387031	
504.375	0.1083501297	-0.1116207655	
505.0	0.08168540776	0.111201408	
505.625	-0.1219003452	-0.4205009022	
506.25	-0.002737720521	0.2650200145	
506.875	-0.8116417179	-0.8311729554	
507.5	-1.750530391	-0.2170316107	
508.125	1.600192785	-0.8501007242	
508.75	1.513757611	-5.175936231	
509.375	-2.992326845	-1.893552362	
510.0	-1.441821959	-2.483255604	
510.625	-0.7667261711	0.1512040486	
511.25	-0.3265622662	-0.3185336271	
511.875	-0.6265786754	-0.141893468	
512.5	0.06480612584	0.08542474564	
513.125	-0.03606540724	-0.2083061228	
513.75	-0.1049305159	-0.4924244763	
514.375	-0.5342098494	0.4075149201	
515.0	1.105444904	-1.316777311	
515.625	-1.716915955	0.275890383	
516.25	1.844353201	-2.924138438	
516.875	-2.764463571	-1.770855239	
517.5	0.02886931827	0.3972192286	
518.125	-0.3274249892	-0.4695389943	
518.75	-0.009101255394	0.2781428077	
519.375	-0.3373855364	0.07243410928	
520.0	0.5056784789	0.08482982697	
520.625	0.2539995688	-0.1367383166	
521.25	0.3106563212	-1.015986647	
521.875	-0.422874657	0.1831745941	
522.5	-0.134270552	-0.08086072403	
523.125	-0.0230284139	0.2005954329	
523.75	-0.4491776711	-0.2323594567	
524.375	-0.1107133807	0.3793573566	
525.0	-0.3912239686	0.156646923	
525.625	0.2989533044	0.2830946227	
526.25	-0.2742852204	-0.07368215986	
526.875	0.05701319534	0.1841465989	
527.5	-0.4859810025	0.3221256417	
528.125	0.4247570664	1.247199477	
528.75	0.1322836204	0.1573449392	
529.375	0.2158328513	0.4573514895	
530.0	-0.2317581596	0.09319415395	
530.625	0.5401762893	1.466135184	
531.25	0.6994116307	-0.03504066413	
531.875	0.936160466	-0.2074323932	
532.5	-0.5442622974	-0.1000215374	
533.125	0.5894234132	-0.3196233965	
533.75	-0.2362281344	-0.2527176626	
534.375	0.2765565521	-1.290476071	
535.0	-0.9430225806	0.157563619	
535.625	-0.2764760075	0.07728189812	
536.25	-0.1031439753	0.342397146	
536.875	0.2577072891	-0.1129059959	
537.5	0.2512870212	0.03850521153	
538.125	0.2738118188	-0.3480379581	
538.75	0.2607495431	-0.05507959838	
539.375	-0.1951234045	-0.6516306637	
540.0	-0.5023105438	-0.1187312684	
540.625	-0.2938094138	-0.1730626111	
541.25	-0.2355911542	-0.03926675918	
541.875	-0.2102738124	-0.02786829214	
542.5	0.06206469422	-0.0834690398	
543.125	-0.3660203535	-0.2299618305	
543.75	-0.03453256626	0.1355554137	
544.375	-0.3002765484	0.05621056471	
545.0	0.1759853163	0.09029033326	
545.625	-0.09332605372	0.3064499792	
546.25	0.4837295846	-0.08328907524	
546.875	0.03139263164	0.1100520827	
547.5	0.4513111621	-0.391570154	
548.125	-0.3191530083	-0.3719660321	
548.75	-0.06624096842	-0.2547713046	
549.375	-0.3693975617	-0.3415529206	
550.0	-0.1127241547	0.1584038336	
550.625	-0.2313148281	-0.1457291653	
551.25	-0.1011960179	0.1963544646	
551.875	-0.2353021467	0.02748632993	
552.5	-0.1513541599	0.2894086412	
553.125	-0.01262898161	0.1236689335	
553.75	0.09400596482	0.1632130846	
554.375	0.2570979224	-0.004007702665	
555.0	0.2398546643	-0.1424796855	
555.625	0.247267381	-0.2595589953	
556.25	0.179477928	-0.3580200774	
556.875	-0.06282536943	-0.3986089331	
557.5	-0.2222247257	-0.2828904078	
558.125	-0.2970384566	-0.1167597038	
558.75	-0.252639144	-0.002244312337	
559.375	-0.2706671683	-0.001479589036	
560.0	-0.2739921109	0.2116614632	
560.625	-0.0792118979	0.229713451	
561.25	-0.07938102651	0.2678331876	
561.875	0.1665395262	0.07498418295	
562.5	-0.1088519779	0.1583866242	
563.125	0.2974246619	0.1460475105	
563.75	0.168310395	0.05400611806	
564.375	0.4802527395	-0.183455863	
565.0	0.09288238793	-0.4538872573	
565.625	-0.01250870982	-0.2488218074	
566.25	-0.2331074713	-0.4223643858	
566.875	-0.4140408204	-0.05285065305	
567.5	-0.1550385982	-0.3299622545	
568.125	-0.5017767626	-0.5231872555	
568.75	-0.407129993	-0.06454707772	
569.375	-0.7330630526	-0.04978273196	
570.0	-0.3006931755	0.7494312953	
570.625	0.05779209123	0.1704200103	
571.25	-0.4240823538	0.4209573432	
571.875	0.3957355397	-0.06911504951	
572.5	0.1731089926	0.3740423312	
573.125	0.335879847	-0.5737131926	
573.75	-0.1684565398	-0.05157574599	
574.375	0.4108548369	-0.2415431295	
575.0	-0.2867883053	-0.1331889191	
575.625	0.3850706169	-0.02033732599	
576.25	0.1229103589	-0.5743127719	
576.875	-0.1680367518	-0.08473298723	
577.5	0.305145997	-0.3617279004	
578.125	-0.2444471263	-0.6003419613	
578.75	-0.234596897	-0.0928703967	
579.375	0.01177859686	-0.3233315379	
580.0	-0.3841381352	-0.05232191061	
580.625	0.1336713349	-0.1677518382	
581.25	-0.5385793493	0.2409950847	
581.875	0.3081096057	0.3772733453	
582.5	-0.1319824123	0.004580234636	
583.125	0.125572183	0.7302920744	
583.75	0.1730104571	-0.4671745454	
584.375	-0.003292243178	0.5879739109	
585.0	0.4008802967	-0.2644349334	
585.625	0.1548170366	0.4178723512	
586.25	0.7030861708	-0.3668944446	
586.875	-0.09691585813	-0.1687592458	
587.5	0.3104483264	-0.3130826236	
588.125	-0.1770052439	-0.6037133075	
588.75	-0.1134911841	-0.0718502338	
589.375	0.5034636544	-0.3072037917	
590.0	-0.2517516675	-0.5054000024	
590.625	-0.2617290064	-0.1109491079	
591.25	-0.507556256	0.161471465	
591.875	0.05450448929	0.3714629585	
592.5	-0.1295299402	0.03756656795	
593.125	0.01724412955	0.2182025657	
593.75	-0.01212309955	0.09225124752	
594.375	0.280904743	0.6426095626	
595.0	0.8549587525	0.08942244715	
595.625	-0.09091984122	0.1141901506	
596.25	0.6398629432	0.5173288159	
596.875	0.2723158096	-0.3015237194	
597.5	0.1502263968	0.6124571756	
598.125	0.67716048	0.1282700187	
598.75	0.03294793445	0.2136174452	
599.375	0.8754161354	0.123316762	
600.0	0.2587205176	-0.4896244532	
600.625	0.301963752	-0.1749234094	
601.25	0.3991858425	-0.4672281315	
601.875	-0.2613843056	-0.3573790484	
602.5	-0.2702805562	-0.09409432348	
603.125	-0.2600714637	0.04642307013	
603.75	-0.3267997177	0.1846937652	
604.375	-0.1370044487	0.1275629885	
605.0	-0.3109597561	0.1223563482	
605.625	-0.05389290693	0.2416554351	
606.25	-0.3916568438	-0.1781506884	
606.875	-0.5318951505	0.5682060751	
607.5	-0.1369758772	0.08840107274	
608.125	-0.6107317478	0.8220967916	
608.75	0.6901888156	0.09202330738	
609.375	0.3838019318	0.3791720169	
610.0	0.6573661181	-0.5081966397	
610.625	-0.09259330939	-0.1119274805	
611.25	0.3035846089	-0.7008436354	
611.875	-0.2850900749	-0.04830117732	
612.5	-0.2455480782	-0.4359271888	
613.125	-0.5917396878	0.3513031041	
613.75	-0.3009717076	-0.01394186851	
614.375	0.1628410381	0.522506281	
615.0	-0.06547369232	-0.1770905796	
615.625	0.1406779669	0.609016151	
616.25	0.03262878799	0.007406755855	
616.875	-0.5778574278	0.4969198298	
617.5	0.0937242002	0.785892248	
618.125	-0.2217670827	0.1417032634	
618.75	0.0175541062	0.7594485539	
619.375	0.2545969965	0.1729997654	
620.0	0.4437185263	0.4170610405	
620.625	0.1825178046	-0.4186257327	
621.25	-0.01539680401	-0.4876019147	
621.875	-0.5873166905	-0.2246748856	
622.5	-0.3914856168	0.006812827465	
623.125	-0.2275983079	0.6456511339	
623.75	0.1849584383	-0.1626284081	
624.375	0.4772450312	0.1258938484	
625.0	-0.3071267837	-0.07661374487	
625.625	0.5179810543	-0.108402592	
626.25	-0.454090552	-0.4528287684	
626.875	0.120732205	-0.1501243106	
627.5	-0.6504450285	-0.3106314716	
628.125	-0.212712192	0.133160209	
628.75	0.1179586786	-0.5331967904	
629.375	-0.5191988455	-0.33807407	
630.0	-0.1349960692	-0.2260062667	
630.625	-0.6816548511	-0.06040581152	
631.25	-0.3907566185	0.5638154317	
631.875	-0.05007916197	0.5552358552	
632.5	0.184559131	0.4403508972	
633.125	0.57717801	0.2805575052	
633.75	0.3253636604	-0.2269762847	
634.375	0.2958497941	-0.1881920912	
635.0	-0.1468144672	-0.4788542735	
635.625	-0.05813563727	-0.226695916	
636.25	-0.6434324493	0.09805446708	
636.875	0.05657864205	0.4587962779	
637.5	-0.1748240999	-0.2552907214	
638.125	-0.3128778005	0.7380147691	
638.75	0.1240378817	0.01066951805	
639.375	-0.4660717367	0.6455108029	
640.0	0.6023828511	0.7226303921	
640.625	0.2882886022	0.1246027969	
641.25	0.9385799194	0.4583378434	
641.875	0.1814379861	-0.6709275283	
642.5	0.2676557884	-0.1740756813	
643.125	-0.3420606496	-0.7735165036	
643.75	-0.38109966	0.3043617596	
644.375	-0.2515782862	-0.4527744211	
645.0	-0.5965717184	0.467077742	
645.625	0.3422929873	0.5084338284	
646.25	-0.03140471019	0.08474524378	
646.875	0.7709374175	0.1368004711	
647.5	-0.3438913585	-0.02299561976	
648.125	0.7146433725	0.3959358511	
648.75	0.382944314	-0.6150469127	
649.375	0.6001673687	0.2702871676	
650.0	0.9476549937	-1.376187435	
650.625	-0.3996978977	-0.6787573102	
651.25	0.802457063	0.2121599485	
651.875	1.12383105	-0.9141285623	
652.5	0.02854831991	-0.3855397008	
653.125	0.9661825608	0.2775955951	
653.75	0.4643684153	-1.012339558	
654.375	-0.05022830871	-0.1925431096	
655.0	-0.5401060861	-0.9553002382	
655.625	-0.4451850905	0.9205080753	
656.25	0.08484806066	-0.01994209916	
656.875	-0.1011473332	0.5079854884	
657.5	0.3434545744	-0.003285367912	
658.125	-0.1410122939	0.5605894022	
658.75	1.063292242	0.2402345299	
659.375	0.5475045986	-0.3952598975	
660.0	0.6036190085	-0.2397144695	
660.625	0.751067218	-1.274091793	
661.25	-0.2594252557	-0.6237945122	
661.875	0.8958563741	-0.01997405657	
662.5	0.993260877	-0.9009244291	
663.125	0.07236473513	-0.4859826547	
663.75	1.018392969	-0.3571651796	
664.375	-0.5494540814	-0.9746933289	
665.0	-0.0716900291	-0.4183267863	
665.625	-1.216236527	-0.02859200322	
666.25	0.07521504728	0.8103226916	
666.875	-0.09936995322	0.2664404146	
667.5	0.5533775468	0.565184754	
668.125	0.5523313956	-0.288382746	
668.75	0.3107420365	-0.04053460436	
669.375	0.5346908084	-0.6839565184	
670.0	-0.2064854584	-0.3762240194	
670.625	0.2487022848	-0.4249480419	
671.25	0.08087348369	-0.6383062085	
671.875	0.1267661997	-0.1405587044	
672.5	0.8027265523	-0.2626584878	
673.125	0.5362979497	-0.7309823877	
673.75	0.01438473305	-0.3328458393	
674.375	0.6463263602	-0.3827304309	
675.0	-0.5211673359	-1.107406527	
675.625	0.01149311609	0.2263729239	
676.25	-0.8170892846	-0.5902800326	
676.875	-0.2367537555	0.5396754487	
677.5	-0.3626496431	-0.6985953374	
678.125	-0.3651504463	0.9918428307	
678.75	-0.02813419872	0.01613240377	
679.375	0.2950352349	0.5922611684	
680.0	0.7747016464	-0.3475992935	
680.625	-0.327136757	-0.2843324035	
681.25	0.4795267435	0.330954198	
681.875	0.4618209285	-0.08464643725	
682.5	0.3256949002	0.109689591	
683.125	0.5683572295	0.5345881966	
683.75	0.7300888882	-0.09421473548	
684.375	0.4199924506	0.2187929926	
685.0	0.8291193173	0.4642135498	
685.625	0.896589191	-0.5420335043	
686.25	-0.008568930487	0.6997271566	
686.875	1.854962501	-0.6825298819	
687.5	-0.3701203022	-0.6151519544	
688.125	0.9325212172	-0.9617572493	
688.75	-1.80308195	-0.597918025	
689.375	-0.04459147352	0.1470099777	
690.0	-0.2583606246	1.66975815	
690.625	0.7133448132	0.06821467525	
691.25	0.2314932201	1.062249805	
691.875	1.593530028	0.8281277389	
692.5	1.112893714	0.3757113873	
693.125	1.628761197	0.2173862843	
693.75	1.466163254	-0.5473505749	
694.375	1.248408956	-0.7951332074	
695.0	0.9759307835	-0.8092032431	
695.625	1.058143521	0.2184889631	
696.25	1.788927361	0.3480199892	
696.875	0.4896365083	0.5549136288	
697.5	0.8505358878	2.161802202	
698.125	1.60208379	-0.1175264843	
698.75	1.397365338	0.1750950569	
699.375	-1.365465763	-1.762575564	
700.0	-0.006544866553	0.7862145497	
700.625	-0.4899523139	1.318545093	
701.25	0.7973513719	-0.03915290541	
701.875	0.09318126448	0.9038685265	
702.5	1.400462891	0.6745113904	
703.125	0.3900079873	0.2942788609	
703.75	1.4043919	-0.06438336507	
704.375	0.2959691482	-0.7311411838	
705.0	0.9407377272	0.3666392896	
705.625	0.8441149615	-0.5683384904	
706.25	0.01426062216	0.4342547816	
706.875	0.8582273077	1.402183257	
707.5	0.615049332	0.1753755842	
708.125	0.9784013603	1.087748614	
708.75	0.9223230763	-1.375970435	
709.375	-0.1739593084	-0.367363872	
710.0	-1.016421635	0.4011301932	
710.625	0.4797291378	0.2623144272	
711.25	-0.009576657357	0.504717255	
711.875	0.540983367	0.1636995192	
712.5	0.9610004936	0.2517398214	
713.125	0.542009369	-0.6182019432	
713.75	0.4652602128	-0.2296433629	
714.375	0.01247025752	-0.9458574198	
715.0	-0.185268956	-0.05792848376	
715.625	0.5609631296	-0.9963675294	
716.25	-0.3636282958	-0.7196765928	
716.875	0.9685358263	0.5018937556	
717.5	2.605020013	-0.281980714	
718.125	0.1926363732	-1.149294321	
718.75	2.698560763	1.915601913	
719.375	2.315530688	-2.62807093	
720.0	0.8769021863	-1.172504193	
720.625	2.632287522	-2.966409403	
721.25	-1.47494455	-2.278618518	
721.875	0.9430050502	-2.629948827	
722.5	-1.824819752	-2.624609905	
723.125	-2.095335774	0.128126206	
723.75	-0.9655654054	0.4243817164	
724.375	-0.315104891	1.509146915	
725.0	0.795592586	0.8672294928	
725.625	0.1435248435	0.6754161107	
726.25	-0.5710106896	2.20484704	
726.875	1.290029081	2.801206389	
727.5	-2.048916745	1.771022252	
728.125	-1.097540295	8.389089347	
728.75	3.617097051	5.511029191	
729.375	-10.33970427	3.947086182	
730.0	4.79366122	32.14504128	
730.625	4.131930479	-0.1831576328	
731.25	-10.60001619	8.735031748	
731.875	-8.78153587	15.83229104	
732.5	-2.11178527	1.855427807	
733.125	-9.126405179	-2.641393908	
733.75	-2.09483096	4.035838275	
734.375	0.9244471657	0.7118088012	
735.0	1.402071028	-2.346125132	
735.625	-0.8062766391	1.246473073	
736.25	-0.989486588	0.5996319312	
736.875	1.018275897	2.14312608	
737.5	3.87585154	0.1038999697	
738.125	0.7794415994	-1.849671677	
738.75	9.200808459	0.6017850019	
739.375	7.521004094	-10.26357775	
740.0	-2.400122074	3.728512783	
740.625	20.71998463	6.908222501	
741.25	7.56035337	-10.5590199	
741.875	-10.77587353	-29.49762103	
742.5	-21.96164163	-3.495820598	
743.125	0.07885391833	2.60811644	
743.75	4.761614154	-2.301917799	
744.375	-2.411546746	0.06285439853	
745.0	0.08078499903	-0.2503095944	
745.625	0.349100824	-0.00520544166	
746.25	-0.1019989796	-0.006003690665	
746.875	-0.5019581446	-0.2669109377	
747.5	-0.02802698769	0.9496725243	
748.125	0.2286877491	1.125867779	
748.75	0.4102661471	1.507985793	
749.375	0.4088995166	0.9671697718	
750.0	-0.66202852	-0.9911794263	
