!Created with skrf (http://scikit-rf.org).
# GHz S MA R 50.0 
!freq magS11 angS11
500.0 0.0151057918755 142.811349947
500.625 0.00723552631661 107.318924171
501.25 0.00863408592075 -137.499257536
501.875 0.0183439903329 -155.441585713
502.5 0.00715394984152 94.5654930833
503.125 0.0184884039238 114.506734872
503.75 0.00977796610294 73.2716327223
504.375 0.00478239544931 -55.0808393485
505.0 0.0271111621392 -70.1081578022
505.625 0.00869211461556 -69.7836295091
506.25 0.0310755665843 -117.454322563
506.875 0.0559425615068 -107.129923743
507.5 0.0519700127573 -113.089054463
508.125 0.0503012553485 -92.7692701943
508.75 0.0737451453708 -117.352970274
509.375 0.0512422117921 -136.892786615
510.0 0.0339409034013 -118.641732863
510.625 0.0338558189683 -158.768394852
511.25 0.0568101534333 -170.014568943
511.875 0.0511944439506 144.851188184
512.5 0.0469157091137 112.357469317
513.125 0.049428212973 35.1946214292
513.75 0.0617718952936 46.0042728543
514.375 0.0585071364646 33.2820135496
515.0 0.0330804933341 -24.5054712239
515.625 0.0720871762116 43.3714507068
516.25 0.0919766498776 28.6513583868
516.875 0.123330151475 69.8650197261
517.5 0.129800299266 22.4475944386
518.125 0.184076365719 67.2545284905
518.75 0.0787571122125 7.26548655239
519.375 0.0837473699643 25.6823361446
520.0 0.0778183830861 -9.18904357929
520.625 0.0928734316436 -9.68122304529
521.25 0.0763317617256 -29.1016801143
521.875 0.0750914690386 2.92356239971
522.5 0.0843315070504 -36.7426683382
523.125 0.170935926285 -36.5322769947
523.75 0.221727520192 -54.0605309544
524.375 0.210202298234 -49.4352265294
525.0 0.0665663323881 -65.7426555636
525.625 0.031118811356 -42.0789250771
526.25 0.04438746651 -6.59786781481
526.875 0.0653048761756 -14.2620157893
527.5 0.0341874501962 -44.0306676835
528.125 0.0315160085204 -58.695820705
528.75 0.0575693389467 -76.9665151319
529.375 0.105937576182 -104.699828316
530.0 0.044667511692 -130.727174604
530.625 0.0429666689481 -140.155090323
531.25 0.12099487177 -132.774766649
531.875 0.197198403169 -146.256501263
532.5 0.13568879051 -169.053658992
533.125 0.0876503703373 176.288032715
533.75 0.109339162849 170.043143049
534.375 0.127408402255 -178.319010127
535.0 0.0693178768221 155.811280416
535.625 0.0556285920717 176.602021117
536.25 0.0605344336613 167.086254098
536.875 0.0897727945725 -159.883730706
537.5 0.0959711629513 -143.211520024
538.125 0.111037926678 -172.339602673
538.75 0.102357168588 -178.735218767
539.375 0.0886542294994 -162.264919722
540.0 0.0710190979618 -148.903620495
540.625 0.132327437652 -154.613910686
541.25 0.124659835443 -139.667694918
541.875 0.101597309495 -143.330222151
542.5 0.109751159204 -142.01329573
543.125 0.138600626397 -165.539476137
543.75 0.127463160626 160.466240641
544.375 0.103782118172 136.683115509
545.0 0.0679901139453 89.0782371715
545.625 0.0876578477704 84.1389184409
546.25 0.088203206426 65.9877113056
546.875 0.0963327649991 54.2766082695
547.5 0.0896219437294 59.4024154842
548.125 0.117293219926 80.6170586195
548.75 0.087646918379 92.0267389722
549.375 0.108146422819 87.9432644353
550.0 0.0609228720162 121.688077093
550.625 0.0357828053931 162.416462488
551.25 0.0344106017743 -134.36687369
551.875 0.0732675835478 -167.087348466
552.5 0.0972924716463 -157.38928601
553.125 0.088744686573 -164.521284004
553.75 0.0920152260875 -167.525642393
554.375 0.117566483677 164.212964549
555.0 0.105153564612 168.503866115
555.625 0.0940299389428 159.918964633
556.25 0.101494704829 161.93599126
556.875 0.123838226737 165.50126934
557.5 0.122391396389 166.169542074
558.125 0.0942028636696 165.638302496
558.75 0.0779497325587 176.447438549
559.375 0.0743877757373 -173.511202897
560.0 0.0338331346849 -133.142083063
560.625 0.055149695245 -132.596242569
561.25 0.0823098952092 -145.436626451
561.875 0.110321952028 -164.987597555
562.5 0.0890627648027 176.585078378
563.125 0.0996906430638 151.211848323
563.75 0.124979691743 133.667849394
564.375 0.111635550548 119.953845021
565.0 0.074868850028 123.426281211
565.625 0.0737336510773 122.73728039
566.25 0.0806084175594 158.817955901
566.875 0.0788290861129 177.628927111
567.5 0.0746896617834 -178.147260431
568.125 0.079662328537 -168.759504904
568.75 0.0692675151618 -145.288147336
569.375 0.0500104689788 -108.638009063
570.0 0.0636645118346 -114.671113911
570.625 0.0902346330496 -112.756584358
571.25 0.0876175242161 -118.826648898
571.875 0.0890835657462 -126.457942633
572.5 0.113976795621 -156.845598228
573.125 0.13803741429 -172.728915091
573.75 0.104265056238 163.514537454
574.375 0.0854770713359 147.603957801
575.0 0.0979589157807 160.155967181
575.625 0.105320270697 158.20193079
576.25 0.0807942361008 149.461416631
576.875 0.0854810665264 125.829605948
577.5 0.0679267223826 148.480384486
578.125 0.054851167227 167.465536611
578.75 0.0464893364656 163.332604808
579.375 0.0569809352914 157.540887261
580.0 0.0692604199241 -179.606677707
580.625 0.0782865868274 -148.449469923
581.25 0.0905417049243 -166.195885802
581.875 0.117337263221 -175.707516185
582.5 0.121557892611 -179.040495042
583.125 0.0865592413403 -160.347851042
583.75 0.080577318329 -160.076868005
584.375 0.102885805096 -155.535603563
585.0 0.0989700433098 -148.665267825
585.625 0.0670842856145 -143.078831787
586.25 0.0709360143207 -136.349009123
586.875 0.0823356699275 -133.732533131
587.5 0.0762911173406 -148.256605037
588.125 0.0565949373261 -164.030064133
588.75 0.0679943710686 -155.399027393
589.375 0.0841101751587 -152.331529722
590.0 0.0906422616389 -174.286755859
590.625 0.10757503368 174.462479293
591.25 0.121113639041 162.21647534
591.875 0.0883371712746 161.576930479
592.5 0.0667315172873 137.873128129
593.125 0.0604789049492 171.695960827
593.75 0.0750225085783 -175.509392288
594.375 0.0576512841435 -145.853571722
595.0 0.0412352089165 -130.203085045
595.625 0.0701965562821 -83.2346009829
596.25 0.080241415165 -76.2317495374
596.875 0.0625875451686 -66.1989996732
597.5 0.0542168083348 -72.4089748778
598.125 0.0735267029584 -47.6683809438
598.75 0.0756337667245 -67.6453020834
599.375 0.0904470629543 -64.0056253529
600.0 0.0973376662165 -72.5210906849
600.625 0.100493156101 -62.2377375728
601.25 0.083860514659 -66.6457390542
601.875 0.0688032670333 -84.2624382
602.5 0.0604162034955 -100.792025546
603.125 0.0486500199886 -25.5522955473
603.75 0.0346087396895 -25.5712282612
604.375 0.0357585260904 -32.4708275565
605.0 0.0576435171941 -22.2977921951
605.625 0.0467625017698 -23.0773307924
606.25 0.0285345199037 24.6965357048
606.875 0.0365820696278 45.069268195
607.5 0.0655274374464 43.5227092856
608.125 0.0640954306166 24.3468487064
608.75 0.0684113927114 24.2455140726
609.375 0.0557917937971 27.301634711
610.0 0.0644362648371 38.1817957981
610.625 0.0569736450636 26.451259732
611.25 0.0540682226115 40.5120114638
611.875 0.0357377193698 46.6257443106
612.5 0.0230337865195 90.0490471004
613.125 0.0097226180407 148.191056748
613.75 0.0739277068235 129.630469633
614.375 0.0555544511369 124.840472445
615.0 0.0403477262935 130.98757518
615.625 0.0135361716039 155.317586
616.25 0.0558036776577 138.933438718
616.875 0.0590636021235 132.955218423
617.5 0.0503742079885 132.356712106
618.125 0.00557335228253 138.133786889
618.75 0.0558152274995 151.698365866
619.375 0.0304751464814 149.142611872
620.0 0.0108111695102 143.029765183
620.625 0.0330243742134 -68.027211374
621.25 0.0506426071129 -126.595762945
621.875 0.0713167655607 -121.13231688
622.5 0.0828262064663 -176.046151314
623.125 0.0644470104074 -176.334578011
623.75 0.0833377888017 163.131817485
624.375 0.0526761599687 179.903631725
625.0 0.0313785937749 -131.698259821
625.625 0.0280257303665 -147.575936343
626.25 0.00621067323494 148.096029957
626.875 0.000984948557314 141.550324201
627.5 0.0292822612525 -20.5499569884
628.125 0.0343067104625 -20.1252410546
628.75 0.0470543759739 -0.680869332629
629.375 0.0429501837191 -15.7990050023
630.0 0.0588797128481 -21.5256222945
630.625 0.0686660081742 7.31554479386
631.25 0.0691598099737 -2.84364072882
631.875 0.0677440714908 -8.2967609059
632.5 0.0577626945405 -0.290039261643
633.125 0.0435626793511 7.08482036316
633.75 0.0493995153428 28.4520411263
634.375 0.0525321522968 -22.8490019597
635.0 0.0314110206912 8.97240137847
635.625 0.0451809603668 47.7822672927
636.25 0.0604204614116 47.6880759681
636.875 0.0735618635355 49.2034287931
637.5 0.0379327928738 19.4424363175
638.125 0.0292841066803 62.5240733856
638.75 0.0749896174049 79.6233763442
639.375 0.107277628451 99.168437307
640.0 0.0649115846604 85.6572842416
640.625 0.0478629445153 90.0703075157
641.25 0.0604461982809 108.878696738
641.875 0.0783746017816 159.282007704
642.5 0.0548995068881 157.94014037
643.125 0.0610032462841 163.171766261
643.75 0.068516122409 176.137171166
644.375 0.0890116321569 -167.691743259
645.0 0.0747415764215 177.123646826
645.625 0.0757538874314 162.556232868
646.25 0.0848655879554 162.853842567
646.875 0.0851282564709 -176.026064057
647.5 0.0480609270371 165.393033326
648.125 0.072582111134 178.761429581
648.75 0.0784489081061 -168.182570588
649.375 0.057803999151 -143.218623829
650.0 0.0310292379685 -129.234409325
650.625 0.0663133883254 -85.9437893482
651.25 0.0769071705031 -63.4158419968
651.875 0.0715156221457 -42.0957524414
652.5 0.103582536871 -23.4382338197
653.125 0.115004970678 -1.97490005043
653.75 0.111986770235 2.8728824156
654.375 0.121167820008 8.39599844424
655.0 0.0931132008447 4.19451106109
655.625 0.0855655965282 24.8704677882
656.25 0.066169101689 22.7569898016
656.875 0.075822080121 9.04793509256
657.5 0.0926896963081 26.7286593434
658.125 0.0534693892714 49.3978703808
658.75 0.0532905795437 68.1781119505
659.375 0.0865791336136 42.4271894195
660.0 0.13200389094 25.4412521329
660.625 0.0912780141842 18.4612791103
661.25 0.0960941734204 6.56405263982
661.875 0.114166688996 -14.3388954799
662.5 0.136348454538 -18.7821779295
663.125 0.103992158126 -15.9601530167
663.75 0.0928868402531 7.38367236552
664.375 0.0968927805889 55.946764553
665.0 0.07174272008 86.6533040782
665.625 0.0562062957826 114.472885462
666.25 0.0717977570968 133.122196139
666.875 0.13140265333 168.889542098
667.5 0.0847142403107 -165.862439747
668.125 0.0991252303787 -176.166594583
668.75 0.118198715558 168.403415524
669.375 0.135321018293 178.661511944
670.0 0.0816101122966 -170.296143549
670.625 0.085547104255 -170.145107264
671.25 0.117653501711 175.733782355
671.875 0.101863462222 170.461357902
672.5 0.0880126896659 155.563611531
673.125 0.0830767193773 156.368235195
673.75 0.100004228185 161.243838071
674.375 0.124567003328 166.914101929
675.0 0.0935538321379 -168.695130741
675.625 0.124082865676 -147.147503956
676.25 0.112121299864 -123.135381795
676.875 0.123869685122 -121.471583745
677.5 0.103301572191 -125.442504414
678.125 0.123774544243 -114.255410446
678.75 0.0701851658982 -90.2276591386
679.375 0.0539296166081 -71.8159419537
680.0 0.0868668059519 -82.0619239443
680.625 0.107591097649 -73.2813132201
681.25 0.0964290977809 -67.1568783505
681.875 0.0943701093451 -89.283019889
682.5 0.145260290299 -123.373981817
683.125 0.161533788503 -123.218345222
683.75 0.136784778918 -104.310420198
684.375 0.118639220731 -78.3053382417
685.0 0.133499720994 -38.3995032019
685.625 0.134649112013 -2.47110277051
686.25 0.103522907713 25.3939379535
686.875 0.0867430720283 50.4371260863
687.5 0.0771121620377 86.0153756328
688.125 0.0869729309131 105.346349793
688.75 0.100330049967 122.055039197
689.375 0.139359949834 125.502088603
690.0 0.124360318911 138.419140999
690.625 0.126871845533 123.080288807
691.25 0.129664014301 107.224668819
691.875 0.180819101806 73.067467621
692.5 0.127215491317 40.5070129268
693.125 0.0938944992511 -15.9904864059
693.75 0.102685668581 -42.7653170443
694.375 0.136436871692 -26.1012386242
695.0 0.124405336864 17.3475168959
695.625 0.0940176735048 59.8453014524
696.25 0.122978519467 106.355481378
696.875 0.128195503406 -177.273990161
697.5 0.143452567994 -143.836194737
698.125 0.140647042038 -133.430154342
698.75 0.141202032117 -136.080824025
699.375 0.0996081446449 -120.558673177
700.0 0.0934684670106 -108.187814603
700.625 0.113982458727 -88.522427857
701.25 0.109046423848 -69.8841567484
701.875 0.0760930827036 -45.9263927402
702.5 0.103133177654 -76.4990696625
703.125 0.163217837063 -115.544652396
703.75 0.191189855946 -156.004467891
704.375 0.120745640608 175.770512446
705.0 0.110291677604 160.981387038
705.625 0.146517681037 -165.538866174
706.25 0.143746659393 -110.413381946
706.875 0.0978748622608 -67.5271795894
707.5 0.0696621422872 -18.8896614193
708.125 0.09198045124 29.9811966309
708.75 0.113338421997 68.2954042734
709.375 0.108554095234 98.5135807544
710.0 0.102299127145 145.670086321
710.625 0.107979527397 159.075160856
711.25 0.118266565274 176.79862376
711.875 0.146091607579 162.405634395
712.5 0.149848100608 150.901947184
713.125 0.122769291949 105.460394756
713.75 0.0933425729871 53.6388464971
714.375 0.115842653817 11.1430476066
715.0 0.108489694971 51.563484078
715.625 0.0846804779151 52.5607425973
716.25 0.0818988335804 76.7061032502
716.875 0.118529235528 104.667029786
717.5 0.142292076272 137.861964617
718.125 0.119648225548 -176.793206553
718.75 0.106856889241 -178.943914054
719.375 0.113859015415 -165.474468012
720.0 0.128727687675 -131.701301831
720.625 0.11174267892 -70.5537514869
721.25 0.0995895720451 -12.9726349855
721.875 0.083527374616 32.1478446391
722.5 0.0701139061583 55.3922410592
723.125 0.0868071304069 77.2205670227
723.75 0.126076152752 52.7914982516
724.375 0.114077342016 6.64752411639
725.0 0.0814825461865 -52.1073999174
725.625 0.10492324585 -57.260193085
726.25 0.116389614763 -64.6128294491
726.875 0.103670241191 -53.0280027485
727.5 0.0815920646565 -32.7555263428
728.125 0.0694654484424 -18.6087833463
728.75 0.123017613801 43.8588024272
729.375 0.100134087333 30.6384525009
730.0 0.0742016640619 12.1119273047
730.625 0.0548396145494 14.6512873283
731.25 0.0872133244927 70.4023664781
731.875 0.0767157783836 118.532481469
732.5 0.0679967240403 151.257318961
733.125 0.084755320919 174.357403984
733.75 0.0749182331013 179.258938481
734.375 0.0813798664688 -175.219182859
735.0 0.0808087805146 164.15412069
735.625 0.0201005641155 113.381611396
736.25 0.0722333788115 159.501059123
736.875 0.0628640120257 167.063118229
737.5 0.0911529480159 -174.359187418
738.125 0.0780866578425 -177.235694439
738.75 0.0808681973498 -168.929330801
739.375 0.0542980786285 -161.06320258
740.0 0.0332413661221 -144.480776817
740.625 0.0521936791857 -151.479604929
741.25 0.0235946703424 -152.105055844
741.875 0.0839191844404 -105.04379919
742.5 0.0482936434179 -20.0077398136
743.125 0.0411782907082 56.2819833601
743.75 0.0249803359062 144.611984948
744.375 0.051375340645 107.473239934
745.0 0.0523399795014 123.88834454
745.625 0.0660225231311 119.596064932
746.25 0.0676582183593 107.749953547
746.875 0.1044774924 31.6493625453
747.5 0.0536331150256 9.79178775797
748.125 0.0231287051902 18.6681857464
748.75 0.0223104571127 3.69789673639
749.375 0.0323711802182 7.59385305759
750.0 0.042702710876 -96.5020700291
