!Created with skrf (http://scikit-rf.org).
# GHz S RI R (50+0j) 
!freq	ReS11	ImS11	
500.0	-0.2247629615	-1.078696163	
500.625	-0.1287932063	-0.4385603889	
501.25	-0.1499633699	-0.7639322574	
501.875	-0.4744360972	-0.27545258	
502.5	-0.01767216378	-0.04766527933	
503.125	-0.08506865527	-0.01603926107	
503.75	0.08603972267	0.0486481734	
504.375	0.01237287653	0.01803104308	
505.0	-0.0006295682468	-0.05604082724	
505.625	0.01385871008	0.008462269576	
506.25	-0.08734322649	-0.1230257252	
506.875	0.08832701745	0.09056098246	
507.5	-0.04914543181	-0.5665270126	
508.125	-0.2459570004	-0.5084267356	
508.75	0.6535351366	-0.376148338	
509.375	0.00593313547	-1.479268097	
510.0	-0.4566844512	0.01942534833	
510.625	-0.02652760584	-0.09069178564	
511.25	-0.1092952875	-0.1298860302	
511.875	-0.08817219999	0.05709842934	
512.5	-0.03772183481	0.02579488983	
513.125	-0.03011347016	-0.08118447962	
513.75	-0.01153060561	-0.003700866073	
514.375	-0.07237463894	-0.06206885978	
515.0	-0.04250537163	0.2285938165	
515.625	0.2392707909	-0.5811403679	
516.25	-0.6668984113	-0.1758958975	
516.875	0.1581824113	-0.2264610144	
517.5	-0.01135996925	-0.2386776229	
518.125	-0.04128702372	0.05114961142	
518.75	-0.006533751702	-0.2070861818	
519.375	-0.0114484555	0.03000365449	
520.0	0.05013646981	0.03335232066	
520.625	0.1582199445	-0.00838334085	
521.25	-0.1002265199	-0.2870511128	
521.875	-0.1135981659	-0.002628789482	
522.5	-0.05341973543	-0.02595197136	
523.125	-0.009331467442	0.1295671004	
523.75	-0.004713066653	-0.03577466864	
524.375	-0.241006627	0.06048402389	
525.0	0.06759890655	0.06755729792	
525.625	-0.04385195275	0.05243614125	
526.25	0.06091016621	-0.02774291947	
526.875	-0.1042198758	0.07636658316	
527.5	0.07060700748	0.2186317094	
528.125	0.03874132172	0.0857307883	
528.75	-0.04737029159	0.2178418746	
529.375	-0.02375515464	0.03108418772	
530.0	-0.05294514301	0.1921522817	
530.625	0.08196539497	0.1552872633	
531.25	0.3199997816	0.07071714606	
531.875	0.07947189942	-0.1249444851	
532.5	-0.09938413223	-0.09475183023	
533.125	0.09831962904	0.05419730241	
533.75	0.02658943605	-0.2647150847	
534.375	-0.1806523596	-0.1034634529	
535.0	-0.1549273324	-0.127276926	
535.625	-0.1346089446	0.1715552195	
536.25	0.0006394825641	0.05106347833	
536.875	0.1110537056	0.02705658719	
537.5	0.02410920145	-0.05908430742	
538.125	0.1029412898	0.01196661315	
538.75	0.1038572114	-0.1847533926	
539.375	-0.07136648678	-0.09596549186	
540.0	-0.1115427481	-0.1526997667	
540.625	-0.139600044	-0.04468254442	
541.25	-0.08432037265	0.04805323754	
541.875	-0.0270434473	-0.06170131572	
542.5	-0.05948767672	-0.003476352127	
543.125	-0.01742089634	-0.02506142981	
543.75	-0.1058371858	0.02753177269	
544.375	0.05966182816	0.05182840238	
545.0	-0.03260160528	0.0711833038	
545.625	0.06671612908	0.006126680696	
546.25	0.02091674805	0.05915442621	
546.875	0.1756991113	-0.05004443263	
547.5	-0.009031745815	-0.1111786918	
548.125	0.009199945841	-0.1088827119	
548.75	-0.1520477914	-0.1289128025	
549.375	-0.1048721173	0.02100112747	
550.0	-0.06875293261	-0.03792511472	
550.625	-0.03234523671	0.0522749682	
551.25	-0.07013316887	-0.008247755377	
551.875	-0.06289135184	0.10147354	
552.5	-0.01861771551	0.0475020697	
553.125	-0.0188704549	0.0659852778	
553.75	0.04871826725	0.02521174736	
554.375	0.06991557075	-0.004658974628	
555.0	0.08727979367	-0.06995980438	
555.625	0.06337779663	-0.1040151473	
556.25	0.04374292097	-0.1234223862	
556.875	-0.03933120772	-0.1401240376	
557.5	-0.09989813241	-0.08418429737	
558.125	-0.1032457649	-0.02003174174	
558.75	-0.1012331846	0.002747172622	
559.375	-0.09632252762	0.04299194924	
560.0	-0.0748423768	0.06288485281	
560.625	-0.05129716521	0.1114323372	
561.25	0.03310488099	0.09864784951	
561.875	0.01532157601	0.007757158068	
562.5	0.01442706117	0.0784855883	
563.125	0.07892733971	0.0276196182	
563.75	0.1163332127	0.02364824565	
564.375	0.1266355205	-0.1386466218	
565.0	0.0516894532	-0.09528002914	
565.625	-0.06253088243	-0.1806613371	
566.25	-0.08501477597	-0.04584978376	
566.875	-0.1207661752	-0.1095184799	
567.5	-0.182322974	-0.06811423112	
568.125	-0.1271655136	-0.0612452661	
568.75	-0.1329065441	-0.1343020819	
569.375	-0.2744008767	0.1208534481	
570.0	-0.009641216025	0.2253368533	
570.625	-0.05801067169	0.08948046156	
571.25	0.05788708989	0.1790503545	
571.875	-0.03601525811	0.0532865825	
572.5	0.1738873275	-0.08493410063	
573.125	0.0223420416	-0.004831097718	
573.75	0.1285269164	-0.1857066996	
574.375	-0.09271454634	-0.1161597861	
575.0	0.001420215148	0.05239873189	
575.625	0.09747440103	-0.08483087755	
576.25	0.01364460804	-0.1755177306	
576.875	-0.06015051815	-0.0165705111	
577.5	0.07778348003	-0.179097932	
578.125	-0.1193429005	-0.1003765255	
578.75	0.008265987767	-0.1076901151	
579.375	-0.1839795391	-0.05225537373	
580.0	0.04231421737	-0.004598849487	
580.625	-0.1480071758	-0.05070859857	
581.25	0.03352186277	0.1655068279	
581.875	-0.009360433597	0.02336392628	
582.5	-0.03177768712	0.2157432285	
583.125	0.1778688667	0.1165493614	
583.75	-0.0265436002	-0.08067362096	
584.375	0.07339907407	0.1377776524	
585.0	0.03771919084	-0.05638918515	
585.625	0.1803610964	0.07906247621	
586.25	0.06952842417	-0.1613799595	
586.875	0.08201252364	-0.03914822941	
587.5	-0.05581050628	-0.2194836266	
588.125	-0.09179704498	-0.03673588196	
588.75	0.09592593065	-0.0936081179	
589.375	0.07480606147	-0.2142177953	
590.0	-0.1637258349	-0.09154977671	
590.625	-0.05732303662	-0.03848203041	
591.25	-0.1987774275	0.1030256662	
591.875	0.1074268888	0.1528799895	
592.5	-0.131986931	0.01238500734	
593.125	0.09995104343	0.0457089105	
593.75	-0.05140582732	0.1452170679	
594.375	0.2467874666	0.04129161626	
595.0	-0.001163499208	0.05030153956	
595.625	0.1937587543	0.1811753037	
596.25	0.2087364364	-0.05085978049	
596.875	0.05710841135	0.01762861401	
597.5	0.1489852137	0.1405258594	
598.125	0.2234612078	0.08541931826	
598.75	0.1257808022	0.02617604293	
599.375	0.2068462539	0.004835455078	
600.0	0.1074033762	-0.1688110948	
600.625	0.1231543084	-0.1018955732	
601.25	0.03824713836	-0.2409044475	
601.875	-0.08945917715	-0.0369613935	
602.5	-0.1187959923	-0.03216685792	
603.125	-0.1400327212	0.1110028261	
603.75	0.00271621745	0.09563528203	
604.375	-0.1355013451	-0.04907633205	
605.0	-0.1296359414	0.1509603267	
605.625	0.01749416954	0.0007401290895	
606.25	-0.1365828468	0.001317917228	
606.875	-0.0702473864	0.1407240353	
607.5	-0.1024037755	0.06589684889	
608.125	0.06962305021	0.2832133078	
608.75	0.09829159377	0.02433462035	
609.375	0.320750595	-0.06869959582	
610.0	0.09688222704	-0.1792160556	
610.625	0.07462709312	-0.1481937718	
611.25	0.01717850542	-0.08252885545	
611.875	-0.02787156954	-0.1827061003	
612.5	-0.2247650616	0.0506965708	
613.125	-0.0808664299	-0.06034498642	
613.75	-0.153935216	0.213085331	
614.375	0.110048873	-6.602540804e-05	
615.0	0.03723932804	0.14769419	
615.625	0.04648870568	-0.03333377868	
616.25	-0.1237361765	0.1561339727	
616.875	-0.004143276108	0.2820541341	
617.5	0.07993680648	0.1217094192	
618.125	-0.01321878662	0.2479501221	
618.75	0.07007152632	0.2251116617	
619.375	0.1608508068	0.08220440973	
620.0	0.1180522353	0.05407362909	
620.625	0.2074528569	-0.08376281396	
621.25	-0.09657814447	-0.1306860538	
621.875	-0.2335770041	-0.1023551207	
622.5	-0.166991553	0.1362044369	
623.125	0.08822266157	0.1269487331	
623.75	0.1169599825	0.09313206419	
624.375	0.01055895592	-0.12754407	
625.0	0.009904590927	0.06389778023	
625.625	0.08097593785	-0.1436732027	
626.25	-0.1200771744	-0.07502379938	
626.875	-0.05212052936	-0.1033138869	
627.5	-0.1928534515	-0.02927106221	
628.125	-0.06813737125	0.02004240017	
628.75	-0.0431842728	-0.1431462159	
629.375	-0.1585119678	-0.06964551176	
630.0	-0.1026194687	-0.08730233806	
630.625	-0.2535216701	0.09014700689	
631.25	-0.05925527103	0.2305807987	
631.875	0.0263393772	0.1914992138	
632.5	0.03829914095	0.1798732415	
633.125	0.2245621171	-0.02547501685	
633.75	0.01412058399	-0.09535771567	
634.375	0.1327504305	-0.1058651874	
635.0	-0.120424986	-0.139095281	
635.625	-0.001095591606	-0.05399289628	
636.25	-0.2386335119	0.09754639254	
636.875	0.0673038152	0.1277256646	
637.5	-0.09539368073	0.0239481131	
638.125	0.01252548367	0.1783251642	
638.75	-0.06712723042	0.05838295189	
639.375	-0.03745284521	0.3241830913	
640.0	0.2546022477	0.1599125696	
640.625	0.1272537682	0.05159890291	
641.25	0.2962818229	0.05376389016	
641.875	0.2260336636	-0.2848024175	
642.5	-0.1100726734	-0.1348078628	
643.125	0.02905589583	-0.1680182656	
643.75	-0.1912093559	0.0359832587	
644.375	0.00570058849	-0.1292565166	
645.0	-0.1889976194	0.2377725203	
645.625	0.1161463974	0.08834055985	
646.25	0.07899921535	0.141766048	
646.875	0.338584699	-0.1037032459	
647.5	-0.1480172549	-0.03243571518	
648.125	0.2400154848	0.1431399584	
648.75	0.2117992383	-0.2570366639	
649.375	0.05527155096	-0.1351470904	
650.0	0.2823838491	-0.2847085445	
650.625	-0.04146662071	-0.3689867007	
651.25	0.1975393239	-0.02992435505	
651.875	0.3079697718	-0.3194791784	
652.5	0.01247707614	-0.1313339477	
653.125	0.3207905739	-0.000104532666	
653.75	0.1555458433	-0.3894382104	
654.375	-0.2521774437	-0.1877453582	
655.0	-0.1069115634	-0.02853618709	
655.625	-0.2644944392	0.2120122379	
656.25	0.3012943375	0.1110001436	
656.875	-0.1119650573	0.07611405758	
657.5	0.2474132639	0.06161827427	
658.125	-0.06516453003	0.09145286483	
658.75	0.4627108394	0.07975884577	
659.375	0.1694653783	-0.271246921	
660.0	0.1930610358	-0.07964922005	
660.625	0.2268115517	-0.4035224593	
661.25	0.00654359777	-0.3863885138	
661.875	0.08665636691	-0.09155863919	
662.5	0.3655273243	-0.2607020091	
663.125	0.1015167465	-0.2749247377	
663.75	0.1647170197	-0.1534610886	
664.375	-0.143886615	-0.3980184729	
665.0	-0.2064224113	-0.03596356201	
665.625	-0.2687356626	0.01293193467	
666.25	-0.08845860264	0.3370340428	
666.875	0.2418913657	0.1004802484	
667.5	0.06745896848	0.09675856103	
668.125	0.2847357679	-0.06632596497	
668.75	0.02340327301	-0.1446842919	
669.375	0.2119831461	-0.1604924613	
670.0	-0.139458716	-0.2728217641	
670.625	0.02332251216	-0.03557782128	
671.25	0.1195169119	-0.3034766256	
671.875	-0.01283387385	-0.2355301471	
672.5	0.1454118638	0.02489175386	
673.125	0.3003433425	-0.1861472454	
673.75	-0.01189009888	-0.2905214012	
674.375	0.08359793571	-0.1544169765	
675.0	-0.1179890651	-0.2929359299	
675.625	-0.2215484488	0.03617906805	
676.25	-0.1046721109	-0.1190413565	
676.875	-0.2055473429	0.129296144	
677.5	-0.01238411311	0.05887468257	
678.125	-0.1911131988	0.07538997518	
678.75	0.1262539127	0.3105382255	
679.375	0.1681579493	-0.1106759219	
680.0	0.1094571361	0.09572066571	
680.625	0.1718922599	-0.2393743551	
681.25	-0.1036483212	-0.006527548335	
681.875	0.3113266408	0.1607240482	
682.5	0.1190486319	-0.194145221	
683.125	0.07120537899	0.1877105208	
683.75	0.4720665695	0.1081097316	
684.375	-0.008491459417	-0.2339418656	
685.0	0.1281128018	0.2399386521	
685.625	0.3753301882	-0.1747091935	
686.25	0.1490810658	-0.1320043075	
686.875	0.2587447002	-0.02795361757	
687.5	0.2431467351	-0.5024361533	
688.125	-0.04307809005	-0.2471950533	
688.75	-0.3867989868	-0.2234359097	
689.375	-0.2042718167	0.4598690512	
690.0	0.1706384747	0.1219887233	
690.625	0.1704450716	0.2967842424	
691.25	0.4621511224	0.1293962168	
691.875	0.2856631546	0.1363696752	
692.5	0.593125799	0.3548050511	
693.125	0.6582866587	-0.3540230888	
693.75	0.3241604725	0.01729245059	
694.375	0.5735605499	-0.4363480193	
695.0	0.2340666303	-0.47374556	
695.625	0.2251725605	0.02327310403	
696.25	0.6712704012	-0.04395917725	
696.875	0.4241638162	0.03905607648	
697.5	0.3077826771	0.3599854319	
698.125	0.4656592154	6.344624346e-05	
698.75	0.3025074172	-0.4391769689	
699.375	-0.3174072113	-0.2799794218	
700.0	-0.1877728487	0.3738487489	
700.625	0.2216539878	0.1416836127	
701.25	0.09833950575	0.0717359958	
701.875	0.3539389059	0.2423485313	
702.5	0.3221323962	0.0027572737	
703.125	0.2472844515	0.1556998778	
703.75	0.4753735178	-0.133599978	
704.375	0.1370507663	-0.3212854997	
705.0	0.1918250945	0.05495508854	
705.625	0.3342883357	-0.1162350302	
706.25	0.1099867188	0.02658612077	
706.875	0.3531992716	0.2504932505	
707.5	0.345634712	0.05557857854	
708.125	0.2499979018	0.1340026616	
708.75	0.2838242124	-0.4406636433	
709.375	-0.1796930793	-0.3772498199	
710.0	-0.0699838685	0.2661033196	
710.625	-0.03103291097	0.1013966923	
711.25	0.237681913	0.06089831471	
711.875	-0.04390358485	0.03993277656	
712.5	0.3575600096	0.004006635076	
713.125	0.1022643258	-0.2744533132	
713.75	0.1791258333	-0.1583127451	
714.375	-0.04899528039	-0.3764227587	
715.0	-0.09640881889	-0.07661787772	
715.625	0.1291083964	-0.1725785792	
716.25	0.1182929574	-0.3404631107	
716.875	0.08165375712	-0.2222719792	
717.5	0.3216793767	-0.09134612267	
718.125	0.6527801684	-0.1011172996	
718.75	0.3282872276	-0.3705296455	
719.375	0.4960014881	-0.279887955	
720.0	0.1448091548	-0.9326936923	
720.625	0.09552839417	-0.5165955579	
721.25	-0.3436265374	-1.135971171	
721.875	-0.5066690299	-0.5480330967	
722.5	-0.1753236209	0.09792018829	
723.125	-0.7308406346	-0.2861189722	
723.75	-0.231599521	0.6081487028	
724.375	0.1417757152	0.1780010323	
725.0	0.02208359101	0.4880433343	
725.625	0.4323494375	0.3107698825	
726.25	-0.108482259	0.3760555389	
726.875	-0.01400908645	1.084541299	
727.5	0.5014796874	0.8762648027	
728.125	-0.367802112	1.176379089	
728.75	0.4889280811	3.048864164	
729.375	1.107146104	2.353417784	
730.0	-0.6672251487	2.114574622	
730.625	0.8833965111	5.056746266	
731.25	1.445749192	2.227252184	
731.875	-1.83931404	1.5610947	
732.5	-3.643030579	1.135284319	
733.125	-1.436762995	1.461741006	
733.75	-0.6857031953	0.5346977717	
734.375	1.064363964	0.156574402	
735.0	-0.3439405522	-0.2758566273	
735.625	-0.4037695545	-0.2407767362	
736.25	0.2021762651	0.7791537728	
736.875	0.1926685171	0.02876325704	
737.5	1.169808587	0.630978171	
738.125	1.332517703	-1.320758558	
738.75	0.2574750522	-0.8847328928	
739.375	2.213634621	-0.04450731468	
740.0	4.819781379	-3.921275338	
740.625	-0.2776785622	-2.003716692	
741.25	-2.719831282	3.567312869	
741.875	-1.924895095	3.815210679	
742.5	0.6408256243	-1.150309246	
743.125	-0.6026888764	-2.4403557	
743.75	-0.6796780357	-0.3158615749	
744.375	-0.1726660066	-0.1755098002	
745.0	0.1851079175	0.198820104	
745.625	-0.0245707951	0.007990904577	
746.25	0.01603766257	-0.2177210161	
746.875	-0.2217428547	0.1292880965	
747.5	0.04164623528	0.2183329319	
748.125	-0.00978697431	0.5054162954	
748.75	0.4064390342	0.3749422966	
749.375	0.09911646264	0.2181698232	
750.0	-0.3788692578	0.2576979236	
