!Created with skrf (http://scikit-rf.org).
# GHz S RI R (50+0j) 
!freq	ReS11	ImS11	
500.0	0.273135553	-0.4768753122	
500.625	0.3918673637	-0.9972131185	
501.25	-0.49823005	-0.294358392	
501.875	0.009626286048	-0.3117671482	
502.5	-0.07301229824	-0.1525828329	
503.125	-0.03118303065	0.02241441667	
503.75	-0.04431093175	0.1172656408	
504.375	0.0183699114	-0.03690548486	
505.0	0.02863436986	0.01025846037	
505.625	-0.03804435297	-0.07493792245	
506.25	0.03977020598	0.01053830442	
506.875	-0.3181535144	-0.05969619337	
507.5	-0.1086161121	0.08366830152	
508.125	0.4372517364	-0.4226738008	
508.75	0.3008692783	-1.129638419	
509.375	-0.3814234317	-0.4890288575	
510.0	-0.3262378789	-0.5214999986	
510.625	-0.1847068906	-0.08350007998	
511.25	-0.06393002506	-0.06544568922	
511.875	-0.1512093099	-0.01884216872	
512.5	-0.02573692099	0.03657120086	
513.125	0.0226244585	-0.02864875293	
513.75	-0.08166639718	-0.08775299776	
514.375	-0.02836979925	0.08041462566	
515.0	0.01103041692	-0.2966598643	
515.625	-0.009675534796	0.2273796188	
516.25	0.03345375779	-1.327229457	
516.875	-0.5454065401	-0.3062861411	
517.5	0.1070192001	0.004608309955	
518.125	-0.08694709438	-0.06899520227	
518.75	-0.05510357105	-0.005536154905	
519.375	-0.04726033839	0.0008618200066	
520.0	0.123526895	0.06520609266	
520.625	0.1017758078	-0.05576325571	
521.25	0.03316480913	-0.1495284362	
521.875	-0.1974352449	-0.03807628483	
522.5	-0.04161277632	0.0306000664	
523.125	-0.07483425537	-0.002734857793	
523.75	-0.1423444272	0.05787547062	
524.375	-0.03892971402	-0.03249359742	
525.0	-0.149943585	0.1666208698	
525.625	0.1329423855	-0.01353859085	
526.25	-0.08931978523	0.02965222576	
526.875	0.02343052519	0.02697591025	
527.5	-0.1279915295	0.1262725089	
528.125	0.1688301181	0.218201465	
528.75	0.0555793228	0.03393389452	
529.375	-0.0003302659838	0.1261890361	
530.0	0.1291319569	0.02345565703	
530.625	0.2346604348	0.1937188617	
531.25	0.3960208815	0.06606650661	
531.875	0.08140609497	-0.2171084457	
532.5	0.05258530184	-0.09533855606	
533.125	0.01763441753	-0.2077645277	
533.75	0.1189921051	-0.0844383711	
534.375	-0.1887743132	-0.2677590508	
535.0	-0.1707546106	0.01123380216	
535.625	-0.1439705783	0.04147028981	
536.25	0.009818621854	0.1118795552	
536.875	0.05373483061	-0.02443685876	
537.5	0.08740470949	-0.0181244594	
538.125	0.074325388	-0.1040642305	
538.75	0.1017217171	-0.0424561634	
539.375	-0.09466205269	-0.1947575516	
540.0	-0.1472562803	-0.0407669309	
540.625	-0.1193286918	-0.002516363181	
541.25	-0.1056177544	0.01284094168	
541.875	-0.06586215372	0.02594033758	
542.5	-0.02916066855	-0.08034802422	
543.125	-0.187612852	-0.0609707131	
543.75	-0.02140471876	0.007316211429	
544.375	-0.06103017263	0.07537145533	
545.0	0.04342016427	0.004191878302	
545.625	0.0184097687	0.1316887921	
546.25	0.1013072695	-0.04011303086	
546.875	0.06903788849	0.01802254333	
547.5	0.09058506063	-0.149974952	
548.125	-0.123646501	-0.1295050829	
548.75	-0.05715941529	-0.07110499639	
549.375	-0.1247407357	-0.09249705245	
550.0	-0.04824504592	0.05445932321	
550.625	-0.06957514131	-0.028919042	
551.25	-0.03509828401	0.05964008795	
551.875	-0.0787832173	0.03745596778	
552.5	-0.0243944299	0.09749488447	
553.125	0.004608981442	0.04265607097	
553.75	0.04238855404	0.04367537238	
554.375	0.08288891819	-0.01716973392	
555.0	0.07273620264	-0.06679547938	
555.625	0.07364632945	-0.09978636405	
556.25	0.04568409003	-0.1327616773	
556.875	-0.04295012323	-0.1360413182	
557.5	-0.09380162842	-0.08832184502	
558.125	-0.1114889426	-0.02522045419	
558.75	-0.09378272464	0.008909161589	
559.375	-0.09990957653	0.02038645928	
560.0	-0.08839483333	0.0838501066	
560.625	-0.01806280284	0.09962192536	
561.25	-0.009605811803	0.0796077669	
561.875	0.05404966312	0.05204939303	
562.5	-0.01813218348	0.02539895254	
563.125	0.1083849886	0.07305916171	
563.75	0.08030894524	-0.01829737002	
564.375	0.1478026001	-0.08274270449	
565.0	0.02644669194	-0.1690219175	
565.625	-0.036608424	-0.08726897771	
566.25	-0.097499178	-0.1324553646	
566.875	-0.1747816135	-0.02976131989	
567.5	-0.0487305782	-0.05503554598	
568.125	-0.1508946389	-0.1921114942	
568.75	-0.2003643592	0.06979437641	
569.375	-0.1786333378	0.004727355251	
570.0	-0.1021460038	0.2779500346	
570.625	0.04306488721	0.09453263113	
571.25	-0.0814126574	0.1291433713	
571.875	0.1386647225	0.01700372684	
572.5	0.02469002146	0.05217036872	
573.125	0.1491445548	-0.1424384694	
573.75	-0.08604864623	-0.1249303728	
574.375	0.07556747942	0.01767573294	
575.0	-0.04984540944	-0.1292864913	
575.625	0.06630259787	0.01792476148	
576.25	0.07369888028	-0.1691382421	
576.875	-0.08622718119	-0.103757368	
577.5	0.02081720255	-0.06244724026	
578.125	0.01324755297	-0.22289618	
578.75	-0.1904673815	-0.072628397	
579.375	0.006080452838	0.008399131922	
580.0	-0.1334584075	-0.118567675	
580.625	0.01293755148	0.05248177382	
581.25	-0.2503411497	0.04522454466	
581.875	0.1494907966	0.1791341816	
582.5	0.01501489483	-0.003115197499	
583.125	0.02810721014	0.1814537963	
583.75	0.1257147197	-0.0869592511	
584.375	-0.07542526951	0.08214697543	
585.0	0.1940286901	0.06514493568	
585.625	0.07112310504	-0.08274121439	
586.25	0.2054578935	0.01760530484	
586.875	-0.00828398154	-0.2127636576	
587.5	0.02724638912	-0.04776846932	
588.125	-0.008742239916	-0.2081607264	
588.75	-0.05953942282	-0.08761083133	
589.375	0.0846950096	-0.06300614347	
590.0	-0.07805895668	-0.2331259651	
590.625	-0.1815525027	0.08088742508	
591.25	-0.04819721181	-0.004877695959	
591.875	-0.1052677162	0.1602019057	
592.5	0.1216178675	0.001799324067	
593.125	-0.09462062454	0.1628741271	
593.75	0.06451896158	-0.03899623407	
594.375	0.06791248876	0.1836878228	
595.0	0.2640435617	0.08795492666	
595.625	0.0514011904	-0.0250589917	
596.25	0.1608816372	0.1188588986	
596.875	0.20773159	-0.01727795011	
597.5	0.09621357678	-0.01067022318	
598.125	0.1011376195	0.1519121029	
598.75	0.1715501284	-0.01476360184	
599.375	0.1257975977	-0.003479749101	
600.0	0.1904758602	-0.1704515578	
600.625	0.03409548632	-0.2096523306	
601.25	0.04577735367	-0.1312559444	
601.875	-0.06361300096	-0.1839078763	
602.5	-0.1448720616	0.0751208436	
603.125	-0.01849932897	-0.01363008081	
603.75	-0.2093107945	0.09819139004	
604.375	0.09190260684	0.1132461795	
605.0	-0.1234228707	-0.03178644442	
605.625	-0.06047971489	0.1757859993	
606.25	-0.01449920968	-0.02503052897	
606.875	-0.1746206901	0.2680325606	
607.5	0.006174339084	0.1650815894	
608.125	-0.07148782557	0.2121034737	
608.75	0.222088732	0.1266711954	
609.375	0.187051121	-0.03928551509	
610.0	0.1017001516	-0.06866820065	
610.625	0.1076130299	-0.180837642	
611.25	-0.09870064794	-0.1063546683	
611.875	-0.05457355682	-0.01630281609	
612.5	-0.2182810175	-0.04191036952	
613.125	-0.0657396859	0.06813993253	
613.75	-0.1388244116	0.06756879789	
614.375	0.1240217216	0.1752856545	
615.0	-0.003679307782	-0.07141113804	
615.625	-0.04225198427	0.2027153196	
616.25	0.05434123422	0.03744789189	
616.875	-0.1389081338	0.1190276824	
617.5	-0.04471557223	0.3219927176	
618.125	0.1097203557	0.1022566615	
618.75	0.0741268322	0.2206713888	
619.375	0.1142202291	0.1119939167	
620.0	0.1393589288	0.01557319815	
620.625	0.1340625476	-0.1197542713	
621.25	-0.1367809745	-0.2008711136	
621.875	-0.2384753069	0.04400131325	
622.5	-0.1847845274	0.01271493999	
623.125	-0.01176066108	0.230029035	
623.75	0.1119044305	-0.1119763842	
624.375	0.1215704065	0.02499050672	
625.0	-0.08327430727	-0.05673231024	
625.625	0.09814875372	-0.04307597723	
626.25	-0.1034354328	-0.1732678826	
626.875	-0.1280761933	0.02302214569	
627.5	-0.09054438878	-0.06561116921	
628.125	-0.1757015731	-0.04750819279	
628.75	-0.05292182368	-0.02581598696	
629.375	-0.07114057041	-0.1980053602	
630.0	-0.2005810821	-0.05488346239	
630.625	-0.1776460163	0.04061795823	
631.25	-0.1232100528	0.1720085114	
631.875	0.06202889952	0.2133316044	
632.5	0.1839102944	0.02387549257	
633.125	0.1532511421	0.0895501	
633.75	0.1558156926	-0.1520260109	
634.375	-0.02256420692	-0.04234045171	
635.0	0.03933463268	-0.2249628012	
635.625	-0.1757931946	0.05487523248	
636.25	-0.09097026881	-0.02407641788	
636.875	-0.07299494224	0.2200309934	
637.5	0.05103909188	0.02020319222	
638.125	-0.1465372433	0.1080232665	
638.75	0.04616305876	0.2099333001	
639.375	-0.01577403116	0.1188023758	
640.0	0.111837712	0.296268617	
640.625	0.3207079782	0.07670859163	
641.25	0.1465063627	-0.05317589349	
641.875	0.2400174321	-0.1704453655	
642.5	-0.1385413393	-0.1870366064	
643.125	-0.03580547081	0.02613036624	
643.75	-0.1698526456	-0.1420041687	
644.375	-0.08619950022	0.1029801836	
645.0	-0.1622766268	0.05509829547	
645.625	0.1065839225	0.4081130101	
646.25	0.2062837082	-0.1227365731	
646.875	-0.01275213093	0.1007532015	
647.5	0.2116103905	-0.1217164868	
648.125	-0.05498242349	0.1393573316	
648.75	0.4111315152	-0.129487492	
649.375	-0.006741493573	-0.2827873644	
650.0	0.187720214	-0.1334486469	
650.625	0.1981977031	-0.4034540468	
651.25	-0.07396446115	-0.2634716356	
651.875	0.2134009222	0.008656012267	
652.5	0.3736347575	-0.1999315752	
653.125	0.08605188147	-0.1972647595	
653.75	0.2285061811	-0.09879641336	
654.375	-0.1963636637	-0.3429477751	
655.0	-0.191152332	0.07183838063	
655.625	-0.1980332715	0.0419707036	
656.25	0.1230380557	0.3504639082	
656.875	0.0358602388	-0.1298767713	
657.5	0.03724458044	0.2412373503	
658.125	0.2556831137	0.0199101267	
658.75	0.02584258578	0.1029568542	
659.375	0.4954283972	-0.1238344162	
660.0	0.02161745125	-0.3930911124	
660.625	0.1622784609	-0.1415416034	
661.25	0.1751111505	-0.4198059811	
661.875	0.004714051491	-0.2620145112	
662.5	0.2527098237	-0.07435958926	
663.125	0.2806316702	-0.306518393	
663.75	-0.03379389741	-0.2219113362	
664.375	0.0370052064	-0.2476734641	
665.0	-0.3554920122	-0.2139510298	
665.625	-0.1674242066	0.1834406051	
666.25	-0.1414072885	0.2024245043	
666.875	0.2132133402	0.2052882224	
667.5	0.09190981186	-0.02973228383	
668.125	0.2582330999	0.06491176918	
668.75	0.1292071969	-0.2561853003	
669.375	-0.009911803891	-0.08732988007	
670.0	0.1430188877	-0.2494728102	
670.625	-0.1347007486	-0.2590071739	
671.25	0.1199251171	0.06555708864	
671.875	0.2143850094	-0.2872218276	
672.5	0.06174439002	-0.2129842093	
673.125	0.1804785085	-0.05076500004	
673.75	0.1617966199	-0.3572055426	
674.375	-0.09155720142	-0.1394449081	
675.0	-0.00119304986	-0.235479491	
675.625	-0.2694026879	-0.1448580801	
676.25	-0.1333132489	0.1217559868	
676.875	-0.08936301388	-0.1005501618	
677.5	-0.1722905264	0.1560537721	
678.125	-0.00992822129	0.07558609756	
678.75	-0.03304440969	0.2433706721	
679.375	0.3215550056	-0.02981507593	
680.0	-0.02080100676	-0.05173422173	
680.625	0.1910763049	-0.0294117713	
681.25	0.001521914607	-0.242394163	
681.875	-0.04735720048	0.1613212501	
682.5	0.4444378556	0.1705209997	
683.125	0.06002215004	-0.2289449965	
683.75	0.1226354101	0.1987940997	
684.375	0.4513508577	-0.1479282096	
685.0	0.06098989707	-0.1647956452	
685.625	0.3833757643	0.1898437404	
686.25	0.2939488859	-0.2751575082	
686.875	0.2038384957	-0.07562364289	
687.5	0.310716848	-0.2660042821	
688.125	-0.2487239601	-0.4695164417	
688.75	-0.2362964462	0.004416226428	
689.375	-0.2697798639	0.3027682555	
690.0	0.2684351465	0.3492063707	
690.625	0.1228363111	0.06839569482	
691.25	0.3579222203	0.3842228468	
691.875	0.5158572774	0.031852911	
692.5	0.372603205	0.1939896655	
693.125	0.8023730479	-0.002609142342	
693.75	0.3551250946	-0.506828746	
694.375	0.2840444321	-0.1182954444	
695.0	0.4528664489	-0.5505772036	
695.625	0.3080453303	-0.2822452648	
696.25	0.2663327754	0.1783894098	
696.875	0.5235675143	0.08519373357	
697.5	0.3370838426	0.08393845448	
698.125	0.6718783424	0.02015498695	
698.75	0.2888957258	-0.5391798244	
699.375	-0.4221584592	-0.09819914319	
700.0	-0.08024536575	0.3475101363	
700.625	0.2130384417	0.3162775113	
701.25	0.1817983939	-0.002156234135	
701.875	0.1315114776	0.2332595516	
702.5	0.4884802149	0.2517597099	
703.125	0.2680464968	-0.08005071735	
703.75	0.3626572859	0.02584668075	
704.375	0.2373897354	-0.3441275994	
705.0	0.03588943886	-0.1075204585	
705.625	0.3951792808	-0.01923849136	
706.25	0.253928733	-0.05212792124	
706.875	0.08436452511	0.1933720656	
707.5	0.3546026322	0.2911749766	
708.125	0.3818761422	0.09019112512	
708.75	0.1790003952	-0.2926104893	
709.375	-0.3441359955	-0.2932906449	
710.0	-0.240038993	0.2741717046	
710.625	0.09237604175	0.02271449694	
711.25	0.1367294864	0.1594603631	
711.875	0.1640455257	-0.03629009853	
712.5	0.2708606829	0.04132591021	
713.125	0.3272205442	-0.2915618676	
713.75	-0.0292123949	-0.2226723207	
714.375	0.1075851072	-0.1508523573	
715.0	-0.100767416	-0.2592618986	
715.625	-0.0498037798	-0.07925064943	
716.25	0.202606212	-0.1649764852	
716.875	0.2278860965	-0.355599204	
717.5	0.1979861991	0.01264546399	
718.125	0.6680895912	0.04657667958	
718.75	0.6353464072	-0.3689092567	
719.375	0.3519681174	-0.2651422203	
720.0	0.34699951	-0.8117709417	
720.625	-0.2584813233	-1.123592316	
721.25	-0.1262770598	-0.3961962354	
721.875	-0.1537444096	-0.9754440144	
722.5	-0.7489804548	-0.3154431281	
723.125	-0.4996984511	-0.09266034113	
723.75	-0.5793375228	0.6660636036	
724.375	0.2707393838	0.2932398262	
725.0	-0.02383474082	0.2452472073	
725.625	0.3659448513	0.6133511641	
726.25	0.2390231722	0.3080314395	
726.875	-0.2913380124	0.7174252565	
727.5	0.1692421907	1.493349141	
728.125	0.6641407279	1.070512088	
728.75	-0.6126266623	1.981619034	
729.375	0.375111747	4.033762403	
730.0	1.250050033	1.745543322	
730.625	-1.13527781	3.255739104	
731.25	0.4248903073	4.564414781	
731.875	-0.7258861194	1.575604058	
732.5	-2.858139806	-0.2227181736	
733.125	-2.497438704	1.330690425	
733.75	0.4223661653	0.9754647366	
734.375	0.5292055517	0.807558103	
735.0	-0.4352414609	-0.6691169861	
735.625	-0.1298906251	0.08258853757	
736.25	-0.297492454	0.7845504475	
736.875	0.8316525574	0.1250453927	
737.5	0.2638868056	0.3225798523	
738.125	2.050782345	-0.3635659142	
738.75	0.6717436284	-2.120145044	
739.375	0.5150002474	-0.5540317431	
740.0	4.208428547	0.6261100353	
740.625	3.139544415	-3.952999035	
741.25	-2.245441197	1.002807519	
741.875	-3.460032274	2.946225126	
742.5	-0.6048512231	0.612787717	
743.125	1.014003468	-2.006860993	
743.75	-0.6609122084	-0.9112716018	
744.375	-0.2486163318	0.1864833225	
745.0	-0.1400114069	0.06883062615	
745.625	0.05615348878	-0.1671471994	
746.25	0.05247463423	-0.06337274613	
746.875	-0.2963244034	0.06928686567	
747.5	0.0892991384	0.2951839864	
748.125	-0.01469884456	0.339011039	
748.75	0.3542107093	0.4787768752	
749.375	0.2607898541	0.2702304565	
750.0	-0.3635434014	0.1145094736	
