!Created with skrf (http://scikit-rf.org).
# GHz S RI R (50+0j) 
!freq	ReS11	ImS11	
500.0	-1.99876481	-2.96456632	
500.625	0.935417351	-1.557394046	
501.25	-1.279270542	-2.759172726	
501.875	-2.071065814	-0.8936060453	
502.5	-0.206464563	-0.02355377237	
503.125	-0.3214830915	-0.116699146	
503.75	0.3623033081	0.1678037163	
504.375	0.074860938	0.1185544861	
505.0	-0.03518660967	-0.2140733718	
505.625	0.2575035463	-0.004677171742	
506.25	-0.7415632993	-0.310015515	
506.875	0.6009666813	-0.2911131873	
507.5	0.009602071069	-2.133878355	
508.125	-1.269345171	-2.451888077	
508.75	1.580550812	-1.008125228	
509.375	0.4969609318	-6.638844493	
510.0	-1.423585262	0.3395009901	
510.625	-0.09499576429	-0.9675554232	
511.25	-0.4996606916	0.2026527341	
511.875	-0.4496622141	-0.3910588054	
512.5	-0.06251374821	0.2106099118	
513.125	-0.09932936531	-0.3044886781	
513.75	-0.08616348581	0.03461798918	
514.375	-0.2629319419	-0.6032729	
515.0	-0.8077481844	1.224344017	
515.625	0.6062296041	-3.864434606	
516.25	-2.706076653	0.01166110771	
516.875	1.176278076	-1.571201239	
517.5	-0.7830127084	-1.207779472	
518.125	0.3579975558	0.08986385905	
518.75	-0.6349678243	-0.8531701569	
519.375	-0.03444219263	0.1375744977	
520.0	0.213061133	0.3957094847	
520.625	0.6102675844	-0.3312741223	
521.25	-0.1951966257	-0.4671081331	
521.875	-0.4405998798	-0.4066526672	
522.5	-0.04925946949	0.227580815	
523.125	-0.3437704762	-0.03278316656	
523.75	-0.1442849103	0.1126370128	
524.375	-0.7275189632	-0.1195471236	
525.0	0.2980541121	0.3170951252	
525.625	-0.1667486488	0.1347893063	
526.25	0.2154281099	-0.1061945915	
526.875	-0.3879465593	0.20958913	
527.5	0.2450268291	0.5714294798	
528.125	-0.3135577151	0.5703088838	
528.75	0.1497735003	1.254925277	
529.375	-0.03647644463	-0.06860975437	
530.0	0.4011615847	0.7953916827	
530.625	-0.1826707163	0.5601950499	
531.25	2.00202808	0.418448766	
531.875	0.08457862161	-0.4372908492	
532.5	0.2000159577	-0.673875791	
533.125	-0.2590020414	0.4763507341	
533.75	0.5424939568	-1.002307802	
534.375	-0.5132216149	-0.2789517458	
535.0	-0.5211865656	-0.786604192	
535.625	-0.3910826211	0.6947005421	
536.25	-0.0367108527	0.1083222805	
536.875	0.3138192138	0.1799594324	
537.5	0.1251166207	-0.2193016877	
538.125	0.3120462993	0.09378706548	
538.75	0.3643729355	-0.5279240817	
539.375	-0.06686766202	-0.2382569964	
540.0	-0.3829350017	-0.6245255968	
540.625	-0.4866791105	0.1529287069	
541.25	-0.09919075176	-0.06715928569	
541.875	-0.1342810949	-0.111410925	
542.5	-0.2359500843	-0.1058422879	
543.125	0.04321878484	-0.08181818584	
543.75	-0.4499782987	-0.1360618403	
544.375	0.1630719323	0.1168999363	
545.0	-0.2178670556	0.2616967027	
545.625	0.2893926115	-0.05310609084	
546.25	0.01756777749	0.3394427025	
546.875	0.4651410464	-0.3533764032	
547.5	0.07101090017	-0.03568528172	
548.125	0.109130256	-0.5548597444	
548.75	-0.5006572221	-0.3024914607	
549.375	-0.1090643121	-0.03715136087	
550.0	-0.3205748984	-0.1320066845	
550.625	-0.01291513969	0.114943318	
551.25	-0.3080505043	-0.05117767262	
551.875	-0.09906410141	0.287895449	
552.5	-0.1611085078	0.07491041861	
553.125	-0.04768326715	0.2284938346	
553.75	0.1080282603	0.09827730736	
554.375	0.2328398843	0.04990164129	
555.0	0.2727043344	-0.1817492003	
555.625	0.210509363	-0.256146543	
556.25	0.1929733935	-0.3429154956	
556.875	-0.07163530492	-0.4151197916	
557.5	-0.2394234405	-0.2594243704	
558.125	-0.2702301713	-0.1181111617	
558.75	-0.2897473145	-0.03365552045	
559.375	-0.2547852996	0.07286917135	
560.0	-0.2384350794	0.1194310993	
560.625	-0.1845867974	0.3113009596	
561.25	0.09433229449	0.2226312516	
561.875	-0.04167235245	0.1350003206	
562.5	0.1386678974	0.08993119146	
563.125	0.04565986134	0.2631130825	
563.75	0.4641304401	-0.05698463021	
564.375	0.1416654758	-0.1572845192	
565.0	0.3864752661	-0.325412443	
565.625	-0.1895089487	-0.4432291344	
566.25	-0.2032039058	-0.1475348411	
566.875	-0.2547618101	-0.353008218	
567.5	-0.5300194845	-0.2593849596	
568.125	-0.1332346315	-0.2536714121	
568.75	-0.7007038504	-0.4399462856	
569.375	-0.4459806422	0.3904187179	
570.0	-0.4486024201	0.2055871742	
570.625	-0.2408812756	0.7578260319	
571.25	0.1819327192	-0.005717445295	
571.875	-0.02750250068	0.550380753	
572.5	0.3503689689	-0.3627852905	
573.125	0.1567301394	0.08698285582	
573.75	0.4113115966	-0.4922455857	
574.375	-0.2730558913	-0.1132812863	
575.0	0.4148455743	-0.04632952684	
575.625	-0.2191951238	-0.2670772709	
576.25	0.3464155799	0.03770468371	
576.875	0.007003370621	-0.6531284042	
577.5	-0.2590217783	-0.2856126894	
578.125	0.125793304	-0.2402751248	
578.75	-0.1561494859	-0.5605432812	
579.375	-0.4226202638	-0.01193068723	
580.0	0.1506645848	-0.1113148319	
580.625	-0.4467480849	-0.03163024192	
581.25	0.01309094643	0.009321572813	
581.875	-0.3565020884	0.4973809769	
582.5	0.4461855095	0.4889389768	
583.125	0.003733082963	-0.2004105196	
583.75	0.1011598915	0.5800481709	
584.375	0.04974833707	-0.370774786	
585.0	0.1832352846	0.6024099348	
585.625	0.5543442632	-0.2774750122	
586.25	0.04929556771	0.07817478832	
586.875	0.5209480706	-0.4760338218	
587.5	-0.3213624307	-0.2112636881	
588.125	0.2670447849	-0.228923108	
588.75	0.1689972435	-0.6467998765	
589.375	-0.1064641176	-0.2725854707	
590.0	0.1795437498	-0.4273469892	
590.625	-0.612507808	-0.2307954291	
591.25	-0.2024912525	0.3159620975	
591.875	-0.2058382978	0.1095938965	
592.5	0.05143137742	0.3185190107	
593.125	-0.267067279	-0.0334928099	
593.75	0.2746079569	0.3706587183	
594.375	0.2479711472	0.06441660524	
595.0	0.1259457588	0.5243472991	
595.625	0.9165131183	0.3274584046	
596.25	-0.02868565433	-0.1513773866	
596.875	0.4790154903	0.5389552643	
597.5	0.5467212887	-0.04062530422	
598.125	-0.0279434042	0.4317731899	
598.75	0.7715487359	0.2394099622	
599.375	0.2139995556	-0.03156869001	
600.0	0.68876329	-0.1439497733	
600.625	0.3276313942	-0.651842081	
601.25	0.06237562609	-0.2471851622	
601.875	0.01067332946	-0.4514785507	
602.5	-0.3298843506	-0.03960539048	
603.125	-0.2947757446	0.1657759843	
603.75	-0.1862222298	0.03528962095	
604.375	-0.4461231626	0.1560185334	
605.0	0.05452404254	0.2266685133	
605.625	-0.3763126302	0.01427247603	
606.25	-0.1632669792	0.3358344504	
606.875	-0.352684365	-0.1531568959	
607.5	-0.7075928571	0.7738817726	
608.125	0.1520791769	0.2426341865	
608.75	0.06997152307	0.7768239597	
609.375	0.8042105679	-0.4070676573	
610.0	0.2610592019	0.1009793254	
610.625	0.4737892102	-0.5697622917	
611.25	-0.1745779776	-0.1823637583	
611.875	0.01277257344	-0.6355915111	
612.5	-0.4212159575	0.1406272111	
613.125	-0.428048692	-0.2672199548	
613.75	-0.3030014282	0.5744111732	
614.375	0.01336031623	-0.02445909638	
615.0	0.2481094494	0.3721780746	
615.625	-0.1826750172	-0.1298873552	
616.25	-0.3184220307	0.6266959843	
616.875	0.1945634198	0.3840039182	
617.5	-0.5445571054	0.3357614489	
618.125	0.09494477786	0.7745578841	
618.75	0.04001126661	0.1507424932	
619.375	0.1033729366	0.7109623655	
620.0	0.4191242831	-0.03588902106	
620.625	0.4423674018	-0.2165583696	
621.25	-0.2986308529	-0.4285865617	
621.875	-0.3036824343	-0.3545295924	
622.5	-0.6595160165	0.1955426963	
623.125	-0.1378338519	0.2108377272	
623.75	0.3873604624	0.3547414978	
624.375	-0.1443570133	-0.2686130976	
625.0	0.5195301992	0.07007656768	
625.625	-0.356024064	-0.1896360425	
626.25	0.305596093	-0.2889829102	
626.875	-0.6116461926	-0.3508358377	
627.5	-0.1572177555	0.1333798867	
628.125	-0.1608455644	-0.4966986601	
628.75	-0.3992191581	-0.121429619	
629.375	0.07847796665	-0.4014837465	
630.0	-0.6209295289	-0.3752773407	
630.625	-0.3260701519	0.2708485909	
631.25	-0.5073375392	0.1854643022	
631.875	-0.1433983516	0.7556606624	
632.5	0.3351374272	0.5021450517	
633.125	0.4360120073	0.05964180118	
633.75	0.4200772303	0.1654037312	
634.375	0.04930579201	-0.5782639614	
635.0	0.1628423054	-0.1454397996	
635.625	-0.4971870238	-0.4274079589	
636.25	-0.1009569455	0.2742451655	
636.875	-0.5249426557	0.1201609845	
637.5	0.1538823908	0.4882803686	
638.125	-0.2135662647	-0.2511153086	
638.75	-0.488751862	0.7864060766	
639.375	0.4033747577	0.4648288889	
640.0	-0.08972685563	0.3873034043	
640.625	0.6523221321	0.7401810028	
641.25	0.6613940647	-0.3100265122	
641.875	0.4595368171	0.03715316175	
642.5	-0.2167386181	-0.9604838716	
643.125	-0.02352316497	0.01020105025	
643.75	-0.3399946343	-0.6315829984	
644.375	-0.5257350543	0.3619919743	
645.0	-0.1090879666	0.03355686889	
645.625	-0.2931228185	0.6737756047	
646.25	0.7512884951	0.2565055188	
646.875	-0.1025006714	-0.2851114419	
647.5	0.4111947062	0.5389930614	
648.125	-0.01798462894	-0.3934478144	
648.75	0.9519649659	0.4630973716	
649.375	0.5000250226	-1.142429195	
650.0	-0.0249378692	-0.1862333341	
650.625	1.259577045	-0.5306297992	
651.25	0.09825592319	-1.383131023	
651.875	0.1199516277	0.2120608607	
652.5	1.293659356	0.08598750417	
653.125	0.5492640183	-0.7374731942	
653.75	0.3593575586	0.09991758006	
654.375	-0.02873344359	-1.282048879	
655.0	-0.6954190582	0.1467451174	
655.625	-0.3918692243	-0.1537386203	
656.25	-0.1370676218	0.9527262184	
656.875	0.3226310935	-0.3312768017	
657.5	-0.1553129282	0.6031019907	
658.125	0.5769554681	0.3568323879	
658.75	0.4566960301	0.005302877948	
659.375	1.004613735	0.2153980371	
660.0	0.477857515	-1.19294628	
660.625	0.2104250891	-0.3396284519	
661.25	0.8719397461	-0.6352318511	
661.875	0.3740295861	-1.166584422	
662.5	0.1395518301	0.09405215857	
663.125	1.331509231	-0.3622070588	
663.75	-0.02200636712	-0.9202761484	
664.375	0.3069817929	-0.3984621057	
665.0	-0.8886595905	-0.9404201803	
665.625	-0.3250733373	0.3478385289	
666.25	-0.7042650455	0.4527357722	
666.875	0.5051287777	0.7126199908	
667.5	0.2241405631	-0.06104398745	
668.125	0.6030294844	0.4592209513	
668.75	0.5699131493	-0.6346037026	
669.375	0.08635399605	-0.3937090339	
670.0	0.2534313673	-0.4051601058	
670.625	-0.01800091452	-0.7313099193	
671.25	0.04587988914	-0.1005512407	
671.875	0.5270225599	-0.4990041867	
672.5	0.3555689163	-0.4959130665	
673.125	0.4129776256	-0.04921425773	
673.75	0.8877940764	-0.6973241377	
674.375	-0.4056977813	-0.7216538045	
675.0	0.3319229683	-0.1699051768	
675.625	-0.6044089051	-0.8414570009	
676.25	-0.5250700494	0.4535965091	
676.875	-0.1377306984	-0.5849829427	
677.5	-0.6014756311	0.5677815476	
678.125	-0.1612990844	-0.1505764713	
678.75	-0.2621849204	1.066084614	
679.375	0.6352492279	-0.3328278155	
680.0	0.1593295275	0.2159863457	
680.625	0.5353120382	-0.2170315287	
681.25	0.07856787	-0.3722229885	
681.875	0.03445534416	0.3552452439	
682.5	0.7065462838	0.4666347924	
683.125	0.640678513	-0.05753354684	
683.75	0.3142109572	0.1698357411	
684.375	0.9736894246	0.565328203	
685.0	0.531033353	-0.4937015037	
685.625	0.651298558	0.64522699	
686.25	1.20639924	-0.4227696317	
686.875	-0.1067669337	-0.1892432084	
687.5	1.683747135	-0.2109613499	
688.125	-0.849713473	-1.674559356	
688.75	0.04781488114	-0.44301893	
689.375	-1.550026928	0.9109908025	
690.0	0.6796422912	0.6393920859	
690.625	-0.09592624533	1.10527595	
691.25	1.256391022	0.3724710982	
691.875	0.5782319237	0.7562700069	
692.5	1.58040419	0.8886118698	
693.125	1.62855468	-0.2728895815	
693.75	1.275371786	-0.3325451573	
694.375	1.072327199	-0.9736585944	
695.0	1.141919854	-0.2948322546	
695.625	1.553925767	-0.4823964128	
696.25	0.5563821407	0.3019013683	
696.875	1.176221444	1.824430008	
697.5	1.210977334	0.4695865123	
698.125	0.8097357367	1.396855493	
698.75	1.576425456	-1.685845157	
699.375	-0.4326671889	-0.1693844578	
700.0	-1.763093995	0.630443663	
700.625	0.8671676291	0.5724810695	
701.25	-0.1765522151	0.833202843	
701.875	1.277300379	0.4804386374	
702.5	0.2420581658	0.5799142534	
703.125	1.320209925	0.6619711766	
703.75	0.5303277392	-0.5658496051	
704.375	1.034595936	0.05106289346	
705.0	0.5496196956	-0.8293067831	
705.625	0.1458450074	0.4366172535	
706.25	1.343002079	0.7212408098	
706.875	0.3238005541	0.07202424528	
707.5	0.3210992044	1.457154731	
708.125	1.547189251	0.08992975288	
708.75	0.5897690882	-0.2633251497	
709.375	-0.644139451	-1.369814687	
710.0	-0.2134218817	0.7033030061	
710.625	-0.3260859976	0.4270782918	
711.25	0.4766927315	0.2388458459	
711.875	0.2972611942	0.3936245006	
712.5	0.8165308996	-0.007673178474	
713.125	0.674853772	-0.1056708552	
713.75	0.5161094506	-0.8951914243	
714.375	-0.2351343151	-0.1182216885	
715.0	0.4134072507	-0.94025409	
715.625	-0.5167531782	-0.3888871804	
716.25	0.9157712758	-0.0002387596807	
716.875	1.346691926	-1.390842463	
717.5	-0.2528047908	0.1256473466	
718.125	2.964192761	1.400489171	
718.75	2.398517812	-1.780412587	
719.375	0.5098045342	0.7959934265	
720.0	3.614557174	-3.428801344	
720.625	-0.8746296609	-2.299478207	
721.25	1.066169688	-2.338983517	
721.875	-0.404761627	-3.696866575	
722.5	-1.509608073	-1.033313033	
723.125	-1.871854364	-1.492980979	
723.75	-1.127162964	1.519781505	
724.375	0.1471211618	0.8000345433	
725.0	0.08287995119	0.7932961543	
725.625	0.4144091096	1.760991336	
726.25	1.102874111	1.162174587	
726.875	-1.442285729	1.605531356	
727.5	-0.9213757009	5.3157588	
728.125	3.235930305	3.161758933	
728.75	-8.808422623	4.646219203	
729.375	1.0676852	13.69444496	
730.0	1.915764641	1.277439037	
730.625	-15.62978651	21.38494368	
731.25	6.718387027	14.36407223	
731.875	-5.949975139	-2.410864028	
732.5	-13.59884366	1.892557458	
733.125	-7.782918963	2.34644659	
733.75	-0.9278589365	1.180588409	
734.375	2.759328228	3.266336204	
735.0	-0.5458037345	-0.9735691483	
735.625	-0.8562279411	-0.5385952181	
736.25	-0.3744984229	2.413526048	
736.875	1.19347839	0.1028650977	
737.5	1.765337469	2.102346933	
738.125	6.123674277	-0.2922990587	
738.75	4.06057187	-6.798866276	
739.375	-1.540347466	0.3472990307	
740.0	26.10955943	2.00489059	
740.625	8.079396798	-29.07867467	
741.25	-13.86601829	13.81580527	
741.875	-8.64993238	13.93406825	
742.5	14.85333967	0.7012614455	
743.125	-0.4944623276	-12.83859495	
743.75	-2.225565479	-2.019858557	
744.375	0.1384215243	-0.2325947872	
745.0	-0.4747775739	0.7856383537	
745.625	-0.1927954486	-0.2443656666	
746.25	0.310825005	-0.4177618603	
746.875	-0.7073531531	-0.105710034	
747.5	-0.2327936489	0.5797539398	
748.125	-0.3637964132	2.051028289	
748.75	0.9057864098	1.174965309	
749.375	0.202197494	1.431068698	
750.0	-1.048133564	0.4788157657	
