!Created with skrf (http://scikit-rf.org).
# GHz S MA R 50.0 
!freq magS11 angS11
500.0 0.0171283139981 176.927070666
500.625 0.00644979691099 53.9189338161
501.25 0.00820708820101 -61.2452751935
501.875 0.0433649617532 -174.097871325
502.5 0.0395415543639 168.704676742
503.125 0.0172135905632 104.142486841
503.75 0.0130433906282 -23.4391783598
504.375 0.0027130760744 -46.1503505686
505.0 0.00633096106843 -26.0050404039
505.625 0.028456713362 -69.8730457039
506.25 0.0581986972642 -103.008467869
506.875 0.0627778706514 -113.953478574
507.5 0.0544924032777 -109.411588448
508.125 0.0592000351863 -84.5333978827
508.75 0.0605157420243 -134.973335312
509.375 0.0506202295844 -145.663029058
510.0 0.0426641782028 -124.9883431
510.625 0.0357051705855 -157.641455113
511.25 0.0641007983994 -169.682331575
511.875 0.052837592243 145.043259178
512.5 0.0379938330647 104.059021157
513.125 0.0495844218566 46.5453055429
513.75 0.0577810025485 29.3466106945
514.375 0.0346324903443 9.90572065601
515.0 0.0402433752128 -4.70728845066
515.625 0.113216698856 52.176253588
516.25 0.0691164976361 21.5647415457
516.875 0.107050097726 69.755252585
517.5 0.13415007323 22.2413892217
518.125 0.2268393385 74.4696671303
518.75 0.0779200326697 3.92429639249
519.375 0.0618285875209 20.3061022329
520.0 0.0963340680834 -0.75953089552
520.625 0.117388249502 -0.0210232089634
521.25 0.0718436453007 -34.7586339136
521.875 0.0642090764696 -0.146352477907
522.5 0.0910584056293 -36.8357613986
523.125 0.197176706721 -31.4385274567
523.75 0.205983969134 -61.5791663409
524.375 0.203297348329 -54.1450033975
525.0 0.0694747630749 -53.8662876865
525.625 0.0446564762865 -23.0408393245
526.25 0.0446936547912 -13.3352689211
526.875 0.0575490740921 -17.2145387128
527.5 0.0463919511576 -27.692802487
528.125 0.0502390413851 -55.7598955281
528.75 0.0446655094767 -82.3800018092
529.375 0.0814422252845 -112.601606565
530.0 0.0510020056691 -128.605264366
530.625 0.036354296753 -140.795227588
531.25 0.120985133309 -136.63684175
531.875 0.183853734882 -146.349253214
532.5 0.139471047375 -169.758764166
533.125 0.112657655077 175.632060842
533.75 0.102402712029 168.51221094
534.375 0.104638286913 -179.927828363
535.0 0.0826918675297 160.221932623
535.625 0.0760941990474 177.64086869
536.25 0.0586592041882 161.750923242
536.875 0.0924119525752 -161.634567202
537.5 0.101825789978 -144.142503813
538.125 0.100526058177 -174.55498934
538.75 0.1005202313 179.471992752
539.375 0.0824448358406 -162.331151912
540.0 0.0936048039303 -154.074655165
540.625 0.134721083465 -156.466731169
541.25 0.128995330301 -141.747420846
541.875 0.102653818555 -145.633099431
542.5 0.11445491302 -143.858678631
543.125 0.148417824911 -167.849564764
543.75 0.129287865714 159.215082734
544.375 0.0915080661136 136.078363657
545.0 0.0824107334501 88.4441624025
545.625 0.112700677781 82.148831276
546.25 0.0745161203361 66.7661761898
546.875 0.0845678526206 54.9723123914
547.5 0.111074160839 59.0935595828
548.125 0.122001603308 77.9200526339
548.75 0.0893662984163 90.8874475237
549.375 0.0943842234265 88.7656318103
550.0 0.0822069988809 124.769883703
550.625 0.059720828465 153.561580163
551.25 0.0310958061864 -118.386267642
551.875 0.0617891497473 -156.916523751
552.5 0.109745271153 -162.938123008
553.125 0.0984872113022 -171.235780439
553.75 0.0905946512346 -167.573560402
554.375 0.10286094882 170.815152882
555.0 0.12321930944 164.987819524
555.625 0.10444384792 155.948843337
556.25 0.092172081265 164.791612849
556.875 0.116946601621 167.02501842
557.5 0.122253612711 165.641297381
558.125 0.0988284624083 164.758832107
558.75 0.0668524599563 -179.930497376
559.375 0.0582881638567 -171.486710871
560.0 0.0450970756349 -147.100227692
560.625 0.0617821935436 -146.475718354
561.25 0.0789180963398 -141.059514344
561.875 0.0975532644829 -158.188931909
562.5 0.0878827742591 173.279650161
563.125 0.11105193367 142.433421216
563.75 0.120569801513 133.800518295
564.375 0.10096249333 122.763117816
565.0 0.0865827035932 120.361750746
565.625 0.0901757304181 113.820964417
566.25 0.0770161505394 161.632601541
566.875 0.0730488188847 -177.685527016
567.5 0.0755011661501 179.475067363
568.125 0.0844101888084 -173.097470581
568.75 0.0760299174386 -150.518861109
569.375 0.0507798583808 -109.723565695
570.0 0.0621291126817 -112.798133774
570.625 0.0955541809648 -121.886405213
571.25 0.0839197981506 -111.560767915
571.875 0.0881963026507 -127.945955466
572.5 0.112546648122 -159.197569513
573.125 0.144420699199 -176.085738109
573.75 0.10985406408 159.650005328
574.375 0.0814335748735 150.318935589
575.0 0.0973950324746 156.145202403
575.625 0.114969762883 150.817229355
576.25 0.0787822635931 152.599120443
576.875 0.0809417193543 133.92918035
577.5 0.0755931366384 140.550853545
578.125 0.0652828719401 154.033263766
578.75 0.0429564246106 175.063604971
579.375 0.0542130419551 165.287964645
580.0 0.0694394335834 177.780646583
580.625 0.077732260158 -153.261885093
581.25 0.0892717739058 -160.783382404
581.875 0.114872446077 -176.927066099
582.5 0.12109723469 -178.042578919
583.125 0.0938874500146 -168.527698972
583.75 0.0844239270769 -172.479653523
584.375 0.100373537365 -156.249744272
585.0 0.0907474969395 -136.688218507
585.625 0.0726841055404 -145.286739407
586.25 0.0721198983364 -144.580401446
586.875 0.0832921217038 -135.94897798
587.5 0.0757987341233 -148.42733115
588.125 0.0594290254491 -172.374044193
588.75 0.0683010828489 -173.979594486
589.375 0.0805077194579 -151.000919844
590.0 0.0958301664826 -161.201191382
590.625 0.104983632827 166.276710435
591.25 0.123661013469 147.572355531
591.875 0.0857379038839 170.298854539
592.5 0.0606003564006 155.237433482
593.125 0.0604928058235 152.920123641
593.75 0.0730324538987 161.426975115
594.375 0.0583964809344 -144.23499089
595.0 0.0455246571095 -112.770157095
595.625 0.0611957907083 -96.8048089815
596.25 0.0701505016254 -96.7952745919
596.875 0.0734473334085 -56.0983980598
597.5 0.0636851996596 -54.0664968971
598.125 0.0663755633544 -59.0112739573
598.75 0.0806196329675 -57.6258292808
599.375 0.0898198417189 -63.8852041811
600.0 0.101189948301 -68.8861925149
600.625 0.100669709472 -64.161057143
601.25 0.0851938885891 -83.3710354658
601.875 0.0686947220862 -84.217119724
602.5 0.0666821751536 -68.0149621055
603.125 0.0441570807357 -49.8632264441
603.75 0.0259171418554 -62.7691714406
604.375 0.0439171832624 -17.2738896143
605.0 0.0606275816968 -16.1963555458
605.625 0.0502038022016 -14.7439988219
606.25 0.0275922184673 16.2571870947
606.875 0.0298736383669 46.2618937441
607.5 0.0646060723143 46.211308702
608.125 0.0601872271089 20.8653520338
608.75 0.046510535752 11.2935242957
609.375 0.0724379491689 37.4102927974
610.0 0.0747981821683 45.1060458618
610.625 0.0601235349908 30.0569654996
611.25 0.0519568815301 31.113009712
611.875 0.0339790889574 48.5940392388
612.5 0.0227516831961 91.8637536409
613.125 0.0415990486577 126.268512742
613.75 0.0488086959718 123.185345629
614.375 0.023100096259 117.073723626
615.0 0.0593496026374 128.771912553
615.625 0.0468673942094 132.18773549
616.25 0.0557827957789 141.854096979
616.875 0.0261921920761 128.802589841
617.5 0.0568759397808 130.375854612
618.125 0.0444650348793 133.778926708
618.75 0.0428132384503 150.853364099
619.375 0.00243113760004 -10.3051240532
620.0 0.0143405161197 145.78519142
620.625 0.0109417834094 -132.966874955
621.25 0.0404860747461 -102.124193609
621.875 0.0678188825789 -92.6004041524
622.5 0.0872126818225 179.684421544
623.125 0.0811025724743 166.275474703
623.75 0.0721900933852 164.899433891
624.375 0.0311479596123 -147.543484359
625.0 0.0540490349124 -154.249634329
625.625 0.0430294772754 -157.532560889
626.25 0.011662907915 159.184250246
626.875 0.00622602425598 27.0372361986
627.5 0.0299060979832 -23.785806015
628.125 0.0364102366196 -24.3778025084
628.75 0.0355072670368 -8.92545350767
629.375 0.0443607743094 -9.36612993951
630.0 0.0820781055037 8.25125545985
630.625 0.0707956599892 7.19968271161
631.25 0.0696174180574 -2.03059952896
631.875 0.066894386889 -1.37125545367
632.5 0.060210682554 -3.13920063098
633.125 0.0505909962706 3.01228172269
633.75 0.0397229621022 -17.6858600202
634.375 0.0410628903036 10.035364299
635.0 0.0510965499097 42.2042409578
635.625 0.029281241155 20.2068076425
636.25 0.0500921062992 38.9411064562
636.875 0.0698705471001 47.3435941124
637.5 0.0413303433345 45.2763458577
638.125 0.053349379276 72.6206111704
638.75 0.0750611838176 74.4894574965
639.375 0.0808455403598 86.6689851301
640.0 0.0701383612281 103.894108304
640.625 0.0647275190171 111.93421146
641.25 0.0508696618797 93.48874601
641.875 0.0586654766305 146.704376639
642.5 0.0595342697861 162.981118881
643.125 0.0574763110918 156.519997114
643.75 0.0679001631472 171.451270271
644.375 0.0807308517981 -168.820016506
645.0 0.0768852189668 -179.6747333
645.625 0.104835347704 171.287995773
646.25 0.0837262843628 158.479170459
646.875 0.0583420516936 169.227238747
647.5 0.0594904723981 -179.436028387
648.125 0.10105733649 -173.235248284
648.75 0.0623315549851 179.685485042
649.375 0.0437352826617 -154.582297712
650.0 0.041112355727 -127.245420408
650.625 0.0745954991537 -87.3927099231
651.25 0.0594324928682 -67.0242674754
651.875 0.0631234135629 -40.0227765528
652.5 0.0986490695454 -23.0579854593
653.125 0.122234717742 -0.35734428015
653.75 0.0925672815593 2.79979724062
654.375 0.0981495932045 6.25465828843
655.0 0.113214820111 13.3587859534
655.625 0.111427659478 29.9410345905
656.25 0.0527620990107 14.3758186352
656.875 0.0642447271032 6.95604353625
657.5 0.0912430532863 25.4718669263
658.125 0.0672731907441 50.7016253112
658.75 0.0680918350752 60.3002731045
659.375 0.0814061550413 40.0987835362
660.0 0.101996608751 27.5801895808
660.625 0.113003274422 19.3155272785
661.25 0.119293386646 3.70964944698
661.875 0.0965920315507 -14.5933187373
662.5 0.120875232158 -20.4863031956
663.125 0.111054109071 -14.9481770749
663.75 0.112664516065 5.27332608483
664.375 0.0960516846855 54.4940157839
665.0 0.0750772756745 88.1784560542
665.625 0.0753638925975 109.928948005
666.25 0.0608744107597 138.460890196
666.875 0.100155965578 172.894626092
667.5 0.0906240997421 -169.655008602
668.125 0.111890614754 177.910513708
668.75 0.102277645852 169.996291059
669.375 0.124754702384 178.448402802
670.0 0.0841117603799 -175.15929848
670.625 0.096800717891 -173.988556169
671.25 0.113501267265 175.328735105
671.875 0.104308796387 168.148435855
672.5 0.0806108597586 157.637768971
673.125 0.0884260473325 151.553918103
673.75 0.08946007785 165.226238914
674.375 0.105537040999 173.115174672
675.0 0.108558717385 -174.111243348
675.625 0.140378869082 -152.971375965
676.25 0.108160773717 -121.623774324
676.875 0.107695492875 -119.309685694
677.5 0.115200236328 -127.997655653
678.125 0.138824062837 -117.014330338
678.75 0.0738007843112 -94.678280894
679.375 0.054181164314 -75.3149640979
680.0 0.0882758185732 -83.3157172669
680.625 0.11958326166 -75.081258834
681.25 0.114700728414 -76.9440699238
681.875 0.0933100281364 -85.9578734383
682.5 0.132502447767 -116.374224949
683.125 0.161293351848 -122.731075569
683.75 0.147551058497 -106.601026915
684.375 0.122214939572 -79.3333136954
685.0 0.129704013522 -38.6168554725
685.625 0.137499360177 -4.35102925481
686.25 0.109668250891 22.5497440219
686.875 0.100884977713 42.3752178746
687.5 0.0767058295136 80.4783040145
688.125 0.0842599095155 104.672178624
688.75 0.103563125797 114.277774576
689.375 0.150812066361 115.159383237
690.0 0.123483088069 139.381407496
690.625 0.116830379459 130.391529898
691.25 0.141850064695 98.9458529598
691.875 0.204075026982 63.8256130919
692.5 0.115492894378 44.352370496
693.125 0.0875908356309 -13.1062731081
693.75 0.101314180256 -43.7266723645
694.375 0.14076621515 -31.552546051
695.0 0.13948483142 7.0841553326
695.625 0.0945104065792 62.8140815855
696.25 0.11311884217 118.6920548
696.875 0.130057917346 176.511510658
697.5 0.148879613343 -148.33004609
698.125 0.129292044928 -127.852077214
698.75 0.123324016101 -126.379217713
699.375 0.108773370216 -124.303375679
700.0 0.101865412248 -118.35507699
700.625 0.110973146781 -90.31765282
701.25 0.0956478746108 -58.9273642461
701.875 0.0820302124575 -59.3400879262
702.5 0.099275707024 -90.020124976
703.125 0.164330079763 -108.951427798
703.75 0.184035555851 -152.700637431
704.375 0.122544350103 172.590538103
705.0 0.11334702058 156.062098498
705.625 0.151032863247 -177.491739899
706.25 0.146009960013 -111.582172333
706.875 0.0961635062595 -66.6154037327
707.5 0.077387957026 -36.264568415
708.125 0.0936748089398 7.22187533418
708.75 0.110805315953 69.1567542262
709.375 0.106592817913 107.177661751
710.0 0.0998967116866 133.428575256
710.625 0.107493947766 146.086892142
711.25 0.119395051931 178.229894838
711.875 0.145377249272 160.159713517
712.5 0.153760453224 145.170318387
713.125 0.132222049354 94.6398495284
713.75 0.0975645746366 57.2505661425
714.375 0.108870781372 29.6876045229
715.0 0.109216851264 37.9357463698
715.625 0.0859988758589 40.205312893
716.25 0.0756634952183 73.7191492482
716.875 0.114105904314 102.438874007
717.5 0.148697200555 146.470219804
718.125 0.121420034853 169.939973161
718.75 0.0979559783366 162.085721172
719.375 0.128126246215 -154.671366745
720.0 0.131586562205 -127.180352398
720.625 0.106167649612 -73.9903062793
721.25 0.0979513114981 -34.8412250434
721.875 0.0882001602172 34.1262458836
722.5 0.0728715084802 64.8163977656
723.125 0.0848326456406 73.4998510138
723.75 0.0945229562825 31.0281330522
724.375 0.130502836899 14.03964582
725.0 0.105616686168 -33.079185178
725.625 0.0998855646416 -61.1592498877
726.25 0.112646628783 -72.027770885
726.875 0.100912101713 -48.9943317898
727.5 0.0805122831439 -37.6500702974
728.125 0.0763434918792 -9.34929616664
728.75 0.0940430619089 22.2004290648
729.375 0.0722712321 2.48755581467
730.0 0.0899616922893 22.0040022032
730.625 0.0684470573186 23.5353725523
731.25 0.070954441512 74.9558801584
731.875 0.0488281803501 99.4528275262
732.5 0.073152872754 153.371011488
733.125 0.0819480873778 178.231535713
733.75 0.0663929718558 178.161121129
734.375 0.0402312296199 137.491045256
735.0 0.0920798573225 166.986916296
735.625 0.0777384505349 150.609664742
736.25 0.0549166650072 154.012258127
736.875 0.0264931680781 -159.447070808
737.5 0.118647109905 179.323149476
738.125 0.100506333925 -174.30748559
738.75 0.073277448336 -170.869089129
739.375 0.0211821071426 160.942076358
740.0 0.041717655832 -130.522539711
740.625 0.055610394682 -150.472280019
741.25 0.0459832870456 -163.158777123
741.875 0.0443823539244 -111.296129613
742.5 0.0186009330822 57.6281230478
743.125 0.0445138674572 55.9710954447
743.75 0.0317356336031 86.8483099337
744.375 0.0314325485939 113.321446074
745.0 0.0471797411552 168.031744264
745.625 0.0666263064364 116.967323765
746.25 0.0829843112431 73.472111772
746.875 0.084882551058 38.1025919313
747.5 0.0253415123066 45.8149699589
748.125 0.0433170163948 -11.5327106398
748.75 0.0204881586093 14.7224050681
749.375 0.0251877142355 -25.7851480294
750.0 0.0280836487602 -89.4409938421
