!Created with skrf (http://scikit-rf.org).
# GHz S MA R 50.0 
!freq magS11 angS11
500.0 0.0196299521266 133.986055193
500.625 0.0183511133273 164.985610544
501.25 0.0173784755465 -155.339945821
501.875 0.047344914347 -176.90711657
502.5 0.0119645066327 143.209873659
503.125 0.0165724325023 96.952000488
503.75 0.00829686625009 -10.3989384056
504.375 0.0122064146808 -56.6819059748
505.0 0.0239284676175 -67.5713933059
505.625 0.0280991999444 -76.6922231706
506.25 0.0298772746747 -109.436828906
506.875 0.0586514619243 -106.767264759
507.5 0.0388331261291 -157.244786442
508.125 0.0459809909181 -102.227888791
508.75 0.0575628807794 -144.590393209
509.375 0.0671636920944 -130.872496398
510.0 0.0305996467995 178.02191722
510.625 0.0325347338597 -160.579437555
511.25 0.0605960157178 179.45458908
511.875 0.0524904136938 142.636397456
512.5 0.04157310387 104.121698707
513.125 0.0537369964475 43.0494227689
513.75 0.0572377728279 21.815371228
514.375 0.0543262111728 27.3558216723
515.0 0.0407652879133 -3.84292820337
515.625 0.0728171120811 47.2614194855
516.25 0.0786095221634 23.0696376517
516.875 0.128173919648 67.2761714661
517.5 0.0953572830794 11.84119788
518.125 0.177959773426 61.6188197237
518.75 0.082394528859 8.840555226
519.375 0.079064484527 20.9254819744
520.0 0.094551458163 -5.20643778046
520.625 0.0961548198087 -9.30072712372
521.25 0.0846689482692 -26.1165267607
521.875 0.0787347111331 -1.35741051683
522.5 0.0807448608437 -42.6201617923
523.125 0.166221421824 -42.1042619953
523.75 0.20201795067 -64.6361209383
524.375 0.238466034335 -48.7943796955
525.0 0.0741282466353 -53.263188216
525.625 0.0469248531353 -27.9515815735
526.25 0.0504661030095 -10.417451697
526.875 0.0547231314753 -25.8141072242
527.5 0.0473239024745 -34.313972795
528.125 0.0440047859771 -58.6521938336
528.75 0.063974408398 -73.8800624738
529.375 0.100394435807 -111.441951529
530.0 0.0448002537129 -137.984185933
530.625 0.0283625603342 -145.731034594
531.25 0.135958691956 -145.474415398
531.875 0.16855181083 -151.827181592
532.5 0.140734433055 -173.140383074
533.125 0.105209452009 173.71828729
533.75 0.114156427772 165.315077209
534.375 0.121856223465 177.427042228
535.0 0.0849079232354 158.6899496
535.625 0.0635354524576 174.824817178
536.25 0.065977857531 159.22270399
536.875 0.0637272407153 -163.13927565
537.5 0.0933201739472 -145.484222436
538.125 0.0956861996316 -178.013066169
538.75 0.111496721462 178.405476058
539.375 0.0745542068406 -169.689617608
540.0 0.0909029043303 -158.524258304
540.625 0.12218154732 -159.36027097
541.25 0.144010578107 -146.173566161
541.875 0.0814948965296 -142.162006396
542.5 0.103549040094 -142.218906911
543.125 0.140311570213 -169.581848792
543.75 0.13853778939 157.873236618
544.375 0.103629544092 135.002896376
545.0 0.0837916845982 88.1766029188
545.625 0.096626315538 81.1278989035
546.25 0.0882958893342 64.1310136039
546.875 0.100160901757 50.4871980548
547.5 0.109574167878 55.9718999971
548.125 0.115264865051 73.245265952
548.75 0.101115458446 87.025294021
549.375 0.102422429747 83.269546596
550.0 0.0892668137607 123.011999486
550.625 0.0510563363421 150.876052305
551.25 0.0361322421796 -144.45295224
551.875 0.0675939891965 -171.078519994
552.5 0.10778338102 -168.484652228
553.125 0.0958506393312 -173.308697189
553.75 0.0920288733282 -174.334158138
554.375 0.113732309848 160.944210105
555.0 0.124130373529 160.927669498
555.625 0.0920197280797 157.607055138
556.25 0.0925275412615 162.1244921
556.875 0.128991571246 159.679616859
557.5 0.1072617764 166.371765384
558.125 0.0966910998759 163.020280545
558.75 0.0809370556093 174.520701283
559.375 0.0756762307481 -178.046203649
560.0 0.0440453521996 -153.017283015
560.625 0.0544675986043 -138.005806146
561.25 0.0879164973204 -153.387700645
561.875 0.108226174732 -168.165750335
562.5 0.083948769394 176.012798454
563.125 0.10571516334 143.390132134
563.75 0.130447559318 128.270880381
564.375 0.111810158608 117.157960871
565.0 0.0882351334977 118.001277606
565.625 0.0809264831794 116.407921825
566.25 0.0951240073253 148.953897388
566.875 0.0819782622145 172.139407738
567.5 0.0641543939029 -173.482721435
568.125 0.0773991299233 -171.172851462
568.75 0.0697125796351 -155.789837208
569.375 0.0520674888265 -121.547298789
570.0 0.0574457242978 -106.500224015
570.625 0.0857315321154 -113.269280452
571.25 0.0864121688927 -120.977331767
571.875 0.0892160900168 -135.945322281
572.5 0.106444068296 -151.646632638
573.125 0.135402887441 -175.241914852
573.75 0.105614269533 157.934412073
574.375 0.08949148522 140.064833639
575.0 0.0960975053066 159.066808761
575.625 0.103941718742 157.252318902
576.25 0.0907441327198 143.799140802
576.875 0.086388151115 123.129733379
577.5 0.0818197779178 137.22093354
578.125 0.0591100069241 160.251390748
578.75 0.0466106404448 163.896084244
579.375 0.0579867837951 147.158798017
580.0 0.0632973503829 -168.040133597
580.625 0.0784386110764 -151.505778865
581.25 0.0860798788417 -163.004046957
581.875 0.114300325561 176.299082344
582.5 0.114710191134 -175.83452592
583.125 0.0943891012454 -171.940577636
583.75 0.0838151623322 -173.577465906
584.375 0.103602802933 -162.870278482
585.0 0.0997937437663 -151.638797847
585.625 0.0744817241439 -150.230041541
586.25 0.0688690313723 -146.059860868
586.875 0.0837220354142 -146.61186939
587.5 0.0720327759412 -141.537678736
588.125 0.0589270587047 -178.295867607
588.75 0.0661041872391 -177.278222793
589.375 0.0812356733235 -160.60603615
590.0 0.0904284415014 -175.948261111
590.625 0.104652807459 163.188067708
591.25 0.122987942541 148.528977749
591.875 0.0986916792588 154.860007051
592.5 0.0694576880136 136.162938962
593.125 0.0598264310778 146.031123547
593.75 0.0785217342583 161.823779159
594.375 0.0592651764235 -155.869418891
595.0 0.0417758465632 -128.90274056
595.625 0.0586085456366 -103.79912367
596.25 0.0766280699896 -89.4657062041
596.875 0.0692075687552 -72.6587269175
597.5 0.0551258726778 -76.4985274999
598.125 0.0656567034566 -64.3614468791
598.75 0.0793719901767 -60.309030456
599.375 0.0843771565986 -73.0748569671
600.0 0.103729697202 -65.760475035
600.625 0.103918422553 -66.1921108861
601.25 0.0867009416868 -83.3169038711
601.875 0.0707831663853 -91.0536878211
602.5 0.0631473227636 -99.5577147755
603.125 0.0480522680577 -60.5836130662
603.75 0.0381984957391 -27.1911803968
604.375 0.043477355834 -20.6259680636
605.0 0.0462463714695 -43.3351660403
605.625 0.0535487801436 -5.71384216151
606.25 0.0300063560332 11.7661290165
606.875 0.0325731139449 48.6980317516
607.5 0.0571386661715 38.1589400422
608.125 0.0887103688419 33.6612860735
608.75 0.0734149120029 24.3336495349
609.375 0.0732608249053 33.0912783315
610.0 0.0528954834546 26.461664188
610.625 0.0712780237122 43.733033318
611.25 0.0571339910325 35.4426850251
611.875 0.0369132450899 52.9562588253
612.5 0.0182710102751 66.1687167797
613.125 0.0133019719645 120.150333708
613.75 0.0472753000489 120.560227695
614.375 0.0616490859143 124.360757681
615.0 0.0367294038132 110.967984674
615.625 0.0160196688467 134.92360623
616.25 0.0772568292982 132.385962992
616.875 0.0689027343748 128.429824517
617.5 0.0382697074313 115.669643359
618.125 0.0132653941808 116.867398184
618.75 0.0531499097089 140.80180282
619.375 0.0396013039515 144.927708003
620.0 0.00780237259031 105.293049632
620.625 0.0245563135589 -77.2071776116
621.25 0.0411934367215 -101.034911656
621.875 0.0571366122135 -116.650428504
622.5 0.0689783840443 -169.93442036
623.125 0.0648284575185 -174.367423752
623.75 0.0827551198396 158.729223285
624.375 0.0600566338522 171.337008
625.0 0.0561959028962 -153.907342836
625.625 0.0225682080222 -116.488604834
626.25 0.0380703695367 -176.44357624
626.875 0.00700428043999 148.289786389
627.5 0.0245476230586 -45.7727535217
628.125 0.0395332346996 -14.720018333
628.75 0.0368097899714 -20.1748198203
629.375 0.0467791833484 -11.798545156
630.0 0.0624211179811 -1.40905188616
630.625 0.0776553087728 13.3432053019
631.25 0.0719512224194 -21.2627657585
631.875 0.0669304749988 -13.6401355068
632.5 0.0697324548613 -13.4886233088
633.125 0.0486225768426 10.2712663529
633.75 0.045157658397 18.4430981124
634.375 0.0434167616048 4.0782231866
635.0 0.0338087059932 -10.2120444895
635.625 0.0291284564715 11.2501435549
636.25 0.0732133401067 44.3295107863
636.875 0.0577764087317 21.5878780659
637.5 0.0443201628223 37.0926433284
638.125 0.0499700044635 65.7356137295
638.75 0.084102828966 76.0990823248
639.375 0.103843557819 95.2608516251
640.0 0.0708147712621 98.9394224437
640.625 0.0581855903731 104.352920476
641.25 0.063175001549 119.777051989
641.875 0.0738147519492 149.351890608
642.5 0.0530397522752 151.554164252
643.125 0.0565280928032 145.373272631
643.75 0.0766200880688 171.396664762
644.375 0.0738870614866 179.525455937
645.0 0.0774304309084 175.604600489
645.625 0.09399220536 167.311249344
646.25 0.0911167313012 161.115558442
646.875 0.0834939913799 177.906447561
647.5 0.0621550799308 175.694007811
648.125 0.0803328611034 -179.827935435
648.75 0.0734354915886 -170.454088675
649.375 0.0624604645905 -149.922664453
650.0 0.0309633778821 -138.397867944
650.625 0.0573856625302 -95.9162366906
651.25 0.0599735534097 -74.8048892446
651.875 0.0775426414485 -49.0068122998
652.5 0.0743591246439 -29.2251696722
653.125 0.114278609393 -5.28139211671
653.75 0.105047396915 2.99438694403
654.375 0.118744123047 4.78377670528
655.0 0.114891591455 5.81883308825
655.625 0.0865613791469 16.2056083771
656.25 0.0557296025997 10.1538884677
656.875 0.0847129701352 1.79207882184
657.5 0.0656210521479 9.79883575317
658.125 0.0704595692329 40.1950500928
658.75 0.0664990455648 54.1385687055
659.375 0.0866327324886 34.3326296242
660.0 0.126359891563 20.6128766584
660.625 0.109773181804 13.5025684128
661.25 0.112315126502 1.16795030513
661.875 0.122681442963 -15.6380165359
662.5 0.130435080358 -23.6095694206
663.125 0.105465914289 -21.1366536892
663.75 0.111558519891 -1.1381057465
664.375 0.110639853035 50.4031731229
665.0 0.0555752320108 82.308057633
665.625 0.0602253149995 109.400882651
666.25 0.0810196054311 127.738841659
666.875 0.126146238943 162.2407526
667.5 0.0862042479569 -170.416686718
668.125 0.093706059701 179.519928185
668.75 0.126328382388 163.790986936
669.375 0.148146715948 170.302495545
670.0 0.0699443118343 -175.099543995
670.625 0.0791297863396 -173.791037151
671.25 0.105547664431 167.620254659
671.875 0.119117062859 161.037552544
672.5 0.0789879028148 148.98334475
673.125 0.0770368881337 153.973669383
673.75 0.110811152429 154.347083592
674.375 0.121750692317 162.342979996
675.0 0.109039055282 -178.116588985
675.625 0.113570948695 -151.133178674
676.25 0.123604928463 -128.670713484
676.875 0.124939190619 -126.176857717
677.5 0.112044719158 -130.739712002
678.125 0.118231918858 -122.507031672
678.75 0.0717861425106 -100.536580054
679.375 0.0605057932866 -87.2932349959
680.0 0.0663640283159 -77.891755807
680.625 0.11647273571 -84.3571821619
681.25 0.107162675868 -77.7104373059
681.875 0.0990549057062 -96.0019245106
682.5 0.141098544132 -127.904614419
683.125 0.142652803726 -120.762933738
683.75 0.132877496143 -107.233095498
684.375 0.118133905455 -82.1571182978
685.0 0.136982081323 -44.7706265517
685.625 0.114495588826 -3.32907741974
686.25 0.112994063179 16.4971428283
686.875 0.0957291970026 35.9556722866
687.5 0.0884425907641 72.8149131946
688.125 0.0723900779768 109.720642804
688.75 0.0991379974438 108.17945109
689.375 0.148862828151 109.294794821
690.0 0.134709282893 129.341668781
690.625 0.12541247274 119.160889428
691.25 0.139038055579 95.1655994973
691.875 0.17887610792 67.5722290861
692.5 0.149034824724 35.3834012504
693.125 0.10345905902 -25.4744884795
693.75 0.0846613136754 -38.5839776757
694.375 0.131993758128 -33.7517683236
695.0 0.140115669874 0.518590115801
695.625 0.10133273445 50.1218466271
696.25 0.118464850141 102.093734123
696.875 0.130587117827 173.882125305
697.5 0.139325471555 -145.708921177
698.125 0.131854192134 -133.11088418
698.75 0.141822852045 -140.408299034
699.375 0.110305827212 -129.823920419
700.0 0.102181774595 -123.454816745
700.625 0.117729582942 -101.986515079
701.25 0.110896791794 -76.8249539449
701.875 0.081219662606 -64.8873771945
702.5 0.0972342563752 -91.7836830045
703.125 0.167428269719 -127.256394058
703.75 0.200424637193 -165.948843363
704.375 0.121019030288 174.76080029
705.0 0.111202238185 156.896885504
705.625 0.145319445188 178.28477358
706.25 0.152707322662 -123.589481775
706.875 0.0926560117068 -67.0133697126
707.5 0.0792820417778 -42.9112989204
708.125 0.0932227763099 4.94924506866
708.75 0.110027748455 58.3061019087
709.375 0.107665478341 96.1856290603
710.0 0.100223967148 127.353252362
710.625 0.107510323064 156.921309526
711.25 0.117546527647 167.651911462
711.875 0.14232986252 169.571970408
712.5 0.150890843399 138.862191711
713.125 0.134789283578 91.139188106
713.75 0.106328622987 41.9582425164
714.375 0.116100638328 2.79225702614
715.0 0.113069063671 31.6441807564
715.625 0.0877255594421 51.9637941249
716.25 0.0746563313282 72.9157392335
716.875 0.102618577264 86.5971193648
717.5 0.141763426502 137.75882993
718.125 0.121463134259 163.536666193
718.75 0.102697881399 166.091592151
719.375 0.118292576243 -173.798005914
720.0 0.123877233642 -147.470343916
720.625 0.118688513499 -65.6559274811
721.25 0.0980682159863 -25.8912078039
721.875 0.0886067428246 16.5921207871
722.5 0.0741121744942 62.772579045
723.125 0.0828091638593 64.015635201
723.75 0.104646306734 31.8661892238
724.375 0.111645159116 -7.49250199035
725.0 0.0845954562592 -55.7966927206
725.625 0.120884693578 -57.7228689318
726.25 0.120301125157 -70.30212104
726.875 0.102957161157 -50.5303412586
727.5 0.0761986537911 -58.665660627
728.125 0.0744685412483 -4.42438022759
728.75 0.0900259165279 17.290625786
729.375 0.0827512876341 8.27423315769
730.0 0.0712679918065 -2.57284149994
730.625 0.0414300615314 -9.39812682296
731.25 0.10287473576 74.3987505964
731.875 0.0886902399587 115.39667365
732.5 0.0749702690448 156.877793618
733.125 0.0744115964742 162.21527677
733.75 0.107985706678 -174.81555893
734.375 0.0753813335547 162.385844285
735.0 0.0600695389038 141.675767483
735.625 0.0310150472985 111.072785489
736.25 0.0675762323088 141.944457134
736.875 0.066512848921 156.594005808
737.5 0.0770386220254 173.080127456
738.125 0.0557035412835 -178.976321759
738.75 0.112084816066 -167.862247418
739.375 0.0734390573686 -165.770691629
740.0 0.0556812883927 -141.120516186
740.625 0.0386686376034 -155.992341984
741.25 0.0469013149656 -156.752759088
741.875 0.0404154829787 -120.405403905
742.5 0.0570280994341 -34.9479561715
743.125 0.0317580805092 48.8919969748
743.75 0.0270060842824 113.946636482
744.375 0.0316180977624 118.705594783
745.0 0.0475103966246 143.339623537
745.625 0.0579307809454 130.136125472
746.25 0.0667672670657 98.3321988466
746.875 0.0827261802795 31.8126334222
747.5 0.0527386022954 -2.52657594288
748.125 0.0354668516581 -20.7545181483
748.75 0.0266364747497 49.6120789727
749.375 0.0279802104047 -33.6384732585
750.0 0.0339143975301 -93.906362561
