!Created with skrf (http://scikit-rf.org).
# GHz S RI R (50+0j) 
!freq	ReS11	ImS11	
500.0	-0.2799275771	-0.9800661096	
500.625	0.3228459132	-0.4080398054	
501.25	-0.5123170615	-0.8373902275	
501.875	-0.3044726252	-0.05854886724	
502.5	0.03610420427	-0.1232967882	
503.125	-0.08306421865	0.04098169894	
503.75	-0.01730825224	0.001385947116	
504.375	0.05125934512	0.001554601057	
505.0	-0.02902444492	0.003282467014	
505.625	0.0422240461	-0.06724872368	
506.25	-0.1314557658	-0.02358978478	
506.875	0.03051264786	-0.1215087312	
507.5	-0.3466632999	-0.4593104103	
508.125	-0.01278508344	-0.1749840993	
508.75	0.830214527	-0.8790083465	
509.375	-0.3677886178	-0.9918673454	
510.0	-0.276061029	0.0284833151	
510.625	-0.03745064242	-0.2023566796	
511.25	-0.0682123186	0.001959603216	
511.875	-0.04255311654	-0.02597551261	
512.5	-0.0148305696	0.06720904811	
513.125	-0.04977292057	-0.04201294029	
513.75	0.003728197192	-0.05527726589	
514.375	-0.1718488907	0.006046642388	
515.0	0.2883316247	0.07114498355	
515.625	-0.2812575112	-0.5052702425	
516.25	0.09964481448	-0.04709117587	
516.875	-0.1606148223	-0.6829723619	
517.5	-0.1646960669	-0.1325256509	
518.125	0.03910864651	-0.008607192082	
518.75	-0.1399273179	-0.1471059284	
519.375	-0.04966247601	-0.002462690029	
520.0	0.07726638184	0.06288608923	
520.625	0.1654272269	-0.07763534569	
521.25	-0.110086432	-0.1658267557	
521.875	-0.119821747	0.005380831197	
522.5	-0.08587850303	0.02821390615	
523.125	0.05427787528	-0.01091898335	
523.75	-0.1180415267	-0.09588633762	
524.375	-0.1222138348	0.1704211077	
525.0	-0.04823338736	-0.005802362551	
525.625	0.03101386994	0.1338181052	
526.25	-0.02699640334	-0.09702418852	
526.875	-0.01016261061	0.09646117312	
527.5	0.007066318418	0.0669326632	
528.125	-0.04562881918	0.2530685725	
528.75	0.1134439068	0.2457895858	
529.375	0.02931063666	0.1171386087	
530.0	0.06553600886	0.1828944751	
530.625	0.0812488199	0.3570941072	
531.25	0.2709427284	-0.04104362644	
531.875	0.2384622275	-0.05792157427	
532.5	-0.1252021153	-0.04818865075	
533.125	0.1669891839	-0.07377326113	
533.75	-0.0411589237	-0.1246990701	
534.375	0.06415859308	-0.1280394164	
535.0	-0.3027424768	-0.08246687101	
535.625	-0.06201312785	0.1046388807	
536.25	-0.02794409115	0.0805468243	
536.875	0.1152980961	-0.007040878055	
537.5	0.01930229031	-0.01861887126	
538.125	0.1491417976	-0.05229802594	
538.75	0.04476634139	-0.1334206294	
539.375	-0.04047297425	-0.124465361	
540.0	-0.1746477124	-0.1527259233	
540.625	-0.1679915339	-0.007669915399	
541.25	-0.04349545878	0.01504698438	
541.875	-0.08481990554	-0.02025364365	
542.5	-0.01586590539	-0.01262590226	
543.125	-0.03971028547	-0.113016513	
543.75	-0.09633268256	0.06823986356	
544.375	-0.01444185439	-0.0756570492	
545.0	0.01334379561	0.1127289259	
545.625	0.01368246727	0.003390320914	
546.25	0.1172520978	0.09928767441	
546.875	0.082930465	-0.1045113492	
547.5	0.05976197328	-0.05359187697	
548.125	-0.03176394439	-0.203220912	
548.75	-0.1466663512	-0.03892563952	
549.375	-0.034624886	-0.06970318428	
550.0	-0.1143286658	0.02105821675	
550.625	-0.003030218871	0.006630365599	
551.25	-0.09930589316	0.02527004169	
551.875	-0.03782225141	0.09019377891	
552.5	-0.03763766956	0.04976119329	
553.125	-0.004533053558	0.0744537804	
553.75	0.03852057851	0.02790126741	
554.375	0.08797952643	0.00237954287	
555.0	0.07771779497	-0.07915650519	
555.625	0.06354136179	-0.09688512888	
556.25	0.0521258856	-0.1324980899	
556.875	-0.04640632912	-0.1392683288	
557.5	-0.09535335532	-0.07716096289	
558.125	-0.1052538326	-0.02977068116	
558.75	-0.1048303133	0.007760258001	
559.375	-0.08810611152	0.03447472532	
560.0	-0.08628134965	0.06243353027	
560.625	-0.04220644727	0.1179655298	
561.25	0.02528189031	0.06979528625	
561.875	0.007164639194	0.06712085543	
562.5	0.04145871209	0.02092113576	
563.125	0.03961940872	0.08175100581	
563.75	0.1585316265	-0.02809887551	
564.375	0.06062610213	-0.1023141608	
565.0	0.09360105553	-0.1108991653	
565.625	-0.0802517878	-0.1599367062	
566.25	-0.07476267633	-0.05230527601	
566.875	-0.1323432589	-0.1303904291	
567.5	-0.1776585044	-0.03281311816	
568.125	-0.04965628819	-0.1239339908	
568.75	-0.3066087933	-0.08169696866	
569.375	-0.1140095789	0.1584066806	
570.0	-0.1555786723	0.105674774	
570.625	-0.04333904657	0.247609382	
571.25	0.05339217217	0.01492955877	
571.875	0.03851290282	0.1515909692	
572.5	0.1033894269	-0.1020869761	
573.125	0.06366338018	-0.005659905993	
573.75	0.09455101215	-0.2039173896	
574.375	-0.09697533033	-0.02596038112	
575.0	0.1176879644	-0.01640747786	
575.625	-0.04897576126	-0.1065882235	
576.25	0.04857687522	-0.01602125623	
576.875	0.03735409272	-0.1990408046	
577.5	-0.09773836055	-0.1556719056	
578.125	-0.002282625066	-0.06500859433	
578.75	-0.04561400017	-0.2076112862	
579.375	-0.209737492	0.02950653205	
580.0	0.07226318211	-0.05003696165	
580.625	-0.185304802	0.01557971785	
581.25	0.06545182362	-0.007012065615	
581.875	-0.1149370288	0.1755809514	
582.5	0.2046841819	0.1546993236	
583.125	0.004275360315	-0.04682600791	
583.75	0.06636566749	0.1297504481	
584.375	0.04426963831	-0.05262432331	
585.0	0.0669971941	0.1715118033	
585.625	0.2141710695	-0.08083019667	
586.25	0.01924477187	-0.05218355726	
586.875	0.1365166072	-0.09989810436	
587.5	-0.1046227939	-0.1567804576	
588.125	-0.0009936414283	-0.04137420784	
588.75	0.0786741075	-0.1754319057	
589.375	-0.02609397418	-0.1740928026	
590.0	0.01029159119	-0.07448712887	
590.625	-0.2637572252	-0.08225187555	
591.25	-0.0098077099	0.1667064753	
591.875	-0.06727284723	0.006871958844	
592.5	0.03504340716	0.1891413368	
593.125	-0.05255832994	-0.08901041383	
593.75	0.1112149008	0.2409410872	
594.375	0.1355133474	-0.03335521079	
595.0	0.07823361957	0.2104142707	
595.625	0.2454482822	0.06610069844	
596.25	0.1009323557	-0.04878625544	
596.875	0.1465942705	0.1099797293	
597.5	0.1862019154	-0.003998128456	
598.125	0.07551024734	0.04801587191	
598.75	0.2074597266	0.09575153451	
599.375	0.2002380593	-0.1206133324	
600.0	0.1049127447	-0.1128768338	
600.625	0.1634426686	-0.1487233165	
601.25	0.02609427412	-0.2293549107	
601.875	-0.06851876311	-0.03578833873	
602.5	-0.163155147	-0.1160933657	
603.125	-0.0422425477	0.1491979278	
603.75	-0.05791044708	-0.01929466328	
604.375	-0.1993345581	0.1726063626	
605.0	0.09144602103	0.04708687111	
605.625	-0.1963441804	0.07380595135	
606.25	-0.03889142807	0.1526409809	
606.875	-0.1835350251	-0.03585827776	
607.5	-0.2088142009	0.1905143283	
608.125	0.06795382351	0.2022961015	
608.75	0.1060231578	0.0939869086	
609.375	0.192550434	-0.09839692464	
610.0	0.130478594	-0.1322847882	
610.625	0.02486476666	-0.1368555689	
611.25	0.02004516802	-0.1933780303	
611.875	-0.1706782444	-0.1161312119	
612.5	-0.08394993281	-0.1006256873	
613.125	-0.2803483211	0.0217318722	
613.75	0.04751166735	0.1571879303	
614.375	-0.06443804513	0.08356223515	
615.0	0.15616192	0.05061235847	
615.625	-0.09954314341	0.02953867574	
616.25	-0.08082054125	0.2316820686	
616.875	0.06203056482	0.1600743649	
617.5	-0.119299104	0.1284132601	
618.125	0.08569924516	0.1680867918	
618.75	0.0622555253	0.1111950814	
619.375	0.03199265765	0.1505690126	
620.0	0.2336736063	0.004620301913	
620.625	0.07701640976	-0.3060634578	
621.25	-0.06674153773	-0.1135919079	
621.875	-0.2584738724	-0.06858078749	
622.5	-0.1223672854	0.1338630474	
623.125	-0.08009483038	0.04911829463	
623.75	0.2037485642	0.04892988912	
624.375	-0.05200270567	-0.0410243528	
625.0	0.1320946891	-0.04255838752	
625.625	-0.05165098806	-0.08370165585	
626.25	0.01844926495	-0.1056572343	
626.875	-0.191813858	-0.1027448634	
627.5	-0.1257030018	0.02967742804	
628.125	-0.04385996077	-0.1092037623	
628.75	-0.08623288574	-0.1160228933	
629.375	-0.07653517253	-0.09428904475	
630.0	-0.1742886169	-0.1121576134	
630.625	-0.2061873656	0.126113116	
631.25	-0.05039609485	0.1673447325	
631.875	-0.04223040919	0.1887393234	
632.5	0.2496866848	0.2402697646	
633.125	0.1434005592	-0.03221030627	
633.75	0.1659799737	0.05493801711	
634.375	-0.005861173824	-0.2509498545	
635.0	0.008956089811	-0.04343670096	
635.625	-0.2151706502	-0.1727224637	
636.25	-0.06308397695	0.1736189436	
636.875	-0.04238210027	0.03196785599	
637.5	-0.07933435051	0.1716319817	
638.125	0.0480279756	0.02625323635	
638.75	-0.1346267049	0.1640813416	
639.375	0.1168243219	0.2962002676	
640.0	0.1303018775	0.08659345925	
640.625	0.2129578794	0.1965629906	
641.25	0.3072916141	-0.1169366889	
641.875	-0.00174291035	-0.1973204622	
642.5	0.06126054027	-0.1761781441	
643.125	-0.3045876815	-0.1577318477	
643.75	-0.01460271832	-0.00602209158	
644.375	-0.3075851336	-0.124513217	
645.0	0.004808081983	0.3042842796	
645.625	-0.03598228441	0.05007623344	
646.25	0.2576314737	0.1980673355	
646.875	-0.0259850707	-0.2458923333	
647.5	0.06504672296	0.2270974907	
648.125	0.1878085933	-0.125783374	
648.75	0.07995741745	0.02940838065	
649.375	0.3875350094	-0.2767670808	
650.0	-0.03666729544	-0.3799642329	
650.625	0.09159432106	-0.09813376387	
651.25	0.3270738386	-0.2823785468	
651.875	0.07516745286	-0.3298728607	
652.5	0.1571785473	0.0360930175	
653.125	0.354192326	-0.1935302818	
653.75	-0.02484450646	-0.2775186034	
654.375	0.02391573944	-0.1405692037	
655.0	-0.4250086501	-0.1054551589	
655.625	0.007684303131	0.2434358725	
656.25	-0.08492430865	-0.0001521046153	
656.875	0.1784826483	0.235985573	
657.5	-0.07847360189	-0.1284605483	
658.125	0.1951762973	0.3547587046	
658.75	0.3092699293	-0.1706727221	
659.375	0.1357334302	-0.0777769753	
660.0	0.3599337673	-0.3214577874	
660.625	-0.09256325363	-0.4249556182	
661.25	0.1037732016	-0.1093863002	
661.875	0.2719464424	-0.318183138	
662.5	0.1017721816	-0.3084437391	
663.125	0.144818152	-0.07828766543	
663.75	0.1768141401	-0.3991771595	
664.375	-0.2001034477	-0.2104334665	
665.0	-0.1605297835	-0.171071171	
665.625	-0.3586126148	0.1393949837	
666.25	0.06529675155	0.2635868165	
666.875	0.005090970077	0.1279257222	
667.5	0.2801563318	0.09601583785	
668.125	0.1045672662	-0.1214494214	
668.75	0.2264477625	-0.01528507418	
669.375	0.007989269052	-0.3980231617	
670.0	-0.05869293296	-0.05670754862	
670.625	0.1005371496	-0.2143052665	
671.25	-0.1154456371	-0.2674122584	
671.875	0.05409970109	0.005848050648	
672.5	0.3235155468	-0.2800968108	
673.125	0.03709129665	-0.2365679726	
673.75	0.1161178354	-0.1269645622	
674.375	0.06429558208	-0.3206300036	
675.0	-0.2554583534	-0.1265725494	
675.625	-0.0509435662	-0.09048254759	
676.25	-0.26694403	-0.0279215203	
676.875	-0.04968755358	0.1143249126	
677.5	-0.1150306909	-0.05991617335	
678.125	-0.1200130793	0.2769182406	
678.75	0.1501111508	0.07214257358	
679.375	0.09703174898	0.1305525805	
680.0	0.2829829474	-0.2155637079	
680.625	-0.1914466571	-0.05487615456	
681.25	0.2354873829	0.1026995758	
681.875	0.1666116341	-0.1664163713	
682.5	-0.05272703303	0.178480654	
683.125	0.4372225237	0.1940068932	
683.75	0.2061296259	-0.2456286663	
684.375	0.2291961916	0.2994259617	
685.0	0.4033645937	-0.02540271927	
685.625	0.1610715524	-0.1218917551	
686.25	0.2321362369	0.08398118053	
686.875	0.2604595318	-0.368312113	
687.5	0.004411771865	-0.2244720399	
688.125	-0.04961337399	-0.416268582	
688.75	-0.538158682	-0.05265159747	
689.375	-0.01789020977	0.3271973724	
690.0	-0.01547628029	0.3276949787	
690.625	0.4127609686	0.2305446989	
691.25	0.1923828023	0.03186023173	
691.875	0.3948637138	0.4373271678	
692.5	0.7260980947	-0.1177452141	
693.125	0.3237473087	0.03678149578	
693.75	0.7396206983	-0.2754641489	
694.375	0.1964133567	-0.6039527659	
695.0	0.3004432419	-0.07105725749	
695.625	0.6578038562	-0.10695662	
696.25	0.2181030075	-0.008525484308	
696.875	0.3369722798	0.2846389119	
697.5	0.4627769056	0.3467173551	
698.125	0.4842860364	0.09068998766	
698.75	0.184032877	-0.5495733126	
699.375	-0.4295183795	-0.2456927334	
700.0	-0.1369372714	0.4672034429	
700.625	0.06114261162	0.1063072844	
701.25	0.1886894276	0.3198684955	
701.875	0.3064260553	0.01675890834	
702.5	0.1890417903	0.2380876411	
703.125	0.5284767399	0.1036387355	
703.75	0.1873197688	-0.2539761123	
704.375	0.2485394541	-0.02430064932	
705.0	0.2686863533	-0.2747071159	
705.625	0.1287640383	-0.0271981351	
706.25	0.2117054799	0.2717246452	
706.875	0.1395587	0.1583251266	
707.5	0.2404347396	0.2374268541	
708.125	0.4350736809	0.01660924523	
708.75	0.09358802096	-0.4293648659	
709.375	-0.5569162371	-0.06026162408	
710.0	-0.09153185757	0.1277217907	
710.625	0.1976712999	0.1488223379	
711.25	0.01042124045	0.02707668882	
711.875	0.3111489429	0.2238509701	
712.5	0.2510656698	-0.2343646543	
713.125	0.1533243082	-0.03263356695	
713.75	0.1632544363	-0.319934618	
714.375	-0.1292745012	-0.1988531626	
715.0	0.0627787775	-0.1116299427	
715.625	-0.02370170323	-0.3093560258	
716.25	0.02048169885	-0.1924224717	
716.875	0.3259727895	-0.08434511343	
717.5	0.5444204009	-0.1374385559	
718.125	0.3894952539	-0.1404649217	
718.75	0.7447089929	-0.05268852482	
719.375	0.592922718	-0.6382826909	
720.0	-0.1379492567	-0.7449556845	
720.625	0.2540819159	-0.7421321634	
721.25	-0.6015616078	-0.8504735887	
721.875	-0.2956347446	-0.4289051406	
722.5	-0.5709143749	-1.089173432	
723.125	-0.8648966598	0.3392346224	
723.75	-0.08091924246	0.2702629527	
724.375	-0.1109107143	0.6272979048	
725.0	0.4740267605	0.1320042659	
725.625	-0.03562761096	0.2968017615	
726.25	0.05272960029	0.7972100068	
726.875	0.3027975444	0.7930570891	
727.5	-0.1118791737	0.7427249804	
728.125	-0.01952671869	2.166034455	
728.75	1.284363242	2.171401928	
729.375	-0.5424616703	1.75090743	
730.0	0.6943104955	4.501140431	
730.625	2.053847878	2.168322826	
731.25	-0.7619522277	2.292709499	
731.875	-2.035349807	3.64666728	
732.5	-1.008308384	3.385110329	
733.125	-1.620264821	0.1168508393	
733.75	-0.3694535225	1.919050147	
734.375	0.6893002039	-0.3350663046	
735.0	0.1482826795	-0.3385180656	
735.625	-0.8680664579	0.5568872799	
736.25	0.1896754482	0.01895613542	
736.875	0.2828555791	0.761606688	
737.5	1.199177407	-0.4185173983	
738.125	0.3992228383	-0.5834884355	
738.75	2.009957319	-0.2001571596	
739.375	2.090100894	-3.178750315	
740.0	-0.3514473643	-1.447093164	
740.625	2.154949714	2.225930729	
741.25	4.461946615	2.802049489	
741.875	-0.1071042835	-2.115850642	
742.5	-2.528389099	-3.062906683	
743.125	-0.9593676556	-1.118316909	
743.75	0.2189826671	-0.08941777292	
744.375	-0.6849888424	-0.09056259986	
745.0	0.203886716	-0.06365631676	
745.625	0.1026516249	0.06297616043	
746.25	-0.1850939354	-0.09483778257	
746.875	-0.06696692075	0.02242613204	
747.5	-0.1027494513	0.3584726376	
748.125	0.380441879	0.3676405162	
748.75	0.1829194829	0.2270999835	
749.375	0.07424915886	0.5580323411	
750.0	-0.1132901465	0.3220072367	
