!Created with skrf (http://scikit-rf.org).
# GHz S RI R (50+0j) 
!freq	ReS11	ImS11	
500.0	0.7109272366	-1.304360209	
500.625	-0.2505732414	-1.026012989	
501.25	-0.01863584669	-0.6726545983	
501.875	-0.4947830973	-0.6203305717	
502.5	-0.04528297969	-0.05787132891	
503.125	-0.0865403223	-0.02995754839	
503.75	0.06993830932	0.09540151646	
504.375	0.003190128187	0.009280453475	
505.0	0.03218729017	-0.07047243434	
505.625	-0.0233417113	0.00542155509	
506.25	-0.02379416559	-0.1590072034	
506.875	-0.05591884465	0.2485199732	
507.5	0.1945948864	-0.6553183734	
508.125	-0.01938473985	-0.9841321765	
508.75	0.2396344421	-0.4339909835	
509.375	0.4335278509	-1.208474322	
510.0	-0.599244006	-0.11504345	
510.625	-0.01097596118	-0.06487017375	
511.25	-0.2104155573	-0.1130435289	
511.875	-0.1196431525	0.03376214482	
512.5	-0.009174683846	0.01736077974	
513.125	-0.02287769451	-0.1126302485	
513.75	-0.06256752737	0.02029144414	
514.375	-0.01170272517	-0.1195049063	
515.0	-0.2711026623	0.04004521974	
515.625	0.4292052373	-0.4278821077	
516.25	-1.048353415	-0.7224307632	
516.875	0.004214364218	-0.06598345494	
517.5	-0.00863863342	-0.3604637913	
518.125	-0.1053469148	0.01848882616	
518.75	0.07507009122	-0.1674672128	
519.375	-0.03946919037	0.06393342593	
520.0	0.0969436558	0.01005589379	
520.625	0.1357640667	0.01827703078	
521.25	-0.03662865762	-0.3540831724	
521.875	-0.1397724469	0.02619342713	
522.5	-0.03264065409	-0.04090014275	
523.125	-0.08574303874	0.1580888575	
523.75	0.0006885908265	0.008002954492	
524.375	-0.3121591105	-0.01645611379	
525.0	0.1053206318	0.1690755241	
525.625	-0.04710913389	-0.002510511425	
526.25	0.06588741603	0.02697522308	
526.875	-0.1392922824	0.02630126314	
527.5	-0.01454053113	0.3225858969	
528.125	0.1239206869	0.118808272	
528.75	-0.07092194574	0.2554130286	
529.375	0.05031835329	0.0004967849708	
530.0	-0.1279292287	0.08076241105	
530.625	0.1387155408	0.3181999097	
531.25	0.3183722557	-0.1158080237	
531.875	0.01691882316	-0.2305774827	
532.5	-0.1258652403	-0.2098577084	
533.125	0.09950011661	0.1281819998	
533.75	0.1105647396	-0.3353674011	
534.375	-0.2459706476	-0.1753843946	
535.0	-0.1889334258	-0.1822389779	
535.625	-0.1903693889	0.1946499285	
536.25	0.01478224685	0.05853611868	
536.875	0.08483572443	0.06178639468	
537.5	0.06855229734	-0.08393052338	
538.125	0.05976811382	-0.01397611694	
538.75	0.2066038362	-0.1556737274	
539.375	-0.1071769927	-0.1372204252	
540.0	-0.0850245726	-0.1539499664	
540.625	-0.2138382775	-0.05585325428	
541.25	-0.06409264442	0.07816296532	
541.875	0.01330630228	-0.01870556655	
542.5	-0.09526418999	-0.01639345752	
543.125	-0.01770506621	-0.03637163711	
543.75	-0.1597341727	-0.01530129218	
544.375	0.01762976575	0.130513181	
545.0	-0.05617254898	0.06476960536	
545.625	0.115261955	0.04098136745	
546.25	0.00958872995	-0.006066167144	
546.875	0.1961550122	0.006723277632	
547.5	0.007636446941	-0.1497436523	
548.125	0.005265457375	-0.1246623084	
548.75	-0.1610822565	-0.1629929647	
549.375	-0.157525324	0.001187128962	
550.0	-0.053425323	-0.0385460325	
550.625	-0.0724141853	0.05550157119	
551.25	-0.04419695226	0.001145785243	
551.875	-0.1055441357	0.08227098236	
552.5	-0.01075064809	0.08155802872	
553.125	-0.03474459269	0.06241248265	
553.75	0.06334246096	0.03937636359	
554.375	0.08469518607	-0.009183543867	
555.0	0.1059058688	-0.0778495943	
555.625	0.07879976655	-0.1218380945	
556.25	0.05692598772	-0.1444498119	
556.875	-0.04366593884	-0.1672925524	
557.5	-0.1165532301	-0.1094460215	
558.125	-0.1218751376	-0.03282170539	
558.75	-0.1103036177	-0.006514704491	
559.375	-0.1267141533	0.02894172277	
560.0	-0.08503734078	0.08776610197	
560.625	-0.06342042951	0.1052328597	
561.25	0.01495289704	0.132778097	
561.875	0.02975750209	0.005755421485	
562.5	0.01366737021	0.09893789509	
563.125	0.07429108837	0.03123182939	
563.75	0.140469229	0.04328432441	
564.375	0.1586608923	-0.1478706541	
565.0	0.02669493383	-0.1312175957	
565.625	0.01180908009	-0.1844721886	
566.25	-0.1868664468	-0.1050485846	
566.875	-0.08638421738	-0.0408220177	
567.5	-0.1507204605	-0.202509524	
568.125	-0.2075238392	-0.1117487034	
568.75	-0.1530125854	-0.1148306783	
569.375	-0.3074986197	0.1304071308	
570.0	0.02445367446	0.2210045564	
570.625	-0.1083467121	0.1025286425	
571.25	0.04221869546	0.2393557893	
571.875	0.01434264219	0.0007279854835	
572.5	0.2254796703	0.06212277298	
573.125	0.02082132846	-0.1954458118	
573.75	0.04273754858	-0.009341321617	
574.375	0.07285020314	-0.1700962024	
575.0	-0.05385767333	0.03051369448	
575.625	0.1308280792	-0.09751224792	
576.25	-0.03716904067	-0.1723170446	
576.875	0.01493498544	-0.05463675214	
577.5	0.05815784271	-0.2359442677	
578.125	-0.1462419836	-0.1592223889	
578.75	-0.02513335502	-0.00986520708	
579.375	-0.06779227539	-0.1795237658	
580.0	-0.172053487	0.1006229626	
580.625	0.005503349391	-0.1345490764	
581.25	-0.1491289221	0.2377122614	
581.875	0.07145801695	0.07338079997	
582.5	-0.1161434364	0.2315494564	
583.125	0.2028128932	0.1460652665	
583.75	-0.03667443352	-0.06033219614	
584.375	0.09535956509	0.1498752738	
585.0	0.06302786069	-0.05856896671	
585.625	0.1198318868	0.0951984138	
586.25	0.2322032914	-0.1483406424	
586.875	-0.02316977846	-0.1075635886	
587.5	0.07788540855	-0.1997754599	
588.125	-0.10222661	-0.2068022582	
588.75	-0.001413988953	-0.04662984998	
589.375	0.157742089	-0.2008517246	
590.0	-0.1688363613	-0.1690590264	
590.625	-0.09270245767	-0.04374035309	
591.25	-0.2233434915	0.1197875451	
591.875	0.1119864819	0.1901459286	
592.5	-0.1051587531	-0.04115387095	
593.125	0.05971842082	0.1184447509	
593.75	-0.01462339328	0.06117188521	
594.375	0.2089839028	0.1986334437	
595.0	0.1678205972	-0.08481671901	
595.625	0.06717483866	0.1036250723	
596.25	0.2513262172	0.08210533332	
596.875	0.09074406162	-0.02564383459	
597.5	0.1125785256	0.1621043146	
598.125	0.2600487896	0.1122664844	
598.75	0.1128526725	0.04187997956	
599.375	0.2375128341	0.032269005	
600.0	0.1303651342	-0.1828863692	
600.625	0.04219266529	-0.1505592642	
601.25	0.1405662947	-0.173755085	
601.875	-0.1679245489	-0.1830110723	
602.5	-0.05461937368	0.04757836244	
603.125	-0.1907034572	-0.01117856816	
603.75	-0.05951023196	0.1901071118	
604.375	-0.06055451413	-0.05238202206	
605.0	-0.1654063232	0.1247478007	
605.625	0.1196650442	-0.03821624152	
606.25	-0.1986040548	-0.03802113896	
606.875	-0.159461605	0.2248408772	
607.5	-0.06221163062	0.1241477674	
608.125	0.03710716733	0.3693076463	
608.75	0.3101119914	0.1461667281	
609.375	0.2051069794	-0.01851477719	
610.0	0.251198487	-0.09675110308	
610.625	0.1461607753	-0.1295724526	
611.25	0.02035455036	-0.062020896	
611.875	-0.08203462843	-0.2146875351	
612.5	-0.1817261587	0.07591865708	
613.125	-0.09376712058	-0.008218629807	
613.75	-0.1766695267	0.225020727	
614.375	0.15950272	0.04840610878	
615.0	-0.1013269978	0.1032518788	
615.625	0.1430525859	0.1016218216	
616.25	-0.1013060104	0.06976482139	
616.875	-0.1832716846	0.2612002264	
617.5	0.06865818133	0.2530216088	
618.125	-0.0737420475	0.2172361305	
618.75	0.02947266905	0.2642373522	
619.375	0.1826947205	0.08554830537	
620.0	0.1300993779	0.06398798021	
620.625	0.1241159412	-0.1003943749	
621.25	-0.1473178482	-0.1107410544	
621.875	-0.1490770846	-0.1406286901	
622.5	-0.2931233505	0.06321695871	
623.125	0.07603075259	0.2315558803	
623.75	0.02063588624	0.07222671917	
624.375	0.09675613847	-0.1380455667	
625.0	-0.03786525551	0.04019303779	
625.625	0.1105603888	-0.1492045058	
626.25	-0.1492522642	-0.1219318908	
626.875	-0.04901211673	-0.07822499183	
627.5	-0.2251631282	-0.09050032516	
628.125	-0.1345081061	0.02090077915	
628.75	-0.02372802716	-0.1277897243	
629.375	-0.1859849281	-0.1981584781	
630.0	-0.1378018256	-0.01006413313	
630.625	-0.2583756026	0.00791697362	
631.25	-0.1875868656	0.2333791773	
631.875	0.03841006646	0.2118352411	
632.5	0.07371685056	0.1992157866	
633.125	0.3078996056	-0.001146268447	
633.75	0.0754222284	-0.1776590581	
634.375	0.1253162065	-0.1220544589	
635.0	-0.1023227246	-0.2029795367	
635.625	-0.03228123851	0.01061451638	
636.25	-0.2562792068	0.04787945377	
636.875	0.04577652099	0.2466301349	
637.5	-0.03700156487	-0.002591708296	
638.125	-0.1022151778	0.1969980346	
638.75	0.03371598359	0.1034032776	
639.375	-0.1169664205	0.228166425	
640.0	0.2555812406	0.3110389871	
640.625	0.2248794755	0.01712794868	
641.25	0.2350862624	0.08872336064	
641.875	0.2433833475	-0.3013221959	
642.5	-0.09197314701	-0.1287148724	
643.125	-0.01324207902	-0.1727023621	
643.75	-0.2748244866	-0.0005200367907	
644.375	0.05514780109	0.1197263476	
645.0	-0.272295649	0.1623431373	
645.625	0.2076849588	0.1988842431	
646.25	0.02724439384	-0.002041775763	
646.875	0.2527194961	0.1687292842	
647.5	-0.04431769203	-0.1166409225	
648.125	0.2196040249	0.1981486115	
648.75	0.3098962071	-0.3297497651	
649.375	0.07710339715	-0.1461894568	
650.0	0.3452319071	-0.2718411753	
650.625	0.07049690634	-0.4937168486	
651.25	0.03689108144	-0.08190425158	
651.875	0.417582171	-0.1357338585	
652.5	0.2444645277	-0.3442867183	
653.125	0.1346430493	-0.01027284308	
653.75	0.344350314	-0.311018359	
654.375	-0.266034656	-0.3104407698	
655.0	-0.1504481649	-0.07279896389	
655.625	-0.3342459414	0.2016961864	
656.25	0.2803524056	0.2416737633	
656.875	-0.08667988903	0.01634062855	
657.5	0.2422161582	0.2821896116	
658.125	0.1116884852	-0.02120443938	
658.75	0.3147232942	0.2266696872	
659.375	0.3759879968	-0.3217114117	
660.0	0.03939463853	-0.1386498155	
660.625	0.2736716159	-0.3069791518	
661.25	0.1161201029	-0.4618495049	
661.875	0.04401015882	-0.1191016662	
662.5	0.4435695446	-0.1771923553	
663.125	0.2244827655	-0.3605707468	
663.75	0.08703045029	-0.1976573727	
664.375	0.02749890604	-0.4250030176	
665.0	-0.3964856408	-0.07656409414	
665.625	-0.2152741758	0.04367563509	
666.25	-0.1904010658	0.3376075542	
666.875	0.2550542085	0.1842212531	
667.5	0.06155986363	0.09323885988	
668.125	0.344737075	-0.007764869196	
668.75	0.05871003497	-0.2599248131	
669.375	0.1257616366	-0.1257160658	
670.0	0.03238652607	-0.4350364722	
670.625	-0.1554705089	-0.108511159	
671.25	0.2096154064	-0.1640773583	
671.875	0.1197387936	-0.2927498232	
672.5	0.05287204638	-0.05075981973	
673.125	0.3366845186	-0.1002360976	
673.75	0.03062933375	-0.3855959895	
674.375	0.0404014349	-0.1253640818	
675.0	-0.02368264426	-0.319745906	
675.625	-0.3336907255	-0.103686059	
676.25	-0.0308524081	0.02651287551	
676.875	-0.2800160306	-0.07292010721	
677.5	-0.1045512614	0.1560781329	
678.125	-0.1210952849	0.01779585915	
678.75	0.01476658136	0.3784785794	
679.375	0.2644742209	-0.1020780347	
680.0	0.01680491275	0.06554122252	
680.625	0.2302807517	-0.1484171427	
681.25	-0.06099420006	-0.1118399302	
681.875	0.1925852927	0.3090812961	
682.5	0.4234682544	-0.1125370759	
683.125	-0.08791394146	0.1060951998	
683.75	0.2989425585	0.2710463141	
684.375	0.4485669735	-0.1279191929	
685.0	0.04849186874	0.03575376767	
685.625	0.579691317	-0.1475381057	
686.25	0.2420816121	-0.2426260672	
686.875	0.1817483918	-0.03538149167	
687.5	0.4545008807	-0.3910981158	
688.125	-0.1121766246	-0.2949281365	
688.75	-0.2533127909	-0.2408354451	
689.375	-0.4289155601	0.4277456875	
690.0	0.2858581777	0.2989249543	
690.625	0.07847947446	0.2372137921	
691.25	0.5552217338	0.3508936468	
691.875	0.4140792624	0.08876231733	
692.5	0.473467688	0.4325071762	
693.125	0.9108671555	-0.0981141936	
693.75	0.1389617248	-0.2110283088	
694.375	0.5975374961	-0.2070918594	
695.0	0.5571591468	-0.462796685	
695.625	0.2804450024	-0.1125758055	
696.25	0.7306163235	0.3168629606	
696.875	0.603500043	0.21973255	
697.5	0.2404534066	0.3124102469	
698.125	0.6595198608	0.1052772781	
698.75	0.4131642359	-0.5396167653	
699.375	-0.3816544046	-0.1381958212	
700.0	-0.4660668417	0.2567904584	
700.625	0.3626639235	0.3281471911	
701.25	0.1907850615	0.01139113757	
701.875	0.2791620606	0.4025028269	
702.5	0.5136631934	0.07079332272	
703.125	0.2298069846	0.09237270664	
703.75	0.528139412	-0.04426559731	
704.375	0.1992442013	-0.3544083265	
705.0	0.1053680689	-0.01215540209	
705.625	0.4512799549	0.0553677117	
706.25	0.2933258197	-0.0097509396	
706.875	0.2797213385	0.3772328372	
707.5	0.4456518757	0.4349571168	
708.125	0.3972232238	-0.151170719	
708.75	0.320657071	-0.3011637671	
709.375	-0.1883865778	-0.2764351572	
710.0	-0.03772887177	0.2787235023	
710.625	-0.03884394491	0.127790408	
711.25	0.2445386611	0.1808565848	
711.875	0.07988732413	-0.226505727	
712.5	0.3801598224	0.05131318804	
713.125	0.2590402717	-0.3134678016	
713.75	0.002128996597	-0.1623945642	
714.375	0.1493792782	-0.2910062183	
715.0	-0.1594991849	-0.2313461905	
715.625	0.04591805124	-0.09196227373	
716.25	0.2888996364	-0.3307666273	
716.875	0.1813782388	-0.3481018823	
717.5	0.4016279809	0.05498952457	
718.125	0.950453398	0.04277819227	
718.75	0.5533462915	-0.5252674412	
719.375	0.5175441108	-0.307314004	
720.0	0.5194438203	-1.428366196	
720.625	-0.4317296335	-1.110660856	
721.25	0.2148880579	-1.021650201	
721.875	-0.5971730145	-1.260705831	
722.5	-1.132687805	-0.2047210389	
723.125	-0.6949812755	-0.3211781199	
723.75	-0.3803387706	0.6817786399	
724.375	0.2726137706	0.2378130067	
725.0	-0.09206913476	0.4443682393	
725.625	0.5304880447	0.5641893546	
726.25	0.05614246503	0.3584430868	
726.875	-0.3447799332	1.077266728	
727.5	0.2588084365	1.647278359	
728.125	0.4335062598	1.214033869	
728.75	-0.9254993973	2.896032493	
729.375	0.8089314081	4.655924176	
730.0	1.108873053	2.189708068	
730.625	-1.531109464	5.387617239	
731.25	1.458028809	5.301826577	
731.875	-1.868709746	1.224741837	
732.5	-4.171590822	0.9404849193	
733.125	-2.099228482	1.702533546	
733.75	0.2045451676	0.513277934	
734.375	1.190998632	0.6844937473	
735.0	-0.638267652	-0.6274096575	
735.625	-0.1375968519	-0.143379202	
736.25	-0.2216871499	0.9104041634	
736.875	0.7825297102	0.2091274386	
737.5	0.3332191876	0.8760743614	
738.125	2.214380256	-0.5670511972	
738.75	0.6396472531	-1.938494706	
739.375	1.37973476	0.1582178918	
740.0	5.855747998	-1.293158995	
740.625	1.005316199	-3.820248306	
741.25	-4.201598032	2.614925815	
741.875	-4.654845384	2.913105726	
742.5	-0.05242818107	0.03775650968	
743.125	1.066413631	-2.470553649	
743.75	-0.7602285091	-1.427375905	
744.375	-0.2122366848	0.1542444466	
745.0	-0.07069979728	0.2218162211	
745.625	-0.01734863501	-0.0724593031	
746.25	0.1209308181	-0.1565905478	
746.875	-0.3056201803	0.07460032987	
747.5	0.007364946139	0.3014983106	
748.125	-0.09433557056	0.4935430025	
748.75	0.3617714445	0.5554075964	
749.375	0.1851902945	0.2833588611	
750.0	-0.4272557949	0.1580184084	
