!Created with skrf (http://scikit-rf.org).
# GHz S RI R (50+0j) 
!freq	ReS11	ImS11	
500.0	0.2094919483	-1.706150455	
500.625	-0.1264342978	-0.5149499198	
501.25	-0.1890967671	-0.9752426152	
501.875	-0.6483804979	-0.4010053443	
502.5	-0.02826100561	-0.07067265783	
503.125	-0.1022298866	-0.01206185162	
503.75	0.08909017979	0.03672955987	
504.375	0.0260979681	0.02589159268	
505.0	0.007404591111	-0.05228828388	
505.625	0.04725650187	-0.008057969298	
506.25	-0.1531292144	-0.1320273295	
506.875	0.09035419363	0.1125844756	
507.5	0.1016413379	-0.6455672658	
508.125	-0.1163986208	-0.9293824626	
508.75	0.8543187884	-0.388417531	
509.375	0.2212970618	-1.593727195	
510.0	-0.6966947417	-0.08689148651	
510.625	0.001703944683	-0.1760467107	
511.25	-0.1047280718	-0.02576007642	
511.875	-0.0302601238	0.002954355883	
512.5	-0.05029688628	0.06013480438	
513.125	-0.05234636666	-0.09772491638	
513.75	-0.009157732018	0.03247595745	
514.375	-0.04172634941	-0.09998476237	
515.0	-0.122274504	0.3555589451	
515.625	0.250249336	-0.8633976871	
516.25	-0.6399787889	-0.03343931867	
516.875	0.1378916225	-0.2261483799	
517.5	-0.06152090056	-0.328745859	
518.125	-0.01306630179	0.05558827765	
518.75	0.009137299721	-0.2580733038	
519.375	-0.05649544751	0.07154204002	
520.0	0.07175035665	0.03629020018	
520.625	0.1839123068	-0.02602929211	
521.25	-0.1008078319	-0.3534018636	
521.875	-0.06911374677	0.04640518337	
522.5	-0.05428339803	-0.00736573214	
523.125	0.009359493415	0.1327818884	
523.75	0.0072969259	-0.03874962824	
524.375	-0.2910820283	0.1237372443	
525.0	0.1106577889	0.07689864761	
525.625	-0.06416589474	0.05435989777	
526.25	0.07797967123	-0.03135204499	
526.875	-0.1357214585	0.05955598795	
527.5	0.07815640997	0.2163947617	
528.125	-0.05121168041	0.1802772372	
528.75	0.01012865095	0.3208793044	
529.375	0.1219112659	-0.006655530218	
530.0	-0.1620391639	0.1762920827	
530.625	-0.08052645949	0.2728133281	
531.25	0.2506008543	-0.01681118454	
531.875	0.3556506381	-0.05766307714	
532.5	-0.2057413801	-0.1284088177	
533.125	0.04599477024	0.1127525863	
533.75	-0.0186933824	-0.2725063624	
534.375	0.004773392867	-0.1676485936	
535.0	-0.236935113	-0.2154133196	
535.625	-0.1412733389	0.1965538868	
536.25	-0.006854469086	0.05786251948	
536.875	0.1193977653	0.05051252769	
537.5	0.04481746858	-0.07913722105	
538.125	0.1056516484	0.002362963233	
538.75	0.160058021	-0.2000400694	
539.375	-0.07027356472	-0.09310623815	
540.0	-0.130914335	-0.2115400198	
540.625	-0.1973453469	-0.01899445616	
541.25	-0.0196555703	0.01815242583	
541.875	-0.06479055137	-0.07869638601	
542.5	-0.06415435724	0.02319086741	
543.125	0.01490572656	-0.01330202218	
543.75	-0.146245969	0.0014946421	
544.375	0.01223675032	0.01111692628	
545.0	-0.08809166418	0.08213754439	
545.625	0.1089981299	0.01084675433	
546.25	0.01213982447	0.09095107138	
546.875	0.1690882467	-0.07389884807	
547.5	0.009110764114	-0.08554080439	
548.125	0.02848720038	-0.1656228372	
548.75	-0.1829411573	-0.1392602165	
549.375	-0.09039937653	-0.01140366092	
550.0	-0.08225307782	-0.04956747894	
550.625	-0.04971072701	0.0580803228	
551.25	-0.07287818983	-0.00943844577	
551.875	-0.08021423886	0.114016562	
552.5	-0.02270816712	0.05683665832	
553.125	-0.02903807203	0.07298083627	
553.75	0.05379393273	0.03344012477	
554.375	0.09456807577	0.004009370691	
555.0	0.1074704124	-0.08449638776	
555.625	0.07819442096	-0.1174944918	
556.25	0.06449887784	-0.1422752948	
556.875	-0.04281978574	-0.1673341478	
557.5	-0.1080929554	-0.1038506426	
558.125	-0.1198288339	-0.03677847568	
558.75	-0.1164502521	-0.0086787754	
559.375	-0.1193677323	0.03353856752	
560.0	-0.0848272437	0.07379367657	
560.625	-0.07273716565	0.1139265763	
561.25	0.03560151057	0.1161823332	
561.875	0.005421059103	0.02616561981	
562.5	0.04550390419	0.08861685776	
563.125	0.03922917142	0.04112218807	
563.75	0.1756760917	0.02982650457	
564.375	0.1087431583	-0.1487036105	
565.0	0.05899217948	-0.1070562365	
565.625	-0.006707328908	-0.2119394445	
566.25	-0.1552384113	-0.06092058848	
566.875	-0.08892041341	-0.08711641679	
567.5	-0.201552108	-0.1520194347	
568.125	-0.1436635808	-0.09093971914	
568.75	-0.1816915588	-0.1997632053	
569.375	-0.2817647874	0.180855649	
570.0	-0.07171241944	0.1490608781	
570.625	-0.1415424577	0.1828970286	
571.25	0.1255432255	0.1509662278	
571.875	-0.03448640372	0.05934579309	
572.5	0.2261333089	-0.008842057223	
573.125	-0.003505409808	-0.1305956816	
573.75	0.1340914662	-0.01684623182	
574.375	-0.002767077422	-0.1843261923	
575.0	0.02011773699	0.07384612468	
575.625	0.07914401373	-0.1649902653	
576.25	-0.04551091452	-0.07038582298	
576.875	0.08690363545	-0.128864141	
577.5	-0.01448558685	-0.2669461349	
578.125	-0.1390661326	-0.09610861301	
578.75	0.0441871986	-0.08728759941	
579.375	-0.1386975402	-0.1663512656	
580.0	-0.05263652777	0.09444124087	
580.625	-0.09822059185	-0.1284559501	
581.25	0.002496872805	0.2529630757	
581.875	-0.01906891551	0.03545034131	
582.5	0.02185201613	0.2422464398	
583.125	0.1963656694	-0.01627197248	
583.75	-0.09369520933	0.08821864386	
584.375	0.1537343548	0.06557649222	
585.0	0.02239951137	-0.002636665989	
585.625	0.205878041	0.09177599401	
586.25	0.1326523941	-0.1980911541	
586.875	0.02117094196	-0.05158259712	
587.5	0.03957217594	-0.2144783428	
588.125	-0.1223501231	-0.1144573973	
588.75	0.1021137326	-0.09045166569	
589.375	0.08089650298	-0.2573253483	
590.0	-0.1099585717	-0.09067276061	
590.625	-0.1181310204	-0.1268631347	
591.25	-0.2303772546	0.2193124003	
591.875	0.09752332413	0.06172647094	
592.5	-0.1003087865	0.04836365801	
593.125	0.1201525425	0.01613545521	
593.75	-0.08323789572	0.2028601915	
594.375	0.2829024696	0.1193034175	
595.0	0.1287531873	-0.003502603589	
595.625	0.2011836554	0.2007869535	
596.25	0.241475043	-0.03445608372	
596.875	0.0706686025	0.03730088438	
597.5	0.1665393419	0.1778568603	
598.125	0.2184989336	0.03064118227	
598.75	0.1382080364	0.1358732551	
599.375	0.2951407458	-0.02174298724	
600.0	0.09513837536	-0.2293770434	
600.625	0.1132418452	-0.09990878266	
601.25	0.1082226687	-0.2367394842	
601.875	-0.1730414432	-0.1090341471	
602.5	-0.03859008477	-0.03804979934	
603.125	-0.2555435435	0.09808176166	
603.75	-0.002620264571	0.1231620648	
604.375	-0.2121613668	-0.03506149788	
605.0	-0.103807385	0.1966567016	
605.625	0.02759147075	0.001649613723	
606.25	-0.2400827827	0.07255426172	
606.875	-0.01479596614	0.05969095958	
607.5	-0.1748810914	0.07221171908	
608.125	-0.05115150644	0.3464478782	
608.75	0.2568397036	0.08285458732	
609.375	0.2990024157	-0.06654008298	
610.0	0.2567532563	-0.164541941	
610.625	-0.03474180866	-0.1968808276	
611.25	0.09878517613	-0.0942171921	
611.875	-0.06393061261	-0.2038030276	
612.5	-0.08232529206	0.01419109751	
613.125	-0.2464742024	-0.06163451913	
613.75	-0.09991203434	0.2715993991	
614.375	0.06256395058	-0.02253994715	
615.0	0.04127513708	0.1907011868	
615.625	0.1095202069	0.01535497932	
616.25	-0.138994299	0.1124754715	
616.875	-0.1161941939	0.3271348513	
617.5	0.052683813	0.1875964812	
618.125	-0.124696061	0.1942332061	
618.75	0.07566320659	0.1776058799	
619.375	0.09046457878	0.07232231707	
620.0	0.2072151971	0.1399054037	
620.625	0.06319391948	-0.2805079444	
621.25	-0.1132899406	-0.1220462164	
621.875	-0.1779194849	-0.1225369806	
622.5	-0.2928430291	0.1559544139	
623.125	0.03531224265	0.1288425577	
623.75	0.0653616636	0.1446556643	
624.375	0.02059056538	-0.1537856567	
625.0	0.04511313282	0.08708444841	
625.625	0.04919499418	-0.1804437366	
626.25	-0.0688117089	-0.04063362038	
626.875	-0.105715754	-0.1638040666	
627.5	-0.2210427109	-0.02431665716	
628.125	-0.0623914996	0.00187204618	
628.75	-0.03396606431	-0.2091475905	
629.375	-0.1818583216	-0.1177069109	
630.0	-0.1626362785	-0.07583820579	
630.625	-0.2867734269	0.06646110191	
631.25	-0.1241104269	0.2804651584	
631.875	-0.02795144137	0.1643104009	
632.5	0.007056544736	0.2693990026	
633.125	0.2569558366	-0.02802167406	
633.75	0.1123082483	-0.03853825662	
634.375	0.1871591393	-0.1715215837	
635.0	-0.1350835299	-0.1154984681	
635.625	0.01741063517	-0.1542797315	
636.25	-0.2429603674	0.1297224915	
636.875	0.03056996155	0.1104483102	
637.5	-0.1196132613	0.04071641295	
638.125	-0.02244651062	0.2257738361	
638.75	-0.05280179977	0.0622541318	
639.375	-0.05359793573	0.3459609639	
640.0	0.2794995221	0.2314466606	
640.625	0.1707315675	0.06368270194	
641.25	0.3479083599	0.08616618979	
641.875	0.09121420591	-0.3154273197	
642.5	0.02959583661	-0.09838498777	
643.125	-0.04730416892	-0.2747841674	
643.75	-0.1707230376	0.06996083449	
644.375	-0.1672201741	-0.1361732837	
645.0	-0.2211713043	0.2977287386	
645.625	0.2683088489	0.105690386	
646.25	0.03294685072	0.1302176014	
646.875	0.2872931376	-0.03140641642	
647.5	-0.2115530326	-0.004663202464	
648.125	0.3483063486	0.1283841363	
648.75	0.1062354244	-0.2263823848	
649.375	0.2123112034	-0.07157792202	
650.0	0.3031258774	-0.5051321566	
650.625	-0.03560278127	-0.2983362698	
651.25	0.2623027138	-0.01985193146	
651.875	0.4022248302	-0.2905362145	
652.5	0.1180303061	-0.2193428533	
653.125	0.289118795	0.03042236255	
653.75	0.2821974805	-0.4078971101	
654.375	-0.1734230852	-0.173359657	
655.0	-0.1502841682	-0.1862495993	
655.625	-0.2624635995	0.3646352357	
656.25	0.2242908544	0.003049135851	
656.875	-0.07289173795	0.1362224761	
657.5	0.1718978405	0.03265578993	
658.125	-0.05875797497	0.1213886792	
658.75	0.57812607	0.2103374547	
659.375	0.2362118736	-0.3232719292	
660.0	0.1890034012	-0.1715994603	
660.625	0.2668315861	-0.4578915579	
661.25	-0.04521960515	-0.4013355591	
661.875	0.2371646471	-0.07770564258	
662.5	0.3578918454	-0.3046134966	
663.125	0.1429698289	-0.2701578287	
663.75	0.2308078033	-0.1622373167	
664.375	-0.1065954601	-0.4790397144	
665.0	-0.2730904844	-0.0568031626	
665.625	-0.3109285749	-0.01123109117	
666.25	-0.1125303291	0.3981707619	
666.875	0.1810891938	0.09460943332	
667.5	0.0935897066	0.1993192555	
668.125	0.3120575567	-0.1014943717	
668.75	0.03506484349	-0.1109754251	
669.375	0.2239021271	-0.1855373723	
670.0	-0.1414547346	-0.3520989551	
670.625	0.009811279809	-0.06945926315	
671.25	0.1520430381	-0.3461284567	
671.875	0.01304602591	-0.2606516937	
672.5	0.1547664214	-0.04364468189	
673.125	0.3324036503	-0.2521212502	
673.75	-0.008159589125	-0.2246200523	
674.375	0.1075370961	-0.1778453066	
675.0	-0.1163889059	-0.3638561248	
675.625	-0.2803968564	-0.003101225258	
676.25	-0.08550111076	-0.1217296487	
676.875	-0.2919461138	0.06147738869	
677.5	-0.03209169727	0.06269064659	
678.125	-0.2451062721	0.06807487343	
678.75	0.1651299778	0.3289282888	
679.375	0.111926548	-0.05762787972	
680.0	0.2173246308	0.02349718231	
680.625	0.1135516397	-0.2869272173	
681.25	-0.1463600686	0.1275574904	
681.875	0.3807541347	0.1419492269	
682.5	0.2176808874	-0.1558172581	
683.125	0.0853400123	0.1648196093	
683.75	0.4228776315	0.2006376864	
684.375	0.01062701162	-0.205755208	
685.0	0.1685580961	0.2623936424	
685.625	0.485808383	-0.09397143339	
686.25	0.1650926619	-0.1227004254	
686.875	0.4231105481	-0.04917014931	
687.5	0.247976603	-0.5807239122	
688.125	-0.1348491346	-0.2241929854	
688.75	-0.401586726	-0.2980728183	
689.375	-0.3067395284	0.466659953	
690.0	0.2051681693	0.1749567459	
690.625	0.1605250575	0.4572234692	
691.25	0.5468643835	0.1469721897	
691.875	0.2867073698	0.2208920697	
692.5	0.7844616556	0.4547313384	
693.125	0.7409969724	-0.3269686507	
693.75	0.4191769002	-0.128904217	
694.375	0.6243618297	-0.4106476564	
695.0	0.1892116739	-0.4475559263	
695.625	0.3686572358	0.0506068718	
696.25	0.7420065571	0.3157567414	
696.875	0.3117387636	0.2107060521	
697.5	0.24712143	0.4252416349	
698.125	0.4655784534	0.05239990798	
698.75	0.2090171597	-0.6176906752	
699.375	-0.289079031	-0.2898175168	
700.0	-0.3229929004	0.310629384	
700.625	0.287930485	0.1971264659	
701.25	0.07068945674	0.2084722202	
701.875	0.4064897096	0.3755790008	
702.5	0.3458981633	0.009772346925	
703.125	0.3581282539	0.279234927	
703.75	0.5339091839	-0.1755412087	
704.375	0.1016315364	-0.2416518163	
705.0	0.2933817863	0.03584652607	
705.625	0.2798052651	-0.154892631	
706.25	0.1339376628	0.06435540306	
706.875	0.1729507906	0.4340444047	
707.5	0.3396270263	0.2567025391	
708.125	0.4560580509	0.09835967985	
708.75	0.3944405965	-0.4119629738	
709.375	-0.4605034251	-0.2200306005	
710.0	-0.04533556925	0.3822851289	
710.625	-0.003395751138	0.3237526454	
711.25	0.1833480026	-0.04746595639	
711.875	0.1305159701	0.2119667573	
712.5	0.4630215832	-0.01137509287	
713.125	0.1550541624	-0.3505180788	
713.75	0.182446245	-0.1146998075	
714.375	0.02613627794	-0.3729916132	
715.0	-0.1302709341	-0.1352044575	
715.625	0.1498720304	-0.1901035558	
716.25	0.1502552427	-0.380400128	
716.875	0.1388296414	-0.1356740726	
717.5	0.6148781192	0.1441815943	
718.125	0.8397844298	-0.1122785264	
718.75	0.5153807194	-0.2491617896	
719.375	0.7178875003	-0.1479761532	
720.0	0.1202679468	-1.09926957	
720.625	-0.002260810754	-0.5717644015	
721.25	0.2387303169	-1.188430259	
721.875	-0.7428149602	-0.9199270947	
722.5	-0.285056041	-0.6956970488	
723.125	-1.04362732	-0.2905981642	
723.75	-0.2435523129	0.7344696301	
724.375	-0.02951559485	0.1462009029	
725.0	0.1389226295	0.624614367	
725.625	0.4024847122	0.2253506645	
726.25	-0.1743312012	0.5767259413	
726.875	-0.1306057699	1.290505642	
727.5	0.4241283435	1.291987609	
728.125	-0.5285540877	1.420573945	
728.75	-0.2776531562	3.957436981	
729.375	1.189986877	3.663617893	
730.0	-0.9336827437	2.230207299	
730.625	0.8967136446	6.663382159	
731.25	1.204771891	2.548415188	
731.875	-3.204353171	1.946100316	
732.5	-5.279616535	1.386107707	
733.125	-1.511440177	1.410461834	
733.75	-1.19154292	0.8698300341	
734.375	1.521809902	0.3187693753	
735.0	-0.2563138417	-0.2471385765	
735.625	-0.4905811387	-0.1549073117	
736.25	0.225074253	1.036095983	
736.875	0.2315315696	0.1255851671	
737.5	1.389181236	0.9173913302	
738.125	1.827149186	-1.143003626	
738.75	0.5972353913	-1.017633694	
739.375	3.315821198	0.118554266	
740.0	4.484580273	-4.901792859	
740.625	-0.784861709	-0.4264785168	
741.25	-0.2177101258	6.036596389	
741.875	0.8791749947	3.592024911	
742.5	1.376530134	-2.567228296	
743.125	0.1293049156	-3.11393914	
743.75	-0.7043972751	-0.6931013887	
744.375	-0.08285442932	-0.09526532184	
745.0	0.03062914385	0.4112327189	
745.625	-0.05782661644	0.006739702531	
746.25	0.004251154917	-0.2011546889	
746.875	-0.2234671156	0.1777917144	
747.5	-0.09913716609	0.2237921191	
748.125	0.03662895419	0.7381383044	
748.75	0.4245276672	0.429541479	
749.375	0.0762873635	0.3916832694	
750.0	-0.5205768184	0.2724410267	
