!Created with skrf (http://scikit-rf.org).
# GHz S RI R (50+0j) 
!freq	ReS11	ImS11	
500.0	-0.0622928965	-0.7865602295	
500.625	0.1533859217	-0.7625785731	
501.25	-0.2932865776	-0.4619951509	
501.875	-0.2483486618	-0.3004612597	
502.5	-0.04480847042	-0.1075968484	
503.125	-0.05677282578	0.00841050944	
503.75	0.01594538839	0.07024008567	
504.375	0.02202715621	-0.006734865659	
505.0	0.0148282188	-0.01876244999	
505.625	-0.004707981128	-0.03885033002	
506.25	-0.05414938943	-0.04189815925	
506.875	-0.08391009437	0.01354314464	
507.5	-0.08123422888	-0.2590549078	
508.125	0.1193977609	-0.515001193	
508.75	0.4193289497	-0.7441438422	
509.375	-0.1630746492	-0.7109489807	
510.0	-0.2856419217	-0.2498407264	
510.625	-0.111777932	-0.05890252828	
511.25	-0.07330209674	-0.03852507104	
511.875	-0.1039780974	-0.0368469109	
512.5	0.006826406942	0.03798852249	
513.125	-0.006035344598	-0.05733870124	
513.75	-0.04836834094	-0.04492479836	
514.375	-0.04382063312	-0.01463156234	
515.0	-0.001161052452	-0.03623153317	
515.625	0.0005202459506	-0.2504004744	
516.25	-0.1518849124	-0.4629090265	
516.875	-0.1877622283	-0.317848163	
517.5	-0.04996369024	-0.1332401177	
518.125	-0.0217603393	-0.02224688798	
518.75	-0.04584856766	-0.103195685	
519.375	-0.04602997666	0.03222572337	
520.0	0.08539675488	0.03569983019	
520.625	0.1202143282	-0.06019234454	
521.25	-0.03436428479	-0.2021081244	
521.875	-0.1183676187	-0.01081540191	
522.5	-0.03843747244	0.02360841603	
523.125	-0.04748997084	0.02439782493	
523.75	-0.0869868968	0.0003866013979	
524.375	-0.1279306884	0.03960394261	
525.0	-0.02337625824	0.1138345637	
525.625	0.03092508704	0.03501083489	
526.25	-0.01153393308	-0.01015593774	
526.875	-0.03950530455	0.04457613872	
527.5	-0.03128422212	0.1459405479	
528.125	0.05487434346	0.2006089829	
528.75	0.03982689115	0.1607507187	
529.375	0.03889249325	0.04690049018	
530.0	0.03495173676	0.1074866274	
530.625	0.1248515047	0.2207472129	
531.25	0.3294575842	0.02933875409	
531.875	0.1563430833	-0.1761859325	
532.5	-0.06215706621	-0.08192994529	
533.125	0.03748267709	-0.04931970382	
533.75	0.0581391432	-0.1596010151	
534.375	-0.1069249971	-0.2153787854	
535.0	-0.2003389242	-0.06054576746	
535.625	-0.1234990733	0.111552671	
536.25	0.005571431057	0.08154261991	
536.875	0.08038499287	0.008201977982	
537.5	0.05474192902	-0.03965785088	
538.125	0.09364269821	-0.05545320015	
538.75	0.09998493992	-0.1090741193	
539.375	-0.06777197079	-0.1359791376	
540.0	-0.1454617647	-0.1179636023	
540.625	-0.1426274587	-0.01135374704	
541.25	-0.07335458919	0.009383717547	
541.875	-0.0395577953	-0.01463752082	
542.5	-0.04415946139	-0.04084444611	
543.125	-0.07099507888	-0.03085948551	
543.75	-0.07232280332	0.0028406533	
544.375	-0.03571008408	0.03979381443	
545.0	0.0006451985802	0.0506604738	
545.625	0.04882775236	0.04955873001	
546.25	0.08676863633	0.02338937166	
546.875	0.09998653	-0.03264451844	
547.5	0.0493908038	-0.1103854933	
548.125	-0.04604364867	-0.1360501155	
548.75	-0.1121700733	-0.09300788603	
549.375	-0.1008869859	-0.05138258839	
550.0	-0.06589237149	0.01207711274	
550.625	-0.04588188274	0.01166395405	
551.25	-0.06277956148	0.03159375857	
551.875	-0.05604817098	0.06644050742	
552.5	-0.03031128812	0.06952120159	
553.125	-0.005249857413	0.05610897036	
553.75	0.04510008707	0.03434986089	
554.375	0.08212258554	-0.01079085599	
555.0	0.07996813266	-0.07113056389	
555.625	0.06541404339	-0.1029595481	
556.25	0.04555915256	-0.129732086	
556.875	-0.04539546239	-0.1411311447	
557.5	-0.09616429346	-0.0839578243	
558.125	-0.1067150069	-0.02467843581	
558.75	-0.09956139618	0.008173509008	
559.375	-0.09808203142	0.02812616475	
560.0	-0.08109535821	0.07542484266	
560.625	-0.03819414074	0.1035102001	
561.25	0.01315695581	0.08905298887	
561.875	0.03129694638	0.03848457022	
562.5	0.01453795295	0.0465029421	
563.125	0.0688639341	0.05810317443	
563.75	0.125144472	-0.009344268297	
564.375	0.1062624798	-0.09679490356	
565.0	0.05228333778	-0.1371537121	
565.625	-0.0411785231	-0.1365968036	
566.25	-0.1103520977	-0.0872503143	
566.875	-0.1284157885	-0.05796786499	
567.5	-0.1293202105	-0.08543967254	
568.125	-0.1365024346	-0.1244633903	
568.75	-0.2028855168	-0.04520154991	
569.375	-0.1918805667	0.1108629517	
570.0	-0.08342770919	0.1867896062	
570.625	-0.03231108159	0.1565202794	
571.25	0.01383676871	0.1022046879	
571.875	0.05817480286	0.05799525078	
572.5	0.1086469568	-0.0141834227	
573.125	0.06723262337	-0.1044791976	
573.75	0.02728204096	-0.1012248988	
574.375	0.00468978095	-0.06167552712	
575.0	0.02122705454	-0.03619410709	
575.625	0.02750435412	-0.06694977952	
576.25	0.03424001932	-0.09904484549	
576.875	-0.01273965585	-0.1251686601	
577.5	-0.01171216108	-0.1393164777	
578.125	-0.05040028661	-0.1354825305	
578.75	-0.0846078303	-0.100594927	
579.375	-0.08147787328	-0.05027867082	
580.0	-0.04899333368	-0.02180267675	
580.625	-0.06403720274	-0.01707444215	
581.25	-0.08194366959	0.07590289208	
581.875	0.01987720969	0.1360238669	
582.5	0.0584045642	0.1190259569	
583.125	0.07053927167	0.0635616118	
583.75	0.03680366073	0.01527292358	
584.375	0.03419333994	0.04665704668	
585.0	0.1007374412	0.04125920108	
585.625	0.1348257554	-0.01559500822	
586.25	0.124715623	-0.06881167154	
586.875	0.04974124828	-0.1248157672	
587.5	-0.02516711153	-0.1204842096	
588.125	-0.02580330438	-0.1201896945	
588.75	0.01752638505	-0.1283513976	
589.375	0.04432490646	-0.1393409922	
590.0	-0.06797184351	-0.1449471173	
590.625	-0.1640984921	-0.01411219952	
591.25	-0.09914858849	0.1122629553	
591.875	-0.01958626283	0.1069325637	
592.5	0.01164677109	0.04310971228	
593.125	-0.02081460535	0.04583502508	
593.75	0.05561776728	0.0991311587	
594.375	0.1366208214	0.07771083523	
595.0	0.1515229871	0.07896463747	
595.625	0.1514255178	0.05938455321	
596.25	0.1407266586	0.0268225428	
596.875	0.1388696925	0.02023055293	
597.5	0.1339139203	0.05803632184	
598.125	0.1394727277	0.08275612854	
598.75	0.1627244348	0.05220550996	
599.375	0.1788631741	-0.05416590326	
600.0	0.1284454285	-0.1426327206	
600.625	0.1048671969	-0.1666454643	
601.25	0.04400596714	-0.1713912675	
601.875	-0.08184360271	-0.1170257631	
602.5	-0.1142710087	0.001271215303	
603.125	-0.08872400354	0.05395402047	
603.75	-0.08510855478	0.07237092561	
604.375	-0.07867933019	0.07306900501	
605.0	-0.05467826596	0.07174139685	
605.625	-0.05780050557	0.05955976376	
606.25	-0.09271010515	0.06408090788	
606.875	-0.1406990321	0.09080218553	
607.5	-0.1223536164	0.1695727229	
608.125	0.005621050602	0.2146998739	
608.75	0.1818881163	0.121101387	
609.375	0.2011567323	-0.06126073744	
610.0	0.130092436	-0.1271469928	
610.625	0.05510512508	-0.1495345968	
611.25	-0.01502744588	-0.1399092678	
611.875	-0.08921631469	-0.09920787215	
612.5	-0.1493651988	-0.0407608956	
613.125	-0.1648146856	0.04968773326	
613.75	-0.06745710617	0.1365689578	
614.375	0.05136172985	0.0926048806	
615.0	0.03885849354	0.03565457471	
615.625	0.002348163351	0.07533044553	
616.25	-0.03103272711	0.1287564627	
616.875	-0.06010938789	0.1706211814	
617.5	-0.04181845155	0.1982239429	
618.125	0.007819743501	0.1918300833	
618.75	0.04785801244	0.162571883	
619.375	0.1049542066	0.1299892135	
620.0	0.1749981748	0.01010862868	
620.625	0.07177644976	-0.1562682037	
621.25	-0.1062744062	-0.1483390674	
621.875	-0.1909407901	-0.04857401081	
622.5	-0.1818296996	0.08024719877	
623.125	-0.00839018648	0.1692345489	
623.75	0.1222640649	0.01916751224	
624.375	0.0277045026	-0.05308024387	
625.0	0.03113450323	-0.02843730679	
625.625	0.03419457213	-0.08472938548	
626.25	-0.05506123349	-0.116018138	
626.875	-0.1297785938	-0.0669583909	
627.5	-0.1317315885	-0.03012421333	
628.125	-0.1030194679	-0.05359944682	
628.75	-0.07268568276	-0.1025154952	
629.375	-0.09498467498	-0.1235849907	
630.0	-0.175743155	-0.06317323493	
630.625	-0.1854657021	0.0909699153	
631.25	-0.09411567486	0.1945818363	
631.875	0.01898130543	0.2209535767	
632.5	0.1604930369	0.1466100073	
633.125	0.1929679011	0.01026557288	
633.75	0.1346214068	-0.08968037315	
634.375	0.03134996665	-0.1307883382	
635.0	-0.04075035419	-0.1275592671	
635.625	-0.1429206144	-0.05296565612	
636.25	-0.1261211541	0.08864783473	
636.875	-0.03749377407	0.121372222	
637.5	-0.01616214821	0.08414971648	
638.125	-0.0445990093	0.08783408668	
638.75	-0.03773669	0.1552588356	
639.375	0.03640280131	0.2173674211	
640.0	0.159093474	0.1909692565	
640.625	0.2321031392	0.09017312624	
641.25	0.2403137452	-0.05147576577	
641.875	0.1162624814	-0.1933496907	
642.5	-0.04637865435	-0.1856504619	
643.125	-0.1277344092	-0.08404895398	
643.75	-0.1288690711	-0.04178175839	
644.375	-0.1556577172	0.02745615197	
645.0	-0.1085025032	0.1583089097	
645.625	0.07938822541	0.1828155025	
646.25	0.157915143	0.04531937972	
646.875	0.08566213461	-0.02911750978	
647.5	0.05270112342	0.02140054912	
648.125	0.1465020408	0.02736542658	
648.75	0.2231522634	-0.08918937121	
649.375	0.1710064542	-0.2363527289	
650.0	0.1103469668	-0.2811414392	
650.625	0.1044662529	-0.2647740042	
651.25	0.1442080697	-0.2283921202	
651.875	0.1959666025	-0.1787472334	
652.5	0.2235272864	-0.1311387888	
653.125	0.207280381	-0.1487150626	
653.75	0.1125190958	-0.2417352844	
654.375	-0.1241297209	-0.2464055848	
655.0	-0.2683320386	-0.01203073454	
655.625	-0.1137026058	0.1962801051	
656.25	0.06291603449	0.1447544162	
656.875	0.05819272909	0.04934740117	
657.5	0.05093246617	0.08258018565	
658.125	0.1513128948	0.1149697279	
658.75	0.2680283295	0.02154458713	
659.375	0.2610221695	-0.173416582	
660.0	0.1537903709	-0.288315386	
660.625	0.07559644929	-0.30572076	
661.25	0.1004821596	-0.2770821177	
661.875	0.1528773151	-0.2463286088	
662.5	0.1939583471	-0.2130836068	
663.125	0.1908848771	-0.2136686054	
663.75	0.08463738427	-0.2738317974	
664.375	-0.09702764311	-0.2755290715	
665.0	-0.2677429601	-0.1313924991	
665.625	-0.2570858527	0.1328748033	
666.25	-0.04044298925	0.2535300702	
666.875	0.1382717246	0.1604715878	
667.5	0.1763523489	0.04916288742	
668.125	0.1873915465	-0.0481991212	
668.75	0.1446950586	-0.1532268962	
669.375	0.05358064444	-0.208163861	
670.0	-0.02189719365	-0.1955626832	
670.625	-0.01612064346	-0.1668971569	
671.25	0.03253523685	-0.160326325	
671.875	0.09943815617	-0.1630568465	
672.5	0.1543161191	-0.1581055102	
673.125	0.1510170963	-0.1838680872	
673.75	0.09568715803	-0.2178104605	
674.375	-0.006740973459	-0.2333419727	
675.0	-0.1231289478	-0.1879106729	
675.625	-0.1868298915	-0.07386711931	
676.25	-0.1620253041	0.01444422564	
676.875	-0.1248943548	0.0392602484	
677.5	-0.1230248528	0.05806872804	
678.125	-0.08358072635	0.1515594278	
678.75	0.08126850128	0.1839760673	
679.375	0.1965128154	0.02175452369	
680.0	0.115369419	-0.1056929283	
680.625	0.04903319869	-0.08015623796	
681.25	0.07825785192	-0.02159035318	
681.875	0.1351033182	0.02846815266	
682.5	0.1853049491	0.0580329636	
683.125	0.2200362089	0.04085968167	
683.75	0.23869573	0.02757782484	
684.375	0.2477119351	-0.0001067196627	
685.0	0.250412645	-0.00805344152	
685.625	0.2512084087	-0.04475520562	
686.25	0.2482550733	-0.09295909516	
686.875	0.2258965925	-0.1927048595	
687.5	0.1391188866	-0.3130988845	
688.125	-0.136121403	-0.3601077812	
688.75	-0.3992225453	-0.04921157964	
689.375	-0.1658193416	0.3384074336	
690.0	0.1632416	0.2823647518	
690.625	0.2490088163	0.1757642434	
691.25	0.3128058685	0.1917174032	
691.875	0.4275929775	0.2165803986	
692.5	0.5484924136	0.1201409108	
693.125	0.5770143781	-0.09318503483	
693.75	0.4858694857	-0.2765688625	
694.375	0.3369461518	-0.3874464878	
695.0	0.3556366294	-0.3000959886	
695.625	0.4210843267	-0.1399744261	
696.25	0.4454183843	0.05667658613	
696.875	0.4096633037	0.2341369696	
697.5	0.4300712727	0.2607522662	
698.125	0.5234070088	0.006827318512	
698.75	0.2047100499	-0.4698090117	
699.375	-0.4373956608	-0.1820845171	
700.0	-0.1297286966	0.3659222425	
700.625	0.1823791737	0.2149831356	
701.25	0.2174544926	0.1205032943	
701.875	0.2527800207	0.1723966256	
702.5	0.3243511373	0.1683720608	
703.125	0.376520254	0.0560798796	
703.75	0.3272710246	-0.1278989734	
704.375	0.2260697536	-0.1933235581	
705.0	0.1948371727	-0.1376987548	
705.625	0.2294915642	-0.01774071839	
706.25	0.2349221019	0.1231473068	
706.875	0.2456050506	0.2101299034	
707.5	0.3006967539	0.2153920278	
708.125	0.3939461413	-0.02852342306	
708.75	0.1185626949	-0.3654149501	
709.375	-0.3066315959	-0.1314198028	
710.0	-0.08039322145	0.2284185055	
710.625	0.10004998	0.104780503	
711.25	0.1070987587	0.07149440355	
711.875	0.1994998673	0.05326767229	
712.5	0.2595086008	-0.07504866692	
713.125	0.2004477781	-0.1896350987	
713.75	0.08409389045	-0.2344910517	
714.375	-0.01683568062	-0.2097871427	
715.0	-0.03866699177	-0.1763036986	
715.625	0.0007736027176	-0.1889285571	
716.25	0.1158053409	-0.2147289928	
716.875	0.2636568758	-0.1836067623	
717.5	0.4140594882	-0.1067815978	
718.125	0.5415305088	-0.09547504197	
718.75	0.5760245765	-0.2661775287	
719.375	0.4700278142	-0.5340576177	
720.0	0.1548732373	-0.7487147873	
720.625	-0.07855281556	-0.7793045306	
721.25	-0.2788788381	-0.7505026406	
721.875	-0.4224322272	-0.7460347179	
722.5	-0.6889346172	-0.4572991254	
723.125	-0.6732581011	0.09987824723	
723.75	-0.230992075	0.4591311418	
724.375	0.1057040977	0.3875261553	
725.0	0.1826372838	0.301557388	
725.625	0.169314556	0.3783350263	
726.25	0.08154057793	0.5622655565	
726.875	0.02974619061	0.7862168406	
727.5	0.0821762879	1.130443342	
728.125	0.3113484777	1.554134083	
728.75	0.2612338833	2.112998842	
729.375	0.1763671215	2.695677041	
730.0	1.025162588	2.897745956	
730.625	1.050022208	3.106757736	
731.25	0.1056299018	2.866176002	
731.875	-1.339016993	2.680344406	
732.5	-2.204417486	1.502277979	
733.125	-1.610930991	1.035642901	
733.75	-0.1937110067	1.251610375	
734.375	0.7949071171	0.0117133201	
735.0	-0.2112343199	-0.4753806345	
735.625	-0.3664288987	0.1986794129	
736.25	0.03290186862	0.4484088259	
736.875	0.4281595916	0.3980755903	
737.5	0.8722132586	-0.002143440255	
738.125	1.12122939	-0.5248612805	
738.75	1.262431968	-1.097396673	
739.375	1.617377304	-1.460600198	
740.0	1.907628025	-1.475778478	
740.625	2.306551822	-0.4968342706	
741.25	0.7051721791	1.531997852	
741.875	-1.684879409	0.3612307066	
742.5	-1.223468167	-1.299973685	
743.125	-0.2547160027	-1.519280629	
743.75	-0.3178003335	-0.7323705471	
744.375	-0.3440166534	0.05369342797	
745.0	0.09380890076	0.06159901745	
745.625	0.03768667468	-0.02322871549	
746.25	-0.04200929343	-0.1005673427	
746.875	-0.1747073488	0.04276404783	
747.5	-0.03639646006	0.2814498277	
748.125	0.1614519604	0.4201024165	
748.75	0.2679614706	0.3418454002	
749.375	0.1568334931	0.3629430177	
750.0	-0.2912813493	0.2396148696	
