!Created with skrf (http://scikit-rf.org).
# GHz S RI R (50+0j) 
!freq	ReS11	ImS11	
500.0	0.2630749154	-0.990101771	
500.625	-0.3203276421	-0.9256652964	
501.25	0.04426556886	-0.3819993891	
501.875	-0.4189039612	-0.552411712	
502.5	-0.06039224411	-0.04278027979	
503.125	-0.06169886211	-0.03119491838	
503.75	0.06026622738	0.1000211498	
504.375	-0.008630126407	0.02301396905	
505.0	0.0364824293	-0.0521300954	
505.625	-0.03086894387	0.005017509659	
506.25	-0.02706270453	-0.1437709611	
506.875	0.03379498071	0.2211283757	
507.5	0.1700026112	-0.3749140469	
508.125	-0.08856731325	-0.8249190991	
508.75	0.02843667729	-0.4963927511	
509.375	0.2566653766	-1.014855932	
510.0	-0.5163971349	-0.1750259266	
510.625	-0.02727316575	-0.05672507668	
511.25	-0.07644559592	-0.09459211791	
511.875	-0.101812691	0.0127105208	
512.5	0.01040013342	0.03136983105	
513.125	0.001089596092	-0.09153579079	
513.75	-0.06784288388	0.0232580888	
514.375	0.02096229911	-0.07343806263	
515.0	-0.2461059486	0.01163678107	
515.625	0.5584816058	-0.3671576486	
516.25	-0.8399704717	-0.5793922797	
516.875	-0.1281622676	-0.01795310446	
517.5	0.07395443616	-0.260032355	
518.125	-0.03325965492	0.05845696219	
518.75	0.00402524581	-0.169616818	
519.375	-0.0503628292	0.05157618848	
520.0	0.08586318607	-0.0007809840255	
520.625	0.1245266723	-0.03118231201	
521.25	-0.0409658249	-0.2216659733	
521.875	-0.1265563413	0.0455069789	
522.5	-0.02250612588	-0.0155952755	
523.125	-0.1021900024	0.03382112465	
523.75	-0.005948523941	0.0219286118	
524.375	-0.2122654395	-0.06999502758	
525.0	0.07716919133	0.186601918	
525.625	-0.02017362519	-0.02691678553	
526.25	0.06080905127	0.02561753316	
526.875	-0.08760798627	-0.008463039354	
527.5	-0.03423479604	0.262126239	
528.125	0.1057929453	0.09103915075	
528.75	-0.02828712406	0.232163049	
529.375	0.08505037384	0.01387257361	
530.0	0.03922811572	0.1847668487	
530.625	0.1450645143	0.271729063	
531.25	0.4535353233	0.1192058015	
531.875	0.1059380749	-0.1757216993	
532.5	0.003050949879	-0.1420750368	
533.125	-0.01564974826	0.02528269774	
533.75	0.2254437342	-0.2044828067	
534.375	-0.1925299041	-0.1939339791	
535.0	-0.1414318462	-0.08359561863	
535.625	-0.1871212018	0.1260540837	
536.25	0.04497179474	0.06562333288	
536.875	0.05934683169	0.04333881329	
537.5	0.07060899806	-0.06834536042	
538.125	0.04100587608	-0.03312803789	
538.75	0.1510864635	-0.1105152076	
539.375	-0.1068198829	-0.1162151595	
540.0	-0.08757148544	-0.1084942522	
540.625	-0.1725603575	-0.04062444783	
541.25	-0.1038648426	0.01769553067	
541.875	-0.01024191534	-0.003925532745	
542.5	-0.07165087119	-0.108110951	
543.125	-0.04932733007	0.0006060224174	
543.75	-0.0676387392	-0.1146331296	
544.375	-0.01913918268	0.1119740874	
545.0	-0.033429191	0.01455100533	
545.625	0.1135685357	0.08920090565	
546.25	0.03139384846	-0.02450019348	
546.875	0.1391372754	0.01851786042	
547.5	0.01777744551	-0.1560728203	
548.125	-0.01961540831	-0.0834495925	
548.75	-0.1012216037	-0.1605061463	
549.375	-0.1450645557	-0.0154195672	
550.0	-0.02795794391	-0.01610482649	
550.625	-0.08022733838	0.0348404865	
551.25	-0.03277614044	0.01627765403	
551.875	-0.08583795518	0.06117814646	
552.5	-0.01320404244	0.08159634332	
553.125	-0.0169654924	0.04639982225	
553.75	0.05543591724	0.04423123338	
554.375	0.07358905893	-0.01542934351	
555.0	0.08725897583	-0.0644389557	
555.625	0.0672123576	-0.1099732952	
556.25	0.04202554802	-0.1258292402	
556.875	-0.03710767026	-0.1390365414	
557.5	-0.09702812575	-0.09060303138	
558.125	-0.1072901386	-0.02186574505	
558.75	-0.0928451893	0.001319821475	
559.375	-0.108001931	0.02408856638	
560.0	-0.07299016866	0.0839601585	
560.625	-0.04566832479	0.08228235912	
561.25	0.005725811538	0.1162439254	
561.875	0.04109757149	0.008202441588	
562.5	-0.005410950528	0.0804500266	
563.125	0.08717613147	0.02325129248	
563.75	0.100066391	0.02651959448	
564.375	0.1449519943	-0.1162482949	
565.0	0.01107198216	-0.1363182974	
565.625	0.009309697991	-0.1173539967	
566.25	-0.1651562425	-0.1274895223	
566.875	-0.09652465198	-0.006993878382	
567.5	-0.09596775741	-0.1614825732	
568.125	-0.2324454696	-0.1058352846	
568.75	-0.1094629172	-0.0411866718	
569.375	-0.330029427	0.09032289922	
570.0	0.0009408587084	0.2343201123	
570.625	-0.08813446981	0.04196722213	
571.25	-0.003046200935	0.2020443909	
571.875	0.02959470113	-0.04247223248	
572.5	0.161862229	0.07902777431	
573.125	0.02429372579	-0.2044747895	
573.75	-0.008657696312	-0.003094970697	
574.375	0.1012655646	-0.1291645731	
575.0	-0.07812289925	-0.01042321768	
575.625	0.1217198451	-0.06523286444	
576.25	-0.01119579726	-0.1708003815	
576.875	-0.02602033878	-0.04343774189	
577.5	0.08022205583	-0.1585497186	
578.125	-0.1369015402	-0.1980829626	
578.75	-0.06957604851	0.01252989213	
579.375	-0.009408273186	-0.1452302635	
580.0	-0.1778986351	0.03225971063	
580.625	0.08169402893	-0.1230598572	
581.25	-0.1763947461	0.1832740367	
581.875	0.1331951348	0.006713597628	
582.5	-0.09584612345	0.1139992715	
583.125	0.1584110328	0.1673987672	
583.75	-0.02898050589	-0.09929636775	
584.375	0.08673396168	0.1555999252	
585.0	0.103512466	-0.0654749426	
585.625	0.07299596008	0.07285496309	
586.25	0.2278602448	-0.1000498143	
586.875	-0.0403916091	-0.07951118005	
587.5	0.06756714452	-0.1145500194	
588.125	-0.0685158727	-0.1950820065	
588.75	-0.03528290801	-0.05792364573	
589.375	0.1432844529	-0.1298352156	
590.0	-0.1530802009	-0.1752351121	
590.625	-0.07289879093	0.00680345499	
591.25	-0.2011650503	0.05290621916	
591.875	0.06733263112	0.2190504732	
592.5	-0.04936090121	-0.07683853796	
593.125	0.04089347158	0.142185302	
593.75	-0.02407946318	0.01589319441	
594.375	0.2080506548	0.2083419412	
595.0	0.21365785	-0.04448285707	
595.625	0.03794914849	0.07967223359	
596.25	0.2328043645	0.06094064967	
596.875	0.1071215729	-0.04936275373	
597.5	0.06381153285	0.107234659	
598.125	0.2178725037	0.1190878324	
598.75	0.1192366268	-0.0006867480527	
599.375	0.2269916642	-0.01616733937	
600.0	0.1460569017	-0.1868930633	
600.625	0.0513468747	-0.1570517616	
601.25	0.1036784485	-0.1214869477	
601.875	-0.1163368065	-0.1865991573	
602.5	-0.05981149173	0.06095212202	
603.125	-0.1367484482	-0.0382652299	
603.75	-0.05708062478	0.226952058	
604.375	-0.00512418771	-0.02071302266	
605.0	-0.1791405614	0.1374522775	
605.625	0.07816501045	0.08294577289	
606.25	-0.19834072	-0.02830062043	
606.875	-0.1614459553	0.2074401835	
607.5	-0.1462280524	0.04972411906	
608.125	-0.04336914296	0.2883976892	
608.75	0.1695462476	0.07295148418	
609.375	0.1575907092	-0.03871916192	
610.0	0.1459432681	-0.1271393287	
610.625	0.05396611318	-0.1701906811	
611.25	-0.04208755211	-0.1183789436	
611.875	-0.06259311701	-0.1647711243	
612.5	-0.2544494894	-0.04619006243	
613.125	-0.08392787932	0.01619558279	
613.75	-0.1592095388	0.153913827	
614.375	0.1649337285	0.08430471081	
615.0	-0.09663236536	0.04368741607	
615.625	0.1147140614	0.1357908941	
616.25	-0.04943139215	0.02008833785	
616.875	-0.09283553539	0.2581348031	
617.5	0.04726948813	0.1798899106	
618.125	-0.05232585129	0.1323409273	
618.75	0.05497932278	0.2205401827	
619.375	0.03674146678	0.1575669866	
620.0	0.2189077429	-0.02677817322	
620.625	0.07717881755	-0.1084726227	
621.25	-0.1350221913	-0.1437489715	
621.875	-0.1262970279	0.01596693936	
622.5	-0.2396142987	-0.02719044487	
623.125	0.04452138779	0.2245000988	
623.75	0.04485908463	-0.01716450046	
624.375	0.1487329392	-0.06275724071	
625.0	-0.04663192474	-0.007565297749	
625.625	0.110163315	-0.09027690364	
626.25	-0.1352102309	-0.1335404743	
626.875	-0.05777499211	-0.02638706314	
627.5	-0.1733654464	-0.09668567108	
628.125	-0.1276140907	-0.02019204619	
628.75	-0.03215429443	-0.09696363154	
629.375	-0.1251050935	-0.164885082	
630.0	-0.1811012818	-0.04186887997	
630.625	-0.1168127791	0.08496354346	
631.25	-0.1457935591	0.1768223311	
631.875	0.06247790649	0.2611158197	
632.5	0.1092781103	0.10997506	
633.125	0.2813807951	0.1622730141	
633.75	0.09046452158	-0.1754756488	
634.375	0.07045324865	-0.05426596202	
635.0	-0.08745068562	-0.2661541385	
635.625	-0.09343378759	0.05092374903	
636.25	-0.1997441536	-0.02070042222	
636.875	-0.01515918539	0.2327173047	
637.5	0.01895839006	-0.004248955119	
638.125	-0.1331298422	0.1375623623	
638.75	0.08676469864	0.1705186839	
639.375	-0.06408758516	0.155094793	
640.0	0.1944234879	0.2886371018	
640.625	0.2508934104	0.008741381135	
641.25	0.1587351474	0.009616969121	
641.875	0.2263746959	-0.2159516115	
642.5	-0.144351034	-0.1961499048	
643.125	-0.0220315668	-0.07479986186	
643.75	-0.2887497712	-0.1784229358	
644.375	-0.02460220331	0.1749511844	
645.0	-0.2434486034	0.02085822944	
645.625	0.2081581382	0.3165948862	
646.25	0.02654563412	-0.1328431777	
646.875	0.124898106	0.163448582	
647.5	0.06474587661	-0.1982572363	
648.125	0.1043042001	0.2605267665	
648.75	0.3469952027	-0.2500043458	
649.375	0.009517210583	-0.1862541129	
650.0	0.2458987336	-0.1577912528	
650.625	0.1336255934	-0.492455782	
651.25	-0.03436189187	-0.1502474303	
651.875	0.3445343173	-0.04146102354	
652.5	0.285565669	-0.2795437594	
653.125	0.06292114822	-0.1084650543	
653.75	0.2854169436	-0.1959979391	
654.375	-0.2406018673	-0.3250217194	
655.0	-0.143290254	0.04581991998	
655.625	-0.2904076107	0.03680612452	
656.25	0.2086659185	0.30058253	
656.875	-0.08434253459	-0.101299823	
657.5	0.1399573982	0.270189759	
658.125	0.1696785241	-0.06374634737	
658.75	0.137767581	0.2163595292	
659.375	0.447778214	-0.3855232869	
660.0	-0.03894565746	-0.2214445393	
660.625	0.2219738905	-0.2126748183	
661.25	0.129226061	-0.4254283518	
661.875	-0.01942090262	-0.2007275682	
662.5	0.3376771362	-0.09273354669	
663.125	0.2025239574	-0.3561913159	
663.75	0.01497317599	-0.1823807402	
664.375	0.03202111389	-0.3534761847	
665.0	-0.3928564974	-0.1164397194	
665.625	-0.1469554076	0.1037340231	
666.25	-0.1644841449	0.243517918	
666.875	0.2358860717	0.1954984271	
667.5	0.05972118733	-0.01471289361	
668.125	0.32996255	0.06483165242	
668.75	0.07067361206	-0.2677518298	
669.375	0.06622328367	-0.04764838101	
670.0	0.08888751633	-0.3423982469	
670.625	-0.2364336067	-0.09561166167	
671.25	0.1807135492	-0.05483829007	
671.875	0.06126881351	-0.3356825637	
672.5	0.03066592208	-0.1245420622	
673.125	0.2666776758	-0.07463929605	
673.75	0.0828962267	-0.3661251102	
674.375	-0.05207636027	-0.1099648867	
675.0	-0.02030334836	-0.2572382379	
675.625	-0.2974245328	-0.08038085882	
676.25	-0.0350918722	0.06911884097	
676.875	-0.1952748306	-0.09021696594	
677.5	-0.1190126456	0.1707765389	
678.125	-0.05317211656	0.04700888117	
678.75	-0.02373863128	0.2939921548	
679.375	0.3355002348	-0.08395082957	
680.0	-0.04112720288	0.007982241733	
680.625	0.231644855	-0.08057193241	
681.25	-0.07840314311	-0.2090412177	
681.875	0.05663237819	0.3281498174	
682.5	0.4666772483	-0.02487052058	
683.125	-0.04367184708	-0.05177090044	
683.75	0.3254445846	0.265315412	
684.375	0.4367689668	-0.113878843	
685.0	-0.02973760812	0.0582292926	
685.625	0.4744467406	0.07800626353	
686.25	0.215778995	-0.2433514441	
686.875	0.1582907758	-0.08027991319	
687.5	0.2913316782	-0.3878557412	
688.125	-0.2675829495	-0.339322577	
688.75	-0.2211168182	-0.1011044624	
689.375	-0.3253750674	0.3496542405	
690.0	0.2586445155	0.312793464	
690.625	0.07305127568	0.1185250946	
691.25	0.4500842399	0.3598973398	
691.875	0.4481517335	-0.04342721087	
692.5	0.3540191721	0.2926335767	
693.125	0.8816613209	-0.1194872238	
693.75	0.2066144705	-0.425511231	
694.375	0.5352881828	-0.1629353375	
695.0	0.46757225	-0.492264496	
695.625	0.1954895323	-0.06585365396	
696.25	0.4705768641	0.2827693283	
696.875	0.5653538757	0.141036813	
697.5	0.301237458	0.4106831064	
698.125	0.5847950511	0.09008341911	
698.75	0.2762335234	-0.4983014182	
699.375	-0.4111586037	-0.1272270629	
700.0	-0.2386931376	0.2548869067	
700.625	0.07465453223	0.4003024165	
701.25	0.2014233439	0.02035585041	
701.875	0.1825046935	0.2788389368	
702.5	0.4833510049	0.1675308416	
703.125	0.2071078641	-0.02314967471	
703.75	0.4453953849	-0.02362689008	
704.375	0.2270055567	-0.3382838588	
705.0	0.08811074364	-0.01961968995	
705.625	0.3875331733	0.05016207862	
706.25	0.1383077139	0.09072453777	
706.875	0.1831813297	0.3089945853	
707.5	0.3823379391	0.2961161947	
708.125	0.3658800469	0.01452737717	
708.75	0.08387421037	-0.4313146584	
709.375	-0.2117578422	-0.1379738603	
710.0	-0.1329286744	0.2586287029	
710.625	0.1288313325	-0.1163708946	
711.25	0.1209705446	0.3019361135	
711.875	0.2042958907	-0.1282026558	
712.5	0.2491142254	0.04613609588	
713.125	0.279829676	-0.2589860367	
713.75	-0.05504183106	-0.1963023416	
714.375	0.0990383713	-0.186335609	
715.0	-0.1170881685	-0.2625348955	
715.625	-0.03227722366	-0.09501495572	
716.25	0.2429896412	-0.2171273193	
716.875	0.2680186004	-0.2918662997	
717.5	0.310404687	-0.02805932081	
718.125	0.688730405	0.001933204083	
718.75	0.64946348	-0.3015940527	
719.375	0.3236035202	-0.4958773151	
720.0	0.6541544914	-0.444078129	
720.625	-0.26071245	-1.112369372	
721.25	-0.07150587175	-0.2776021146	
721.875	-0.135724776	-1.264216473	
722.5	-1.102517155	-0.2734394395	
723.125	-0.3380616465	-0.07964762543	
723.75	-0.5525819228	0.6425238659	
724.375	0.3292171013	0.2436809561	
725.0	-0.03688334247	0.2491490961	
725.625	0.3415263295	0.6117053903	
726.25	0.2544340326	0.2947223098	
726.875	-0.2885586776	0.747843676	
727.5	0.1513656355	1.50043452	
728.125	0.6911841372	1.142029849	
728.75	-0.5818745476	1.916197596	
729.375	0.13739884	4.098392807	
730.0	1.651357786	1.922642889	
730.625	-0.6205902241	2.810940853	
731.25	0.06467888016	4.670512935	
731.875	0.6082818739	2.110749283	
732.5	-2.724391401	0.2707139487	
733.125	-2.714472357	1.754501144	
733.75	0.4900151485	0.8810194998	
734.375	0.5451227318	0.9297628596	
735.0	-0.7015885164	-0.7583216839	
735.625	-0.009158764521	0.0429141965	
736.25	-0.2927449939	0.6953271113	
736.875	0.8692423757	0.1381722365	
737.5	0.1334789389	0.1843437539	
738.125	2.041881067	-0.3361899752	
738.75	0.6924818301	-2.129575179	
739.375	0.511921511	-0.4845537826	
740.0	4.027985256	0.2304162054	
740.625	2.60087836	-4.459610553	
741.25	-2.943379316	0.3625321153	
741.875	-5.262847547	2.321195054	
742.5	-1.468875326	0.4841904345	
743.125	1.256444287	-1.465290305	
743.75	-0.5710357774	-1.347158424	
744.375	-0.2823052294	0.239589254	
745.0	-0.1138717987	0.06332106017	
745.625	0.02196653985	-0.1857324397	
746.25	0.08197191314	-0.06833069064	
746.875	-0.2904657038	0.07438125003	
747.5	0.1081619122	0.242750683	
748.125	0.01742172337	0.300213452	
748.75	0.3716529662	0.530360668	
749.375	0.2161531617	0.2650250808	
750.0	-0.3154925179	0.1014627359	
