!Created with skrf (http://scikit-rf.org).
# GHz S RI R (50+0j) 
!freq	ReS11	ImS11	
500.0	0.4285622598	-1.139097084	
500.625	-0.2085730674	-0.7489194889	
501.25	0.03165742275	-0.667257681	
501.875	-0.4312401709	-0.3717365203	
502.5	-0.005008368045	-0.05701365491	
503.125	-0.09747733141	-0.02700089173	
503.75	0.07435672859	0.04800093158	
504.375	0.01578108529	0.03129174257	
505.0	0.0192455576	-0.05306672346	
505.625	0.03114144859	0.01657577854	
506.25	-0.09076980477	-0.1369376441	
506.875	0.08447094256	0.1106823799	
507.5	0.06270717333	-0.5716745504	
508.125	-0.2074042349	-0.598567491	
508.75	0.4652980926	-0.2905625291	
509.375	0.0466739349	-1.496018992	
510.0	-0.5190337919	-0.1817755083	
510.625	-0.0437267876	-0.1450803383	
511.25	-0.04850633109	-0.05451397589	
511.875	-0.0683311442	0.02288660877	
512.5	-0.04093825824	0.0448069175	
513.125	-0.02042480464	-0.08210455983	
513.75	-0.01808034286	-0.002836283369	
514.375	-0.05472882088	-0.09589591684	
515.0	-0.1312026161	0.2408894548	
515.625	0.2174915318	-0.7988226325	
516.25	-0.6772636651	-0.4191429503	
516.875	0.1429941203	-0.1921276719	
517.5	-0.05518317548	-0.2672249466	
518.125	-0.006892162398	0.04267788431	
518.75	-0.01898243558	-0.2040212375	
519.375	-0.03263339995	0.05468747658	
520.0	0.07139913707	0.07729335695	
520.625	0.1486840354	-0.04114427117	
521.25	-0.06965588847	-0.290738678	
521.875	-0.1094655084	0.005815154683	
522.5	-0.01984126807	-0.002417966424	
523.125	-0.05377601878	0.09466639084	
523.75	-0.01595842489	-0.05249057887	
524.375	-0.2555310554	-0.002095519047	
525.0	0.1019613364	0.09225949044	
525.625	-0.04961366725	0.03844110944	
526.25	0.07008499996	-0.0283994484	
526.875	-0.1168170552	0.0322076036	
527.5	0.0557036436	0.1470869865	
528.125	-0.008452098102	0.1192347205	
528.75	-0.0625693329	0.2422463796	
529.375	0.08364314671	0.003468229627	
530.0	0.007625455605	0.1630214198	
530.625	0.1388431833	0.2134794325	
531.25	0.5170907736	0.0782053097	
531.875	0.2022689191	-0.128567164	
532.5	0.01078521684	-0.2315651086	
533.125	0.01380732012	0.05725654422	
533.75	0.0933585794	-0.2576357845	
534.375	-0.119967438	-0.1424980976	
535.0	-0.1392539196	-0.1418054413	
535.625	-0.1683382725	0.1619305047	
536.25	0.01160391596	0.04345129463	
536.875	0.09387285771	0.04617632476	
537.5	0.04145873956	-0.06855512885	
538.125	0.08241022916	0.00922764391	
538.75	0.1352192529	-0.1526681133	
539.375	-0.07709487658	-0.09341631409	
540.0	-0.1296251839	-0.10343383	
540.625	-0.1610125811	-0.02264758423	
541.25	-0.1018364963	0.03494551645	
541.875	-0.006159467143	-0.03341195928	
542.5	-0.0800176487	-0.02889822028	
543.125	-0.01731906928	-0.005814047801	
543.75	-0.1413838343	-0.06113793339	
544.375	0.01130195064	0.04865789154	
545.0	-0.07878783396	0.06198778734	
545.625	0.119455091	0.03463322506	
546.25	0.02312393843	0.02901365659	
546.875	0.176366238	-0.02161550579	
547.5	-0.01653031853	-0.1141788396	
548.125	0.02041135898	-0.1184183413	
548.75	-0.1533820256	-0.145971777	
549.375	-0.09595352012	0.0002763773064	
550.0	-0.06425559032	-0.04746917778	
550.625	-0.04975273318	0.05098582164	
551.25	-0.05499875546	-0.005046189792	
551.875	-0.0792054222	0.08600265539	
552.5	-0.008001340252	0.07072050957	
553.125	-0.02372761452	0.05314420788	
553.75	0.05361973697	0.03201237818	
554.375	0.07446786153	-0.002785279058	
555.0	0.09368609905	-0.06771758362	
555.625	0.06324599048	-0.1058223513	
556.25	0.04983283037	-0.1244667707	
556.875	-0.03593918697	-0.1426497299	
557.5	-0.0981755673	-0.08582500819	
558.125	-0.1034238008	-0.02675595056	
558.75	-0.09690548585	-0.003104952051	
559.375	-0.1063302692	0.02874733884	
560.0	-0.06851270199	0.06768790756	
560.625	-0.0620161958	0.09438953017	
561.25	0.0263361115	0.1077465943	
561.875	0.01182460268	0.01186970242	
562.5	0.02880855271	0.08378444802	
563.125	0.05508713356	0.02279365568	
563.75	0.12842387	0.0335523738	
564.375	0.117382946	-0.1324506502	
565.0	0.01785336736	-0.1007846493	
565.625	0.00539848736	-0.1698912138	
566.25	-0.1480585422	-0.06057698522	
566.875	-0.06020286547	-0.06117890884	
567.5	-0.1709531508	-0.1538148546	
568.125	-0.1648686922	-0.05505232986	
568.75	-0.1244645101	-0.145045646	
569.375	-0.2829668791	0.1714167904	
570.0	-0.0002941631126	0.1609908797	
570.625	-0.127871839	0.1006708061	
571.25	0.06637527587	0.1820463659	
571.875	-0.04840381485	0.02980386729	
572.5	0.2100346807	-0.003081660901	
573.125	-0.02988650876	-0.1126348713	
573.75	0.1139933832	-0.01291821166	
574.375	-0.01181359777	-0.1826718938	
575.0	-0.01223473225	0.05808661092	
575.625	0.1019191013	-0.1170813391	
576.25	-0.04225624274	-0.1240091933	
576.875	0.03873295495	-0.05395811268	
577.5	0.03131187552	-0.2285868371	
578.125	-0.1394848332	-0.1028114142	
578.75	0.01345123223	-0.06201408519	
579.375	-0.1259478939	-0.1709584954	
580.0	-0.05974834893	0.1232416539	
580.625	-0.07534340012	-0.1654601669	
581.25	-0.05783978762	0.2118664502	
581.875	-0.004363564947	-0.01968502457	
582.5	-0.05023114906	0.2101690672	
583.125	0.2210685756	0.02457509595	
583.75	-0.09336246249	0.005018384271	
584.375	0.1458670894	0.08280979777	
585.0	0.01358831043	-0.02173404704	
585.625	0.2059305272	0.09847297253	
586.25	0.1322151763	-0.172102773	
586.875	0.02606593526	-0.02734819403	
587.5	0.04124829569	-0.185012736	
588.125	-0.09465182174	-0.1071316717	
588.75	0.05076285923	-0.0414168459	
589.375	0.1129861022	-0.2045515382	
590.0	-0.135783805	-0.09687648795	
590.625	-0.06696883338	-0.08395942318	
591.25	-0.2206660809	0.1643896203	
591.875	0.1021701687	0.09271430779	
592.5	-0.1219913225	0.02858877191	
593.125	0.1153056408	0.02630960733	
593.75	-0.08565054579	0.1258405942	
594.375	0.2654580982	0.119550423	
595.0	0.1031825215	-0.03475742658	
595.625	0.129941748	0.1842522158	
596.25	0.2172335979	-0.02849888502	
596.875	0.05917438268	-0.00930802906	
597.5	0.15108785	0.1494038484	
598.125	0.166048052	0.01167112389	
598.75	0.09129195965	0.06165362815	
599.375	0.2338547837	-0.03967625116	
600.0	0.1053217506	-0.1944316356	
600.625	0.08936381504	-0.1264777127	
601.25	0.1091475345	-0.1897164642	
601.875	-0.1460188409	-0.1134237873	
602.5	-0.02796190549	-0.01100011967	
603.125	-0.2240794979	0.04874498474	
603.75	0.01153390299	0.1248909843	
604.375	-0.1126651763	-0.04478219364	
605.0	-0.0745447583	0.2237145487	
605.625	0.04986669133	-0.01163168091	
606.25	-0.203564665	0.1512585861	
606.875	-0.04069756541	0.1331069399	
607.5	-0.1750628279	0.07350029935	
608.125	0.02041791321	0.2829222995	
608.75	0.1760287106	0.06663305045	
609.375	0.195663876	-0.001746347367	
610.0	0.09813779113	-0.1270409858	
610.625	0.02090234969	-0.1595124205	
611.25	-0.03046688914	-0.08795812845	
611.875	-0.09644813314	-0.1559936488	
612.5	-0.1506697597	0.04116989622	
613.125	-0.1483200266	-0.04151186337	
613.75	-0.1339518713	0.2265385364	
614.375	0.1037263401	-0.000461254559	
615.0	-0.02066909431	0.1412325104	
615.625	0.09788465257	0.00257622943	
616.25	-0.1230806688	0.09224371264	
616.875	-0.08115625539	0.2726006194	
617.5	0.06451148191	0.1430191889	
618.125	-0.08623558759	0.189773999	
618.75	0.05432051263	0.1253184964	
619.375	0.08295296232	0.1172682423	
620.0	0.1683196128	0.03520379708	
620.625	0.0833532665	-0.1727864266	
621.25	-0.2476011905	-0.1585435725	
621.875	-0.1203321709	-0.0577556043	
622.5	-0.2349987685	0.08616506294	
623.125	0.09750288602	0.1715441815	
623.75	0.02056507681	0.09618729366	
624.375	0.06584610427	-0.128451046	
625.0	0.002365280326	0.04840027909	
625.625	0.08205683117	-0.1525258979	
626.25	-0.110433517	-0.05565276616	
626.875	-0.06234247921	-0.1045819329	
627.5	-0.2016676935	-0.03208085577	
628.125	-0.08082202807	2.931497753e-05	
628.75	-0.0332183281	-0.1525253505	
629.375	-0.09878483746	-0.1526174445	
630.0	-0.1645857319	-0.05273995304	
630.625	-0.1772189798	0.03408632506	
631.25	-0.1374495053	0.2278714545	
631.875	0.09802476494	0.1938065403	
632.5	0.04909844449	0.1660537045	
633.125	0.2860255538	0.01051343968	
633.75	0.05940349606	-0.09657031365	
634.375	0.1712469478	-0.1122540407	
635.0	-0.1398285867	-0.1643308722	
635.625	-0.01146188513	-0.04895170501	
636.25	-0.2638450763	0.0914921042	
636.875	0.05130906099	0.1577145421	
637.5	-0.07026823917	0.006959703932	
638.125	-0.05254233417	0.1975114306	
638.75	0.008175267202	0.04712410803	
639.375	-0.06723053935	0.2718037376	
640.0	0.259517804	0.2157259907	
640.625	0.1686000352	0.03093658542	
641.25	0.2642797449	0.05810604433	
641.875	0.1387061778	-0.2718731843	
642.5	-0.1121169249	-0.0816307108	
643.125	-0.01864971098	-0.1767222213	
643.75	-0.2806282586	0.01036780292	
644.375	-0.01340097905	-0.04022103313	
645.0	-0.3282716202	0.2425226919	
645.625	0.2733101908	0.1407122268	
646.25	-0.03291997865	0.04204887345	
646.875	0.3194031563	0.03335881007	
647.5	-0.1779129803	-0.06777404818	
648.125	0.2958908922	0.1786222712	
648.75	0.1800404328	-0.2616189954	
649.375	0.1055144113	-0.08063520307	
650.0	0.3252809026	-0.3442598282	
650.625	-0.07000900749	-0.3605163212	
651.25	0.1413567973	-0.03315655833	
651.875	0.3826041685	-0.2495982329	
652.5	0.1218427261	-0.2532829203	
653.125	0.1867696609	0.03189243748	
653.75	0.2337759134	-0.3365578671	
654.375	-0.2305844011	-0.1831901162	
655.0	-0.09004129835	-0.09639076353	
655.625	-0.3125434521	0.2588946217	
656.25	0.2325646745	0.0701671685	
656.875	-0.1595900321	0.09151185178	
657.5	0.2391330719	0.1042025862	
658.125	-0.1161290447	0.009220704451	
658.75	0.4430549743	0.2437117265	
659.375	0.1868939907	-0.3716893614	
660.0	0.1096180916	-0.1106326265	
660.625	0.2292844583	-0.3768667102	
661.25	-0.02724507974	-0.4024958699	
661.875	0.1190365196	-0.06093960074	
662.5	0.3438055042	-0.2670793826	
663.125	0.09095358639	-0.2769447424	
663.75	0.1391393772	-0.1386432455	
664.375	-0.0812133983	-0.4275556552	
665.0	-0.281511737	-0.01576479308	
665.625	-0.2199459337	0.01103137547	
666.25	-0.1202051363	0.334390679	
666.875	0.2172154033	0.08831459776	
667.5	0.05306279776	0.1436276267	
668.125	0.3057216616	-0.09316335627	
668.75	0.02281145165	-0.1442219454	
669.375	0.2305006185	-0.1277172936	
670.0	-0.1390980696	-0.3671153969	
670.625	-0.04117790441	0.01586196148	
671.25	0.1718587152	-0.2613866214	
671.875	-0.0250186101	-0.2412183139	
672.5	0.08408151573	-0.03266931236	
673.125	0.3049234848	-0.2306998154	
673.75	-0.03510358404	-0.2602502758	
674.375	0.09344697824	-0.1579964505	
675.0	-0.1123329259	-0.2991802939	
675.625	-0.2529389069	0.02777693764	
676.25	-0.04096491769	-0.07767670257	
676.875	-0.2475168884	0.07038646919	
677.5	-0.03604554341	0.09345670113	
678.125	-0.1602902264	0.04805884684	
678.75	0.1222751813	0.3269365801	
679.375	0.1416884161	-0.1300055515	
680.0	0.1394424254	0.07125858949	
680.625	0.1527331943	-0.3058308027	
681.25	-0.1737056172	0.05037014779	
681.875	0.3361646623	0.2038017421	
682.5	0.1608771235	-0.2375745607	
683.125	0.02775168262	0.1932548391	
683.75	0.4431137833	0.1532583161	
684.375	0.1473406197	-0.2665164486	
685.0	0.1223152265	0.2500711227	
685.625	0.4082985958	-0.1533028262	
686.25	0.1565502757	-0.05549018192	
686.875	0.2959048319	-0.04071800574	
687.5	0.1196434018	-0.4955289823	
688.125	-0.1300797661	-0.2038788508	
688.75	-0.4185679011	-0.1435342453	
689.375	-0.2331352718	0.4261985311	
690.0	0.2261733023	0.1462870933	
690.625	0.104910078	0.327245313	
691.25	0.525840198	0.1662849823	
691.875	0.2580944098	0.1078062593	
692.5	0.5794027735	0.3493646493	
693.125	0.6365463527	-0.435562453	
693.75	0.2666444224	-0.09195312953	
694.375	0.5828880038	-0.532010194	
695.0	0.1911232066	-0.4760735977	
695.625	0.2366653007	0.0128103859	
696.25	0.6707463294	0.1451314832	
696.875	0.2547709454	0.1351942172	
697.5	0.3795069597	0.3964775975	
698.125	0.5490556685	0.03649715662	
698.75	0.2527009794	-0.4614529351	
699.375	-0.5415780202	-0.1711257856	
700.0	-0.2044960661	0.3178148401	
700.625	0.2518215013	0.258357349	
701.25	0.1021434592	0.1061458379	
701.875	0.2812841214	0.3463263127	
702.5	0.3850316473	0.02298403222	
703.125	0.2594627625	0.1473438741	
703.75	0.4712796209	-0.1751310498	
704.375	0.08564977763	-0.2584831026	
705.0	0.2975550543	-0.02944411141	
705.625	0.2934103932	-0.1609451269	
706.25	0.1156285226	0.1098409736	
706.875	0.2427996124	0.3496178768	
707.5	0.2290146902	0.1934099902	
708.125	0.4205852783	0.05977600702	
708.75	0.1871525741	-0.3728055254	
709.375	-0.2891787129	-0.1772306933	
710.0	-0.03358837603	0.3872163696	
710.625	-0.009666714266	0.08468043785	
711.25	0.1961127693	0.07014282363	
711.875	0.07474808879	0.03508006121	
712.5	0.4509414094	0.04785121577	
713.125	0.1596717011	-0.3263948034	
713.75	0.073295791	-0.1153358074	
714.375	0.0438050782	-0.3253809164	
715.0	-0.137907203	-0.1420394476	
715.625	0.07533350455	-0.1131244207	
716.25	0.1573111349	-0.3287178496	
716.875	0.1631550264	-0.2196149629	
717.5	0.4432999686	0.04839052129	
718.125	0.6740150063	-0.06966311043	
718.75	0.5078901897	-0.2725942507	
719.375	0.6199199574	-0.3440801455	
720.0	0.545159348	-1.025671149	
720.625	-0.32792724	-0.6320476324	
721.25	0.1430926532	-0.6834632532	
721.875	-0.6220732249	-1.100930024	
722.5	-0.5692177612	-0.1068202045	
723.125	-0.8735456096	-0.5230604831	
723.75	-0.2027544898	0.7524114397	
724.375	0.1449714779	0.1644500835	
725.0	0.04244188183	0.567372544	
725.625	0.4650242583	0.2551126416	
726.25	-0.1465717542	0.3763122402	
726.875	-0.1037999305	1.064347059	
727.5	0.4696111112	1.162869835	
728.125	-0.0485603022	0.971418307	
728.75	-0.401727975	2.789351434	
729.375	1.040265205	3.140549101	
730.0	-0.08364675852	1.877672921	
730.625	-0.5140740093	4.38808114	
731.25	1.540321018	3.042416509	
731.875	-1.572135268	1.367595933	
732.5	-3.567315773	1.115035842	
733.125	-1.382264179	1.981010072	
733.75	-0.4750538797	0.17149206	
734.375	1.357588129	0.4778201213	
735.0	-0.4763118253	-0.2945194392	
735.625	-0.3056960796	-0.1829439613	
736.25	0.1496373696	0.9175282259	
736.875	0.3220700531	-0.1508750851	
737.5	0.9122944978	0.7068384356	
738.125	1.436229806	-1.311542601	
738.75	0.2403121474	-1.057534234	
739.375	1.869077011	0.2186139998	
740.0	4.508463047	-3.298595411	
740.625	-0.9287898205	-2.155940715	
741.25	-2.132828103	3.521011402	
741.875	-1.986088466	3.376968399	
742.5	1.0022775	-0.7332766878	
743.125	-0.0776467186	-2.453371379	
743.75	-0.6406448233	-0.6838834714	
744.375	0.02839423489	0.08151167169	
745.0	0.02236894759	0.3277762838	
745.625	-0.1026166073	-0.04220308476	
746.25	0.05239423064	-0.1740892437	
746.875	-0.2055294721	0.1642134129	
747.5	0.03210818206	0.1510895225	
748.125	0.006668351575	0.529684201	
748.75	0.4299618146	0.3118393257	
749.375	0.09813812198	0.2210193673	
750.0	-0.4193794272	0.2273686602	
