!Created with skrf (http://scikit-rf.org).
# GHz S RI R (50+0j) 
!freq	ReS11	ImS11	
500.0	-0.07905149058	-1.076620643	
500.625	0.111026205	-0.3791319953	
501.25	-0.2660993895	-0.7974681672	
501.875	-0.3786018962	-0.2296745209	
502.5	0.03680804317	-0.08537937066	
503.125	-0.1024058252	0.01222275363	
503.75	0.03190058496	-0.003924155445	
504.375	0.04239440525	0.02080440469	
505.0	-0.03032778203	-0.03121463296	
505.625	0.05805086156	-0.03104397635	
506.25	-0.1389228031	-0.07863546423	
506.875	0.1155088497	-0.02926213013	
507.5	-0.201346226	-0.6001791412	
508.125	-0.2109818357	-0.3168094337	
508.75	0.8800724529	-0.6768755271	
509.375	-0.3405811758	-1.235116997	
510.0	-0.2345767243	-0.05007314021	
510.625	-0.02782990699	-0.2183241498	
511.25	-0.08709774921	-0.03334107988	
511.875	-0.0322662118	-0.005074040305	
512.5	-0.03194903836	0.02412414549	
513.125	-0.0483986035	-0.05189046757	
513.75	0.01343395802	-0.02383719498	
514.375	-0.1234643483	-0.08312912086	
515.0	0.1584674785	0.2388656149	
515.625	0.00894938655	-0.73203759	
516.25	-0.2387821336	0.08255712921	
516.875	0.1568520808	-0.5822766519	
517.5	-0.1635153768	-0.2191380862	
518.125	0.03711389687	0.01920306951	
518.75	-0.09540741473	-0.1993296902	
519.375	-0.02474411328	0.01169792189	
520.0	0.07067610958	0.06339030367	
520.625	0.1735368885	-0.05461748268	
521.25	-0.1077729831	-0.2084381238	
521.875	-0.1126729256	-0.01458994469	
522.5	-0.07781632202	0.008484237885	
523.125	0.03512904774	0.04782507237	
523.75	-0.04082645355	-0.07572846764	
524.375	-0.2168275022	0.1283938589	
525.0	0.03243870226	0.01798091792	
525.625	-0.02880821879	0.09880303901	
526.25	0.03327675664	-0.07917245508	
526.875	-0.05538695268	0.1101498165	
527.5	0.05182228894	0.1011785227	
528.125	-0.05995086844	0.1758555964	
528.75	0.07214456556	0.2720944211	
529.375	-0.03166298276	0.07420852155	
530.0	0.05559441169	0.1792960062	
530.625	-0.0188805011	0.2806040157	
531.25	0.3370367393	0.01842578159	
531.875	0.1123536345	-0.01170885509	
532.5	-0.1010855698	-0.1370509788	
533.125	0.1206221228	-0.004398212592	
533.75	-0.002243785068	-0.1932894723	
534.375	-0.0446692519	-0.06320935772	
535.0	-0.2334093727	-0.1476697589	
535.625	-0.09029591227	0.1463750907	
536.25	-0.01794973254	0.05687428271	
536.875	0.1134952123	0.02317816158	
537.5	0.01833576013	-0.04871362268	
538.125	0.1396795738	-0.005829920979	
538.75	0.07735785596	-0.1627480886	
539.375	-0.04592627381	-0.1143686763	
540.0	-0.1419779236	-0.1627002759	
540.625	-0.1604009195	-0.01826451294	
541.25	-0.0548047082	0.02141848473	
541.875	-0.04975007931	-0.04796929039	
542.5	-0.05993376117	-0.008537652587	
543.125	-0.001158043624	-0.06993868064	
543.75	-0.1253603318	0.02118422653	
544.375	0.05309245852	-0.02765514064	
545.0	-0.03430867793	0.1038365054	
545.625	0.06057225014	-0.0008839712077	
546.25	0.04275539247	0.1048720322	
546.875	0.1400550779	-0.09661175672	
547.5	0.01160653996	-0.05905280312	
548.125	0.01572788291	-0.1731554114	
548.75	-0.172986509	-0.08630753219	
549.375	-0.03880717803	-0.01633672945	
550.0	-0.1096254241	-0.01913971023	
550.625	-0.01310663154	0.0338682022	
551.25	-0.08844254814	-0.000294301716	
551.875	-0.05518669281	0.09479133378	
552.5	-0.024817103	0.04806781553	
553.125	-0.01804995187	0.06812051957	
553.75	0.04454323705	0.02719630484	
554.375	0.07774065932	0.004760103205	
555.0	0.0877731222	-0.07494850352	
555.625	0.0639786564	-0.0985106456	
556.25	0.05541911823	-0.1237629676	
556.875	-0.04040018935	-0.1454795298	
557.5	-0.09661906106	-0.08404954523	
558.125	-0.1011507721	-0.02934034073	
558.75	-0.1046180055	-0.003043464481	
559.375	-0.09683651859	0.03580422528	
560.0	-0.07615007933	0.05885257621	
560.625	-0.05812673821	0.1107763863	
561.25	0.03770787235	0.08448003762	
561.875	-0.007715849618	0.04224737995	
562.5	0.05027788995	0.04933158186	
563.125	0.02819124785	0.05665486107	
563.75	0.1626654996	0.007799682159	
564.375	0.07800910693	-0.1240732922	
565.0	0.06653149027	-0.0882712267	
565.625	-0.04181252378	-0.1857114726	
566.25	-0.1159257219	-0.03818668857	
566.875	-0.0819668005	-0.1151667442	
567.5	-0.1984510216	-0.09485491456	
568.125	-0.07388888781	-0.05519950596	
568.75	-0.2466620818	-0.1613564718	
569.375	-0.1839001708	0.1912357636	
570.0	-0.07586935682	0.06279336462	
570.625	-0.1333915742	0.2083059245	
571.25	0.1114619087	0.07512106879	
571.875	-0.0292683896	0.1125479469	
572.5	0.1783241923	-0.07867658999	
573.125	-0.005317063973	-0.02686639222	
573.75	0.1559306043	-0.1190083381	
574.375	-0.09425360793	-0.1023721904	
575.0	0.07859285406	0.04561749107	
575.625	0.007583435233	-0.1569061286	
576.25	-0.02011237896	-0.02884095744	
576.875	0.07945681471	-0.1415495291	
577.5	-0.06140181716	-0.2125392815	
578.125	-0.07028051464	-0.04856788135	
578.75	0.02077984135	-0.1561684083	
579.375	-0.2110121843	-0.08688663862	
580.0	0.06856832414	0.05190113312	
580.625	-0.1854717306	-0.08672602361	
581.25	0.07788748845	0.1145745038	
581.875	-0.1076904557	0.06506952171	
582.5	0.1313545973	0.2753976063	
583.125	0.1093188734	-0.07658980736	
583.75	-0.04484689931	0.115181214	
584.375	0.1248811856	-0.0260222001	
585.0	-0.009077805006	0.09017646106	
585.625	0.2495758172	-0.006045153709	
586.25	0.03805501497	-0.1226725788	
586.875	0.1072454103	-0.04266384384	
587.5	-0.06467561863	-0.2043275641	
588.125	-0.05905294052	-0.03726084759	
588.75	0.1063366288	-0.11967152	
589.375	0.02296001721	-0.2226724001	
590.0	-0.0616819881	-0.05525032294	
590.625	-0.1646267162	-0.1364358362	
591.25	-0.09994571713	0.2265246323	
591.875	0.01618818601	-0.01128051361	
592.5	-0.0688689074	0.1560626616	
593.125	0.04225881544	-0.07489050221	
593.75	-0.007160752771	0.2306129773	
594.375	0.2314402669	-0.01577442997	
595.0	0.008303100042	0.108560905	
595.625	0.2277827972	0.1519649665	
596.25	0.1625336727	-0.06286622402	
596.875	0.07730388676	0.09585165056	
597.5	0.2153429962	0.06498853457	
598.125	0.1034264658	0.0185590957	
598.75	0.164336008	0.1263889618	
599.375	0.2388128907	-0.08901655	
600.0	0.1010109663	-0.1219181918	
600.625	0.1464805711	-0.1173914133	
601.25	0.06567406137	-0.2323802106	
601.875	-0.1167662846	-0.05946501774	
602.5	-0.05174145952	-0.09902524404	
603.125	-0.1384080339	0.1529640202	
603.75	0.003676926642	0.01683893706	
604.375	-0.2205856878	0.05433164763	
605.0	0.05627192714	0.1727461996	
605.625	-0.1837026375	-0.07385420058	
606.25	-0.1091692518	0.189383793	
606.875	-0.05622044663	-0.01629002416	
607.5	-0.2328140855	0.1336744376	
608.125	0.07671205671	0.2378422749	
608.75	0.1189980365	0.07492623629	
609.375	0.2433858662	-0.09166640691	
610.0	0.1214261952	-0.1186047616	
610.625	0.0521040043	-0.1761936363	
611.25	0.02955850404	-0.1451385777	
611.875	-0.1148920205	-0.1585099375	
612.5	-0.07421799234	-0.04241961407	
613.125	-0.2173885914	-0.05216281084	
613.75	-0.03448266428	0.221541755	
614.375	-0.01488789317	0.004597057493	
615.0	0.1112246574	0.1369249656	
615.625	-0.02490298364	-0.0348570493	
616.25	-0.1307255369	0.1722669353	
616.875	0.04266682326	0.2437310574	
617.5	-0.07284325692	0.09011272868	
618.125	0.05783020537	0.2418477602	
618.75	0.08986788486	0.1305444152	
619.375	0.04893821159	0.1273780819	
620.0	0.2056576764	0.03079426162	
620.625	0.191510846	-0.2135636382	
621.25	-0.1266285026	-0.1070985902	
621.875	-0.1971400571	-0.09440500614	
622.5	-0.2159495865	0.1310533383	
623.125	0.03164284836	0.05647164956	
623.75	0.140964496	0.1004589669	
624.375	-0.01226326451	-0.1071550272	
625.0	0.09999715523	0.05039313524	
625.625	-0.004200434797	-0.158250572	
626.25	-0.02157904376	-0.04534374949	
626.875	-0.1375086233	-0.1425378212	
627.5	-0.1701762916	0.02034548938	
628.125	-0.02983123009	-0.05103430288	
628.75	-0.0883720659	-0.1396323748	
629.375	-0.09710753501	-0.09106608863	
630.0	-0.1511879758	-0.1030920095	
630.625	-0.2160204192	0.08508477958	
631.25	-0.07778653995	0.2178133719	
631.875	0.02586183753	0.1449053409	
632.5	0.1156325748	0.2885224729	
633.125	0.2185359223	-0.03592745997	
633.75	0.05791416111	0.0249386359	
634.375	0.1250564472	-0.2305031248	
635.0	-0.09378310936	-0.04004841044	
635.625	-0.09995241556	-0.2123339263	
636.25	-0.1667282839	0.200508841	
636.875	0.01525702739	0.0383375115	
637.5	-0.1339013402	0.08637434176	
638.125	0.05747646346	0.1337800728	
638.75	-0.1058403861	0.06718455568	
639.375	0.01420320253	0.3379744666	
640.0	0.2167913409	0.1208428306	
640.625	0.1312999835	0.1428141495	
641.25	0.3366306687	-0.02669135796	
641.875	0.0453735574	-0.2525481826	
642.5	0.02413492164	-0.1010223579	
643.125	-0.1680069495	-0.2524366596	
643.75	-0.1150214572	0.08619399327	
644.375	-0.1436642822	-0.2046619105	
645.0	-0.1755064023	0.3356469515	
645.625	0.1413424155	0.02551019825	
646.25	0.05396972328	0.2312945715	
646.875	0.2066491715	-0.261787979	
647.5	-0.1030223799	0.1750793626	
648.125	0.3135942927	-0.03510312265	
648.75	0.03697498266	-0.08731086107	
649.375	0.3377133688	-0.09492518376	
650.0	0.1005211746	-0.4830969203	
650.625	-0.05079820045	-0.149642544	
651.25	0.3174435253	-0.1240840329	
651.875	0.2459111693	-0.3575438868	
652.5	0.04447440514	-0.06884799957	
653.125	0.3504965592	-0.04385559728	
653.75	0.05913602665	-0.3722785395	
654.375	-0.07931356689	-0.09889928405	
655.0	-0.2724729129	-0.2239408293	
655.625	-0.1046006475	0.3539978181	
656.25	0.07142634055	-0.05275121724	
656.875	-0.02481101012	0.2442916499	
657.5	0.1613625486	-0.1329874932	
658.125	-0.0592354184	0.2987194536	
658.75	0.4810150801	-0.05134513173	
659.375	0.08177926589	-0.1854752018	
660.0	0.3332945995	-0.1600510736	
660.625	0.07410446241	-0.5141649597	
661.25	-0.06064764853	-0.1628460706	
661.875	0.3265708705	-0.1800800199	
662.5	0.191906345	-0.3430950664	
663.125	0.07658376193	-0.1611406168	
663.75	0.2521230121	-0.2430265569	
664.375	-0.2137757065	-0.3293432866	
665.0	-0.1522306081	-0.09333210557	
665.625	-0.3467956385	0.04527978723	
666.25	0.00866249297	0.3396846257	
666.875	0.07239537972	0.05449066858	
667.5	0.2036361668	0.1730894451	
668.125	0.2040089103	-0.1627511792	
668.75	0.07296667381	-0.01110307904	
669.375	0.2048141814	-0.3197584128	
670.0	-0.1857798913	-0.1418949318	
670.625	0.1354009886	-0.1000972748	
671.25	0.006084653179	-0.3232151203	
671.875	-0.05186449491	-0.08538613061	
672.5	0.3662914494	-0.07500530847	
673.125	0.1173981449	-0.3435081515	
673.75	0.04130768769	-0.1045511172	
674.375	0.102212345	-0.2454615471	
675.0	-0.2120126332	-0.2729513361	
675.625	-0.08788666927	0.03489712998	
676.25	-0.2177764967	-0.1214957949	
676.875	-0.1319353728	0.1439006258	
677.5	-0.04012086025	-0.03196986228	
678.125	-0.2147520789	0.2076708433	
678.75	0.1857454626	0.1521187911	
679.375	0.04757600007	0.04484944632	
680.0	0.3017654449	-0.03271106488	
680.625	-0.0895285857	-0.2612108501	
681.25	0.03745462217	0.2210996823	
681.875	0.3527250033	-0.1031831686	
682.5	-0.04870494506	-0.04331995728	
683.125	0.2444495114	0.292583374	
683.75	0.4524291907	-0.1779683039	
684.375	-0.06293859536	0.1346048007	
685.0	0.451824611	0.1391318214	
685.625	0.181001751	-0.1755605832	
686.25	0.144994911	0.0383479347	
686.875	0.4385818122	-0.2213694485	
687.5	-0.02083886492	-0.3563604871	
688.125	-0.005014276037	-0.3612843095	
688.75	-0.465520116	-0.1609390146	
689.375	-0.09876921795	0.4253508377	
690.0	0.01653403532	0.1812510351	
690.625	0.2935156464	0.3209933614	
691.25	0.3194332376	0.03231384275	
691.875	0.2625430707	0.3343914623	
692.5	0.8284962038	0.1463922237	
693.125	0.3060730059	-0.2578945516	
693.75	0.6728638241	-0.02436147907	
694.375	0.4041316023	-0.6270399234	
695.0	0.09807189644	-0.2514025237	
695.625	0.5855595633	0.08444382775	
696.25	0.3893214436	-0.1950738983	
696.875	0.2284284123	0.245254155	
697.5	0.4918869888	0.3756409737	
698.125	0.3938923004	0.06900701694	
698.75	0.2927384608	-0.461712841	
699.375	-0.4081261525	-0.2301021584	
700.0	-0.2155952022	0.3652588508	
700.625	0.1940791171	0.1381259066	
701.25	0.07279778915	0.1834860765	
701.875	0.3835775973	0.1630275965	
702.5	0.1975298149	0.1223236248	
703.125	0.4285536432	0.192586222	
703.75	0.3547279209	-0.2776415857	
704.375	0.1021251159	-0.0800899155	
705.0	0.3621337595	-0.1659191236	
705.625	0.1582010021	-0.1213985088	
706.25	0.1212130461	0.2098750913	
706.875	0.2515315642	0.08020204832	
707.5	0.2048246696	0.2148476819	
708.125	0.41831882	0.09313991846	
708.75	0.1378439529	-0.3976793287	
709.375	-0.4152980587	-0.3290484454	
710.0	-0.01415717944	0.2047423871	
710.625	0.03115473563	0.1717415662	
711.25	0.1348988647	-0.001103973948	
711.875	0.1001881176	0.2578120151	
712.5	0.4087446888	-0.1218434351	
713.125	0.05635151868	-0.1928116471	
713.75	0.2036632329	-0.1813312326	
714.375	-0.09839855137	-0.2937673539	
715.0	-0.04632799007	-0.06341649147	
715.625	0.097631977	-0.2675500047	
716.25	0.01718457757	-0.2807266801	
716.875	0.2199960124	-0.04843169815	
717.5	0.5093342102	0.002314284346	
718.125	0.5116409538	-0.2158363623	
718.75	0.5275479729	-0.03144107838	
719.375	0.6414017254	-0.3641579346	
720.0	0.1214466657	-0.9351951842	
720.625	0.04125628138	-0.4926255196	
721.25	-0.1309739894	-1.061800553	
721.875	-0.6932535337	-0.5879159831	
722.5	0.05331789121	-0.6850512446	
723.125	-1.037802089	0.008928545235	
723.75	-0.04880206741	0.5251324967	
724.375	-0.2187852008	0.2317188372	
725.0	0.4633432597	0.4968927001	
725.625	0.1448914775	0.1074364621	
726.25	-0.1486542985	0.6778721184	
726.875	0.258816234	1.004877822	
727.5	0.2503898201	0.7106199507	
728.125	-0.5321421902	1.657303553	
728.75	1.007655368	2.759394637	
729.375	0.5241812693	1.695208605	
730.0	-0.7234080521	3.257069988	
730.625	1.933222489	4.02462788	
731.25	0.09646176688	1.677632485	
731.875	-2.441363151	2.054575305	
732.5	-3.345024993	2.870167273	
733.125	-0.620742717	0.7896198619	
733.75	-1.154388757	1.447492299	
734.375	1.096396295	-0.1797053445	
735.0	-0.08917830214	-0.1133407238	
735.625	-0.8132365547	-0.08315744738	
736.25	0.5353065554	0.4694177355	
736.875	-0.1184636539	0.4177597747	
737.5	1.532510994	0.1219617557	
738.125	0.6700048003	-1.145271368	
738.75	0.7184200437	-0.126395124	
739.375	3.731121137	-1.617600784	
740.0	0.2323897942	-3.880870002	
740.625	0.3528158814	2.083819597	
741.25	3.137122028	5.366997964	
741.875	1.434491389	0.7963431638	
742.5	-0.5500674964	-3.594088442	
743.125	-0.9589513259	-2.191652799	
743.75	-0.4746341932	-0.1995607153	
744.375	-0.24896176	-0.3867368409	
745.0	0.2664628603	0.1742054106	
745.625	0.008567405559	0.09560193496	
746.25	-0.08313408196	-0.2086504746	
746.875	-0.09407221023	0.1179058872	
747.5	-0.1646798943	0.2010321049	
748.125	0.3070354791	0.5583271489	
748.75	0.2845648739	0.1902425272	
749.375	-0.01143359619	0.4305923286	
750.0	-0.3252612169	0.4580607681	
