!Created with skrf (http://scikit-rf.org).
# GHz S RI R (50+0j) 
!freq	ReS11	ImS11	
500.0	-0.2327043566	-0.7083583306	
500.625	0.829822541	-0.7880789576	
501.25	-0.7512583171	-0.8216249511	
501.875	-0.03579017413	-0.1620350481	
502.5	-0.001195980244	-0.2139949456	
503.125	-0.06333762911	0.05448994649	
503.75	-0.05087613662	0.04896340891	
504.375	0.0536276173	-0.01095391972	
505.0	-0.008601397756	0.003726836023	
505.625	0.02729104025	-0.1079818459	
506.25	-0.1255229974	0.009336131136	
506.875	-0.1309556655	-0.2564344054	
507.5	-0.4389769687	-0.4445074606	
508.125	0.2958185253	-0.2653633493	
508.75	0.8793060844	-1.177865805	
509.375	-0.4904628856	-1.63891989	
510.0	-0.0673395707	-0.2297086575	
510.625	-0.1837499483	-0.2999259426	
511.25	-0.1085226484	0.05054642659	
511.875	-0.06227867574	-0.1207226885	
512.5	-0.03015947311	0.06403066732	
513.125	0.0001077534782	-0.02760443465	
513.75	-0.0146266045	-0.1308377022	
514.375	-0.1561932682	0.05532294429	
515.0	0.3269111532	-0.1491633031	
515.625	-0.4169389536	-0.4797488897	
516.25	0.6383722356	-0.6298751872	
516.875	-0.0889737202	-0.7364680853	
517.5	-0.2007813176	-0.1127501871	
518.125	0.06053323828	-0.05437283171	
518.75	-0.1231064087	-0.09035630661	
519.375	-0.0330622716	0.00337687163	
520.0	0.1114019772	0.08898776925	
520.625	0.2053908123	-0.1099955764	
521.25	-0.0326909283	-0.2899626077	
521.875	-0.09748912713	-0.1401677695	
522.5	-0.0980325642	0.1038994502	
523.125	-0.004104206482	-0.1169784687	
523.75	-0.2492092963	-0.03914481414	
524.375	-0.03107965341	0.1136430723	
525.0	-0.182904927	0.03906517924	
525.625	0.1177394582	0.1289156862	
526.25	-0.09038875787	-0.06305458433	
526.875	-0.005783784603	0.1119100223	
527.5	-0.1066678221	0.09922471735	
528.125	-0.04456212397	0.3802172114	
528.75	-0.04806914726	0.134918426	
529.375	-0.04869882324	0.02144669881	
530.0	0.0850486418	0.2371977345	
530.625	0.1633290772	0.2817819376	
531.25	0.3910194704	0.3600774307	
531.875	0.2719087085	-0.340764148	
532.5	-0.08992890773	-0.002438462055	
533.125	0.1010303561	-0.2026212226	
533.75	-0.005014669856	-0.04792183513	
534.375	0.01167470694	-0.4018905913	
535.0	-0.3219259388	-0.04885830619	
535.625	-0.1296226815	0.03460653334	
536.25	-0.03613604917	0.1251221766	
536.875	0.1062791699	-0.02215995374	
537.5	0.06248539233	0.006963178425	
538.125	0.1536667912	-0.09659785503	
538.75	0.06884027487	-0.1004399133	
539.375	-0.005274267697	-0.2090430709	
540.0	-0.1912185243	-0.1741124834	
540.625	-0.1537599122	-0.001989060316	
541.25	-0.1055674794	-0.06387057777	
541.875	-0.08295674328	0.04791717285	
542.5	0.02502581022	-0.05952101716	
543.125	-0.1334931725	-0.1100513513	
543.75	-0.02284227942	0.03144933654	
544.375	-0.1052849432	0.01039930714	
545.0	0.05553713169	0.08139754922	
545.625	-0.01550016367	0.07718415965	
546.25	0.1782516015	0.08182272407	
546.875	0.06623021143	-0.0448174058	
547.5	0.1348960193	-0.07802447146	
548.125	-0.07809344825	-0.2313099834	
548.75	-0.09532466056	-0.06688176686	
549.375	-0.08228668918	-0.1299663246	
550.0	-0.1129480778	0.03629436297	
550.625	-0.0225078867	-0.03219339062	
551.25	-0.1185670844	0.02839629029	
551.875	-0.0475873895	0.05128389528	
552.5	-0.0765784205	0.05678742822	
553.125	-0.0008856943121	0.07493491037	
553.75	0.02924034473	0.05459208306	
554.375	0.1101501727	0.00564457767	
555.0	0.09835650573	-0.0747175839	
555.625	0.1029048281	-0.1044738801	
556.25	0.08100903674	-0.1504890629	
556.875	-0.03056448921	-0.1721959238	
557.5	-0.09652959192	-0.1159940052	
558.125	-0.121123554	-0.05309636269	
558.75	-0.1223532843	-0.006097373394	
559.375	-0.1102296559	0.01378579451	
560.0	-0.1232737722	0.06898464907	
560.625	-0.05257252852	0.127691646	
561.25	-0.002401529265	0.06966080484	
561.875	0.02716802595	0.08299220534	
562.5	0.01018659422	0.02220542575	
563.125	0.06164465581	0.120692797	
563.75	0.1698440898	-0.02727209105	
564.375	0.1129535354	-0.05555953346	
565.0	0.1532233584	-0.1614863906	
565.625	-0.06987901698	-0.149131172	
566.25	-0.02635711525	-0.1011052519	
566.875	-0.189960273	-0.1313880947	
567.5	-0.1187850141	-0.05997001139	
568.125	-0.08378231782	-0.2350236323	
568.75	-0.322584008	-0.05969955625	
569.375	-0.1741919751	0.06972230408	
570.0	-0.2265261243	0.1846235541	
570.625	-0.01331687556	0.2405916544	
571.25	-0.03916634935	0.01664687445	
571.875	0.09379249972	0.1626303828	
572.5	0.07119846656	-0.05566755354	
573.125	0.1720128737	-0.02753604746	
573.75	0.04871951545	-0.2267397309	
574.375	-0.04786840301	0.00673919022	
575.0	0.1187261667	-0.08433879072	
575.625	-0.04808448952	-0.05150232923	
576.25	0.1375501492	-0.03684914671	
576.875	-0.02289891085	-0.2378175793	
577.5	-0.06936223361	-0.09823398833	
578.125	0.05430282573	-0.1569637414	
578.75	-0.1660065882	-0.2966134447	
579.375	-0.1112718304	0.05125883014	
580.0	0.006228855029	-0.1184854354	
580.625	-0.1403609849	0.07525676625	
581.25	-0.06719194731	-0.09545833895	
581.875	-0.05385734096	0.2742306394	
582.5	0.1584552962	0.1128036823	
583.125	-0.06138953057	0.05825898787	
583.75	0.1282346544	0.1048878665	
584.375	-0.05240449256	-0.03965165802	
585.0	0.1381686306	0.1859588392	
585.625	0.1808575308	-0.1063981892	
586.25	0.07949634852	0.01053503293	
586.875	0.1834367485	-0.1612549694	
587.5	-0.1039968038	-0.1371835211	
588.125	0.06908569321	-0.09103146383	
588.75	0.06032444394	-0.2468234701	
589.375	-0.0271089135	-0.1188642315	
590.0	0.07375527088	-0.1965340562	
590.625	-0.3295249784	-0.0155622015	
591.25	-0.04267589645	0.09763694455	
591.875	-0.2199114506	0.08281137708	
592.5	0.08572694015	0.1425305211	
593.125	-0.1728249778	0.008484637379	
593.75	0.169643113	0.1728938487	
594.375	0.05067644704	0.07286117134	
595.0	0.1409710088	0.2113571825	
595.625	0.2675691057	0.03534812426	
596.25	0.06152853944	0.009193691605	
596.875	0.2514659991	0.09515290285	
597.5	0.2036829382	0.01473298257	
598.125	0.07865680573	0.1399478745	
598.75	0.2307842134	0.1439834719	
599.375	0.1933468031	-0.10375698	
600.0	0.1737332035	-0.05577759768	
600.625	0.2204868099	-0.2131495719	
601.25	-0.01554307366	-0.2220211437	
601.875	0.05167791174	-0.1040970246	
602.5	-0.2393809609	-0.05847793666	
603.125	-0.006676731066	0.08247364286	
603.75	-0.1498537994	-0.02870314861	
604.375	-0.0956129742	0.2329259047	
605.0	0.02849310898	0.001895963133	
605.625	-0.1937173919	0.0628205718	
606.25	-0.01320829552	0.0754660357	
606.875	-0.2268737576	0.01439310606	
607.5	-0.201495169	0.2325299494	
608.125	0.07197301845	0.2112757904	
608.75	0.06229720974	0.2183407556	
609.375	0.2750139776	-0.002394946877	
610.0	0.09333632289	-0.1652851695	
610.625	0.1753238808	-0.06083097392	
611.25	5.181569205e-05	-0.2620920313	
611.875	-0.08432311535	-0.0384682678	
612.5	-0.1585994831	-0.2040303551	
613.125	-0.2628720943	0.1400792945	
613.75	-0.02628077868	0.0156241822	
614.375	-0.04143001582	0.2077845769	
615.0	0.06789326322	-0.08389373604	
615.625	-0.148998125	0.07524527513	
616.25	-0.009017816922	0.2807929597	
616.875	0.0088857481	0.09714697176	
617.5	-0.01530597696	0.2886844384	
618.125	0.03776712806	0.3138140926	
618.75	0.04280961579	0.08571739949	
619.375	0.001799388969	0.2861304045	
620.0	0.2963157052	0.1259279338	
620.625	0.09114146379	-0.08949328776	
621.25	0.02307137077	-0.2127979775	
621.875	-0.2876671288	-0.03295707819	
622.5	-0.06470762291	0.08053116754	
623.125	-0.1391306531	0.2215021785	
623.75	0.199858745	-0.003832698584	
624.375	-0.004378182663	0.0290383693	
625.0	0.1000885348	-0.1130684483	
625.625	0.009055882694	-0.0099352775	
626.25	0.02045205618	-0.2105819068	
626.875	-0.2154023447	-0.0708866523	
627.5	-0.08425625274	-0.0296921872	
628.125	-0.1159440211	-0.1409348466	
628.75	-0.1380330333	-0.08342319593	
629.375	-0.0873734823	-0.1223634979	
630.0	-0.2438085323	-0.1840203912	
630.625	-0.2230610825	0.1278097132	
631.25	-0.1925439041	0.09827397777	
631.875	-0.1247088631	0.3069480752	
632.5	0.245427293	0.2056778356	
633.125	0.09548513455	0.09111241065	
633.75	0.2802342873	-0.03098205088	
634.375	-0.05058391613	-0.1614341879	
635.0	0.09055354235	-0.1507379283	
635.625	-0.2602909426	-0.1349392551	
636.25	-0.08207321374	0.09433909255	
636.875	-0.1755902509	0.06933881098	
637.5	-0.004975406266	0.2138499976	
638.125	-0.07044346174	-0.02267279676	
638.75	-0.1533764787	0.2555981422	
639.375	0.09597190515	0.2423077426	
640.0	0.04368286099	0.208891469	
640.625	0.2959847263	0.2746090519	
641.25	0.4052400245	-0.08012428852	
641.875	0.1578701058	-0.07637327857	
642.5	0.1246591926	-0.3264842428	
643.125	-0.2791830197	-0.02624497226	
643.75	0.005156931109	-0.1865695591	
644.375	-0.3150054589	0.03220977766	
645.0	0.08292647925	0.1397867793	
645.625	-0.1270647372	0.2691744344	
646.25	0.418849756	0.04817627994	
646.875	-0.04956138357	-0.08036642909	
647.5	0.1787416399	0.1468864749	
648.125	0.09654601891	-0.07997307204	
648.75	0.2544812793	0.1893509803	
649.375	0.3464643732	-0.40160241	
650.0	0.03344068317	-0.2484443984	
650.625	0.3051067965	-0.158957899	
651.25	0.3154886745	-0.4239967948	
651.875	0.08691031388	-0.1479668605	
652.5	0.3743009702	0.08090751368	
653.125	0.4083951339	-0.2068180402	
653.75	0.03357554232	-0.2172977776	
654.375	0.1591902341	-0.3561958313	
655.0	-0.5032103245	-0.09337653543	
655.625	-0.07797394459	0.1114331354	
656.25	-0.2532475966	0.1920099366	
656.875	0.2398453895	0.1020810951	
657.5	-0.1476174246	0.1066135795	
658.125	0.36145124	0.2809777828	
658.75	0.2273474017	-0.04072359696	
659.375	0.3419467136	0.05404795593	
660.0	0.4046567356	-0.4289349046	
660.625	-0.03678388718	-0.2816832735	
661.25	0.2893180556	-0.185191529	
661.875	0.3202289845	-0.3904471311	
662.5	0.1433145857	-0.2241769971	
663.125	0.3810042081	-0.0326397467	
663.75	0.1881686886	-0.4275384277	
664.375	-0.03503626663	-0.2259875412	
665.0	-0.1888791397	-0.3489106922	
665.625	-0.4248789506	0.1447098832	
666.25	0.03217137196	0.1725439045	
666.875	-0.01415615521	0.2976524641	
667.5	0.2823500537	0.07387036148	
668.125	0.1136181823	0.02567576006	
668.75	0.4732199211	-0.1180798661	
669.375	-0.002953138679	-0.2985730624	
670.0	0.06758691899	-0.1342789787	
670.625	0.08387852387	-0.3094050493	
671.25	-0.1043879644	-0.1498213048	
671.875	0.230168005	-0.03482084322	
672.5	0.2892383957	-0.2621044841	
673.125	0.1242197542	-0.1570829328	
673.75	0.2623184208	-0.1072169461	
674.375	0.1069817411	-0.4195981706	
675.0	-0.1175262146	-0.1209580579	
675.625	-0.08515200611	-0.256579942	
676.25	-0.2869484964	-0.00581100475	
676.875	-0.04122573963	0.05931768484	
677.5	-0.2432763673	-0.1235394647	
678.125	-0.1155021985	0.2802838311	
678.75	-0.01937571497	0.06122969874	
679.375	0.217110996	0.2733739257	
680.0	0.1994299192	-0.2631664134	
680.625	-0.02827162395	0.2142271175	
681.25	0.2657928361	-0.03086558885	
681.875	-0.1176087736	-0.06879283937	
682.5	0.06377499218	0.3045930746	
683.125	0.4820379193	0.1254894894	
683.75	0.06910290061	-0.03601143602	
684.375	0.3459747589	0.2264527671	
685.0	0.4144932541	-0.02223700248	
685.625	0.1085834748	-0.0960272195	
686.25	0.5022668635	0.1206985911	
686.875	0.2873202797	-0.3140264414	
687.5	0.2202692836	-0.135115491	
688.125	0.2141727002	-0.5463544181	
688.75	-0.5648950858	-0.1903548971	
689.375	-0.1859134188	0.1189826059	
690.0	-0.1494451161	0.5700681484	
690.625	0.3874065954	0.1813754583	
691.25	0.006038364095	0.3178816723	
691.875	0.6286828255	0.5385865562	
692.5	0.3018278197	-0.02015278838	
693.125	0.5833053399	0.2273326498	
693.75	0.8437134619	-0.2289969976	
694.375	0.2190097003	-0.3603971847	
695.0	0.5781352825	-0.02878872638	
695.625	0.3642309187	-0.220367857	
696.25	0.4076484714	0.09105850882	
696.875	0.1661443296	0.499070618	
697.5	0.5079203576	0.6408258239	
698.125	0.5590091002	0.2763779816	
698.75	0.6367659056	-0.1955835106	
699.375	-0.3422233094	-0.62979059	
700.0	-0.1904915554	0.3691237306	
700.625	-0.1558782599	0.2986499021	
701.25	0.4147377757	0.2027233654	
701.875	0.1080481385	0.1328321975	
702.5	0.2987233869	0.4405944466	
703.125	0.5115947355	-0.05819904483	
703.75	0.2043222819	-0.06620557447	
704.375	0.4443470086	-0.07888273364	
705.0	0.2073182705	-0.2512748484	
705.625	0.1913264484	0.07593840221	
706.25	0.2897973536	0.2657727005	
706.875	0.2913382576	0.1517510235	
707.5	0.2635113069	0.3716594525	
708.125	0.5447340695	0.3088726916	
708.75	0.4979998186	-0.4630311738	
709.375	-0.07681943267	-0.2768325382	
710.0	-0.4086740961	0.16356924	
710.625	0.1544344958	0.09689886815	
711.25	-0.1575637836	0.1629684905	
711.875	0.3685780974	0.1436535294	
712.5	0.1519433362	-0.06131961509	
713.125	0.3895516033	-0.04130644351	
713.75	0.1675840508	-0.3489827185	
714.375	-0.03663972167	-0.1459027555	
715.0	0.1266760946	-0.264980498	
715.625	-0.08974189342	-0.2739252199	
716.25	0.1439513095	-0.1194782071	
716.875	0.5439501398	-0.137725606	
717.5	0.4950611614	-0.2236570208	
718.125	0.4459013009	0.1889683674	
718.75	1.159088353	0.06730040867	
719.375	1.159960676	-0.7744380781	
720.0	0.6327469361	-0.3359782734	
720.625	0.5428197866	-1.521074991	
721.25	-0.1843653181	-0.6471181505	
721.875	0.499239012	-0.9382047253	
722.5	-0.6622022124	-1.140923535	
723.125	-0.755748016	0.1854630349	
723.75	-0.5871772407	0.1148183258	
724.375	0.07907730058	0.8216614948	
725.0	0.1719078095	0.1870930903	
725.625	-0.03631945711	0.574863912	
726.25	0.1490804068	0.9047924499	
726.875	0.1071042415	0.6520492989	
727.5	-0.7365795058	1.388569469	
728.125	0.1122362828	2.52597438	
728.75	0.2899993281	1.990356149	
729.375	-2.837030574	3.034078361	
730.0	-0.03905702735	5.985645412	
730.625	-0.1054549076	2.330617395	
731.25	-3.611477715	4.088927531	
731.875	-2.640676729	4.5203339	
732.5	-0.7925494444	0.3961408434	
733.125	-3.492824795	-1.010765029	
733.75	-0.8987412707	1.604320556	
734.375	0.4501967452	0.3479414281	
735.0	0.8264483339	-0.8681167994	
735.625	-0.5417497989	0.4629582562	
736.25	-0.316330043	0.276686343	
736.875	0.4240991676	0.927914517	
737.5	1.157980278	-0.1694284625	
738.125	0.8408463603	0.3808371634	
738.75	3.021280044	-1.188108777	
739.375	1.41840081	-2.826752991	
740.0	0.7465409949	0.8434883444	
740.625	6.841311853	2.621770996	
741.25	2.769257037	-0.1322992753	
741.875	-2.851769618	-3.134639725	
742.5	-4.492989701	-2.770193262	
743.125	-1.04647657	-0.4489989172	
743.75	0.885330428	-1.043293374	
744.375	-1.016242373	-0.2094816368	
745.0	0.0624049552	-0.06255799833	
745.625	0.1901614435	0.05233572922	
746.25	-0.09280017595	-0.0605740642	
746.875	-0.2114619477	-0.1131841297	
747.5	-0.1520137767	0.4270804824	
748.125	0.1306199241	0.4051517838	
748.75	0.06697379998	0.4982688712	
749.375	0.1330151301	0.6408584808	
750.0	-0.3133976319	0.135509924	
