!Created with skrf (http://scikit-rf.org).
# GHz S RI R (50+0j) 
!freq	ReS11	ImS11	
500.0	-1.447806974	-2.255240569	
500.625	2.679495981	-3.226305951	
501.25	-1.998572037	-2.263293386	
501.875	-0.9401092945	-0.08780116186	
502.5	-0.04945111408	-0.6046969117	
503.125	-0.1255346026	0.2070830747	
503.75	-0.1029004631	0.2225814187	
504.375	0.1024688655	-0.1027025301	
505.0	0.05341935154	0.09883924276	
505.625	-0.08852458902	-0.4028794206	
506.25	-0.02389049794	0.2644826523	
506.875	-0.5967351971	-0.7366045603	
507.5	-1.714996208	-0.4315469532	
508.125	1.293551764	-0.686473481	
508.75	1.508899851	-4.400786052	
509.375	-2.177200817	-1.196591717	
510.0	-1.698267143	-2.067308062	
510.625	-0.9641831321	0.3495657706	
511.25	-0.196394874	-0.2793161123	
511.875	-0.5140220933	-0.07143788909	
512.5	-0.06131755814	0.1760684056	
513.125	-0.082993307	-0.1790188629	
513.75	-0.1621163921	-0.373482377	
514.375	-0.3884907477	0.3067992848	
515.0	0.8644141689	-0.9569697053	
515.625	-1.585137712	-0.03180355245	
516.25	1.577706373	-2.362273557	
516.875	-2.432894454	-1.771105332	
517.5	0.005745895345	0.4145385034	
518.125	-0.3058480832	-0.424037574	
518.75	0.01160040811	0.2595310929	
519.375	-0.2948032447	0.05311622156	
520.0	0.4599068571	0.07799497926	
520.625	0.2061183958	-0.139703004	
521.25	0.2132379564	-0.9470988639	
521.875	-0.4246389512	0.1957151528	
522.5	-0.1184885162	-0.07291731573	
523.125	0.04868049164	0.2208174656	
523.75	-0.4008075452	-0.1831945162	
524.375	-0.1150754306	0.4216201236	
525.0	-0.3091192602	0.1556553163	
525.625	0.2688783815	0.2598939076	
526.25	-0.2838897091	-0.08447269453	
526.875	0.07346290123	0.165075545	
527.5	-0.3661476309	0.2797994428	
528.125	0.4003649054	1.089703062	
528.75	0.1320046294	0.1799617025	
529.375	0.1872093332	0.3506151597	
530.0	-0.07468113707	0.05761682969	
530.625	0.5160404299	1.267986431	
531.25	0.6269504554	-0.1798370142	
531.875	0.798137995	-0.322143906	
532.5	-0.4668127034	-0.1776231954	
533.125	0.5160267103	-0.34424038	
533.75	-0.3461524141	-0.2263561192	
534.375	0.1841754559	-1.134639304	
535.0	-0.9187296298	0.2113374688	
535.625	-0.2507318541	0.1033750508	
536.25	-0.06671261466	0.3161115515	
536.875	0.2329563792	-0.1087379419	
537.5	0.2209934737	0.02549217968	
538.125	0.2491746718	-0.3158166081	
538.75	0.2144612346	-0.08642744855	
539.375	-0.1498590815	-0.5717836336	
540.0	-0.5278734597	-0.1201739519	
540.625	-0.2570367146	-0.1093484891	
541.25	-0.2051063801	-0.0328020907	
541.875	-0.198370077	-0.004024480692	
542.5	0.01594645887	-0.0813113987	
543.125	-0.322246875	-0.1504393271	
543.75	-0.04212943826	0.1045124565	
544.375	-0.2481580904	0.08344221934	
545.0	0.1511852824	0.0935916024	
545.625	-0.08782698937	0.2655986407	
546.25	0.4701764021	-0.07123714702	
546.875	0.01323102747	0.03648894892	
547.5	0.3852787963	-0.3325266982	
548.125	-0.3205384702	-0.3451974559	
548.75	-0.08452031109	-0.2235149329	
549.375	-0.3594167031	-0.2797714133	
550.0	-0.08906546758	0.1547547426	
550.625	-0.2171394382	-0.1080768896	
551.25	-0.08141564173	0.1950841338	
551.875	-0.1890462533	0.04538744568	
552.5	-0.1232465684	0.2732219699	
553.125	0.01326573995	0.1217104426	
553.75	0.09458855648	0.130268354	
554.375	0.2351060045	-0.03071184137	
555.0	0.2056094552	-0.1537721614	
555.625	0.2006791553	-0.2601140213	
556.25	0.1298633766	-0.3439344813	
556.875	-0.09342477116	-0.3617686158	
557.5	-0.2300680737	-0.2366548307	
558.125	-0.2814886761	-0.08381103295	
558.75	-0.2351733086	0.01851772542	
559.375	-0.2417873701	0.02228719873	
560.0	-0.2418753881	0.2045848217	
560.625	-0.05262017364	0.2295838996	
561.25	-0.05432057214	0.2370696901	
561.875	0.1612444657	0.07321655012	
562.5	-0.0857140611	0.1351449074	
563.125	0.2855769129	0.1261318048	
563.75	0.1550330505	0.007320700941	
564.375	0.4225431068	-0.1874073748	
565.0	0.05415381757	-0.4410313516	
565.625	-0.04200931432	-0.2216122476	
566.25	-0.2315854623	-0.3617157131	
566.875	-0.4056182516	-0.03570078537	
567.5	-0.1590100443	-0.268637296	
568.125	-0.4773247159	-0.4767993058	
568.75	-0.4153086375	-0.0009247203044	
569.375	-0.6259022928	0.004988670773	
570.0	-0.2353229436	0.7240168061	
570.625	0.09670499589	0.1869092178	
571.25	-0.3631598232	0.3571766749	
571.875	0.4058342704	-0.09472886988	
572.5	0.1609539795	0.3334947933	
573.125	0.2912162619	-0.5590156968	
573.75	-0.1905545278	-0.07221341939	
574.375	0.3712588423	-0.1813439212	
575.0	-0.2541122512	-0.1945771766	
575.625	0.3166025461	0.01333970113	
576.25	0.1317803576	-0.5342367636	
576.875	-0.2062390805	-0.0881580913	
577.5	0.2807736767	-0.3302654886	
578.125	-0.2876626552	-0.5350699664	
578.75	-0.2007016298	-0.06157715318	
579.375	-0.03141905557	-0.2997762914	
580.0	-0.3503952061	-0.02878527013	
580.625	0.1152856486	-0.1082677161	
581.25	-0.4977991002	0.213037515	
581.875	0.3211529387	0.4041705743	
582.5	-0.04125597384	-0.04546644793	
583.125	0.03799678427	0.6326508252	
583.75	0.2232371127	-0.4389804708	
584.375	0.008186352576	0.5528193035	
585.0	0.3891695233	-0.2770509137	
585.625	0.1104095701	0.3712424693	
586.25	0.6507646751	-0.3951640729	
586.875	-0.1319512425	-0.1607315182	
587.5	0.2370025907	-0.2657710076	
588.125	-0.1427016581	-0.5699097323	
588.75	-0.1767649268	-0.1271397968	
589.375	0.4338563341	-0.2662074869	
590.0	-0.2763934895	-0.473624773	
590.625	-0.2413257288	-0.05946444255	
591.25	-0.4409602004	0.2302837861	
591.875	0.1047354925	0.3122853096	
592.5	-0.1333123685	0.06094548991	
593.125	0.03585110283	0.1844794027	
593.75	0.04177839137	0.07875875086	
594.375	0.2250244187	0.5575342863	
595.0	0.836538601	0.1417249755	
595.625	-0.05363295568	-0.01038084046	
596.25	0.5733148345	0.4814154823	
596.875	0.3007963574	-0.3367426582	
597.5	0.1241332948	0.5229750226	
598.125	0.6752972877	0.091789058	
598.75	0.0559648475	0.1408652778	
599.375	0.8295985831	0.03744073758	
600.0	0.1913381151	-0.4878449373	
600.625	0.2177705358	-0.2110358775	
601.25	0.3339604459	-0.4375986951	
601.875	-0.2820325836	-0.2972454359	
602.5	-0.2461783717	-0.04177144447	
603.125	-0.2420017845	0.08515256885	
603.75	-0.2913443737	0.165764359	
604.375	-0.1172011619	0.1529728047	
605.0	-0.2452774276	0.102925552	
605.625	-0.05305933448	0.2610823434	
606.25	-0.3151777484	-0.1024829754	
606.875	-0.500128817	0.5445637442	
607.5	-0.07856504851	0.09566165521	
608.125	-0.4880789404	0.7839332259	
608.75	0.6801498998	-0.02343365798	
609.375	0.3345360864	0.2636657803	
610.0	0.5803275054	-0.5179668578	
610.625	-0.1179080123	-0.1395633319	
611.25	0.2926448129	-0.577602501	
611.875	-0.3126601867	-0.0396075745	
612.5	-0.2312598321	-0.3826399699	
613.125	-0.568062369	0.2866257538	
613.75	-0.1777401074	0.02030693562	
614.375	0.1872876452	0.5320738021	
615.0	-0.02837324233	-0.1834964763	
615.625	0.05471432695	0.544378968	
616.25	0.07869288724	-0.008211942564	
616.875	-0.5077078283	0.4707301604	
617.5	0.09804543626	0.7212985135	
618.125	-0.09067475539	0.1689873486	
618.75	0.07587439222	0.6732053001	
619.375	0.255103514	0.1598670076	
620.0	0.4222810188	0.2665739797	
620.625	0.1352427719	-0.4451046606	
621.25	-0.09157325671	-0.3608252419	
621.875	-0.5454090573	-0.1412932056	
622.5	-0.3607648272	0.09086957065	
623.125	-0.1732352814	0.5703535066	
623.75	0.2043936361	-0.1961186761	
624.375	0.441701857	0.1458073207	
625.0	-0.2885721475	-0.1213618043	
625.625	0.452020676	-0.08844836736	
626.25	-0.4496925488	-0.422320023	
626.875	0.0735816965	-0.03517475386	
627.5	-0.6097792561	-0.2961037395	
628.125	-0.1987424605	0.1532313377	
628.75	0.09677705487	-0.4824514982	
629.375	-0.5256583508	-0.317723451	
630.0	-0.1550342073	-0.1457985646	
630.625	-0.5771451478	0.0124571717	
631.25	-0.3197486706	0.5705815681	
631.875	0.04080673	0.5133056678	
632.5	0.2449761761	0.3653577344	
633.125	0.5669660173	0.1767013142	
633.75	0.2759220663	-0.2377370621	
634.375	0.2007240395	-0.2471986221	
635.0	-0.2034929196	-0.40438807	
635.625	-0.1194054311	-0.1812769334	
636.25	-0.5640127318	0.161286637	
636.875	0.09760976146	0.4377007755	
637.5	-0.09131948053	-0.1787162448	
638.125	-0.3356142917	0.6782284718	
638.75	0.2076382553	0.05719691248	
639.375	-0.3461711288	0.5689580514	
640.0	0.6588977769	0.6312155265	
640.625	0.3113238446	0.05522981794	
641.25	0.8909258069	0.2945485027	
641.875	0.05158098438	-0.6593269532	
642.5	0.1974999631	-0.1843377639	
643.125	-0.3577878877	-0.642657156	
643.75	-0.416133616	0.3412505165	
644.375	-0.1943397844	-0.3660842849	
645.0	-0.5076315717	0.4983341326	
645.625	0.385170996	0.456339061	
646.25	0.0207937436	0.008038414911	
646.875	0.6752455551	0.1246966785	
647.5	-0.2918570302	-0.04256896319	
648.125	0.6709857789	0.3039625934	
648.75	0.3669928029	-0.6037351661	
649.375	0.4458445976	0.1528904189	
650.0	0.8490315589	-1.268824284	
650.625	-0.4258088788	-0.7277675977	
651.25	0.61353353	0.1657113514	
651.875	1.038381134	-0.9094012332	
652.5	-0.00577273067	-0.4636442739	
653.125	0.8588618999	0.1422395866	
653.75	0.2623535157	-1.020200741	
654.375	-0.1747406751	-0.1611005103	
655.0	-0.6015979095	-0.6927135175	
655.625	-0.2860384197	0.9650980003	
656.25	0.1412706469	-0.03454510676	
656.875	-0.05292949574	0.4829855389	
657.5	0.3452072345	-0.04927698121	
658.125	-0.06413385501	0.4779300643	
658.75	1.024076386	0.1052015003	
659.375	0.4485191007	-0.4707882022	
660.0	0.4514736919	-0.3324894043	
660.625	0.6251986916	-1.138741585	
661.25	-0.3354484578	-0.6844345945	
661.875	0.7160113922	-0.06613086702	
662.5	0.8405896383	-0.9167415768	
663.125	0.01212368538	-0.5505149751	
663.75	0.8439332958	-0.3877519734	
664.375	-0.6965647795	-0.8540125584	
665.0	-0.1483853734	-0.2717946378	
665.625	-1.091246489	0.09074924083	
666.25	0.1573206961	0.8111902077	
666.875	0.01650426119	0.1600435021	
667.5	0.5418408339	0.4531204744	
668.125	0.5052746743	-0.3549373475	
668.75	0.240124488	-0.08048643126	
669.375	0.4172931809	-0.7156254266	
670.0	-0.2554703853	-0.3034697295	
670.625	0.2003197662	-0.4175831583	
671.25	0.01355152448	-0.5998027071	
671.875	0.06320212074	-0.1884884188	
672.5	0.6864228892	-0.2495190376	
673.125	0.4650844765	-0.754636435	
673.75	-0.09581376314	-0.384608511	
674.375	0.4654689513	-0.3868685161	
675.0	-0.5880671101	-0.959697202	
675.625	-0.0184231132	0.2926515005	
676.25	-0.832322569	-0.4489310557	
676.875	-0.1820364587	0.5579863891	
677.5	-0.3435615914	-0.5801728863	
678.125	-0.2416496437	1.000683833	
678.75	0.09669239211	-0.03416758986	
679.375	0.3189527775	0.4214420318	
680.0	0.6883467662	-0.3389642246	
680.625	-0.2904874197	-0.3595622255	
681.25	0.4436374955	0.3131827227	
681.875	0.4227522704	-0.1394727605	
682.5	0.2792749128	0.09611542074	
683.125	0.6134448594	0.3975022278	
683.75	0.6038933419	-0.1942861857	
684.375	0.4696901459	0.1655412777	
685.0	0.7493948375	0.2994469967	
685.625	0.8582719647	-0.6154970581	
686.25	-0.0392869825	0.4069923583	
686.875	1.682941624	-0.7600289104	
687.5	-0.605517223	-0.6698567062	
688.125	0.6414134451	-0.9681072528	
688.75	-1.781154552	-0.2810052227	
689.375	0.1361639688	0.2063979423	
690.0	-0.008331037287	1.58794633	
690.625	0.7802107676	-0.08210033666	
691.25	0.2483177348	0.8757063131	
691.875	1.599942942	0.6275235718	
692.5	1.077824663	0.1550808557	
693.125	1.512524489	0.06112561006	
693.75	1.26346414	-0.6710389554	
694.375	0.9769855853	-0.8734103876	
695.0	0.8271919933	-0.8715310834	
695.625	0.877847025	0.03042909429	
696.25	1.648087153	0.1617503956	
696.875	0.6421816699	0.3173660486	
697.5	1.001627985	1.580138774	
698.125	1.518967256	-0.549347189	
698.75	1.011613666	-0.2858747797	
699.375	-1.650521175	-1.147932838	
700.0	0.2084328826	0.8277132813	
700.625	-0.2120596952	1.277395136	
701.25	0.8344724936	-0.08098928956	
701.875	0.1552073657	0.6694204456	
702.5	1.373032192	0.5514809961	
703.125	0.4031695018	0.1071947851	
703.75	1.289186461	-0.1053619585	
704.375	0.2689346678	-0.7737235588	
705.0	0.6278776501	0.2582528809	
705.625	0.8880827095	-0.5882502886	
706.25	0.03324609084	0.3095559964	
706.875	0.9064641471	1.164146154	
707.5	0.8047286425	-0.01708093175	
708.125	1.102377065	0.7156022463	
708.75	0.3950824377	-1.462433818	
709.375	-0.4109495836	-0.1818617791	
710.0	-0.7135805318	0.5726908396	
710.625	0.5137489327	0.2154776166	
711.25	0.1010811164	0.3486778563	
711.875	0.5716139151	0.1223679078	
712.5	0.7816152936	0.04510164009	
713.125	0.4507937557	-0.60594112	
713.75	0.3316764858	-0.3257575385	
714.375	-0.02490659434	-0.8204572602	
715.0	-0.2477671544	-0.110240155	
715.625	0.5150826824	-0.7742753	
716.25	-0.315866281	-0.8212407284	
716.875	0.7404429598	0.4291175317	
717.5	2.32013787	-0.3418046137	
718.125	0.4345164733	-1.524556924	
718.75	2.422586204	1.431243497	
719.375	1.636904387	-3.19456068	
720.0	0.484260678	-1.216850469	
720.625	1.472709727	-3.333525177	
721.25	-1.891658544	-1.654174924	
721.875	0.2552537901	-2.427199445	
722.5	-2.109119028	-2.091967841	
723.125	-1.995839307	0.5701933997	
723.75	-0.6031011834	0.6366899547	
724.375	-0.1999095042	1.332760596	
725.0	0.8517547769	0.8145089223	
725.625	0.2378403364	0.57939275	
726.25	-0.31707317	1.906133991	
726.875	1.177375621	2.683469242	
727.5	-1.491595888	1.725839249	
728.125	0.297329466	7.1343947	
728.75	3.874749153	4.556573074	
729.375	-7.421877689	2.581433453	
730.0	7.88334395	21.06872208	
730.625	5.009866297	0.5085752456	
731.25	-8.149634778	10.66781436	
731.875	-8.069075625	13.55369478	
732.5	-1.029621998	4.180393083	
733.125	-8.577801184	-0.6960564487	
733.75	-0.1111159459	4.201629437	
734.375	1.165825034	0.1167978798	
735.0	0.5247957753	-2.348884179	
735.625	-0.5608065222	1.463503065	
736.25	-0.749639671	0.5626066087	
736.875	1.280034138	1.885858458	
737.5	3.562942117	-0.2384626899	
738.125	0.9267566817	-2.482432017	
738.75	7.566655861	0.55017949	
739.375	4.888527719	-9.977561973	
740.0	-2.572873775	0.4683112295	
740.625	17.15344921	8.293368741	
741.25	21.62541265	-21.81516155	
741.875	-15.52403115	-18.25277872	
742.5	-13.64169998	-3.501207323	
743.125	-0.6219857866	2.274116828	
743.75	2.061761594	-4.13390167	
744.375	-2.206902824	0.9171348283	
745.0	0.1412824102	-0.4127955088	
745.625	0.4222940929	-0.04672837835	
746.25	-0.1223274652	-0.02375261253	
746.875	-0.9963547227	-0.2291246015	
747.5	0.02995620256	1.187895169	
748.125	0.5566296605	0.7082226992	
748.75	0.6952303203	1.185870113	
749.375	0.3676764322	1.204760977	
750.0	-0.4704349552	0.5864536568	
