!Created with skrf (http://scikit-rf.org).
# GHz S RI R (50+0j) 
!freq	ReS11	ImS11	
500.0	0.5482200335	-1.297361668	
500.625	-0.1510863514	-1.179410033	
501.25	0.05095160109	-0.665558103	
501.875	-0.4564961505	-0.6333699703	
502.5	-0.06095755805	-0.07224514015	
503.125	-0.08389933502	-0.05573992479	
503.75	0.06475650683	0.1208003119	
504.375	-0.001965175355	0.01251183962	
505.0	0.0497053716	-0.04849603249	
505.625	-0.02150969294	0.01229779422	
506.25	0.007300333469	-0.1444738809	
506.875	-0.03311115323	0.2600346699	
507.5	0.2691044047	-0.3680595378	
508.125	0.01666996603	-1.014396605	
508.75	0.146474948	-0.537054817	
509.375	0.7362442364	-1.157455052	
510.0	-0.7687422909	-0.4725046369	
510.625	-0.06024829487	-0.06944257815	
511.25	-0.103077766	-0.1461019245	
511.875	-0.1515881421	0.02252594373	
512.5	-0.01254096553	0.04639240298	
513.125	0.009892307892	-0.1215469554	
513.75	-0.07260032399	0.03065939986	
514.375	0.006817205182	-0.09548633332	
515.0	-0.3086233079	0.03543691379	
515.625	0.5745372176	-0.3887795043	
516.25	-1.041159099	-0.7358227147	
516.875	-0.1641178022	-0.04682148604	
517.5	0.122431376	-0.1795421567	
518.125	-0.1237904178	0.01037402002	
518.75	-0.01150879616	-0.2322326602	
519.375	-0.07963299425	0.06245908238	
520.0	0.09079798768	0.03481639486	
520.625	0.1120953075	0.007794890616	
521.25	-0.03242443584	-0.2362852361	
521.875	-0.1617072894	0.06467029738	
522.5	-0.0117777389	-0.05087400947	
523.125	-0.1279830986	0.137434885	
523.75	0.007506734686	0.02359515952	
524.375	-0.2980318506	-0.06854694127	
525.0	0.08896367565	0.2152990008	
525.625	-0.0352565831	-0.02547280438	
526.25	0.06182406782	0.03427672832	
526.875	-0.09572004769	-0.01927574144	
527.5	-0.01088480045	0.2970297374	
528.125	0.1530150442	0.1357639199	
528.75	0.01792586776	0.3335046089	
529.375	0.1202884154	0.08278317287	
530.0	-0.02511745587	0.1437830066	
530.625	0.08319757405	0.3294883648	
531.25	0.400310257	-0.07282308659	
531.875	0.202702009	-0.04521737784	
532.5	0.05892252226	-0.1831952654	
533.125	0.02453056338	0.1153708851	
533.75	0.3042399028	-0.2769567232	
534.375	-0.1608174004	-0.2028623208	
535.0	-0.1498091758	-0.1678967668	
535.625	-0.2229320497	0.1599976183	
536.25	0.0275377801	0.06864205731	
536.875	0.08480991011	0.06167945006	
537.5	0.0836456015	-0.07995928031	
538.125	0.05885512439	-0.02723724816	
538.75	0.198846627	-0.1275162173	
539.375	-0.1364946858	-0.139821891	
540.0	-0.1216667979	-0.1310113221	
540.625	-0.183203086	-0.06933682068	
541.25	-0.08549501329	0.06667647568	
541.875	0.004738713838	-0.08270164599	
542.5	-0.1017934568	-0.06861480273	
543.125	-0.02379194556	0.0006545187352	
543.75	-0.1373837457	-0.06767676305	
544.375	-0.007321022169	0.08584352453	
545.0	-0.06188127314	0.03802610832	
545.625	0.112568663	0.07299982735	
546.25	0.03217038211	-0.01935954673	
546.875	0.1662086665	0.02473534589	
547.5	0.02125953682	-0.1771749723	
548.125	-0.005740225259	-0.110033981	
548.75	-0.1360172746	-0.1823407441	
549.375	-0.1521454503	-0.02659717138	
550.0	-0.03907141831	-0.03252738655	
550.625	-0.08933995805	0.04017523738	
551.25	-0.04272814324	0.01101305236	
551.875	-0.1119242904	0.07088930943	
552.5	-0.02356549806	0.1004083519	
553.125	-0.03047199837	0.05186673194	
553.75	0.06092897679	0.05591159022	
554.375	0.08821046174	-0.003117240734	
555.0	0.1124253268	-0.06818105979	
555.625	0.08824011066	-0.1168921708	
556.25	0.06558361456	-0.1439469028	
556.875	-0.03344700339	-0.1684491167	
557.5	-0.1051243363	-0.1133652585	
558.125	-0.1214414698	-0.03708170832	
558.75	-0.1089962192	-0.00991224295	
559.375	-0.1252081641	0.01800711421	
560.0	-0.09005586569	0.08947112986	
560.625	-0.05955855724	0.09844151781	
561.25	0.001351080373	0.1410688576	
561.875	0.03944748979	0.01460165435	
562.5	-0.00372428998	0.09085301081	
563.125	0.08901791534	0.03741156295	
563.75	0.1184196506	0.04476285834	
564.375	0.1715920728	-0.127654808	
565.0	0.02241953816	-0.1523399339	
565.625	0.02154423517	-0.1636318609	
566.25	-0.1996600712	-0.1610337887	
566.875	-0.101784605	-0.02935349441	
567.5	-0.1377127346	-0.1765094407	
568.125	-0.2339014375	-0.1322080727	
568.75	-0.1266346239	-0.08126311846	
569.375	-0.3419792013	0.08847964721	
570.0	-0.04944959814	0.2457683434	
570.625	-0.09704629868	0.0884179503	
571.25	0.0031092175	0.2340383282	
571.875	0.03426489112	-0.01399619012	
572.5	0.1798973703	0.08028601355	
573.125	0.04798085631	-0.2147999129	
573.75	0.009617030525	-0.004722203396	
574.375	0.1113134068	-0.1338551998	
575.0	-0.07053505885	-0.02225536995	
575.625	0.1356290447	-0.05982900495	
576.25	-0.005312542693	-0.1984894951	
576.875	-0.01424084482	-0.05352771033	
577.5	0.08907116493	-0.2082075935	
578.125	-0.1377292098	-0.1981052063	
578.75	-0.05286007896	0.006811190339	
579.375	-0.02833996732	-0.1746643475	
580.0	-0.1522683983	0.02571681511	
580.625	0.06713515931	-0.1353762478	
581.25	-0.207923269	0.2121632156	
581.875	0.1055922567	0.07070373872	
582.5	-0.06962447142	0.1183395721	
583.125	0.1920544756	0.1752073821	
583.75	-0.0138493348	-0.09408601379	
584.375	0.1004576012	0.1758957429	
585.0	0.1169095709	-0.05466688335	
585.625	0.1022473409	0.1162601348	
586.25	0.2617613443	-0.1182893383	
586.875	-0.02251399661	-0.1270717389	
587.5	0.0798526387	-0.1156371525	
588.125	-0.06061859158	-0.2187044511	
588.75	-0.04087866258	-0.07131395831	
589.375	0.1876608207	-0.1430247093	
590.0	-0.1617648121	-0.2112329156	
590.625	-0.07738619576	-0.02074993982	
591.25	-0.2316600316	0.06836015259	
591.875	0.1016970049	0.2458727866	
592.5	-0.0716780186	-0.06426081641	
593.125	0.04899593508	0.1401251407	
593.75	-0.005901531328	0.03184378637	
594.375	0.2503106679	0.221485454	
595.0	0.26082605	0.002478236107	
595.625	0.05826194809	0.07933223234	
596.25	0.231586169	0.1198588366	
596.875	0.1292911928	-0.04242034551	
597.5	0.06558436618	0.131639269	
598.125	0.239544469	0.1243666659	
598.75	0.1310238647	0.03069015482	
599.375	0.2302490293	0.02525494751	
600.0	0.2121983941	-0.2183775015	
600.625	0.06822871931	-0.1904519934	
601.25	0.1382070563	-0.1355344838	
601.875	-0.1430658726	-0.2307689685	
602.5	-0.0675171577	0.06104486888	
603.125	-0.1694772269	-0.05548640638	
603.75	-0.1093214981	0.1978284488	
604.375	-0.0335642393	-0.04350801741	
605.0	-0.1825216863	0.09285772386	
605.625	0.03720147238	0.1193796064	
606.25	-0.2593335635	0.02201667179	
606.875	-0.1565400868	0.2023428785	
607.5	-0.1792515452	0.09335472115	
608.125	-0.138275062	0.2477183257	
608.75	0.2901348321	0.2103627764	
609.375	0.2065015002	-0.04077521943	
610.0	0.2371555056	-0.04726485736	
610.625	0.0690814696	-0.2641677842	
611.25	-0.04044090231	-0.1278246692	
611.875	-0.03489255915	-0.2016032264	
612.5	-0.285964885	0.00207651833	
613.125	-0.100924341	-0.02752615776	
613.75	-0.211162733	0.1839786461	
614.375	0.1694478444	0.08613999638	
615.0	-0.1130784619	0.1069766006	
615.625	0.1275446731	0.1466771687	
616.25	-0.02024524426	0.03130611889	
616.875	-0.1831813076	0.2291439691	
617.5	-0.005640057001	0.1311869229	
618.125	-0.04247407627	0.1135520786	
618.75	-0.05222099186	0.2923060447	
619.375	0.1909154695	0.1327381303	
620.0	0.2308030146	-0.07252634725	
620.625	0.1709876638	-0.1774931271	
621.25	-0.1818432285	-0.2367944844	
621.875	-0.1263237667	-0.125730495	
622.5	-0.3123010072	-0.07559645514	
623.125	0.02955389164	0.2309829678	
623.75	0.03466548911	0.04992339159	
624.375	0.134127485	-0.09851764795	
625.0	-0.04988049148	0.006419433252	
625.625	0.1345632172	-0.110350373	
626.25	-0.1387842044	-0.1459924902	
626.875	-0.06385544306	-0.05347674673	
627.5	-0.1996437092	-0.1094071593	
628.125	-0.1435271134	-0.02473906616	
628.75	-0.0008772412123	-0.1219442245	
629.375	-0.1025401657	-0.1939842083	
630.0	-0.1673687529	-0.01622587508	
630.625	-0.1901734222	0.03495083303	
631.25	-0.1896278526	0.2631783385	
631.875	0.05557831504	0.3205785966	
632.5	0.05742565998	0.1368795675	
633.125	0.3418939846	0.176282925	
633.75	0.1254153385	-0.1385838078	
634.375	0.1316470691	-0.06631129109	
635.0	-0.06194441954	-0.2292285388	
635.625	-0.07752521625	0.02036970922	
636.25	-0.2358981869	-0.009843530923	
636.875	-0.02802642382	0.2255890088	
637.5	-0.004610984055	-0.01003602362	
638.125	-0.1524883123	0.1522753411	
638.75	0.05931822607	0.1728486901	
639.375	-0.1017664248	0.1924647756	
640.0	0.1850898398	0.3597197873	
640.625	0.270542151	0.04647895935	
641.25	0.1725670414	0.02308984821	
641.875	0.2817353577	-0.2470490408	
642.5	-0.147539348	-0.2281620939	
643.125	0.02570728844	-0.1109388962	
643.75	-0.3050899269	-0.1665981211	
644.375	-0.04105693659	0.08724129274	
645.0	-0.3683112362	-0.008220801652	
645.625	0.1762407825	0.2873475347	
646.25	-0.01567319406	-0.1225035785	
646.875	0.1423385426	0.1789145447	
647.5	0.04995957543	-0.153350461	
648.125	0.133553137	0.2263383277	
648.75	0.3975362685	-0.248625166	
649.375	0.06412910511	-0.203037598	
650.0	0.3138068094	-0.2083136196	
650.625	0.1602221961	-0.5290668517	
651.25	0.001261720295	-0.1382539958	
651.875	0.4002888088	-0.04928066816	
652.5	0.3529709792	-0.2621585871	
653.125	0.09291355731	-0.1055653515	
653.75	0.3767513879	-0.1546964834	
654.375	-0.1900503481	-0.4035273026	
655.0	-0.1544164418	-0.005132996274	
655.625	-0.3337501723	0.1056097307	
656.25	0.2258359357	0.3636866087	
656.875	-0.07452547454	-0.04681635032	
657.5	0.1236003224	0.2494948844	
658.125	0.1341071892	-0.08059554961	
658.75	0.1975767939	0.2662650587	
659.375	0.4971678102	-0.3483864645	
660.0	0.03406791793	-0.2590566998	
660.625	0.2786400558	-0.253586897	
661.25	0.219417634	-0.4435368032	
661.875	0.000814315497	-0.2230203209	
662.5	0.3935676593	-0.0689790484	
663.125	0.2872568744	-0.3594976202	
663.75	0.07570587671	-0.2031802141	
664.375	0.08960707857	-0.4048398365	
665.0	-0.4105502457	-0.1977035024	
665.625	-0.2046659293	0.07269129219	
666.25	-0.2524897633	0.2487575441	
666.875	0.2300689109	0.2686050484	
667.5	0.07796529163	0.04747606941	
668.125	0.3454131455	0.06883454212	
668.75	0.101876792	-0.2906090136	
669.375	0.1052557834	-0.09778874835	
670.0	0.0932866106	-0.337631439	
670.625	-0.1821706132	-0.1410348615	
671.25	0.2281283945	-0.09740671213	
671.875	0.1552340116	-0.2990441289	
672.5	0.07981930081	-0.1521744464	
673.125	0.3022189238	-0.04831733805	
673.75	0.1574295021	-0.3972176977	
674.375	-0.024859862	-0.1489950647	
675.0	0.03401083601	-0.288153113	
675.625	-0.3183422859	-0.1703047938	
676.25	-0.04179963596	0.03262782319	
676.875	-0.2166000142	-0.1483897445	
677.5	-0.1817580359	0.1636835037	
678.125	-0.07458455136	0.0225103603	
678.75	-0.1029511891	0.3451442194	
679.375	0.3613079487	-0.03937892159	
680.0	-0.002252100005	0.01629816276	
680.625	0.3164505706	-0.1111278998	
681.25	-0.01154367485	-0.1756006339	
681.875	0.1341548695	0.4639706942	
682.5	0.4916795004	0.007100399434	
683.125	0.08879547848	-0.04724375563	
683.75	0.2829972528	0.2712432255	
684.375	0.4686763654	-0.07308516461	
685.0	0.01374020309	0.1431033574	
685.625	0.4171978765	0.2389147072	
686.25	0.2721752827	-0.1690464048	
686.875	0.1718067777	-0.06562715004	
687.5	0.4361804026	-0.2942340876	
688.125	-0.2415228105	-0.5185441754	
688.75	-0.2669603319	-0.2230111051	
689.375	-0.4981536089	0.3102563054	
690.0	0.231593925	0.4316705463	
690.625	0.01762997973	0.1793771939	
691.25	0.4964093352	0.4857733493	
691.875	0.4733425506	0.09293021232	
692.5	0.4111517436	0.487923688	
693.125	0.9325121416	0.03244054728	
693.75	0.4006419785	-0.4326437206	
694.375	0.7492733925	-0.2011787352	
695.0	0.6166899214	-0.4333126081	
695.625	0.3021358834	0.1069379968	
696.25	0.425130854	0.3920439447	
696.875	0.6895329654	0.5161764483	
697.5	0.3036559444	0.4102767259	
698.125	0.5883225647	0.251781305	
698.75	0.5587221599	-0.5053447489	
699.375	-0.4642027414	-0.3360168726	
700.0	-0.4040690235	0.1413445887	
700.625	0.1449586186	0.504011662	
701.25	0.1604704559	0.05947680224	
701.875	0.1764837612	0.3959465925	
702.5	0.5501980045	0.196259447	
703.125	0.2052443561	0.08942828476	
703.75	0.5018352073	0.03478360378	
704.375	0.3173366	-0.347338422	
705.0	0.1627890606	0.009299258691	
705.625	0.4246173465	0.09875556901	
706.25	0.2277102711	0.1269566282	
706.875	0.1084974092	0.319886151	
707.5	0.2777557464	0.4210973161	
708.125	0.4897432245	-0.05000851425	
708.75	0.1245403478	-0.5337241144	
709.375	-0.2784103102	-0.3749583733	
710.0	-0.1330150703	0.3014735069	
710.625	-0.005345145913	0.02305915932	
711.25	0.1288844754	0.4639241652	
711.875	0.1084726551	0.008059132414	
712.5	0.3140458266	0.1765455828	
713.125	0.335656601	-0.2710181113	
713.75	-0.01331600112	-0.1792884201	
714.375	0.1547230349	-0.2214841599	
715.0	-0.1316176682	-0.2883947863	
715.625	0.006227405705	-0.09955624432	
716.25	0.3090569937	-0.2534376607	
716.875	0.3003927081	-0.3502746453	
717.5	0.3580432721	0.0944934978	
718.125	0.8872972452	0.2131695354	
718.75	0.7525420096	-0.4413410154	
719.375	0.5008566136	-0.4192916201	
720.0	0.9088378155	-1.134128753	
720.625	-0.136050272	-0.772577436	
721.25	0.3013812883	-0.8513561135	
721.875	-0.03675745629	-1.623131482	
722.5	-0.9023016984	-0.5561469587	
723.125	-0.2673839389	-0.4570179167	
723.75	-0.5764867873	0.5948334049	
724.375	0.2707318856	0.2932973594	
725.0	-0.07297062778	0.3498733205	
725.625	0.3502319477	0.6444995956	
726.25	0.1798502424	0.3552361895	
726.875	-0.4441173779	0.9244025978	
727.5	0.008003587885	1.788359565	
728.125	0.4428952004	1.446769157	
728.75	-1.272876268	2.458869147	
729.375	-0.1811315421	4.762521397	
730.0	1.314262987	3.108139143	
730.625	-1.861953335	3.987806718	
731.25	0.1235484251	5.661123532	
731.875	-0.8545508739	1.866439433	
732.5	-4.105655399	-0.4678559377	
733.125	-3.499543391	1.411424353	
733.75	-0.3720042347	0.8857987811	
734.375	0.7461385124	0.9755992191	
735.0	-0.6495873077	-0.9999508797	
735.625	-0.1149734199	-0.02692767043	
736.25	-0.3291366668	0.6957230582	
736.875	0.8076833452	0.4241567865	
737.5	0.1938203145	0.4522586195	
738.125	2.274596449	-0.02634406739	
738.75	1.402559569	-2.140245816	
739.375	0.8703939564	-0.3891039065	
740.0	5.488491308	1.039642888	
740.625	2.895754042	-5.327165516	
741.25	-4.271386576	-0.03654579324	
741.875	-6.046456786	1.62053587	
742.5	-1.349787667	0.1115826737	
743.125	1.740204464	-1.419327516	
743.75	-0.2893331785	-1.717868563	
744.375	-0.313955015	0.2839204641	
745.0	-0.1661771136	0.09905919401	
745.625	0.07383168087	-0.1876791153	
746.25	0.1139474096	-0.08176245821	
746.875	-0.3228066201	0.01217428401	
747.5	-0.02954917176	0.3381839016	
748.125	-0.122545793	0.416885451	
748.75	0.2886359914	0.6425885974	
749.375	0.2117135173	0.3496332264	
750.0	-0.533155622	0.1056677492	
