!Created with skrf (http://scikit-rf.org).
# GHz S RI R (50+0j) 
!freq	ReS11	ImS11	
500.0	-0.2979403398	-1.081785549	
500.625	0.6559378768	-0.6067855065	
501.25	-0.853586049	-0.8482245835	
501.875	-0.2415953533	-0.2165296511	
502.5	0.01442385449	-0.1798968057	
503.125	-0.085250281	0.05063526864	
503.75	-0.01008892133	0.03717172819	
504.375	0.05817742235	-0.009481482657	
505.0	-0.01813791267	-0.002550802044	
505.625	0.04395310289	-0.07893931017	
506.25	-0.1512497619	0.008001229336	
506.875	-0.04459235321	-0.2249109933	
507.5	-0.5455839862	-0.3123673682	
508.125	0.1096122043	-0.2183597381	
508.75	0.9749389771	-1.004616531	
509.375	-0.9055530336	-1.385697954	
510.0	-0.2110032227	-0.3447303201	
510.625	-0.1672404709	-0.2574517171	
511.25	-0.1044299052	0.01265228553	
511.875	-0.06918238302	-0.06742616207	
512.5	-0.005350146678	0.06631507783	
513.125	-0.04664673125	-0.01086384467	
513.75	-0.001084588701	-0.08276904965	
514.375	-0.1528899792	0.0277351226	
515.0	0.3690533267	-0.1099569789	
515.625	-0.4962629497	-0.4453491891	
516.25	0.2020302538	-0.1723356565	
516.875	-0.06627277442	-0.7087862065	
517.5	-0.1983537706	-0.02925122674	
518.125	0.05201053374	-0.05033723573	
518.75	-0.1565068418	-0.09004176123	
519.375	-0.03553852803	0.02148598899	
520.0	0.08181797187	0.1017837681	
520.625	0.2036591102	-0.1000331052	
521.25	-0.03573183976	-0.2189337581	
521.875	-0.06819517614	-0.1030108198	
522.5	-0.0745271721	-0.0003988855408	
523.125	0.01733774792	-0.06672257623	
523.75	-0.2393248989	-0.02088589772	
524.375	-0.05409504053	0.1509878078	
525.0	-0.1188054735	0.002660698871	
525.625	0.06623948962	0.1483999481	
526.25	-0.06638931592	-0.09756995348	
526.875	-0.002202340484	0.1191014085	
527.5	-0.01122321434	0.08201453297	
528.125	-0.06091612111	0.3191419216	
528.75	0.1373478169	0.1949081577	
529.375	-0.002944422109	0.03377112101	
530.0	0.1104405523	0.2410653161	
530.625	0.1379595828	0.08102774173	
531.25	0.3462371168	0.2865975935	
531.875	0.321346872	-0.164139815	
532.5	-0.08686219227	0.01538632693	
533.125	0.1406449763	-0.1763632678	
533.75	-0.04451440039	-0.1809867059	
534.375	0.04527863418	-0.3006922664	
535.0	-0.3658076378	-0.07689873487	
535.625	-0.1029177643	0.07973142395	
536.25	-0.03154997487	0.1089477028	
536.875	0.1306163269	-0.01984205684	
537.5	0.03675367319	-0.009403391992	
538.125	0.1808539924	-0.0941694495	
538.75	0.05313223078	-0.1365259556	
539.375	-0.03865819474	-0.1644222415	
540.0	-0.2238470357	-0.1922738205	
540.625	-0.1269071325	0.05540433466	
541.25	-0.07445793977	-0.0634944703	
541.875	-0.08907284295	-0.04669572368	
542.5	0.002723174042	-0.04622932307	
543.125	-0.1495627196	-0.07272204711	
543.75	-0.06575056574	0.06745694673	
544.375	-0.07185519569	-0.02554146573	
545.0	0.05005283627	0.1267466963	
545.625	0.001993909081	0.02341342381	
546.25	0.1596896656	0.09222372529	
546.875	0.07588285423	-0.0763563771	
547.5	0.1004857691	-0.07737215131	
548.125	-0.08479450545	-0.2165824793	
548.75	-0.133066316	-0.04363521776	
549.375	-0.06402383326	-0.105558314	
550.0	-0.1255647544	0.04215363334	
550.625	-0.009042729661	-0.009873803235	
551.25	-0.1184974994	0.04431307675	
551.875	-0.03430263983	0.08253635411	
552.5	-0.06756813177	0.06522547976	
553.125	0.004982453538	0.07720368422	
553.75	0.03764646023	0.03967415424	
554.375	0.1087046866	-0.0003781481211	
555.0	0.09083063604	-0.08468577229	
555.625	0.08693221538	-0.1097067338	
556.25	0.06534391217	-0.1517728345	
556.875	-0.04719240701	-0.1654109923	
557.5	-0.1050877786	-0.1026642572	
558.125	-0.123705516	-0.04040294424	
558.75	-0.123093806	0.005447398687	
559.375	-0.1059058349	0.02966172753	
560.0	-0.1079657351	0.07376839614	
560.625	-0.0489277604	0.1374685682	
561.25	0.02208779541	0.0726324406	
561.875	0.01725311504	0.07753108534	
562.5	0.03590548095	0.01353388781	
563.125	0.0507299196	0.1092816275	
563.75	0.1801435383	-0.03722720089	
564.375	0.08765562513	-0.07914857636	
565.0	0.1261355763	-0.1669594758	
565.625	-0.09161541947	-0.1702264146	
566.25	-0.06273874732	-0.07197796558	
566.875	-0.1842068808	-0.121459494	
567.5	-0.1959807957	-0.01014180114	
568.125	-0.06586675	-0.1783252041	
568.75	-0.3080283237	-0.07004315599	
569.375	-0.1412179923	0.134543077	
570.0	-0.2262120451	0.1421994637	
570.625	-0.01450988153	0.2889924028	
571.25	0.009797279022	0.02025180519	
571.875	0.08088226684	0.1624778917	
572.5	0.07152836846	-0.1081351139	
573.125	0.1257107036	-0.007579250793	
573.75	0.07283908879	-0.2161360547	
574.375	-0.07836479061	-0.02456063535	
575.0	0.1549450365	-0.0682730424	
575.625	-0.06038558153	-0.1046086244	
576.25	0.09292975723	-0.02881437393	
576.875	-0.005278004319	-0.2409503227	
577.5	-0.1141541927	-0.1244950495	
578.125	0.03411945004	-0.1093707694	
578.75	-0.1252165104	-0.2296207844	
579.375	-0.134813874	0.04298001782	
580.0	0.08478451991	-0.1220284069	
580.625	-0.1882799276	0.04840408339	
581.25	-0.01601426267	0.013949078	
581.875	-0.110996675	0.2503992726	
582.5	0.2350079641	0.1245874939	
583.125	-0.003501398553	-0.02042081807	
583.75	0.09309585512	0.1304436252	
584.375	-0.01351629693	-0.06672369501	
585.0	0.1100634651	0.1779606149	
585.625	0.2181380328	-0.09739857679	
586.25	0.0536939465	-0.05294058763	
586.875	0.1731254101	-0.1462477924	
587.5	-0.1248660993	-0.1484434393	
588.125	0.02949443738	-0.05535164108	
588.75	0.07494594004	-0.2328048172	
589.375	-0.04803663151	-0.1692323692	
590.0	0.03778412491	-0.1383287499	
590.625	-0.3174055399	-0.05882947912	
591.25	-0.01719307639	0.1446097265	
591.875	-0.12795488	0.03625707974	
592.5	0.06167477911	0.1469844595	
593.125	-0.1225004384	-0.07473485741	
593.75	0.152777032	0.2095273981	
594.375	0.06958743886	-0.02274071494	
595.0	0.122716968	0.2017305196	
595.625	0.2796450869	0.0196124292	
596.25	0.07547565364	-0.03939249615	
596.875	0.1973643109	0.1188402932	
597.5	0.2353405553	0.01778613991	
598.125	0.07729156025	0.06943962838	
598.75	0.2135353003	0.1611714757	
599.375	0.202661809	-0.1314889363	
600.0	0.1440324384	-0.1002808371	
600.625	0.2042119474	-0.217386471	
601.25	-0.03065511148	-0.249021313	
601.875	-0.03774392243	-0.0513577755	
602.5	-0.2212764879	-0.07492276397	
603.125	-0.01909795057	0.1360630257	
603.75	-0.1141537657	-0.0322199296	
604.375	-0.1757182197	0.1538910651	
605.0	0.05909897185	0.07137284703	
605.625	-0.2120378465	0.1027264526	
606.25	-0.05282502546	0.1753616055	
606.875	-0.0984436883	0.004468906671	
607.5	-0.1662048822	0.2873735693	
608.125	0.01163328086	0.201373167	
608.75	0.1064073419	0.1766473299	
609.375	0.3455535048	-0.02000909043	
610.0	0.08956216044	-0.2103224388	
610.625	0.07190742253	-0.1337111547	
611.25	-0.003542658407	-0.2708125198	
611.875	-0.1078386218	-0.00751838904	
612.5	-0.1104586141	-0.129232816	
613.125	-0.2909810246	0.1165476974	
613.75	0.05568595664	0.1092442567	
614.375	-0.06127301347	0.1568230144	
615.0	0.1637714575	0.005694243313	
615.625	-0.1083928244	0.02039080448	
616.25	0.06280703134	0.2485521644	
616.875	0.04613693311	0.1212613627	
617.5	-0.1353637935	0.2611575475	
618.125	0.02987677746	0.3128759853	
618.75	-0.03941926736	0.2723413062	
619.375	0.0521136948	0.2163563053	
620.0	0.1869805478	0.09262485043	
620.625	0.05215476898	-0.1676374974	
621.25	-0.02680764145	-0.2225414308	
621.875	-0.2905151779	-0.07129497307	
622.5	-0.1345546381	0.1713186032	
623.125	-0.123514482	0.2023786827	
623.75	0.2847976255	0.05869296725	
624.375	-0.03886870373	-0.02138117318	
625.0	0.1144200539	-0.09614982915	
625.625	-0.03118237007	-0.04176486375	
626.25	0.02805251468	-0.1606161662	
626.875	-0.2327514695	-0.09196511048	
627.5	-0.09644821834	0.0369321318	
628.125	-0.0901452979	-0.1357242897	
628.75	-0.1432005243	-0.1110396453	
629.375	-0.04755872029	-0.1036403932	
630.0	-0.220066844	-0.1501296071	
630.625	-0.2474696377	0.1310883833	
631.25	-0.0287480647	0.229123394	
631.875	-0.05667155152	0.2969718482	
632.5	0.2261733977	0.1582115448	
633.125	0.1381046883	-0.02351159978	
633.75	0.2411369532	-0.01304069567	
634.375	-0.07366959718	-0.2338983344	
635.0	0.04802562091	-0.07472044649	
635.625	-0.2300472602	-0.1379324218	
636.25	-0.09713023354	0.1397749594	
636.875	-0.09262470383	0.02369128188	
637.5	-0.04222917124	0.2132293568	
638.125	-0.01139385091	-0.0003273793019	
638.75	-0.172347367	0.2189471861	
639.375	0.1207824387	0.2977304319	
640.0	0.06478180546	0.148990891	
640.625	0.2779809716	0.2618665008	
641.25	0.3464811617	-0.1035758077	
641.875	0.08236995743	-0.1283529385	
642.5	0.09543595036	-0.2669199601	
643.125	-0.2466170223	-0.03390474789	
643.75	0.0273278331	-0.04370106325	
644.375	-0.3558490282	-0.08890553304	
645.0	-0.008530850989	0.2121703813	
645.625	-0.100865217	0.151410975	
646.25	0.4398045397	0.2231230885	
646.875	-0.01568062261	-0.1213950304	
647.5	0.1982346191	0.2424949531	
648.125	0.1711214941	-0.1414690073	
648.75	0.1705807055	0.09890970395	
649.375	0.3812103208	-0.3606844203	
650.0	-0.07923041074	-0.3777962087	
650.625	0.1866373135	-0.1171430759	
651.25	0.3389989456	-0.353086011	
651.875	0.08149206498	-0.2713412244	
652.5	0.2757342612	0.09602070914	
653.125	0.4102827025	-0.2332479388	
653.75	0.03865267624	-0.2189956529	
654.375	0.116721232	-0.2949486552	
655.0	-0.4937009285	-0.1124419022	
655.625	-0.02648830254	0.2388072978	
656.25	-0.1027151412	0.1329161115	
656.875	0.1851926545	0.1680511184	
657.5	-0.1725887522	-0.09730305883	
658.125	0.2414016863	0.3276695581	
658.75	0.3191005701	-0.07756644845	
659.375	0.2163182631	0.03500690159	
660.0	0.4264749218	-0.386050182	
660.625	-0.08387375345	-0.3761230155	
661.25	0.2291333155	-0.1358120042	
661.875	0.3081469641	-0.3837501324	
662.5	0.1442973558	-0.2920315746	
663.125	0.2554072971	-0.04133479185	
663.75	0.2375103261	-0.4282073633	
664.375	-0.1468858553	-0.232154923	
665.0	-0.167596281	-0.290576872	
665.625	-0.4458205794	0.1276065805	
666.25	0.0318450682	0.2542731958	
666.875	-0.0002852793418	0.2459487884	
667.5	0.353865388	0.1104825333	
668.125	0.09901944657	-0.06681313679	
668.75	0.3439728435	-0.0470633861	
669.375	0.02569917497	-0.3444413451	
670.0	0.03141146426	-0.02384060343	
670.625	0.1286674064	-0.275095685	
671.25	-0.04389721647	-0.2619922071	
671.875	0.1363922266	0.0009266139847	
672.5	0.3500532741	-0.2763359756	
673.125	0.08454191003	-0.2228562635	
673.75	0.2030142902	-0.1253121466	
674.375	0.121952867	-0.3884634729	
675.0	-0.1755142109	-0.09000470021	
675.625	-0.0606657457	-0.2130313389	
676.25	-0.3193024813	-0.02314969751	
676.875	-0.0735890496	0.1111558686	
677.5	-0.1933291804	-0.1037355525	
678.125	-0.1734576754	0.304310384	
678.75	0.07466477634	0.09420868492	
679.375	0.1243024428	0.231613304	
680.0	0.3155199119	-0.2731685977	
680.625	-0.126751768	0.01672437513	
681.25	0.3179181944	0.04037919432	
681.875	0.05860260163	-0.2080409422	
682.5	0.02249291297	0.181033106	
683.125	0.6282899682	0.03874888191	
683.75	0.1186966816	-0.1995100381	
684.375	0.1774452736	0.2430524042	
685.0	0.4150613101	-0.07611932252	
685.625	0.1525110716	-0.08566442511	
686.25	0.2575092698	0.2062576972	
686.875	0.4506442789	-0.3724251322	
687.5	0.1515336759	-0.2006574384	
688.125	0.1022994408	-0.5005087371	
688.75	-0.6069309786	-0.1935260234	
689.375	-0.09905986276	0.2111193433	
690.0	-0.02595826722	0.4583015667	
690.625	0.4201924115	0.2006244117	
691.25	0.1299548336	0.154632099	
691.875	0.547472745	0.5816970231	
692.5	0.7098099719	-0.08191431158	
693.125	0.4803712509	0.06903644493	
693.75	0.8803500424	-0.2715350231	
694.375	0.3217981773	-0.6266547184	
695.0	0.3287365577	-0.05831204711	
695.625	0.7098645066	-0.2997937979	
696.25	0.4291523344	0.007625826333	
696.875	0.5829759391	0.5926846806	
697.5	0.5435906727	0.5966178282	
698.125	0.5443597236	-0.03452474992	
698.75	0.5299640599	-0.2135942033	
699.375	-0.4636545624	-0.5401592796	
700.0	-0.1809358431	0.4613743623	
700.625	0.03540501793	0.1834154623	
701.25	0.3877609238	0.3120108524	
701.875	0.2408384597	0.01307088444	
702.5	0.2620523632	0.3701399883	
703.125	0.6129599894	0.1056839217	
703.75	0.2273058834	-0.1858205482	
704.375	0.4583155128	-0.12700811	
705.0	0.294290718	-0.297341638	
705.625	0.1018050042	-0.02858948663	
706.25	0.3478606384	0.2733367913	
706.875	0.2675690043	0.213202776	
707.5	0.2137309143	0.3559039796	
708.125	0.5226316815	0.2312781596	
708.75	0.436686447	-0.2983500361	
709.375	-0.2616276814	-0.1972636574	
710.0	-0.1477359515	-0.03585934716	
710.625	0.1525470089	0.1715277872	
711.25	-0.05761789178	-0.02702817556	
711.875	0.3339942629	0.2889043121	
712.5	0.1980162413	-0.1526804244	
713.125	0.309865156	-0.02932175959	
713.75	0.2179461839	-0.3807482121	
714.375	-0.08854344339	-0.1898191404	
715.0	0.100807953	-0.2072986508	
715.625	-0.05227589943	-0.3476522672	
716.25	0.05041474018	-0.1220297614	
716.875	0.453280842	-0.07095280787	
717.5	0.6379896951	-0.2021829608	
718.125	0.5098018492	-0.0275953064	
718.75	0.995935896	0.07066457158	
719.375	0.751357022	-0.6917748521	
720.0	0.3837926037	-0.4071510374	
720.625	0.9247276718	-0.5507411673	
721.25	-0.3245669477	-1.116701796	
721.875	0.0467472335	-0.452595199	
722.5	-0.5236659583	-1.222963927	
723.125	-0.867995261	0.06917318495	
723.75	-0.2712593753	0.1869678005	
724.375	-0.1100222804	0.7769991416	
725.0	0.2913735541	0.2044362776	
725.625	-0.1248714564	0.4755295563	
726.25	0.07671706926	0.9521610582	
726.875	0.2294393328	0.7372260748	
727.5	-0.6037462934	1.097219033	
728.125	-0.08021347195	2.659489538	
728.75	0.965978984	2.344738322	
729.375	-1.922705097	2.323529722	
730.0	0.4088604766	5.728296696	
730.625	0.8960714304	2.44371785	
731.25	-1.860444957	1.833987288	
731.875	-3.193838048	3.510800281	
732.5	-1.70243901	0.9489151709	
733.125	-2.331617411	-1.155065301	
733.75	-1.056167979	2.264216932	
734.375	0.7642885441	-0.02621206517	
735.0	0.5788595798	-0.4431319206	
735.625	-0.716295027	0.4555382121	
736.25	-0.1857490303	-0.170709695	
736.875	0.2989564852	1.019183564	
737.5	1.360580949	-0.2269698303	
738.125	0.6153183264	-0.2882080753	
738.75	3.148246963	-0.1650226509	
739.375	2.194068668	-3.598140523	
740.0	0.2612284605	-0.3470479961	
740.625	4.183499501	4.082889325	
741.25	4.640048242	0.7225433695	
741.875	-1.833748734	-3.543546478	
742.5	-3.192909195	-3.764879307	
743.125	-0.9917230711	-1.40504741	
743.75	0.700510532	-0.604825112	
744.375	-0.7791257688	-0.1726738945	
745.0	0.1059068318	-0.02325101883	
745.625	0.1398919867	0.1251846749	
746.25	-0.1232090706	-0.113301121	
746.875	-0.08686136058	-0.1551509252	
747.5	-0.2260372234	0.4655454714	
748.125	0.2046794147	0.4769670691	
748.75	0.09573065091	0.3991106859	
749.375	0.1170131648	0.6855903042	
750.0	-0.1860317709	0.3355365204	
