!Created with skrf (http://scikit-rf.org).
# GHz S MA R 50.0 
!freq magS11 angS11
500.0 0.0212064607117 -169.078666665
500.625 0.00531760083402 115.88177521
501.25 0.014995149836 -53.6961389087
501.875 0.0535999043057 176.820714042
502.5 0.0384593730165 168.909770843
503.125 0.017697244852 97.7117021558
503.75 0.00875173129247 -20.6825960923
504.375 0.00709475233049 -68.8157349429
505.0 0.0121695932036 -42.1309195286
505.625 0.0280208797581 -72.2798692494
506.25 0.0549813437942 -103.555160902
506.875 0.0591409515356 -106.557951802
507.5 0.0515811696489 -120.572886626
508.125 0.0646041410776 -89.2083356153
508.75 0.0555616218275 -147.56414485
509.375 0.0472010407341 -150.301505586
510.0 0.0373390869173 -137.166743009
510.625 0.0429796911827 -157.343450349
511.25 0.0571595660233 -176.916601811
511.875 0.053156699655 143.123708744
512.5 0.0428957569786 105.657032932
513.125 0.0507521973064 44.7011648371
513.75 0.0503128290811 17.1558390821
514.375 0.0320123423468 5.80725864871
515.0 0.0479817225718 0.0712520666271
515.625 0.10723948 48.2897165928
516.25 0.0644296997157 17.5653748202
516.875 0.094929450527 67.003786125
517.5 0.125937352478 16.1967188039
518.125 0.236213997356 72.3860053825
518.75 0.083798452085 7.36680488322
519.375 0.06864130861 21.6696377848
520.0 0.0943872775261 -4.95628392549
520.625 0.11607039267 -3.99095403418
521.25 0.0776909499531 -32.3010862981
521.875 0.0618011014037 -4.3696232651
522.5 0.0890554731745 -39.3040136373
523.125 0.20099703722 -33.6937709798
523.75 0.206490021543 -67.1477306239
524.375 0.207830455465 -55.6746822891
525.0 0.0710438612322 -49.0780335281
525.625 0.0462915204753 -27.5170066839
526.25 0.0465218551062 -12.1786699189
526.875 0.0637964781286 -19.8990351436
527.5 0.0502630048727 -29.3033154962
528.125 0.0500082240381 -59.1278308076
528.75 0.0472570376956 -81.4242497644
529.375 0.0906043754858 -112.052900753
530.0 0.0570327922643 -133.614416766
530.625 0.0287797269807 -141.28156614
531.25 0.111312513852 -136.486960367
531.875 0.191712139062 -151.187118435
532.5 0.14514534504 -172.157593882
533.125 0.112306355281 173.022857404
533.75 0.11328750201 165.527657024
534.375 0.114803906654 178.100984762
535.0 0.087469434717 160.735454402
535.625 0.0754049848637 175.698902621
536.25 0.0616834697844 159.482529387
536.875 0.0837929175659 -168.009587954
537.5 0.103564878024 -147.188530224
538.125 0.0943608337333 -175.50735109
538.75 0.105970843771 177.39589739
539.375 0.0873960628609 -166.019846601
540.0 0.0936873408945 -157.012182827
540.625 0.124177272747 -157.83255193
541.25 0.125034275643 -144.135101646
541.875 0.0952397426317 -147.791510215
542.5 0.116422276092 -146.606515233
543.125 0.141356373345 -169.266524109
543.75 0.133289106316 157.721056908
544.375 0.0983549445644 135.435073682
545.0 0.0874868933633 89.0076133798
545.625 0.113369167967 80.0525217838
546.25 0.0753322512245 64.5982483927
546.875 0.0829910411622 53.489501049
547.5 0.114864717369 56.3014353671
548.125 0.116940415934 73.9881746324
548.75 0.093213760083 87.1281525379
549.375 0.102475859969 85.0312487092
550.0 0.0912470945841 122.786895792
550.625 0.0602719470225 148.069428621
551.25 0.029882714943 -124.094107105
551.875 0.0643019747635 -164.257301411
552.5 0.109048924486 -167.38644673
553.125 0.097432311928 -174.003772901
553.75 0.0899800962944 -172.466504951
554.375 0.105368834636 166.666701419
555.0 0.128244245598 161.204676544
555.625 0.105305691585 153.756375272
556.25 0.0881535769539 165.026968884
556.875 0.11714038527 164.117988789
557.5 0.122473525747 162.552121232
558.125 0.103266555308 161.801376091
558.75 0.0692412446926 177.784895771
559.375 0.0651865307818 -174.37190068
560.0 0.0460952253754 -151.971725496
560.625 0.0601245925337 -149.985738151
561.25 0.0800089309042 -146.574074281
561.875 0.099159675106 -161.44790564
562.5 0.0889467518276 172.560951023
563.125 0.109829485193 140.193792098
563.75 0.128666799575 129.103022002
564.375 0.107389410099 119.214895211
565.0 0.0884381297613 118.249734789
565.625 0.090447242042 111.025312576
566.25 0.084304875933 154.057241957
566.875 0.0720376815024 179.707183249
567.5 0.0715721608255 178.354274233
568.125 0.0880992023904 -178.027904469
568.75 0.073070017698 -153.045777738
569.375 0.0507322321863 -116.505497536
570.0 0.0608627596842 -118.131945744
570.625 0.0940402819563 -126.208290002
571.25 0.0831207322953 -114.068400375
571.875 0.0879715203506 -128.725132857
572.5 0.107199256496 -158.773181862
573.125 0.146449886144 179.523987704
573.75 0.107236489323 158.840785259
574.375 0.0840066850765 148.553977368
575.0 0.100715937188 153.505580157
575.625 0.11610953587 147.43694788
576.25 0.0822943057801 147.277012544
576.875 0.0851193520612 127.962239792
577.5 0.0833874793655 133.587525163
578.125 0.0665287880223 150.51624458
578.75 0.0432379999718 173.726388493
579.375 0.0522659200751 163.411668406
580.0 0.0639580922634 176.356315191
580.625 0.0770612668696 -159.410490314
581.25 0.0895257176931 -160.223115274
581.875 0.114096797484 179.436925338
582.5 0.121467363128 176.831415466
583.125 0.0951236071377 -171.340221972
583.75 0.0838835233851 -175.50445884
584.375 0.1015515864 -160.602503134
585.0 0.0924661695115 -141.447089449
585.625 0.0731409297973 -149.447614327
586.25 0.0705487631991 -144.918038232
586.875 0.083263470571 -141.223952548
587.5 0.0757524459363 -152.436550612
588.125 0.0598499982153 -177.216422689
588.75 0.0674349422145 -179.399252074
589.375 0.0816081778313 -156.942546749
590.0 0.092468623391 -166.28402326
590.625 0.104411983427 162.057171682
591.25 0.123446564787 144.918475324
591.875 0.0904148742713 165.838731652
592.5 0.0628156954196 152.406081919
593.125 0.0632551527127 147.011306478
593.75 0.0747959099815 157.059314353
594.375 0.0567307909664 -153.393728641
595.0 0.0433467333634 -124.214798236
595.625 0.0581902194137 -104.875890054
596.25 0.0698073228736 -99.7808152771
596.875 0.07331467575 -60.4878688993
597.5 0.0639440687664 -56.2944391256
598.125 0.0649242064566 -63.152097068
598.75 0.0835333921781 -57.3047341652
599.375 0.0864921327687 -67.8447133078
600.0 0.0975368902766 -74.5005115768
600.625 0.100144650502 -70.7934981732
601.25 0.0854455396186 -85.642924215
601.875 0.0699593630859 -89.529367759
602.5 0.0676059708333 -76.1615978465
603.125 0.0470183337285 -61.5203572129
603.75 0.0264886077716 -71.2093395233
604.375 0.0474206283662 -17.6666082271
605.0 0.0628008725058 -21.4849306073
605.625 0.0473238419524 -25.9826001375
606.25 0.0230791494594 -3.16130844399
606.875 0.0342147882242 43.7348633145
607.5 0.0613344643198 40.995614837
608.125 0.0663997660093 24.3586353146
608.75 0.0455625036477 8.35186539536
609.375 0.0816110635694 35.5699730147
610.0 0.0739036870439 41.6659783888
610.625 0.0575300938335 29.0287341317
611.25 0.0472033854626 22.3555171355
611.875 0.0415063024074 51.5883341189
612.5 0.0213702366596 79.4683128465
613.125 0.0343989380639 121.749229083
613.75 0.0414184902506 121.571880622
614.375 0.0226472566601 114.606972608
615.0 0.0573177685894 123.571878338
615.625 0.046813635679 129.109540801
616.25 0.0554902560422 136.670422152
616.875 0.0238134835978 129.674935541
617.5 0.0480078594735 122.712761017
618.125 0.0383252751945 125.195004585
618.75 0.0441576722319 141.746487637
619.375 0.0024030456356 -9.07316570221
620.0 0.0068690693663 126.794918549
620.625 0.0136135185373 -82.077125996
621.25 0.0408903483811 -102.257038864
621.875 0.0645768871242 -94.7815145959
622.5 0.0793349199861 -176.890585348
623.125 0.0844207566628 163.088193687
623.75 0.0736991033102 161.864322253
624.375 0.0324803396966 -149.031215327
625.0 0.0641099492673 -159.087046342
625.625 0.0423500960319 -157.599622965
626.25 0.0125026276069 177.753810397
626.875 0.0124244118907 3.3347885546
627.5 0.0201081111678 -42.9725504707
628.125 0.0369152142546 -22.1289438414
628.75 0.0421487941602 -8.05234092906
629.375 0.0430868664411 -9.36303740252
630.0 0.0800189660967 6.00896560444
630.625 0.0727576557538 9.19134270275
631.25 0.0719939770729 -4.48749633603
631.875 0.0700233277794 1.4123543041
632.5 0.0652243447802 -14.8254599421
633.125 0.0505339431136 5.08092553966
633.75 0.0392707173873 -10.4837320799
634.375 0.0444441827304 14.6288572175
635.0 0.0518290271189 37.3963741125
635.625 0.0267642626187 -2.31993801322
636.25 0.0470039240416 39.928303532
636.875 0.072576286777 43.1592376809
637.5 0.0425370792209 42.5083836327
638.125 0.0530460910489 68.9140530141
638.75 0.0779279550371 72.5438680392
639.375 0.0878351118983 90.4782857046
640.0 0.0711553977594 102.823043848
640.625 0.0649204195046 108.758640333
641.25 0.049342575116 98.104843246
641.875 0.0660532675258 150.306010124
642.5 0.0628816165698 161.936325211
643.125 0.0521692130946 147.58850004
643.75 0.070505458181 170.831310961
644.375 0.0875881899936 -172.309616089
645.0 0.0799052319125 178.997002815
645.625 0.10424366986 168.115345598
646.25 0.0908120109079 160.454878738
646.875 0.0591936891248 168.771263486
647.5 0.0648501565826 -179.711040801
648.125 0.0995379461863 -176.608401708
648.75 0.0627981663968 176.750289102
649.375 0.0432312990229 -161.461864992
650.0 0.0367854569661 -129.526220639
650.625 0.0803833096912 -92.0732367476
651.25 0.0534080647834 -71.188064454
651.875 0.0634059600958 -43.2070329608
652.5 0.0973736379171 -27.536028719
653.125 0.128325833577 -4.30442212241
653.75 0.0920519938101 0.46461045939
654.375 0.104933654649 4.57194263218
655.0 0.118292057527 10.5634502359
655.625 0.114118404655 25.8420463216
656.25 0.047111072128 8.02182232124
656.875 0.0648823248054 4.49043375948
657.5 0.0860700664186 19.4262444913
658.125 0.0697841671151 45.2330071094
658.75 0.0663528237974 56.6045179168
659.375 0.0825522782116 36.7725382653
660.0 0.110714041403 23.1978795129
660.625 0.115096063444 15.1501682422
661.25 0.118573644247 0.331526749164
661.875 0.0996725968086 -16.4172266511
662.5 0.128540780295 -21.9149341099
663.125 0.115271168742 -17.6825477906
663.75 0.109224050869 1.19262391273
664.375 0.101739331741 50.3288268809
665.0 0.0711633216337 83.4063131452
665.625 0.0752737744236 106.361690052
666.25 0.0682703744457 129.740845726
666.875 0.10538759046 170.996155527
667.5 0.0909743418685 -166.604381728
668.125 0.110896170461 175.242085589
668.75 0.104916736793 167.51705573
669.375 0.126836742818 173.243030819
670.0 0.0812555592497 -172.301333897
670.625 0.0977366590461 -177.844044886
671.25 0.107372810285 171.440228833
671.875 0.104908035047 164.673104549
672.5 0.0856558806106 151.188014519
673.125 0.0911773391518 145.4533474
673.75 0.0928190141889 159.754293448
674.375 0.106492864119 168.958547539
675.0 0.114540000201 -176.283210848
675.625 0.141937758008 -156.606560047
676.25 0.116715392673 -126.22351213
676.875 0.107757295975 -120.770417263
677.5 0.119194551747 -131.231579224
678.125 0.146990284209 -122.889816945
678.75 0.0715389607736 -99.1625604502
679.375 0.0553938666106 -80.6578806202
680.0 0.0782094587614 -87.9747909109
680.625 0.120777469606 -80.7184788227
681.25 0.11466335199 -80.0430146722
681.875 0.096011126343 -91.0797427232
682.5 0.129875100509 -118.028315267
683.125 0.155984208845 -124.018087029
683.75 0.152101723215 -110.689509023
684.375 0.116039630358 -81.0038937031
685.0 0.132412652005 -42.5708941383
685.625 0.132627743074 -7.9908243746
686.25 0.11262041242 18.541758351
686.875 0.0983405672027 39.3877100316
687.5 0.0783270027921 76.8020735038
688.125 0.0820277501899 101.996696166
688.75 0.102030013713 110.174318288
689.375 0.149247533964 111.326594855
690.0 0.130558789365 133.891251077
690.625 0.119373120492 125.270880017
691.25 0.142015768157 94.4051027758
691.875 0.203593283681 59.7577051839
692.5 0.124360014397 40.5324955951
693.125 0.0890117541074 -17.6488470119
693.75 0.0973664544492 -46.4036353236
694.375 0.141869816872 -37.2801650093
695.0 0.139947740143 3.65508609186
695.625 0.0972036117489 56.1508782205
696.25 0.114998771776 112.23375964
696.875 0.132602735661 172.019168814
697.5 0.14961483112 -153.776103586
698.125 0.128577413358 -127.628399149
698.75 0.128264269012 -131.130169933
699.375 0.111378397277 -127.599354973
700.0 0.0998197431473 -120.376696009
700.625 0.112909412222 -95.9717742012
701.25 0.103467142283 -66.6197785687
701.875 0.0832928916642 -63.5260677369
702.5 0.0974873274586 -93.1622348916
703.125 0.16443431785 -116.072159614
703.75 0.182541865111 -155.870698606
704.375 0.12508335241 170.728438645
705.0 0.113835508374 151.454561022
705.625 0.146967150363 -179.163479408
706.25 0.14916174814 -117.893947416
706.875 0.101830673236 -72.2356635895
707.5 0.0782066295465 -40.5024118667
708.125 0.0925126442296 2.40557638785
708.75 0.110708348845 62.2757093355
709.375 0.107148735896 100.106284391
710.0 0.103002441868 127.605892884
710.625 0.106702731083 141.575255551
711.25 0.118004967127 170.803342943
711.875 0.138517642018 159.986903105
712.5 0.155087546388 141.670456797
713.125 0.133471359601 92.5568525172
713.75 0.101936202306 48.5807267184
714.375 0.113073287813 28.0820263735
715.0 0.113433047555 28.6856779437
715.625 0.0855646610381 32.3797987923
716.25 0.0767387789596 75.3272110989
716.875 0.108102383214 97.6119188765
717.5 0.143255325525 136.933769863
718.125 0.121547060499 163.09329637
718.75 0.0969474066161 159.931493783
719.375 0.128003386923 -159.413392833
720.0 0.133795976049 -131.164741131
720.625 0.112276729465 -74.3912227816
721.25 0.100950599794 -36.4384154573
721.875 0.0858168527225 25.4850695598
722.5 0.0714120962253 50.9215411483
723.125 0.0822949475141 63.561763618
723.75 0.0939639914026 26.1713400417
724.375 0.129053597684 7.54591277208
725.0 0.104327464718 -38.3154889678
725.625 0.0994412743695 -62.0837753432
726.25 0.104951986355 -78.3121086262
726.875 0.109840644123 -48.5966278212
727.5 0.0825472556807 -35.1836680883
728.125 0.0705162399507 -22.0335319987
728.75 0.0880767324726 14.2660623435
729.375 0.0717737566616 -0.11848650767
730.0 0.0871545459248 15.1123756546
730.625 0.0658122493143 19.8165844137
731.25 0.0742900245972 70.7460871188
731.875 0.044854143789 92.5212251923
732.5 0.0815683027456 154.461031151
733.125 0.0814111548755 168.881137526
733.75 0.0792356586124 175.562396039
734.375 0.0434278511475 139.137518417
735.0 0.0792471962097 155.900249217
735.625 0.0705394899689 140.528511195
736.25 0.0567841229005 143.297950623
736.875 0.0243504338415 -159.981155311
737.5 0.113360706213 174.934834624
738.125 0.0961006477872 -176.780258451
738.75 0.0809465533039 -170.142273909
739.375 0.0173296290823 146.052064567
740.0 0.0576622024265 -140.944143159
740.625 0.0495114008782 -149.622055343
741.25 0.0348372483339 -161.430250164
741.875 0.0358704674299 -111.357899126
742.5 0.018631975667 53.6929370153
743.125 0.0365930398675 69.7403514996
743.75 0.019736735105 106.53199875
744.375 0.0350248782566 117.2545114
745.0 0.0465819705582 150.308684278
745.625 0.0610834301004 120.936694946
746.25 0.0721856276681 76.8336163738
746.875 0.0708398970937 38.6556789196
747.5 0.0271816894817 39.4996676576
748.125 0.0497184906052 -18.5635766353
748.75 0.0223148285255 -2.17464470387
749.375 0.0285938184271 -10.3901767725
750.0 0.0279231993247 -91.0162545827
