!Created with skrf (http://scikit-rf.org).
# GHz S RI R (50+0j) 
!freq	ReS11	ImS11	
500.0	-0.04188518563	-0.3783532652	
500.625	0.6112940348	-0.9355196665	
501.25	-0.6313370449	-0.4032393875	
501.875	0.03917677478	-0.2742978171	
502.5	-0.07282085385	-0.1816594378	
503.125	-0.01903008285	0.0266667082	
503.75	-0.05567127356	0.09711042715	
504.375	0.02830323433	-0.04125371668	
505.0	0.01799366349	0.01986969564	
505.625	-0.02280185865	-0.09033019441	
506.25	-0.00904439273	0.0428155113	
506.875	-0.3337492834	-0.09470915413	
507.5	-0.1124273731	0.1054195131	
508.125	0.4907950487	-0.5044686521	
508.75	0.08338872794	-1.195570357	
509.375	-0.1709310205	-0.5066512581	
510.0	-0.2392120833	-0.3333813879	
510.625	-0.1106222213	-0.2002984243	
511.25	-0.06805304869	-0.03208318718	
511.875	-0.09716087776	-0.0917658556	
512.5	0.01760477039	0.04104634643	
513.125	0.01352727518	-0.02505101177	
513.75	-0.07772889291	-0.09859019088	
514.375	-0.003673937092	0.09079656589	
515.0	0.01737218666	-0.4023730532	
515.625	-0.1846375232	0.2492892239	
516.25	0.283546313	-0.8854544289	
516.875	-0.5433580939	-0.4190652913	
517.5	0.008014205325	0.01524186857	
518.125	-0.05902436165	-0.07769963351	
518.75	-0.01590020502	-0.008369224008	
519.375	-0.05499918052	0.007879669468	
520.0	0.1078952494	0.0364926305	
520.625	0.1001986013	-0.0411241101	
521.25	0.008577870963	-0.1779735081	
521.875	-0.1202015026	-0.03054449022	
522.5	-0.07970562672	0.04479789541	
523.125	-0.01515147789	-0.04298440775	
523.75	-0.2074054045	0.03827613415	
524.375	-0.0009846139892	0.03147403946	
525.0	-0.1759407137	0.1356785385	
525.625	0.1372548263	-0.000823003671	
526.25	-0.07488287552	0.04206452435	
526.875	0.0222201217	0.02823004821	
527.5	-0.1321198796	0.1522035717	
528.125	0.1485763872	0.2108248312	
528.75	0.03251173017	0.08838990423	
529.375	0.018062758	0.09305342225	
530.0	0.02850554675	0.06950446103	
530.625	0.308477605	0.2085495073	
531.25	0.2078308884	0.09884692947	
531.875	0.1794709942	-0.2049657798	
532.5	-0.04267712414	-0.02757848773	
533.125	0.08983784418	-0.2180034739	
533.75	0.004659177691	-0.03010997327	
534.375	-0.06022429788	-0.3111692819	
535.0	-0.2325965741	0.03577567531	
535.625	-0.1181153683	0.03608499443	
536.25	-0.00636987927	0.1159743678	
536.875	0.06111916055	-0.02742615285	
537.5	0.07880212833	-0.006413640805	
538.125	0.09099879505	-0.08873074424	
538.75	0.08972466392	-0.07579917192	
539.375	-0.06022795345	-0.1703844136	
540.0	-0.1560772104	-0.1206959097	
540.625	-0.1397646065	0.03802447948	
541.25	-0.05479531466	-0.02425415552	
541.875	-0.08204870777	0.01602108464	
542.5	0.002833307485	-0.0465483563	
543.125	-0.1818287889	-0.0660648133	
543.75	0.02697549601	0.05443052611	
544.375	-0.1017295976	0.02120224014	
545.0	0.0851041383	0.03155045684	
545.625	-0.02474555322	0.09496569361	
546.25	0.1550282703	0.005394431633	
546.875	0.02882927064	-0.02068637134	
547.5	0.1204361645	-0.1153312763	
548.125	-0.1167136767	-0.1358344493	
548.75	-0.04331642334	-0.07134094142	
549.375	-0.1188124333	-0.1061431562	
550.0	-0.05675789878	0.05746876012	
550.625	-0.04657314267	-0.02765592881	
551.25	-0.07573273093	0.05502887371	
551.875	-0.04256145277	0.0457357818	
552.5	-0.05791142689	0.06831904441	
553.125	0.01532003416	0.05860939681	
553.75	0.03158490819	0.04334332417	
554.375	0.09023242002	-0.01297006159	
555.0	0.07216500009	-0.06216873254	
555.625	0.07689865479	-0.09624011689	
556.25	0.04735482037	-0.1345588486	
556.875	-0.04198102944	-0.1326465731	
557.5	-0.08969932898	-0.08852907507	
558.125	-0.1092012144	-0.03281715944	
558.75	-0.09817799611	0.009997647478	
559.375	-0.0920572814	0.01699633776	
560.0	-0.09652334063	0.07848846226	
560.625	-0.01979311107	0.1030201243	
561.25	-0.01627020036	0.07694130061	
561.875	0.05918665575	0.0562888269	
562.5	-0.01690154263	0.02179712245	
563.125	0.09079649213	0.0893421647	
563.75	0.1091970943	-0.04101888954	
564.375	0.1078832399	-0.04695603889	
565.0	0.08036984991	-0.1818132863	
565.625	-0.07500151518	-0.09038676209	
566.25	-0.05736931071	-0.125566346	
566.875	-0.2096051919	-0.04999948076	
567.5	-0.0439586039	-0.03858524749	
568.125	-0.1362498093	-0.2264400082	
568.75	-0.2184680268	0.06075801322	
569.375	-0.1497947734	-0.01371987228	
570.0	-0.1737080586	0.2609072178	
570.625	0.05998482938	0.1400654627	
571.25	-0.08957008151	0.06856671905	
571.875	0.1538065208	0.06262884052	
572.5	-0.0003581179124	0.01367883438	
573.125	0.1793988149	-0.1190897615	
573.75	-0.06653557367	-0.1540117679	
574.375	0.0545537709	0.04374977021	
575.0	0.01430707867	-0.1351988406	
575.625	0.00181640578	0.01904595488	
576.25	0.1160777569	-0.1226352171	
576.875	-0.08450859944	-0.1561426538	
577.5	-0.00423545263	-0.03943082299	
578.125	0.05167498439	-0.2063360083	
578.75	-0.2181183417	-0.1124397383	
579.375	0.02156248391	0.04917978687	
580.0	-0.08848299624	-0.1703618189	
580.625	-0.01534366778	0.1219111482	
581.25	-0.2105518931	-0.07858396793	
581.875	0.1121681855	0.2629699838	
582.5	0.0814369257	-0.01256397088	
583.125	-0.0325154392	0.1675316846	
583.75	0.1498068225	-0.04702799595	
584.375	-0.08940222557	0.09410415764	
585.0	0.2106600461	0.05649646964	
585.625	0.05632942549	-0.08031383772	
586.25	0.1661252177	0.04491451011	
586.875	0.05926618192	-0.2160985611	
587.5	-0.04665984973	-0.04168714407	
588.125	0.0569896534	-0.147935799	
588.75	-0.01725150368	-0.1849996669	
589.375	0.01965451703	-0.03987253462	
590.0	-0.01633900168	-0.258565422	
590.625	-0.1883708147	0.08401910877	
591.25	-0.0576920794	-0.01613074259	
591.875	-0.1473169485	0.170679298	
592.5	0.1609866069	0.001508339729	
593.125	-0.1636752419	0.1633623892	
593.75	0.1257674027	-0.01250701114	
594.375	0.008558626636	0.1396274999	
595.0	0.2340381633	0.1568622227	
595.625	0.1027292293	-0.04747864267	
596.25	0.1147917383	0.1304540427	
596.875	0.2079728648	-0.01643743729	
597.5	0.06562123178	0.02160466082	
598.125	0.118903121	0.1748375952	
598.75	0.1783329946	0.01311850649	
599.375	0.1347797679	-0.02245199225	
600.0	0.1910628081	-0.09826552793	
600.625	0.1331785562	-0.2026468493	
601.25	-0.01932058178	-0.1390665158	
601.875	0.01288023809	-0.1735863056	
602.5	-0.1782473275	0.06538520554	
603.125	0.004138210278	-0.024570926	
603.75	-0.2359200569	0.0671215505	
604.375	0.1013738976	0.120485428	
605.0	-0.1606312287	-0.04334574841	
605.625	-0.07435742686	0.1820068187	
606.25	-0.01764673389	-0.04459529591	
606.875	-0.2380530098	0.1779772546	
607.5	-0.03895422139	0.1624713634	
608.125	-0.07541898256	0.190629148	
608.75	0.2139846114	0.1354357188	
609.375	0.1703563011	0.009351332139	
610.0	0.1541769939	-0.1112430931	
610.625	0.0965162786	-0.15328176	
611.25	-0.03763676346	-0.1489395605	
611.875	-0.05445389188	-0.002137709659	
612.5	-0.172076853	-0.1346282958	
613.125	-0.1463878509	0.1316513821	
613.75	-0.1127427161	0.003494137393	
614.375	0.08913846983	0.2018321861	
615.0	0.005727502104	-0.08094687691	
615.625	-0.02557019082	0.2126960941	
616.25	0.03668921514	0.03504430747	
616.875	-0.1502856594	0.1331055968	
617.5	-0.02931953695	0.280732449	
618.125	0.005237829277	0.1146461728	
618.75	0.1131446219	0.2292958367	
619.375	0.04918111325	0.07873503307	
620.0	0.2258150119	0.05674304525	
620.625	0.05490162802	-0.1399111363	
621.25	-0.007506756866	-0.2156236462	
621.875	-0.2771474019	0.01463053871	
622.5	-0.1088741993	0.0156000279	
623.125	-0.1074629177	0.238565379	
623.75	0.151761988	-0.089287887	
624.375	0.04411157408	0.05562359657	
625.0	-0.009034009517	-0.1065946582	
625.625	0.06728384145	-0.00406740402	
626.25	-0.05627460949	-0.193674555	
626.875	-0.1427792326	0.001258149551	
627.5	-0.083206847	-0.06270847668	
628.125	-0.1334502895	-0.06798005174	
628.75	-0.06151448484	-0.07270134158	
629.375	-0.07724761827	-0.1230979871	
630.0	-0.1794802383	-0.1345311982	
630.625	-0.1979234662	0.1499941586	
631.25	-0.1074593444	0.07165108427	
631.875	-0.04596424804	0.2829938446	
632.5	0.2229048002	0.04232011751	
633.125	0.07456675001	0.1212834328	
633.75	0.2615589438	-0.1424458687	
634.375	-0.05883608543	-0.0150507865	
635.0	0.08669983773	-0.2073049982	
635.625	-0.1980721249	0.02810622055	
636.25	-0.04591631349	0.01936084201	
636.875	-0.1588631259	0.1521676766	
637.5	0.08389294289	0.108013374	
638.125	-0.1303248625	0.01531677279	
638.75	-0.0290952372	0.2530865011	
639.375	0.05872071345	0.1138339333	
640.0	0.05347490094	0.2594612852	
640.625	0.3048644804	0.1363452885	
641.25	0.1944227906	-0.0917879575	
641.875	0.1492080232	-0.08039115941	
642.5	-0.02228500445	-0.3236438595	
643.125	-0.1128111512	0.1006436709	
643.75	-0.04410647647	-0.2427245695	
644.375	-0.2580646557	0.1748023331	
645.0	-0.0006396346222	-0.05165867009	
645.625	-0.01382801391	0.4520815336	
646.25	0.2621750728	-0.138808046	
646.875	-0.08738528478	0.1269558992	
647.5	0.2264334392	-0.06370253868	
648.125	-0.06855116829	0.02476129511	
648.75	0.421531049	0.01078702564	
649.375	0.06780523885	-0.3874122673	
650.0	0.07101562556	-0.1075793561	
650.625	0.2990672953	-0.2834897597	
651.25	-0.01234845965	-0.3823571076	
651.875	0.1321478466	0.02016939735	
652.5	0.3993406956	-0.1075031287	
653.125	0.1612720591	-0.2463261702	
653.75	0.09643995357	-0.04161137457	
654.375	-0.02603419866	-0.4339113954	
655.0	-0.3345430823	0.1331621139	
655.625	-0.0551159035	-0.02068722457	
656.25	-0.05696831659	0.4026523909	
656.875	0.1680177368	-0.1987239881	
657.5	-0.06603365295	0.2860210285	
658.125	0.3176649333	0.007903456276	
658.75	0.03225162017	0.05367234329	
659.375	0.49444645	-0.0542329395	
660.0	0.02752880456	-0.4640782052	
660.625	0.09599946021	-0.1008277832	
661.25	0.2375885375	-0.3234072899	
661.875	0.09550511054	-0.3585492073	
662.5	0.1192444498	-0.04534748941	
663.125	0.360278148	-0.2485752377	
663.75	-0.0263779068	-0.2785283346	
664.375	0.04344884586	-0.2211659522	
665.0	-0.3099174398	-0.2532478106	
665.625	-0.2221131834	0.2235120843	
666.25	-0.09221091766	0.1262914053	
666.875	0.1386353508	0.2970858472	
667.5	0.1930148224	-0.09228055438	
668.125	0.1384244811	0.1492805753	
668.75	0.2219310222	-0.3112569828	
669.375	-0.06472147056	-0.08153334994	
670.0	0.1575559557	-0.2015647244	
670.625	-0.136341278	-0.3148784423	
671.25	0.0507182185	0.07197751453	
671.875	0.2538365607	-0.2791629648	
672.5	0.05787673184	-0.2225268272	
673.125	0.1371497607	-0.06461741686	
673.75	0.2466322354	-0.2601485779	
674.375	-0.1429016079	-0.2232844473	
675.0	0.03507779207	-0.1734269588	
675.625	-0.2443642582	-0.1818137656	
676.25	-0.1684117069	0.1133056191	
676.875	-0.05133062333	-0.07772256972	
677.5	-0.2261443673	0.1003861981	
678.125	0.01931688007	0.1289844577	
678.75	-0.08696277948	0.1546219881	
679.375	0.3824773384	0.09848399891	
680.0	-0.08952883278	-0.1640178056	
680.625	0.2293752253	0.08847324739	
681.25	0.08823630882	-0.2781032161	
681.875	-0.1218316907	0.1222862082	
682.5	0.485957253	0.2485374703	
683.125	0.119662409	-0.269269437	
683.75	0.09865673793	0.2492546837	
684.375	0.4050698853	-0.0258979576	
685.0	0.161451246	-0.1606614418	
685.625	0.2305163224	0.2022677183	
686.25	0.3339867914	-0.2253669676	
686.875	0.1636168256	-0.1201947315	
687.5	0.2901311958	-0.2415917842	
688.125	-0.1892694992	-0.501315828	
688.75	-0.2909382361	-0.02505795566	
689.375	-0.2465319688	0.2372679959	
690.0	0.19611246	0.4158825605	
690.625	0.2272503786	-0.0003006850721	
691.25	0.1951361651	0.4932729405	
691.875	0.6591645675	0.02199578533	
692.5	0.2551897759	0.1624150648	
693.125	0.8337634087	0.07666741822	
693.75	0.4109777546	-0.5545609261	
694.375	0.3179679893	-0.0415711532	
695.0	0.5188479395	-0.5347791799	
695.625	0.2382593424	-0.2245798878	
696.25	0.3993493212	0.2548301791	
696.875	0.4948619949	0.1177504011	
697.5	0.3226742279	0.2320446979	
698.125	0.6699577762	0.01176182309	
698.75	0.292962134	-0.3696315811	
699.375	-0.4654537875	-0.2866506114	
700.0	-0.05985056203	0.3265509002	
700.625	0.05157246763	0.2880606811	
701.25	0.2853737724	0.05151294154	
701.875	0.0753752868	0.1793720419	
702.5	0.4785713584	0.2984039613	
703.125	0.3006082647	-0.1100142168	
703.75	0.36174164	0.07010754756	
704.375	0.2470147524	-0.3143282118	
705.0	0.04309157553	-0.1095111098	
705.625	0.3597076505	-0.01317141548	
706.25	0.1747696136	0.02749273647	
706.875	0.1168190859	0.2604303316	
707.5	0.3634917129	0.1405234732	
708.125	0.355405335	0.1822486643	
708.75	0.1924167585	-0.450030206	
709.375	-0.2190231485	-0.1081789335	
710.0	-0.4246598327	0.2775076819	
710.625	0.2187762603	0.007529090668	
711.25	-0.008207804106	0.219016295	
711.875	0.3107806106	-0.07202385774	
712.5	0.1213043549	0.07284038851	
713.125	0.3454565416	-0.2388811603	
713.75	-0.01444890788	-0.2898701655	
714.375	0.07980545685	-0.1177496676	
715.0	-0.03327901055	-0.2385845017	
715.625	-0.07162346585	-0.1141868826	
716.25	0.1536047526	-0.1324992511	
716.875	0.3136357072	-0.2510805259	
717.5	0.3167726084	-0.08187520205	
718.125	0.4458866567	0.02677931674	
718.75	0.7461796082	-0.1269561818	
719.375	0.3555783105	-0.7007059277	
720.0	0.3452639368	-0.1384043733	
720.625	0.04517582837	-1.550911532	
721.25	-0.3643128079	-0.127967155	
721.875	0.1230767396	-1.10062667	
722.5	-1.071712552	-0.602247975	
723.125	-0.1525293638	0.1562296124	
723.75	-0.6906796488	0.5118656584	
724.375	0.3954997837	0.3681663919	
725.0	-0.04604747694	0.1793176959	
725.625	0.2181406344	0.6234997093	
726.25	0.3497168102	0.4389411741	
726.875	-0.18907748	0.4844039115	
727.5	-0.1914188584	1.412526044	
728.125	0.7106032941	1.53410553	
728.75	-0.1667771028	1.25073102	
729.375	-1.081186996	4.062541323	
730.0	1.581472914	2.778284375	
730.625	-0.1696616173	1.700707429	
731.25	-1.2449662	4.465989313	
731.875	0.1618874258	3.075545466	
732.5	-2.205085965	-1.057626707	
733.125	-3.122371183	1.18521725	
733.75	0.4266379812	1.342637302	
734.375	-0.0004982383641	0.6108828336	
735.0	-0.2698428383	-1.125590823	
735.625	0.1046284506	0.2101744621	
736.25	-0.3801124962	0.6357138037	
736.875	0.8510448735	0.3707941871	
737.5	0.1634528681	-0.1142102794	
738.125	1.923013556	0.1445628972	
738.75	1.163689906	-2.260129012	
739.375	0.2477182005	-1.09714945	
740.0	3.052798094	1.625354567	
740.625	6.410676775	-2.217048464	
741.25	-0.825763542	-1.902075083	
741.875	-4.62211397	0.124874391	
742.5	-2.560437382	-0.2393792913	
743.125	1.009905969	-0.5066632876	
743.75	-0.09527253366	-1.486384061	
744.375	-0.3824577288	0.3407162122	
745.0	-0.1335599429	-0.02550787396	
745.625	0.1315825957	-0.1731002016	
746.25	0.05902377264	-0.002979292038	
746.875	-0.321072206	-0.007491033452	
747.5	0.1071430167	0.3323123	
748.125	0.04014503728	0.2797087729	
748.75	0.2568309304	0.4962258501	
749.375	0.2577411018	0.3514865328	
750.0	-0.3532123263	0.00941326628	
