!Created with skrf (http://scikit-rf.org).
# GHz S RI R (50+0j) 
!freq	ReS11	ImS11	
500.0	2.618585583	-2.950051491	
500.625	-0.2182137429	-4.048396531	
501.25	-0.8810541723	-0.6961666337	
501.875	-1.53376695	-1.966799116	
502.5	-0.4328293857	-0.2433192225	
503.125	-0.116301726	-0.04398151788	
503.75	0.1087567591	0.4286406084	
504.375	-0.05431255857	-0.06320643089	
505.0	0.2290734572	-0.09087254075	
505.625	-0.2291783802	-0.03207536585	
506.25	0.2640064831	-0.3752652427	
506.875	-0.4467103205	0.9803081878	
507.5	0.9127418905	-0.7746332635	
508.125	0.2665861988	-3.03457247	
508.75	-0.7430195625	-2.506222915	
509.375	1.968518267	-3.636281008	
510.0	-2.273254746	-0.2294296735	
510.625	-0.05283748833	-0.25982429	
511.25	-0.3267110502	-0.2071027505	
511.875	-0.483624382	0.1018160971	
512.5	-0.04654732747	0.1324639263	
513.125	0.03041675258	-0.2793979634	
513.75	-0.4485357506	-0.1709554603	
514.375	0.1518195402	-0.05525055484	
515.0	-0.9235258543	-0.7925051326	
515.625	1.934342568	-0.05714220215	
516.25	-2.896004818	-3.655247761	
516.875	-0.9443964491	0.7815664453	
517.5	0.528286277	-0.8271692769	
518.125	-0.4081707256	0.2888573608	
518.75	0.3079203847	-0.7990183823	
519.375	-0.1694240389	0.2721359605	
520.0	0.1811128062	-0.003633321783	
520.625	0.5787586779	-0.003780307935	
521.25	-0.4118163987	-0.771875647	
521.875	-0.1291577354	-0.04411472059	
522.5	-0.2646136331	0.1434327205	
523.125	0.01162837812	-0.1425565218	
523.75	-0.4369609069	0.2018201176	
524.375	-0.1073069992	-0.05927893605	
525.0	-0.2677943887	0.6264603242	
525.625	0.158053703	-0.1717696653	
526.25	-0.007315077968	0.1839539628	
526.875	-0.1059952904	-0.08724750464	
527.5	-0.2433669357	0.8713697283	
528.125	0.436975769	0.3504912927	
528.75	-0.3249287074	0.6168243535	
529.375	0.3662315801	0.07121728443	
530.0	-0.3358684778	0.6270045728	
530.625	0.7314824025	0.4712664113	
531.25	0.7705623142	0.5668321155	
531.875	0.6086700905	-1.046595846	
532.5	0.1607190546	0.09276962894	
533.125	-0.3179247514	-0.7040930841	
533.75	0.7358099647	0.03594580622	
534.375	-0.9464532297	-1.028763226	
535.0	-0.2232029864	-0.002770736612	
535.625	-0.6692875693	0.1930095428	
536.25	0.1862196772	0.255672634	
536.875	0.09511079707	0.1481814085	
537.5	0.2535455177	-0.1901629378	
538.125	0.0852794594	-0.1655202152	
538.75	0.4956776188	-0.1652962552	
539.375	-0.3644726743	-0.3769213173	
540.0	-0.2165182439	-0.2404161439	
540.625	-0.4233350045	-0.1295271992	
541.25	-0.2166678676	0.1035358768	
541.875	-0.05164669438	-0.03006521175	
542.5	-0.1577003351	-0.1890305442	
543.125	-0.2018357505	0.05647207683	
543.75	-0.1251581305	-0.1611458154	
544.375	-0.1292823497	0.2850848921	
545.0	-0.05632780146	-0.08637320525	
545.625	0.2778934079	0.3573254964	
546.25	0.06819663928	-0.1825717514	
546.875	0.3775948955	0.2129343795	
547.5	-0.02805721258	-0.5114077844	
548.125	0.02875857925	-0.1667005056	
548.75	-0.2902654703	-0.4501038149	
549.375	-0.3950665441	-0.02819135346	
550.0	-0.02656756422	-0.06800991046	
550.625	-0.2536242096	0.1020161735	
551.25	-0.05071333036	0.003949166386	
551.875	-0.2785317304	0.1933478305	
552.5	0.006942707622	0.2122852735	
553.125	-0.07802043397	0.1323227395	
553.75	0.1465751644	0.1058392108	
554.375	0.192495986	-0.01581790455	
555.0	0.2352647056	-0.1593343687	
555.625	0.1787556594	-0.2693572097	
556.25	0.127428971	-0.3295848761	
556.875	-0.0827579597	-0.3742977457	
557.5	-0.2343672335	-0.2365304433	
558.125	-0.2722741634	-0.06638274508	
558.75	-0.227432909	-0.01205829275	
559.375	-0.2819012351	0.05483352381	
560.0	-0.161757171	0.1917838584	
560.625	-0.1540840868	0.2068515474	
561.25	0.05180284463	0.3034984634	
561.875	0.06208082037	0.001240755977	
562.5	0.01063575693	0.2324816586	
563.125	0.173573255	0.02016684231	
563.75	0.2868522561	0.1366724754	
564.375	0.3301328072	-0.3583177822	
565.0	0.03169598923	-0.2235111999	
565.625	0.03932494982	-0.4252942623	
566.25	-0.3884528923	-0.1707972369	
566.875	-0.1795224064	-0.1269763835	
567.5	-0.3659630673	-0.3821674591	
568.125	-0.4764451297	-0.2299281833	
568.75	-0.2905719647	-0.2467828969	
569.375	-0.7810130719	0.2802561729	
570.0	0.01220920685	0.5256339088	
570.625	-0.2937386169	0.1207958248	
571.25	0.1115887875	0.6576210091	
571.875	-0.1512720807	-0.08607219156	
572.5	0.6062139111	0.1159782801	
573.125	-0.1528000999	-0.3953668842	
573.75	0.2753853448	0.04597930504	
574.375	0.05012151894	-0.5080879621	
575.0	-0.08835591793	0.1727520858	
575.625	0.3185809236	-0.3368989193	
576.25	-0.1987929416	-0.3250451724	
576.875	0.244854725	-0.1120572685	
577.5	-0.0107790884	-0.646142448	
578.125	-0.2909718169	-0.2062423837	
578.75	0.02855880163	-0.2198441391	
579.375	-0.2921237864	-0.3491266425	
580.0	-0.1578639955	0.1865357342	
580.625	-0.1203948502	-0.3223051826	
581.25	-0.271192731	0.4389723135	
581.875	0.1104690564	0.02962217666	
582.5	-0.2298258083	0.4612805623	
583.125	0.6348454532	0.2282726221	
583.75	-0.3375774851	-0.06483500361	
584.375	0.4957988916	0.3080288945	
585.0	-0.1572690415	-0.1165248614	
585.625	0.5805516624	0.3053150776	
586.25	0.2753764232	-0.4749080906	
586.875	0.08846739411	-0.01246010146	
587.5	0.09286709043	-0.5629208288	
588.125	-0.3390864816	-0.2167260225	
588.75	0.3318033903	-0.1186277388	
589.375	0.1898807413	-0.6134772918	
590.0	-0.1681244878	-0.1227613685	
590.625	-0.3834276385	-0.290734767	
591.25	-0.3458176186	0.4250159012	
591.875	0.05070917321	0.1693894656	
592.5	-0.1448715047	0.08502065948	
593.125	0.1273982488	0.1626377075	
593.75	-0.1743617114	0.2413411925	
594.375	0.6533149687	0.3670607952	
595.0	0.2757255253	-0.1201291446	
595.625	0.1667547819	0.5117240084	
596.25	0.8135119462	-0.09509033351	
596.875	-0.1255610637	0.1312736893	
597.5	0.6228804198	0.4785521558	
598.125	0.3834368752	-0.09182937434	
598.75	0.1835390748	0.4286576633	
599.375	0.6760623317	-0.2383115668	
600.0	0.1463727169	-0.2796965915	
600.625	0.4506890315	-0.2578904864	
601.25	0.1397802166	-0.6242374034	
601.875	-0.1270486504	-0.1242668929	
602.5	-0.356096795	-0.1515511379	
603.125	-0.1840268254	0.1537675479	
603.75	-0.2472815838	0.1748330594	
604.375	-0.1713704595	0.0716844313	
605.0	-0.2906231427	0.2602420998	
605.625	0.09219891	0.07515549318	
606.25	-0.5892468506	0.0753744505	
606.875	-0.07620435409	0.452543393	
607.5	-0.4616035657	-0.01822836913	
608.125	0.05198256914	1.057338442	
608.75	0.1533720797	-0.02086676685	
609.375	0.7688659913	0.2177075291	
610.0	0.209235873	-0.6459034547	
610.625	0.3266507019	0.04854517191	
611.25	-0.1304437094	-0.6664337925	
611.875	-0.03324606387	-0.05950804343	
612.5	-0.5410502413	-0.371514393	
613.125	-0.1495906105	0.3094106961	
613.75	-0.4737402792	0.1951016492	
614.375	0.3833430318	0.3198129907	
615.0	-0.2854887134	0.04589321468	
615.625	0.3785773917	0.2880705221	
616.25	-0.2672409204	0.008884298173	
616.875	-0.349364416	0.7125295099	
617.5	0.2500367124	0.3713313013	
618.125	-0.380884618	0.4558110685	
618.75	0.3062289941	0.5152482713	
619.375	0.04962751399	0.2009900421	
620.0	0.6086925299	0.1665193362	
620.625	0.09428249696	-0.2915254549	
621.25	-0.1610199524	-0.5174912019	
621.875	-0.4380719218	-0.03903683356	
622.5	-0.4818739286	-0.04411969628	
623.125	0.0786910489	0.6215263731	
623.75	-0.04824919074	0.03276098558	
624.375	0.3900202363	-0.3251700194	
625.0	-0.1181316447	0.2221259029	
625.625	0.384788997	-0.4659116669	
626.25	-0.3867004727	0.07790360703	
626.875	-0.03334843962	-0.511993261	
627.5	-0.6181050552	0.02848630448	
628.125	-0.01919762145	0.03828356729	
628.75	-0.07551734542	-0.5373393572	
629.375	-0.4325350495	-0.1641645633	
630.0	-0.2293262738	-0.272227592	
630.625	-0.6457606819	0.1408121069	
631.25	-0.1267739388	0.536592275	
631.875	-0.1426322401	0.3874329027	
632.5	0.4334564811	0.5506597832	
633.125	0.4540431528	0.006979824743	
633.75	0.2843245742	-0.1369684773	
634.375	0.2927405288	-0.301546755	
635.0	-0.3251448081	-0.3156894817	
635.625	-0.02629704276	-0.2997721589	
636.25	-0.6252935144	0.2835681078	
636.875	0.2090923881	0.2969401476	
637.5	-0.4939723583	-0.08472657563	
638.125	0.2800578834	0.5422046386	
638.75	-0.3523856641	-0.06083335173	
639.375	-0.02018075416	1.0092777	
640.0	0.5831575749	0.16237611	
640.625	0.133360173	0.4392645434	
641.25	0.9948428718	-0.05990738797	
641.875	0.01350153923	-0.5477670207	
642.5	0.2482380852	-0.2516775416	
643.125	-0.6176322425	-0.5647527847	
643.75	0.01417285037	0.2410213955	
644.375	-0.60366665	-0.270831779	
645.0	-0.2019808597	0.6063086988	
645.625	0.1635705194	0.1901457184	
646.25	0.2012205869	0.4886954466	
646.875	0.4598404156	-0.3723616287	
647.5	-0.2247066953	0.2415170369	
648.125	0.7824672503	0.124126876	
648.75	0.05801087032	-0.5052947152	
649.375	0.9487669467	0.07548823029	
650.0	0.2869822459	-1.440175516	
650.625	-0.2646476369	-0.1907711464	
651.25	1.107175431	-0.2657428547	
651.875	0.4224560564	-1.188803312	
652.5	0.08041925587	0.1940862164	
653.125	1.108260232	-0.2487991518	
653.75	-0.04307273112	-0.8301222107	
654.375	0.1230182733	-0.2675344365	
655.0	-1.046447156	-0.552918565	
655.625	0.002238209688	0.703596429	
656.25	-0.1385755834	0.02174362498	
656.875	0.2655217248	0.5392771567	
657.5	0.03371242137	-0.2023724382	
658.125	0.2353434338	0.7471077104	
658.75	0.8737368098	-0.09265998091	
659.375	0.4255819885	-0.3866449058	
660.0	0.6662781286	-0.2933230901	
660.625	0.2583070799	-1.356820743	
661.25	-0.1039898189	-0.2354329172	
661.875	0.9391880542	-0.4496911174	
662.5	0.4824249958	-0.9715594728	
663.125	0.07376500217	-0.09595268393	
663.75	0.8486297461	-0.9553628604	
664.375	-0.6396749577	-0.49896561	
665.0	-0.1670537416	-0.4852752658	
665.625	-1.049744172	0.2496951135	
666.25	0.2179562132	0.6275114265	
666.875	-0.05926600097	0.4456705323	
667.5	0.6856512816	0.2699426843	
668.125	0.2363193175	-0.2800683762	
668.75	0.5909467239	-0.0165499473	
669.375	0.05008638889	-0.8506859574	
670.0	-0.0442630688	-0.2215274168	
670.625	0.1762565218	-0.4590801464	
671.25	0.02162190942	-0.6030166571	
671.875	0.02192221191	-0.1728287955	
672.5	0.7495289138	-0.2681444202	
673.125	0.2901622907	-0.7286326265	
673.75	0.09984891208	-0.2080114725	
674.375	0.5141973644	-0.7435397138	
675.0	-0.8874552224	-0.4257836368	
675.625	0.2235539568	-0.2572390879	
676.25	-0.9341273056	-0.1492179525	
676.875	0.01040731558	0.4835662703	
677.5	-0.5335502256	-0.4537340243	
678.125	-0.1063803309	0.8897887743	
678.75	0.01536616106	0.1193351306	
679.375	0.4325881429	0.4647940494	
680.0	0.5022619011	-0.6056399066	
680.625	-0.2321103417	0.1538634198	
681.25	0.5947691912	-0.08594759609	
681.875	0.2227325035	-0.157184098	
682.5	0.2106761402	0.3151209915	
683.125	0.8163594049	0.2821173584	
683.75	0.5466136171	-0.1772016405	
684.375	0.3369026993	0.09843521147	
685.0	0.9010064935	0.3918772228	
685.625	0.6462191623	-0.7759732588	
686.25	0.3221336799	0.7420984781	
686.875	1.153469039	-1.282904409	
687.5	-0.2125407904	-0.1129338885	
688.125	0.5336122642	-1.365571737	
688.75	-1.746771974	0.3169391698	
689.375	-0.2641999302	-0.1251675518	
690.0	0.3637925675	1.569972954	
690.625	0.5868738521	-0.04394745133	
691.25	0.4150166361	0.9574992854	
691.875	1.497060913	0.4757690568	
692.5	1.012595838	0.3353048646	
693.125	1.571719841	-0.007790723549	
693.75	1.244007916	-0.7359113349	
694.375	0.9439681174	-0.8094452558	
695.0	0.8769423197	-0.8538453199	
695.625	1.011712121	0.04092505969	
696.25	1.639684325	-0.01943997007	
696.875	0.4492420835	0.4130160615	
697.5	1.332099928	1.649415137	
698.125	1.156564057	-0.6744178268	
698.75	1.330092242	-0.3803656162	
699.375	-1.801861198	-0.8861578298	
700.0	0.2015753353	0.4031519464	
700.625	0.1183941931	1.454241619	
701.25	0.615029983	-0.2305918971	
701.875	0.2183018526	0.8951075866	
702.5	1.373336508	0.246504898	
703.125	0.369850809	0.336741633	
703.75	1.322395073	-0.2630233816	
704.375	0.1219041954	-0.6768465115	
705.0	0.910573776	0.2270409643	
705.625	0.6293649516	-0.6999959233	
706.25	0.02891223715	0.5218986504	
706.875	1.170147481	1.069629131	
707.5	0.4178086836	-0.05243444539	
708.125	1.303467326	0.6607256111	
708.75	0.284253121	-1.45107466	
709.375	-0.354098335	-0.3081608774	
710.0	-0.6294938234	0.612674463	
710.625	0.4536113498	0.1219206906	
711.25	0.1524288806	0.4309829416	
711.875	0.5373703044	0.06584957302	
712.5	0.7952608285	-0.05190686579	
713.125	0.4563237748	-0.4900715434	
713.75	0.374795851	-0.4022363297	
714.375	-0.09928810656	-0.8216436592	
715.0	-0.1953915726	0.0005963757725	
715.625	0.553213866	-0.913065612	
716.25	-0.491869447	-0.7411717448	
716.875	0.9091765925	0.422756126	
717.5	2.323816931	-0.6374650271	
718.125	-0.1682374246	-1.020578667	
718.75	3.343771325	1.118157084	
719.375	0.7943901706	-2.905404434	
720.0	0.7148963792	-0.660236436	
720.625	1.322719582	-3.95143395	
721.25	-1.910585315	-1.687775055	
721.875	0.3551774311	-2.253483892	
722.5	-2.126294626	-2.044240619	
723.125	-1.930754496	0.5952576517	
723.75	-0.6761438546	0.601212113	
724.375	0.04567726851	1.544562941	
725.0	0.6323090319	0.5259124036	
725.625	0.1352295953	0.8660622455	
726.25	-0.1237388046	2.045834897	
726.875	1.446587331	2.217690915	
727.5	-1.495093173	1.744112914	
728.125	0.04353561752	7.757981019	
728.75	5.837725408	5.077417154	
729.375	-8.727835525	4.587484173	
730.0	1.508477166	19.28094966	
730.625	3.503600439	0.04413776394	
731.25	-12.64907406	15.43681346	
731.875	-3.853426161	15.82346491	
732.5	-1.615713107	-0.7844218546	
733.125	-9.34006925	1.713215807	
733.75	-0.2660787603	4.042189781	
734.375	1.349830867	-0.1070643171	
735.0	0.7536349144	-1.999099251	
735.625	-0.8181469779	1.526588564	
736.25	-0.708702996	0.5492679524	
736.875	1.351731343	1.849082366	
737.5	3.24262497	-0.7705852942	
738.125	0.9629065638	-0.6296187628	
738.75	8.204652189	-1.947384263	
739.375	4.763000837	-10.82850854	
740.0	-3.684755149	0.7258507154	
740.625	14.50296941	9.528696787	
741.25	18.27262399	-10.03442699	
741.875	-14.03106026	-21.46880009	
742.5	-18.71430732	-3.95989953	
743.125	-0.5494350412	1.897514926	
743.75	2.810461873	-4.440998888	
744.375	-1.943010027	1.135919167	
745.0	-0.131442894	-0.2150840188	
745.625	0.3477742459	-0.06708909924	
746.25	-0.1322907571	-0.1883446642	
746.875	-0.492489278	0.02028665905	
747.5	-0.0127777934	0.9536953729	
748.125	0.7357142389	1.294671236	
748.75	0.5074598638	1.291735194	
749.375	0.8501641816	1.266302327	
750.0	-0.1890826646	0.3535477502	
