!Created with skrf (http://scikit-rf.org).
# GHz S RI R (50+0j) 
!freq	ReS11	ImS11	
500.0	0.007885100064	-0.9574371252	
500.625	1.673005264	-3.463084375	
501.25	-3.216210763	-2.219688391	
501.875	-1.11200145	-0.09685711238	
502.5	0.09281087617	-0.4928159269	
503.125	-0.3541515638	0.1957177184	
503.75	0.01640317392	-0.04650029958	
504.375	0.2027984083	-0.02030187145	
505.0	-0.09458451166	0.03009368824	
505.625	0.1147635813	-0.397412314	
506.25	-0.2322381698	0.3491455438	
506.875	-0.8576392734	-0.990690052	
507.5	-1.765383221	-0.5223271572	
508.125	0.502612828	-0.1616889883	
508.75	2.590081865	-4.006854742	
509.375	-3.198920644	-5.222359043	
510.0	-1.006841801	-0.5393649428	
510.625	-1.339786858	-0.19866511	
511.25	0.0453128017	-0.1408912829	
511.875	-0.6387774559	-0.3375101393	
512.5	0.02115882444	0.1548502882	
513.125	0.00935264929	-0.1445616037	
513.75	-0.07712853616	-0.3212422616	
514.375	-0.6014884311	0.02166513341	
515.0	1.546273287	0.09936526469	
515.625	-2.081648386	-1.414411559	
516.25	1.44684407	-0.2304711368	
516.875	-1.100669969	-2.677107251	
517.5	-0.7228057211	0.2837841845	
518.125	-0.005622573005	-0.5149420191	
518.75	-0.5063278609	0.2272824066	
519.375	-0.2393194613	-0.0277156615	
520.0	0.4879998637	0.1960078016	
520.625	0.3246911047	-0.3209439352	
521.25	0.2909247626	-0.63807727	
521.875	-0.6167328653	0.002117657497	
522.5	0.01201137867	-0.02668974635	
523.125	-0.2184765523	0.2927721734	
523.75	-0.1002914312	-0.1697155546	
524.375	-0.518396884	0.3435494913	
525.0	-0.1039875864	0.0157371353	
525.625	0.08868708257	0.3831623885	
526.25	-0.2281980401	-0.2558202091	
526.875	0.009074957263	0.3226225005	
527.5	-0.1188985201	0.1518860188	
528.125	-0.0622073403	1.187976947	
528.75	0.5367382148	0.3999696886	
529.375	-0.09240774326	0.3382882287	
530.0	0.2661345003	0.0772056555	
530.625	0.09526693645	1.369107237	
531.25	1.016061065	-0.5044944039	
531.875	0.7707384805	0.07318169058	
532.5	-0.7356117575	-0.4843425593	
533.125	0.6838250396	0.1069854143	
533.75	-0.3459484611	-0.6870177355	
534.375	0.2938672646	-0.6244223901	
535.0	-1.123126681	-0.1874156471	
535.625	-0.1046873701	0.1529487136	
536.25	-0.1257211034	0.3018121015	
536.875	0.3571438065	-0.03794496697	
537.5	0.06155204919	-0.01500821203	
538.125	0.4541794139	-0.2189689317	
538.75	0.1260530692	-0.2916617403	
539.375	-0.01517618034	-0.4814934465	
540.0	-0.6526383559	-0.3062368472	
540.625	-0.1433821072	-0.0584296121	
541.25	-0.3314481783	-0.06579289856	
541.875	-0.119406429	0.04140409145	
542.5	-0.02999360743	-0.04436871579	
543.125	-0.2123582483	-0.280469422	
543.75	-0.270529168	0.3025384577	
544.375	-0.1551495875	-0.1634062606	
545.0	0.1269815469	0.327102248	
545.625	-0.131240368	0.001856241546	
546.25	0.5332143066	0.2033869547	
546.875	0.008492218771	-0.1501892927	
547.5	0.431811165	-0.2099687909	
548.125	-0.3362606111	-0.5232624406	
548.75	-0.1750568497	-0.0811492684	
549.375	-0.2035616531	-0.338012538	
550.0	-0.2717387767	0.1509527549	
550.625	-0.03895940895	-0.1193081064	
551.25	-0.2641120633	0.2084576927	
551.875	-0.09470131442	0.0496155278	
552.5	-0.1947187833	0.2583188066	
553.125	0.02069067471	0.1230743873	
553.75	0.08556810075	0.1395281651	
554.375	0.2587381442	-0.004457293412	
555.0	0.2155151647	-0.174645122	
555.625	0.2128836242	-0.2452712632	
556.25	0.1637974425	-0.359302624	
556.875	-0.09489688529	-0.3869682711	
557.5	-0.2256644197	-0.2464222186	
558.125	-0.2885752059	-0.105442066	
558.75	-0.2579758921	0.01675750785	
559.375	-0.2342667279	0.02116315261	
560.0	-0.2721382936	0.1920496979	
560.625	-0.05547291168	0.2881593864	
561.25	-0.02173816807	0.1622850504	
561.875	0.1201635321	0.1923252766	
562.5	-0.03021759126	0.01765039703	
563.125	0.2513627492	0.2674487095	
563.75	0.1942660366	-0.09311325709	
564.375	0.4201921819	-0.1068101005	
565.0	0.1112636605	-0.504301535	
565.625	-0.07912802049	-0.1958370707	
566.25	-0.1740454851	-0.3524524423	
566.875	-0.4830038639	-0.1896113509	
567.5	-0.2224430439	-0.07494100995	
568.125	-0.2431843975	-0.5925747891	
568.75	-0.7053335393	-0.01818520113	
569.375	-0.3674681317	0.0173943638	
570.0	-0.490111335	0.690043469	
570.625	0.1312744929	0.333128687	
571.25	-0.3233960887	0.1989257296	
571.875	0.5375481402	0.1768595447	
572.5	-0.06914377435	0.1592671625	
573.125	0.5396653245	-0.345195028	
573.75	-0.1473976247	-0.4498355553	
574.375	0.1436480203	0.1491606744	
575.0	0.03378890955	-0.4388962191	
575.625	0.1489523638	0.15956606	
576.25	0.2700177277	-0.5093027171	
576.875	-0.293110881	-0.2270775241	
577.5	0.2428501357	-0.1557902933	
578.125	-0.08672515316	-0.6638650776	
578.75	-0.3959884782	-0.1657638041	
579.375	-0.006736090306	-0.01646649789	
580.0	-0.2159257724	-0.3399626068	
580.625	-0.02338601593	0.1902731428	
581.25	-0.482229623	-0.06775171824	
581.875	0.2125351086	0.5793845705	
582.5	0.1345973961	-0.03778486074	
583.125	-0.1281156294	0.47526748	
583.75	0.5215326378	-0.2212605064	
584.375	-0.3344631013	0.396178184	
585.0	0.6393806932	0.0549619642	
585.625	-0.01343042524	-0.09484221532	
586.25	0.6215506931	0.08133182387	
586.875	-0.08982750986	-0.5070416717	
587.5	0.181128054	-0.1190500572	
588.125	-0.03148206907	-0.6224126644	
588.75	-0.2201672099	-0.2418445427	
589.375	0.4570090803	-0.1059199414	
590.0	-0.2631674869	-0.6210405911	
590.625	-0.3630373127	0.03885848088	
591.25	-0.2640203297	0.08313377536	
591.875	-0.260451158	0.4018442879	
592.5	0.1951914569	-0.04052719971	
593.125	-0.1351483302	0.2747157822	
593.75	0.1280359682	0.1153541318	
594.375	0.1740395974	0.4440294143	
595.0	0.7527033692	0.2929556526	
595.625	0.1661022873	-0.1803885272	
596.25	0.2981902455	0.5348686942	
596.875	0.6959872358	-0.1883725381	
597.5	0.006412880069	0.123773615	
598.125	0.5139228237	0.5415414232	
598.75	0.3013979772	-0.06113924475	
599.375	0.5831818283	0.2618297107	
600.0	0.3536456333	-0.6394305549	
600.625	0.1654512589	-0.1879537574	
601.25	0.3778392564	-0.4230130203	
601.875	-0.3328937545	-0.4301852176	
602.5	-0.1804876858	-0.01916261348	
603.125	-0.2283389369	0.07780446805	
603.75	-0.3820326098	0.07376841119	
604.375	-0.1094060126	0.3735544568	
605.0	-0.2237635034	-0.06206367213	
605.625	-0.2060259709	0.3870227354	
606.25	-0.1033922218	-0.075516948	
606.875	-0.7057250269	0.275350216	
607.5	0.01744637146	0.3812215238	
608.125	-0.4787154481	0.4082160347	
608.75	0.921536636	0.4959299095	
609.375	0.1122961764	0.0001774257157	
610.0	0.7218700595	-0.1997032203	
610.625	-0.07268871688	-0.473698378	
611.25	0.3869007956	-0.2823506317	
611.875	-0.4932338821	-0.2446084765	
612.5	-0.1083152382	-0.2706963998	
613.125	-0.7102993562	0.09298701976	
613.75	0.06586615447	0.2369797838	
614.375	-0.103103766	0.491400634	
615.0	0.2352824402	-0.1780296364	
615.625	-0.2841103754	0.3890748864	
616.25	0.2847040643	0.3435688411	
616.875	-0.4684906038	0.177744983	
617.5	-0.1288375722	0.8363486334	
618.125	0.1717540057	0.210690793	
618.75	-0.2513430787	0.626721552	
619.375	0.4450509844	0.2824655425	
620.0	0.2759066212	0.2298135975	
620.625	0.2967046046	-0.5045166849	
621.25	-0.0908123385	-0.301810043	
621.875	-0.6221300322	-0.2754434782	
622.5	-0.3173703021	0.120688704	
623.125	-0.3001432885	0.4182476181	
623.75	0.451830461	-0.08463356563	
624.375	0.1167432692	0.2383075797	
625.0	-0.135213059	-0.3783088191	
625.625	0.2947148111	0.1099762155	
626.25	-0.250734626	-0.6658022065	
626.875	-0.2519008083	0.182732858	
627.5	-0.1844165059	-0.4380983598	
628.125	-0.4751238926	-0.0644902967	
628.75	0.02367917819	-0.1410784626	
629.375	-0.2629200357	-0.5963750045	
630.0	-0.3726988497	0.05255008445	
630.625	-0.5753773683	-0.07916012382	
631.25	-0.4159806894	0.6139398583	
631.875	0.09609392153	0.4884708091	
632.5	0.2208694158	0.4096670854	
633.125	0.4359058902	0.2857668669	
633.75	0.5270386337	-0.3206926578	
634.375	0.01634385854	-0.1269800534	
635.0	0.1656724891	-0.5462158376	
635.625	-0.4581407583	0.1180056062	
636.25	-0.4382309149	-0.1846207272	
636.875	-0.107849394	0.5820780403	
637.5	0.05945993672	-0.08076859492	
638.125	-0.5729057648	0.4439122326	
638.75	0.4007744988	0.2478842531	
639.375	-0.4722914137	0.3601358897	
640.0	0.4155240223	0.9506398411	
640.625	0.7033628451	0.07320042267	
641.25	0.2506211133	0.1175262342	
641.875	0.7717805006	-0.7003088035	
642.5	-0.2481468469	-0.194943559	
643.125	-0.06217397934	-0.621793426	
643.75	-0.7000642634	0.1368862583	
644.375	0.04205949737	-0.3293654337	
645.0	-0.6948860943	0.5138612344	
645.625	0.3628999734	0.5197022757	
646.25	0.2839651612	-0.1138432106	
646.875	0.1218731312	0.4443826861	
647.5	0.3026875504	-0.5270953552	
648.125	0.2035649915	0.6680507231	
648.75	0.9443495894	-0.5794677442	
649.375	-0.06611490913	-0.2734505152	
650.0	1.205242983	-0.6393084404	
650.625	-0.202475052	-1.238323335	
651.25	0.1246665572	0.1635746425	
651.875	1.3592929	-0.2968468409	
652.5	0.4349455276	-0.8551024921	
653.125	0.2275646004	0.2046682489	
653.75	0.884623438	-0.7389712026	
654.375	-0.5656880475	-0.5023128834	
655.0	-0.1844285492	-0.4930090181	
655.625	-0.9002037082	0.779901215	
656.25	0.4192175197	0.06919032328	
656.875	-0.2698684515	0.2909603492	
657.5	0.4258112154	0.2766543389	
658.125	0.09338299913	0.08634402544	
658.75	0.6836000929	0.6672112118	
659.375	0.8488075425	-0.7226768425	
660.0	0.2349325186	-0.4476358484	
660.625	0.7528389556	-0.6253940296	
661.25	0.01378224906	-1.203883056	
661.875	0.3668590804	0.03549270089	
662.5	1.152748643	-0.6054882664	
663.125	0.2989487394	-0.8606477845	
663.75	0.3399229547	-0.08385619621	
664.375	0.03387046103	-1.263811221	
665.0	-0.6900658578	-0.02591222796	
665.625	-0.7284709402	-0.2326072179	
666.25	-0.2191921886	0.9927109314	
666.875	0.1698689343	0.05496150925	
667.5	0.4900455183	0.577119223	
668.125	0.6322425808	-0.2854755548	
668.75	0.1547791171	-0.2074160343	
669.375	0.521619832	-0.4008200654	
670.0	-0.07203140522	-0.7932360652	
670.625	-0.1112233744	-0.1846561663	
671.25	0.3556537913	-0.4242084208	
671.875	0.1916402426	-0.6296277706	
672.5	0.2883886036	-0.02181681553	
673.125	0.7032481323	-0.6334548205	
673.75	0.04396139105	-0.5259666456	
674.375	0.3346298965	-0.2738062291	
675.0	-0.1014591057	-1.066829024	
675.625	-0.78498159	0.2740599048	
676.25	0.05767078906	-0.4973964646	
676.875	-0.8421961071	0.2269232914	
677.5	0.09919985434	0.03917035868	
678.125	-0.8693600024	0.3381562831	
678.75	0.5977163802	0.3688466431	
679.375	0.1360062396	0.4027851715	
680.0	0.7395161866	-0.213106045	
680.625	-0.1998842252	-0.502675585	
681.25	0.1968045367	0.5180002749	
681.875	0.689138378	-0.08380145036	
682.5	0.3620019492	0.01769090187	
683.125	0.3069813146	0.1437074544	
683.75	0.8419703805	0.5767427593	
684.375	0.6061387	-0.4676512325	
685.0	0.3351936095	0.5530701738	
685.625	1.189343352	-0.09052420168	
686.25	-0.03712782012	-0.3634849159	
686.875	1.538293045	0.2150924521	
687.5	-0.1066765997	-1.513238967	
688.125	0.5029657939	-0.2242767299	
688.75	-1.356157727	-1.168978857	
689.375	-0.15227867	1.242803576	
690.0	-0.5093457595	0.6248508946	
690.625	1.174402578	0.6336889433	
691.25	0.2974295119	0.3877819421	
691.875	1.243880254	1.167772125	
692.5	1.412032133	0.0196307641	
693.125	1.350120914	0.218336277	
693.75	1.472010543	-0.6282087269	
694.375	0.9254532743	-0.8436686608	
695.0	1.152228459	-0.8476136359	
695.625	0.7475996627	-0.2514309472	
696.25	1.470438125	0.92201416	
696.875	1.328663537	0.2681521243	
697.5	0.1862389087	1.362338344	
698.125	2.284923988	0.4407900108	
698.75	0.2997756399	-0.55925359	
699.375	-0.7193486719	-1.811016682	
700.0	-0.4160596247	1.439540219	
700.625	-0.4832261196	0.3631566013	
701.25	1.222761822	0.573747144	
701.875	0.1801963286	0.2099610669	
702.5	0.9459342327	1.056463366	
703.125	0.8468142653	-0.3056710464	
703.75	0.9021636589	0.3091487963	
704.375	0.7278549803	-0.9169467987	
705.0	0.1363850493	0.06318511706	
705.625	1.299398417	0.03760538837	
706.25	0.1791329098	-0.1114722434	
706.875	0.2533219181	1.229046948	
707.5	1.396851728	0.7232860535	
708.125	0.4469146673	0.3227824002	
708.75	1.143612716	-1.064916389	
709.375	-0.9359765028	-0.3761304444	
710.0	-0.5998853311	0.07498966211	
710.625	0.3746349432	0.6085576581	
711.25	-0.0554530181	0.1719189057	
711.875	0.6765541417	0.4174205716	
712.5	0.5727823866	-0.0424277558	
713.125	0.786822845	-0.5435202216	
713.75	0.005000576293	-0.3650692516	
714.375	0.487495666	-0.6936433858	
715.0	-0.5661430884	-0.4898713469	
715.625	0.5242876906	-0.05374584395	
716.25	0.5181607811	-1.453111481	
716.875	-0.08326538765	0.1096109879	
717.5	2.179653773	0.5986536986	
718.125	2.026831627	-1.661241231	
718.75	0.3753290141	1.772639153	
719.375	3.94192104	-2.665944011	
720.0	-0.4090903458	-1.433273274	
720.625	1.417876069	-1.646469442	
721.25	-0.150363679	-4.029827108	
721.875	-1.393558359	-1.270130014	
722.5	-1.044897992	-2.786182517	
723.125	-2.33449549	-0.07757742907	
723.75	-0.4650221877	0.8437547592	
724.375	-0.4496291793	1.225959137	
725.0	0.8742495787	0.9412232176	
725.625	0.4137414093	0.6926770235	
726.25	-0.4569309235	1.543683428	
726.875	-0.149520436	3.470187756	
727.5	1.959756342	1.96906304	
728.125	-4.361010285	4.459597263	
728.75	4.578320701	16.3752858	
729.375	1.784267967	1.479729025	
730.0	-10.9938187	22.63353063	
730.625	10.95286135	7.026792406	
731.25	-8.054373941	2.800258147	
731.875	-12.38502627	11.76813501	
732.5	-5.313038399	8.608328253	
733.125	-3.547720026	-2.166383847	
733.75	-3.763951457	5.141573865	
734.375	2.148941042	0.2797913455	
735.0	0.5852652229	-0.6398197891	
735.625	-2.251132094	0.7967339272	
736.25	0.06186834999	0.05342579126	
736.875	0.7780867968	2.301455038	
737.5	3.691490814	0.1064341491	
738.125	2.939017897	-3.015473967	
738.75	1.803683599	1.519150547	
739.375	13.61548689	-6.02075868	
740.0	-2.959616088	-14.64326684	
740.625	-1.584305079	14.57554433	
741.25	48.15196953	23.82318134	
741.875	4.680919268	-12.08068626	
742.5	-4.761604568	-17.39805837	
743.125	-5.240311671	-0.1357890175	
743.75	3.218658941	-1.491816296	
744.375	-2.354481615	-0.9067966179	
745.0	0.5138322944	-0.04203343515	
745.625	0.1924276589	0.2633491206	
746.25	-0.1579224635	-0.5180017561	
746.875	-0.1334094315	0.1372023549	
747.5	-0.5043833745	1.006366873	
748.125	0.6581808471	1.369399893	
748.75	0.2558189262	0.812864195	
749.375	0.434545249	0.9493961422	
750.0	-1.320289985	0.7172935348	
