!Created with skrf (http://scikit-rf.org).
# GHz S RI R (50+0j) 
!freq	ReS11	ImS11	
500.0	-0.2130102385	-0.795556179	
500.625	0.9568397744	-0.800621848	
501.25	-0.8266802855	-0.9157730399	
501.875	-0.05570865214	-0.3940318449	
502.5	-0.01673748033	-0.2001037558	
503.125	-0.05517410411	0.043649559	
503.75	-0.03711113145	0.04730615529	
504.375	0.05981901569	-0.02480969251	
505.0	-0.007302795895	-0.003922877569	
505.625	0.02825619138	-0.1105621872	
506.25	-0.1322817522	0.01674766002	
506.875	-0.1708626708	-0.2834073956	
507.5	-0.458243545	-0.1506341027	
508.125	0.3712385103	-0.3161847318	
508.75	1.118026177	-1.248094396	
509.375	-0.4231073819	-1.333448428	
510.0	-0.1518274105	-0.3148241169	
510.625	-0.1310724784	-0.2982723284	
511.25	-0.1331993329	0.0179004781	
511.875	-0.100308374	-0.1086958432	
512.5	-0.02828759018	0.08010683891	
513.125	-0.0139271671	-0.02511628103	
513.75	-0.03178072499	-0.1216426877	
514.375	-0.1218044893	0.07294676071	
515.0	0.3681409416	-0.3909676958	
515.625	-0.7217027588	-0.5289041169	
516.25	0.1319119507	-0.219968081	
516.875	-0.08837199653	-0.7749428551	
517.5	-0.1466438705	-0.06799247315	
518.125	0.05169373594	-0.07159176012	
518.75	-0.1261686124	-0.08267845661	
519.375	-0.04252770885	0.000306641027	
520.0	0.1303029262	0.07475192259	
520.625	0.1891014515	-0.1168849349	
521.25	-0.05566667323	-0.170877949	
521.875	-0.08936386915	-0.145823398	
522.5	-0.1153662474	0.04856694898	
523.125	0.02643503316	-0.09311988777	
523.75	-0.253639404	-0.0105898239	
524.375	-0.02384036842	0.1118792266	
525.0	-0.2120432275	0.06725134542	
525.625	0.1320348275	0.1116449506	
526.25	-0.1139343647	-0.02383704789	
526.875	0.01110331116	0.09224262938	
527.5	-0.1543184239	0.1464022618	
528.125	-0.05535118313	0.372996426	
528.75	0.1726301261	0.2800092378	
529.375	-0.0489019849	0.02266162707	
530.0	0.1419085818	0.2762112992	
530.625	0.02590662647	0.1178776084	
531.25	0.4049860638	0.3036918711	
531.875	0.2721955802	-0.3023081327	
532.5	-0.02392032113	0.02805613233	
533.125	0.07244783864	-0.2126349482	
533.75	0.0004354175854	-0.08120982364	
534.375	0.02684322873	-0.4128351838	
535.0	-0.3529970596	-0.07859783711	
535.625	-0.1280484387	0.04664646368	
536.25	-0.03791906094	0.1244377044	
536.875	0.1046460343	-0.02876359125	
537.5	0.0749086515	0.007080923813	
538.125	0.1599074043	-0.1223454491	
538.75	0.09175808912	-0.1038372339	
539.375	-0.0287708964	-0.1952155501	
540.0	-0.1664459053	-0.1990910657	
540.625	-0.09759399873	0.01678768558	
541.25	-0.09068385815	-0.04692425369	
541.875	-0.09856683451	-0.006741768351	
542.5	0.01181508727	-0.09931887931	
543.125	-0.1512840298	-0.04119139335	
543.75	-0.03247258093	0.08373220265	
544.375	-0.1154869559	0.02561362561	
545.0	0.07737725495	0.1058040262	
545.625	-0.01269071975	0.06142327996	
546.25	0.1680486704	0.05679972299	
546.875	0.06321079293	-0.04712691774	
547.5	0.1371156151	-0.07628741817	
548.125	-0.1017734825	-0.1985771097	
548.75	-0.08438770181	-0.05968200277	
549.375	-0.1084678867	-0.1323470473	
550.0	-0.1094334282	0.0517206781	
550.625	-0.02842471012	-0.03461727139	
551.25	-0.1165452357	0.06028184498	
551.875	-0.04007397807	0.05896986623	
552.5	-0.07564971389	0.05313891026	
553.125	-0.001060604866	0.07312630459	
553.75	0.03039168412	0.04929616596	
554.375	0.1105180363	-0.003169635369	
555.0	0.09448792314	-0.07782959088	
555.625	0.1021110667	-0.1088520867	
556.25	0.07557393732	-0.1518656153	
556.875	-0.03703781711	-0.1693371127	
557.5	-0.1003328988	-0.1138201048	
558.125	-0.1239134648	-0.05136643981	
558.75	-0.1221662262	-0.002897419865	
559.375	-0.1105439885	0.01758666465	
560.0	-0.1221922733	0.07325192976	
560.625	-0.04609750714	0.1304031907	
561.25	-0.009011008272	0.08289075897	
561.875	0.04193949452	0.07805614236	
562.5	0.003786715942	0.01574248662	
563.125	0.06859957695	0.1222147707	
563.75	0.1722058999	-0.02902757645	
564.375	0.1110242984	-0.05508412818	
565.0	0.155427974	-0.1697943219	
565.625	-0.07678771019	-0.1574595969	
566.25	-0.05627378237	-0.1260969867	
566.875	-0.2048719015	-0.1042355072	
567.5	-0.1198449198	-0.01686337531	
568.125	-0.1137939176	-0.2369321706	
568.75	-0.298986385	-0.04720873259	
569.375	-0.1387695893	0.0538821203	
570.0	-0.2435761943	0.1994497637	
570.625	-0.002698213455	0.2526181114	
571.25	-0.03078307135	0.04655073044	
571.875	0.1162318579	0.1619518044	
572.5	0.03992443131	-0.06587739735	
573.125	0.1808691594	-0.05309407452	
573.75	0.02887254427	-0.2171259901	
574.375	-0.03415517935	0.01866712603	
575.0	0.1206341545	-0.1013638284	
575.625	-0.0517188689	-0.06262495191	
576.25	0.1364803656	-0.06021178135	
576.875	-0.04009019316	-0.2320474101	
577.5	-0.0909249352	-0.07810767501	
578.125	0.05728598675	-0.1712537569	
578.75	-0.176892025	-0.1877182929	
579.375	-0.06323226935	0.03823849522	
580.0	0.01461480157	-0.1783946796	
580.625	-0.1282127237	0.06290480222	
581.25	-0.06380540326	-0.0244454449	
581.875	-0.06483024769	0.3192599894	
582.5	0.1736951913	0.1077583596	
583.125	-0.06145906003	0.06358252028	
583.75	0.134170911	0.102291049	
584.375	-0.07804798777	-0.02165739188	
585.0	0.170817738	0.1603693248	
585.625	0.1471372755	-0.108448042	
586.25	0.08709039277	0.0101335126	
586.875	0.1697509854	-0.1891427278	
587.5	-0.1072171472	-0.1486987544	
588.125	0.05775015904	-0.07850835469	
588.75	0.0746059657	-0.2446344382	
589.375	-0.05065788634	-0.1346501232	
590.0	0.05297974595	-0.2145637258	
590.625	-0.3383805686	0.02501303168	
591.25	-0.04334109814	0.07280685373	
591.875	-0.1377955454	0.1130761567	
592.5	0.09483525414	0.1039432982	
593.125	-0.2509092546	0.0545685487	
593.75	0.1695568318	0.1784887112	
594.375	0.06100365178	0.04156811397	
595.0	0.1295276352	0.1932606915	
595.625	0.2556238701	0.003683038764	
596.25	0.0559580489	0.01597209217	
596.875	0.2295848587	0.1219681003	
597.5	0.1882433374	0.003660515762	
598.125	0.09732368407	0.1807318873	
598.75	0.2561159657	0.1599460924	
599.375	0.1871804802	-0.08598485123	
600.0	0.1708411664	-0.06728709698	
600.625	0.2243961961	-0.2229121982	
601.25	-0.02211148112	-0.2339320451	
601.875	0.04541911514	-0.0975614735	
602.5	-0.2324062135	-0.04475488495	
603.125	0.03488800939	0.0480565838	
603.75	-0.1765068428	-0.02349039761	
604.375	-0.1349507378	0.1835134263	
605.0	-0.01286977451	-0.03398525081	
605.625	-0.1725744984	0.1224312627	
606.25	-0.03844455162	0.09553101391	
606.875	-0.1698467642	-0.02818801567	
607.5	-0.1884107685	0.2534368038	
608.125	0.008801488321	0.2138264296	
608.75	0.08414815736	0.2280514824	
609.375	0.3644428646	-0.0424858893	
610.0	0.09914599737	-0.1555230728	
610.625	0.1469374685	-0.09570429633	
611.25	-0.03162992952	-0.2779142427	
611.875	-0.04555617467	-0.02502203489	
612.5	-0.153344557	-0.189367795	
613.125	-0.2503118139	0.1597643531	
613.75	-0.04731887596	-0.02301395286	
614.375	-0.03041301453	0.221694308	
615.0	0.1375566857	-0.04030077706	
615.625	-0.1400238038	0.09473855453	
616.25	0.07095540597	0.1887802761	
616.875	-0.01517493643	0.08399114658	
617.5	-0.174183791	0.226977607	
618.125	0.02282254538	0.3469147028	
618.75	0.04745783979	0.2671630883	
619.375	0.03231726954	0.2710365939	
620.0	0.2404046729	0.06677268048	
620.625	0.1024214401	-0.06844983001	
621.25	0.05281601121	-0.2341285553	
621.875	-0.269814336	-0.02005680017	
622.5	-0.1357461351	0.001695678701	
623.125	-0.139357944	0.247186841	
623.75	0.2351879255	0.008616730638	
624.375	-0.01720578198	0.01677480596	
625.0	0.09596659949	-0.1212626371	
625.625	0.005514948904	-0.01305356204	
626.25	0.01202519337	-0.2082047948	
626.875	-0.2198305253	-0.05221984975	
627.5	-0.05411517673	-0.03093633156	
628.125	-0.1475266131	-0.1361800062	
628.75	-0.1241296444	-0.07035196696	
629.375	-0.06046250327	-0.1212207962	
630.0	-0.2508487625	-0.1645502426	
630.625	-0.2946665696	0.113390976	
631.25	-0.07834961433	0.1325582722	
631.875	-0.08994647596	0.3313464217	
632.5	0.1927805834	0.164564553	
633.125	0.1000715357	0.06446342478	
633.75	0.2852572233	-0.09186314472	
634.375	-0.1196485937	-0.1342507303	
635.0	0.08780824714	-0.1630464575	
635.625	-0.2352478414	-0.0968094904	
636.25	-0.07610510237	0.08136421233	
636.875	-0.1748729131	0.0539545862	
637.5	-0.003820792833	0.2259316493	
638.125	-0.06582083602	-0.01701518311	
638.75	-0.1642836134	0.2477615434	
639.375	0.1046219388	0.2402745221	
640.0	0.04608474635	0.1947871679	
640.625	0.3200230271	0.2578961073	
641.25	0.2614061423	-0.1003121206	
641.875	0.1977552895	-0.04667710601	
642.5	0.05355282811	-0.3700681217	
643.125	-0.1616523772	-0.004383981401	
643.75	0.05353774061	-0.1513990131	
644.375	-0.3375112258	0.02867228853	
645.0	0.04015336731	0.105619533	
645.625	-0.1321536214	0.2657093091	
646.25	0.3948716456	0.04222435574	
646.875	-0.03689229527	-0.02448702827	
647.5	0.2496293256	0.1213683273	
648.125	0.07978195189	-0.08353732279	
648.75	0.3302542414	0.1244830119	
649.375	0.3110545084	-0.4174102638	
650.0	-0.01286044983	-0.2391423389	
650.625	0.3067604391	-0.1821251366	
651.25	0.2687873446	-0.4214868211	
651.875	0.08267997493	-0.1316093061	
652.5	0.3919259897	0.08078228065	
653.125	0.3603067432	-0.2447742405	
653.75	0.09916645511	-0.1073619223	
654.375	0.1297017726	-0.4271648253	
655.0	-0.5697497176	-0.08162411688	
655.625	-0.05525370137	0.1346317608	
656.25	-0.1338569302	0.2361448177	
656.875	0.2625361426	0.0727794126	
657.5	-0.2325513708	0.1457483272	
658.125	0.3692886754	0.2379628868	
658.75	0.2323795302	-0.03258261206	
659.375	0.3715866797	0.09390291178	
660.0	0.3625060049	-0.4434095448	
660.625	-0.04732324536	-0.2326960648	
661.25	0.2983758568	-0.1884747977	
661.875	0.3020354075	-0.3680944178	
662.5	0.1526152541	-0.2171037716	
663.125	0.3877363708	-0.05915044992	
663.75	0.1749282505	-0.4258444452	
664.375	-0.0143616265	-0.2145969453	
665.0	-0.207207445	-0.3603387287	
665.625	-0.4284518923	0.1567589913	
666.25	-0.04179774206	0.1800351635	
666.875	0.01631409006	0.3117082675	
667.5	0.3512170239	0.0651600431	
668.125	0.09348453622	0.01170975882	
668.75	0.3468429719	-0.1304562449	
669.375	-0.02365635021	-0.2883893358	
670.0	0.1421853802	-0.1108018972	
670.625	0.07072958834	-0.3218546393	
671.25	-0.07403956225	-0.1582965473	
671.875	0.3250071323	-0.07842265109	
672.5	0.2706477408	-0.2653369193	
673.125	0.1280176616	-0.163871394	
673.75	0.2460878659	-0.1169688608	
674.375	0.09920481233	-0.4106151335	
675.0	-0.05615209412	-0.08588794196	
675.625	-0.09601029671	-0.2694561458	
676.25	-0.3086595941	-0.01092797413	
676.875	-0.03020287162	0.03815939699	
677.5	-0.2700421948	-0.1211556322	
678.125	-0.09879099743	0.2600514859	
678.75	-0.04118493122	0.09671512025	
679.375	0.2338872536	0.3508217011	
680.0	0.1708292814	-0.3150233211	
680.625	0.01615791836	0.2292739517	
681.25	0.2949098911	-0.0594837826	
681.875	0.02741594672	-0.07393741419	
682.5	0.09343222422	0.2947015486	
683.125	0.4996258715	-0.100075459	
683.75	0.07983070423	-0.04070185977	
684.375	0.3031973181	0.2541834161	
685.0	0.4160441656	-0.02481655058	
685.625	0.09292560977	-0.03784513749	
686.25	0.5077973078	0.07416359873	
686.875	0.3040991435	-0.3450950389	
687.5	0.2617678365	-0.1484422982	
688.125	0.1818625117	-0.561278511	
688.75	-0.5242940787	-0.1919125313	
689.375	-0.2190712436	0.08540710962	
690.0	-0.04819926616	0.5692760344	
690.625	0.3633400887	0.1662926184	
691.25	-0.08751315031	0.4200131901	
691.875	0.6854922686	0.5405809733	
692.5	0.5642065044	0.04511979776	
693.125	0.6399615823	0.2472793334	
693.75	0.8161903862	-0.3569359775	
694.375	0.2743293844	-0.4141258874	
695.0	0.5931517411	0.005388253677	
695.625	0.6855793127	-0.2019646533	
696.25	0.4212716603	0.04945216718	
696.875	0.4071225541	0.4824873409	
697.5	0.5853897185	0.6772620013	
698.125	0.4042393736	0.1015643051	
698.75	0.6771572812	-0.1674219044	
699.375	-0.326003354	-0.6626386479	
700.0	-0.1626578086	0.3451795917	
700.625	-0.1053585187	0.3155962549	
701.25	0.4325489794	0.1526904832	
701.875	0.06501144488	0.1244110796	
702.5	0.3328296357	0.4483919532	
703.125	0.5808665662	0.04245000391	
703.75	0.2244672774	-0.01704240433	
704.375	0.4609434658	-0.2070606118	
705.0	0.2334876089	-0.2699958375	
705.625	0.1138439482	0.08663654964	
706.25	0.3188569825	0.1910710025	
706.875	0.2712591897	0.1919505919	
707.5	0.4535161687	0.3040094579	
708.125	0.5552909202	0.280671539	
708.75	0.3720802402	-0.4314542839	
709.375	0.002536865375	-0.3050389656	
710.0	-0.4493037308	-0.04840450003	
710.625	0.1429550679	0.09918631884	
711.25	-0.07370040088	0.1861673711	
711.875	0.3788034692	0.1522461199	
712.5	0.1144723506	-0.02326969444	
713.125	0.4044263418	-0.06792273782	
713.75	0.1438595275	-0.3647314697	
714.375	-0.01956898649	-0.1343197159	
715.0	0.07325600164	-0.2639235011	
715.625	-0.1160680485	-0.2696618675	
716.25	0.1620045684	-0.08155774893	
716.875	0.4753672613	-0.1443860229	
717.5	0.4961427048	-0.2623960392	
718.125	0.5397374119	-0.06401087321	
718.75	1.102656627	0.01455646945	
719.375	0.5657283948	-0.6427849485	
720.0	0.4448384995	-0.3139566231	
720.625	1.068929795	-1.230243794	
721.25	-0.1800405935	-0.749005419	
721.875	0.4664215912	-0.8769055702	
722.5	-0.7512277769	-1.11100828	
723.125	-0.6655446747	0.1644842896	
723.75	-0.5814515497	0.101909374	
724.375	0.103789328	0.6682168441	
725.0	0.1221043479	0.2045687736	
725.625	-0.03828118132	0.6199196774	
726.25	0.2458624365	0.8608780049	
726.875	-0.05658245495	0.5867895463	
727.5	-0.755602358	1.381146157	
728.125	0.2540156684	2.491730271	
728.75	0.3704452834	2.007991658	
729.375	-2.83836886	3.685675019	
730.0	1.394219004	5.337898077	
730.625	0.2927728215	2.795406757	
731.25	-3.200421895	3.010647349	
731.875	-1.972593663	4.110317563	
732.5	-2.166986853	-0.5369065272	
733.125	-3.59929729	-1.153083822	
733.75	-0.8388574104	1.984130127	
734.375	0.4159832217	0.3031574059	
735.0	0.5055184536	-0.8534771983	
735.625	-0.4417102449	0.3711843572	
736.25	-0.4880849376	0.159051074	
736.875	0.4577066139	0.9623511942	
737.5	1.082091442	-0.197856694	
738.125	0.9053312764	0.4680685839	
738.75	3.345566597	-1.372056688	
739.375	1.107570651	-2.602147453	
740.0	1.457256304	1.099041456	
740.625	6.53849399	2.915243389	
741.25	2.691757668	-1.361278516	
741.875	-3.245389012	-4.122685465	
742.5	-3.902722003	-2.953425114	
743.125	-0.4084007263	-0.4974682678	
743.75	0.8939363573	-1.349090462	
744.375	-0.98165299	-0.06011413363	
745.0	0.05033153288	-0.01966203487	
745.625	0.2191102904	0.06383221614	
746.25	-0.04944731861	-0.07034862211	
746.875	-0.252992409	-0.1974478561	
747.5	-0.1736492	0.452903276	
748.125	0.1259893115	0.4452793194	
748.75	0.06964228984	0.5429583224	
749.375	0.1554999686	0.6445456189	
750.0	-0.1984310734	0.1964650817	
