!Created with skrf (http://scikit-rf.org).
# GHz S RI R (50+0j) 
!freq	ReS11	ImS11	
500.0	0.1552835785	-1.050716667	
500.625	0.3422870573	-0.9556990179	
501.25	-0.4471163127	-0.6848681711	
501.875	-0.2442933442	-0.4538548662	
502.5	-0.05308368395	-0.1289849121	
503.125	-0.07393967415	0.004128211084	
503.75	0.01436920128	0.0820122159	
504.375	0.03012855435	-0.006330047855	
505.0	0.02241515564	-0.02029336026	
505.625	0.003143543145	-0.05109540292	
506.25	-0.06305443086	-0.05063683629	
506.875	-0.1171667101	0.009835622125	
507.5	-0.08488921963	-0.3583218627	
508.125	0.1539380244	-0.6580827533	
508.75	0.5183381026	-1.039724606	
509.375	-0.2179912379	-1.119765999	
510.0	-0.3991837754	-0.3534398383	
510.625	-0.1751416398	-0.1369489195	
511.25	-0.132715571	-0.04644019489	
511.875	-0.140139628	-0.0274604643	
512.5	-0.04726556954	0.04222406079	
513.125	-0.02828298359	-0.0729646519	
513.75	-0.04821249721	-0.06107076198	
514.375	-0.05752835176	-0.03048381123	
515.0	-0.01034024226	-0.06058910147	
515.625	0.09159671156	-0.3912643038	
516.25	-0.2213844409	-0.8079508656	
516.875	-0.2358096169	-0.447772828	
517.5	-0.04265739983	-0.1688332569	
518.125	-0.02907927438	-0.03633064436	
518.75	-0.03861282919	-0.1372840148	
519.375	-0.04953339218	0.03861324785	
520.0	0.1139660312	0.06119810268	
520.625	0.1640590654	-0.05068048714	
521.25	-0.01655344052	-0.2653305228	
521.875	-0.1497622762	-0.0354581161	
522.5	-0.04512648096	0.02524358434	
523.125	-0.05720090696	0.03351147464	
523.75	-0.1140756401	-0.01904955965	
524.375	-0.1504689984	0.02918270715	
525.0	-0.0398489196	0.1453950935	
525.625	0.0297883509	0.05047206441	
526.25	-0.01725066603	-0.01858872675	
526.875	-0.04698091391	0.05278901887	
527.5	-0.05178762347	0.1917906243	
528.125	0.06608683243	0.254139404	
528.75	0.01886118947	0.2345633755	
529.375	0.04627060595	0.06240278023	
530.0	0.02906687568	0.1602909846	
530.625	0.09202765838	0.311600095	
531.25	0.4176456273	0.1203702755	
531.875	0.2328548576	-0.1631779715	
532.5	-0.05470264665	-0.1224667638	
533.125	0.06989561374	-0.04461964472	
533.75	0.1082487088	-0.1774492392	
534.375	-0.0577147032	-0.2885154013	
535.0	-0.23572149	-0.1275535662	
535.625	-0.1727759361	0.09649373359	
536.25	-0.00570642812	0.1001146191	
536.875	0.09641590581	0.01950185469	
537.5	0.07060893461	-0.04390642475	
538.125	0.1167110029	-0.06368445647	
538.75	0.1326676125	-0.1225224458	
539.375	-0.0769175589	-0.1745918796	
540.0	-0.1676557551	-0.1553789841	
540.625	-0.1665681901	-0.03169999746	
541.25	-0.09186322537	0.0009538027385	
541.875	-0.04336854975	-0.02407064817	
542.5	-0.04640029915	-0.05845401181	
543.125	-0.07914071559	-0.04949354058	
543.75	-0.09069301712	-0.007037975085	
544.375	-0.04866750636	0.043390425	
545.0	-0.008188813163	0.06037186077	
545.625	0.05276108692	0.06774862772	
546.25	0.09841194465	0.04256841132	
546.875	0.1256103321	-0.02253356379	
547.5	0.07472343097	-0.1267119189	
548.125	-0.04102546232	-0.171665504	
548.75	-0.1260570777	-0.1227914627	
549.375	-0.1138233992	-0.07496695177	
550.0	-0.0804159853	0.004889126944	
550.625	-0.05491015519	0.005284900735	
551.25	-0.08292880091	0.02464170687	
551.875	-0.07947624542	0.06881479306	
552.5	-0.04859316227	0.07613906405	
553.125	-0.01879489238	0.06681561979	
553.75	0.04625761296	0.05097830228	
554.375	0.100298304	0.004216374349	
555.0	0.1104499793	-0.07527004812	
555.625	0.09394879238	-0.1129333172	
556.25	0.07612916205	-0.1460973591	
556.875	-0.03483571012	-0.1739811293	
557.5	-0.1052818661	-0.1100974125	
558.125	-0.1217601076	-0.04452500748	
558.75	-0.1185932788	-0.009167788734	
559.375	-0.1235321212	0.01939800366	
560.0	-0.10487211	0.08303959928	
560.625	-0.05696195225	0.1145763509	
561.25	0.003074964114	0.1034166541	
561.875	0.02589264534	0.05197026256	
562.5	0.01224796495	0.06071773265	
563.125	0.07511278179	0.07839740296	
563.75	0.1476862653	0.006093862257	
564.375	0.137595094	-0.09426771042	
565.0	0.08429688679	-0.1500039815	
565.625	-0.02306065916	-0.1681976872	
566.25	-0.1160688505	-0.1230060698	
566.875	-0.1474045946	-0.08969529549	
567.5	-0.1489892674	-0.117887548	
568.125	-0.1531039221	-0.1662709046	
568.75	-0.2360567622	-0.0856946295	
569.375	-0.2478398144	0.09788010266	
570.0	-0.1313280934	0.2090685729	
570.625	-0.05806398845	0.184423781	
571.25	0.005113538972	0.1225408161	
571.875	0.05856760407	0.07702013339	
572.5	0.1292806072	0.002220506486	
573.125	0.09445889418	-0.1128737889	
573.75	0.04612561981	-0.1131699702	
574.375	0.01077832584	-0.06908451497	
575.0	0.02932389982	-0.03580807402	
575.625	0.04503045583	-0.07163712372	
576.25	0.04905874842	-0.1114664306	
576.875	-0.003027385097	-0.1490511009	
577.5	-0.002712971522	-0.1652898359	
578.125	-0.04734048654	-0.1648262882	
578.75	-0.08845820659	-0.1254932548	
579.375	-0.0911450016	-0.06626572511	
580.0	-0.052353097	-0.03010069837	
580.625	-0.06919947625	-0.03245622958	
581.25	-0.1087700106	0.07111262147	
581.875	-0.0006533912382	0.1601794281	
582.5	0.05580003073	0.1435965884	
583.125	0.07619886227	0.07777296251	
583.75	0.03710623651	0.02275280648	
584.375	0.03042897685	0.06472167652	
585.0	0.1139395968	0.06963289699	
585.625	0.1617666205	0.007681234112	
586.25	0.1605941737	-0.05918770826	
586.875	0.08452155401	-0.1360493971	
587.5	-0.004184246549	-0.1472372741	
588.125	-0.01164059594	-0.1478565007	
588.75	0.03870897849	-0.152152676	
589.375	0.07268399019	-0.1611961316	
590.0	-0.05185278941	-0.1890036848	
590.625	-0.1920990558	-0.0577770753	
591.25	-0.1453059108	0.1088576752	
591.875	-0.04145484184	0.1248467284	
592.5	0.005345747424	0.05366434087	
593.125	-0.03370960625	0.0557834047	
593.75	0.05471988088	0.129322341	
594.375	0.1605783678	0.1082131978	
595.0	0.1810276557	0.1040121271	
595.625	0.1829336484	0.08308678889	
596.25	0.1710127914	0.04642197846	
596.875	0.1692120793	0.03946828965	
597.5	0.157355764	0.08889559407	
598.125	0.1547986013	0.124077207	
598.75	0.1830797518	0.09662726135	
599.375	0.2244514223	-0.02644622184	
600.0	0.1779019117	-0.1452893589	
600.625	0.1441864767	-0.1840619109	
601.25	0.06462736358	-0.1989011102	
601.875	-0.0791231252	-0.148549716	
602.5	-0.1327612056	-0.02298968344	
603.125	-0.115658125	0.0447622848	
603.75	-0.1131599433	0.07049523802	
604.375	-0.1024998979	0.07607731443	
605.0	-0.07246760684	0.07908742855	
605.625	-0.07548739976	0.0614698239	
606.25	-0.1181771293	0.06428296582	
606.875	-0.1802678597	0.08854886274	
607.5	-0.1720067599	0.1862214745	
608.125	-0.03433992355	0.2595639554	
608.75	0.1880310385	0.1878780131	
609.375	0.251976732	-0.02515447255	
610.0	0.1818247914	-0.1252430288	
610.625	0.09614515533	-0.1688346334	
611.25	0.01208915492	-0.1710180171	
611.875	-0.08806881588	-0.1363621009	
612.5	-0.1746099958	-0.07404681744	
613.125	-0.2047893725	0.03330155263	
613.75	-0.1019912313	0.1509873048	
614.375	0.04371975792	0.118918619	
615.0	0.04200521093	0.05061354896	
615.625	-0.004445946272	0.09168905266	
616.25	-0.04464998235	0.1541572634	
616.875	-0.08824915881	0.1995384444	
617.5	-0.07512509173	0.2324012557	
618.125	-0.02289191804	0.2259697305	
618.75	0.01739828537	0.2056596668	
619.375	0.08952893431	0.1775371855	
620.0	0.1984204092	0.06115311264	
620.625	0.1283078839	-0.1569779623	
621.25	-0.08153714231	-0.2007828698	
621.875	-0.2124286644	-0.1022362063	
622.5	-0.2320884969	0.05262886357	
623.125	-0.05284047407	0.1947481908	
623.75	0.1364330029	0.05280244213	
624.375	0.04635619503	-0.05254084476	
625.0	0.04546523673	-0.02660903436	
625.625	0.05799843261	-0.0943545876	
626.25	-0.04785009711	-0.1475131504	
626.875	-0.1466774006	-0.09228912645	
627.5	-0.1542452995	-0.04528372834	
628.125	-0.1171324864	-0.07291596569	
628.75	-0.07686847251	-0.1298433123	
629.375	-0.09321403746	-0.1634665756	
630.0	-0.193901453	-0.1140447349	
630.625	-0.2394777603	0.05689014297	
631.25	-0.1621962044	0.1992053579	
631.875	-0.03925829284	0.2600150675	
632.5	0.1400743238	0.2183620021	
633.125	0.2185796477	0.07198200406	
633.75	0.1854049735	-0.05846179455	
634.375	0.07949810962	-0.139796343	
635.0	-0.002240090797	-0.162000248	
635.625	-0.1491893988	-0.1081088658	
636.25	-0.1734727459	0.06590740668	
636.875	-0.07599486028	0.1324490514	
637.5	-0.04443315462	0.09387765826	
638.125	-0.07489771793	0.08917682872	
638.75	-0.08556294617	0.1715339814	
639.375	-0.01573143477	0.2631055006	
640.0	0.1317606825	0.2675811839	
640.625	0.2434878859	0.1741246907	
641.25	0.2960811044	0.01977199455	
641.875	0.2017877249	-0.1812805764	
642.5	0.01179866472	-0.2284622127	
643.125	-0.1185027993	-0.1404779863	
643.75	-0.1375228341	-0.08736720772	
644.375	-0.1881499769	-0.01230691132	
645.0	-0.165653833	0.1540956967	
645.625	0.04407983532	0.2287674023	
646.25	0.1692397261	0.0909637106	
646.875	0.1056756387	-0.01198303787	
647.5	0.05787661674	0.03901003514	
648.125	0.1657504868	0.06557090165	
648.75	0.2790365146	-0.05683952593	
649.375	0.2481831848	-0.2419840848	
650.0	0.1869262259	-0.3120892126	
650.625	0.1758864039	-0.2951340926	
651.25	0.2194768013	-0.2409949967	
651.875	0.2756407684	-0.1617172115	
652.5	0.2982761194	-0.08268934817	
653.125	0.296945352	-0.09096838873	
653.75	0.2327932676	-0.2201981261	
654.375	-0.01955017397	-0.3278106373	
655.0	-0.2887691217	-0.1392937966	
655.625	-0.2124185549	0.1729226973	
656.25	0.01649408225	0.1864075422	
656.875	0.04636267878	0.07814604966	
657.5	0.02926153907	0.1165550483	
658.125	0.1363251156	0.1813009552	
658.75	0.3034473718	0.1122612606	
659.375	0.3587354668	-0.1235394109	
660.0	0.2584948073	-0.2963126505	
660.625	0.1679765551	-0.3365233	
661.25	0.186026551	-0.3046571506	
661.875	0.2405833658	-0.2537540619	
662.5	0.2908392792	-0.1940132851	
663.125	0.2920748621	-0.1857205353	
663.75	0.19803928	-0.2832791475	
664.375	-0.008834250415	-0.355343769	
665.0	-0.2635385964	-0.2464577792	
665.625	-0.3426965117	0.05730889682	
666.25	-0.137086248	0.2787750837	
666.875	0.1005889579	0.2317085387	
667.5	0.1864306626	0.1217922331	
668.125	0.2350311129	0.006431179885	
668.75	0.2167075862	-0.1296782177	
669.375	0.1229527284	-0.2275148011	
670.0	0.02245914577	-0.2342846948	
670.625	0.0205773389	-0.2000963622	
671.25	0.07240894383	-0.1859608464	
671.875	0.1516598979	-0.1708327204	
672.5	0.2241187665	-0.1425890904	
673.125	0.2330871504	-0.1662902681	
673.75	0.1898345282	-0.2144365775	
674.375	0.085517623	-0.271808389	
675.0	-0.06608337431	-0.263622284	
675.625	-0.1823347849	-0.1593771289	
676.25	-0.1923331255	-0.05062196146	
676.875	-0.157732185	-0.009095118697	
677.5	-0.1662654205	0.003226205271	
678.125	-0.1727222845	0.1264253897	
678.75	0.001870420816	0.2425645618	
679.375	0.2065695282	0.1117982277	
680.0	0.1712194785	-0.08008003894	
680.625	0.07546139352	-0.08023761613	
681.25	0.09539331269	-0.002777312337	
681.875	0.1614622353	0.0585061324	
682.5	0.2057067287	0.1025092067	
683.125	0.2532897711	0.1025983676	
683.75	0.275051795	0.09224983365	
684.375	0.2842772231	0.06285015804	
685.0	0.2938155877	0.06873337928	
685.625	0.3079418552	0.02918085925	
686.25	0.3143257424	-0.01075035683	
686.875	0.3440950032	-0.1161999907	
687.5	0.3088842333	-0.2748937902	
688.125	0.04576811321	-0.4604370279	
688.75	-0.4021706017	-0.2752126621	
689.375	-0.3533524754	0.2813715274	
690.0	0.04441923654	0.3844222751	
690.625	0.2248027408	0.2953807394	
691.25	0.3047732994	0.3129041871	
691.875	0.4567729767	0.3631179996	
692.5	0.6160546304	0.2592168822	
693.125	0.6966163974	0.0296185308	
693.75	0.6381853228	-0.2177395406	
694.375	0.4846920058	-0.3779740659	
695.0	0.5001463534	-0.2708475136	
695.625	0.5322144268	-0.05969909518	
696.25	0.5062021597	0.2259007966	
696.875	0.3795654082	0.4481935903	
697.5	0.3337301086	0.5341136336	
698.125	0.5640329322	0.334434764	
698.75	0.5414094916	-0.3326379727	
699.375	-0.3260962333	-0.4837592082	
700.0	-0.3586282457	0.2978641734	
700.625	0.108189763	0.3314138176	
701.25	0.2108652707	0.2164397398	
701.875	0.2606065023	0.2621062058	
702.5	0.3441798155	0.2787269862	
703.125	0.4363355014	0.1513459873	
703.75	0.4074495513	-0.07507639573	
704.375	0.3026496349	-0.1873013741	
705.0	0.2563183368	-0.1271443418	
705.625	0.2807967599	0.01136702524	
706.25	0.2529852851	0.1976856973	
706.875	0.2276298685	0.3263409317	
707.5	0.2353653134	0.3865629283	
708.125	0.4459928181	0.2118215994	
708.75	0.3709585859	-0.2930971938	
709.375	-0.2155680008	-0.3600374975	
710.0	-0.2352534924	0.1770301019	
710.625	0.03463691119	0.1783363101	
711.25	0.07178582441	0.1327510299	
711.875	0.2067482093	0.1550298105	
712.5	0.3217759882	0.01696564644	
713.125	0.3017745593	-0.1489040177	
713.75	0.1633138446	-0.2476929112	
714.375	0.03995808956	-0.2462718945	
715.0	-0.01650693885	-0.216208418	
715.625	0.03472378031	-0.2185940602	
716.25	0.1766903948	-0.2460213732	
716.875	0.3500826501	-0.1618903031	
717.5	0.5437072727	0.01564695596	
718.125	0.6841847461	0.1122745482	
718.75	0.7990949425	0.01520149331	
719.375	0.8286117099	-0.3306492876	
720.0	0.6377439015	-0.7344402333	
720.625	0.4078107989	-0.9301130404	
721.25	0.1116267376	-1.016992255	
721.875	-0.06473080839	-1.093244567	
722.5	-0.5275254916	-0.8774346093	
723.125	-0.7823129527	-0.2835319346	
723.75	-0.4836631265	0.3859922585	
724.375	-0.03230718691	0.4671729127	
725.0	0.1467370727	0.3998019892	
725.625	0.1501216246	0.4680542507	
726.25	0.009448160582	0.6941873048	
726.875	-0.1423074842	0.9539608086	
727.5	-0.2634233946	1.377908618	
728.125	-0.2316288081	2.010037499	
728.75	-0.4630933681	2.795480444	
729.375	-1.04934381	3.430847018	
730.0	-0.7222600579	3.826946073	
730.625	-0.5957119982	4.183807067	
731.25	-1.601042554	3.400610082	
731.875	-2.797392817	2.424630276	
732.5	-3.58428655	0.3370709254	
733.125	-2.552900917	0.00487700567	
733.75	-1.153394772	1.160359646	
734.375	0.7538727704	0.6335546202	
735.0	0.1321169418	-0.6142711151	
735.625	-0.5049872029	0.03288162857	
736.25	-0.1381830625	0.5193535249	
736.875	0.3561102866	0.6320619489	
737.5	1.044272253	0.3214880003	
738.125	1.515605885	-0.2259701908	
738.75	1.830779792	-1.025561801	
739.375	2.256457859	-1.333961072	
740.0	2.641708621	-1.22111058	
740.625	2.930536901	0.3226158218	
741.25	0.2594305269	2.169805488	
741.875	-2.893186464	-0.08986937893	
742.5	-1.337867057	-2.00545588	
743.125	0.2852682184	-1.952717795	
743.75	0.1122481664	-1.178416274	
744.375	-0.3894941672	-0.2083190242	
745.0	0.03009038509	0.1427661167	
745.625	0.05611829511	0.002819047051	
746.25	0.007143056621	-0.1410297564	
746.875	-0.2352308476	-0.00815717464	
747.5	-0.1667276503	0.323202687	
748.125	0.03088317017	0.5140521306	
748.75	0.2332621773	0.5229052286	
749.375	0.1094887373	0.4983435123	
750.0	-0.4092788714	0.1900936453	
