!Created with skrf (http://scikit-rf.org).
# GHz S RI R (50+0j) 
!freq	ReS11	ImS11	
500.0	-0.4455085484	-1.334649305	
500.625	0.2461273553	-0.2701323966	
501.25	-0.4645484095	-0.7957669971	
501.875	-0.2941311786	-0.07995755855	
502.5	0.01192071036	-0.1249071189	
503.125	-0.0840527837	0.02390452249	
503.75	-0.0135473769	-0.0008630772004	
504.375	0.04629171907	0.01342178386	
505.0	-0.008235819059	-0.03299458901	
505.625	0.04529928719	-0.03384353265	
506.25	-0.1379658813	-0.04486472266	
506.875	0.08592820864	-0.07960917665	
507.5	-0.2904189355	-0.5417213789	
508.125	-0.1180206896	-0.2863592647	
508.75	0.8040151829	-0.9309412443	
509.375	-0.2358633188	-1.281514246	
510.0	-0.1730596367	-0.07445828831	
510.625	-0.01282740293	-0.2092895692	
511.25	-0.08781198582	-0.01806677514	
511.875	-0.05441020153	-0.03237001644	
512.5	-0.04006662776	0.03840253937	
513.125	-0.01740151127	-0.04597294707	
513.75	0.03263392008	-0.05778733235	
514.375	-0.1328587069	-0.03558182004	
515.0	0.3268732042	0.08059825743	
515.625	-0.3561393769	-0.4439212761	
516.25	0.03337401611	-0.1387468844	
516.875	0.0598777396	-0.4817441281	
517.5	-0.1448842035	-0.1741471939	
518.125	0.02581008832	-0.002958834473	
518.75	-0.1032013635	-0.2032163441	
519.375	-0.01433909948	0.04507822987	
520.0	0.06151157903	0.06843698463	
520.625	0.1562452537	-0.05697556559	
521.25	-0.1139442103	-0.2035441891	
521.875	-0.04471194846	-0.03681721619	
522.5	-0.08364860873	-0.001084552808	
523.125	0.06203867548	0.03752677939	
523.75	-0.1331589683	-0.1444270277	
524.375	-0.1407771666	0.1669505797	
525.0	-0.04330675027	-0.02187803258	
525.625	0.02842160762	0.140509966	
526.25	-0.002749459265	-0.1029824842	
526.875	-0.06889082127	0.1126489093	
527.5	0.02464925383	0.08374339294	
528.125	0.01379513057	0.2702393734	
528.75	0.05087427024	0.2593514642	
529.375	0.02750250805	-0.0388503803	
530.0	-0.0007658684678	0.2602473758	
530.625	0.07908586406	0.4263969305	
531.25	0.2521542895	0.1615110549	
531.875	0.3275212705	-0.2167245522	
532.5	-0.1301793206	0.002859939134	
533.125	0.1991339379	0.01143577511	
533.75	-0.01477014199	-0.157790127	
534.375	0.05111390742	-0.2137170915	
535.0	-0.2755106314	-0.1471696087	
535.625	-0.07572819556	0.1201367361	
536.25	-0.03060751027	0.07535424749	
536.875	0.1156297011	-0.0005192302857	
537.5	0.01989535513	-0.02369255204	
538.125	0.1274014274	-0.05433919518	
538.75	0.05526216636	-0.1435993138	
539.375	-0.01927141183	-0.109942261	
540.0	-0.1524220735	-0.1744841671	
540.625	-0.2013091827	-0.04124220667	
541.25	-0.04596550152	-0.01864830969	
541.875	-0.07940907124	-0.05729959973	
542.5	0.00995193019	-0.0184879689	
543.125	-0.008842009061	-0.1398273394	
543.75	-0.0958863206	0.04681234259	
544.375	-0.05684435947	-0.01540981588	
545.0	0.0007611430709	0.1188424351	
545.625	0.03511421801	-0.01328694017	
546.25	0.09075910136	0.1043997499	
546.875	0.1127014752	-0.07920933316	
547.5	0.0496185356	-0.05425797078	
548.125	-0.005210425106	-0.2036497497	
548.75	-0.1499435737	-0.06046557026	
549.375	-0.04955860746	-0.06757622074	
550.0	-0.1132107116	0.004051430565	
550.625	-0.01449136608	0.01903271887	
551.25	-0.09611237976	0.00731896819	
551.875	-0.03914288281	0.08310100355	
552.5	-0.04319596807	0.04218749566	
553.125	-0.02614848033	0.07569756277	
553.75	0.03763969701	0.03275316285	
554.375	0.09057647386	0.005228529537	
555.0	0.08948250968	-0.07354673026	
555.625	0.07361385306	-0.09185052393	
556.25	0.06463259194	-0.1272999631	
556.875	-0.03453023955	-0.147459094	
557.5	-0.09108536507	-0.09156510077	
558.125	-0.1037195538	-0.03723849354	
558.75	-0.1060972502	-0.003089956076	
559.375	-0.09667820183	0.02706463764	
560.0	-0.08941272643	0.05745924619	
560.625	-0.05506018841	0.1192932328	
561.25	0.02506289088	0.07652824286	
561.875	0.002222882563	0.0563691416	
562.5	0.04274012536	0.0378237756	
563.125	0.02996788361	0.0709276866	
563.75	0.1641502296	0.001347850825	
564.375	0.07705921392	-0.09379133853	
565.0	0.09970666203	-0.1004766399	
565.625	-0.05922846631	-0.1958535112	
566.25	-0.07977942379	-0.05791399733	
566.875	-0.1141370918	-0.1236830184	
567.5	-0.1922882118	-0.05407304385	
568.125	-0.07047659398	-0.1165962881	
568.75	-0.2983558957	-0.1256696047	
569.375	-0.1620907891	0.1613710528	
570.0	-0.1214512599	0.1096393693	
570.625	-0.08470183273	0.2275313126	
571.25	0.06942771538	0.03836439775	
571.875	0.004257216204	0.1319757781	
572.5	0.1363371422	-0.08990368678	
573.125	0.04533516066	-0.02190897996	
573.75	0.1267334158	-0.1766964635	
574.375	-0.08240684246	-0.0731224528	
575.0	0.0973072074	0.02036350015	
575.625	-0.007788088704	-0.1362589853	
576.25	0.0128804816	-0.02198592671	
576.875	0.05208951475	-0.1823117869	
577.5	-0.1002018894	-0.2003770857	
578.125	-0.02010156518	-0.04070028832	
578.75	-0.01396290012	-0.2191616289	
579.375	-0.1956711899	-0.03399467767	
580.0	0.07299756741	-0.02084522745	
580.625	-0.1582009546	-0.04741720148	
581.25	0.06285992206	0.01486297216	
581.875	-0.1168070091	0.1235710197	
582.5	0.1095605579	0.2133555437	
583.125	0.0669926839	-0.04265684556	
583.75	0.01737294769	0.1350339212	
584.375	0.08780753341	-0.03442717362	
585.0	0.01655343921	0.1139800503	
585.625	0.233490772	-0.01071107513	
586.25	0.04079825396	-0.07403499055	
586.875	0.1291626564	-0.05799833308	
587.5	-0.04222727663	-0.2023329995	
588.125	-0.04256122941	-0.0410965824	
588.75	0.1236634028	-0.1392019896	
589.375	-0.003410597738	-0.2122398066	
590.0	-0.009690912339	-0.07792809843	
590.625	-0.2271568682	-0.1474497592	
591.25	-0.02545042729	0.2133441221	
591.875	-0.04464406305	0.002989657496	
592.5	-0.02838876383	0.1451857937	
593.125	-0.02635756623	-0.08401513302	
593.75	0.0888192734	0.2461592143	
594.375	0.1772294058	-0.01417804376	
595.0	0.06369075958	0.08402010483	
595.625	0.2268605334	0.09839680575	
596.25	0.1129929826	-0.04991081245	
596.875	0.1170577165	0.1111999466	
597.5	0.2193205862	0.07805411089	
598.125	0.09604159251	0.02892872932	
598.75	0.1702187839	0.1010931322	
599.375	0.2465307999	-0.07368556552	
600.0	0.0723280245	-0.1144577837	
600.625	0.180054878	-0.1142643579	
601.25	0.0479517434	-0.2548063775	
601.875	-0.0847474016	-0.03807905912	
602.5	-0.1214523552	-0.1153190753	
603.125	-0.07089400769	0.1591629957	
603.75	-0.03791196001	-0.02109251598	
604.375	-0.2154646864	0.1823269405	
605.0	0.0454481858	0.1279559743	
605.625	-0.09373935772	-0.05533486954	
606.25	-0.1436748038	0.1535085761	
606.875	-0.1701064775	-0.009422722614	
607.5	-0.2272032587	0.1350180365	
608.125	0.0249402298	0.2749284748	
608.75	0.1208873011	0.1081440552	
609.375	0.1878987077	-0.06587993339	
610.0	0.1434268867	-0.1795302981	
610.625	0.02636709919	-0.06520437825	
611.25	0.08952617785	-0.2135681129	
611.875	-0.1960233194	-0.1113551668	
612.5	-0.05525164463	-0.08257886163	
613.125	-0.2776100616	0.01626242138	
613.75	0.04377019515	0.1776535852	
614.375	-0.08176113433	0.07051435794	
615.0	0.1433297042	0.06425145102	
615.625	-0.04326750115	-0.03142790165	
616.25	-0.0385040666	0.2102534933	
616.875	0.03660854789	0.2019885486	
617.5	-0.08922419507	0.09022057346	
618.125	-0.07216386337	0.2696358164	
618.75	-0.02556060253	0.2008413403	
619.375	0.05631853988	0.1152917479	
620.0	0.2409281173	0.07551831483	
620.625	0.01680479378	-0.1409354732	
621.25	-0.01287909357	-0.1315453109	
621.875	-0.2203517714	-0.1652004515	
622.5	-0.1485543731	0.1285828851	
623.125	-0.07868794026	0.09905836706	
623.75	0.1845036654	0.1109606569	
624.375	-0.03881560359	-0.07323120832	
625.0	0.1115143892	-0.0002686785445	
625.625	-0.0345142251	-0.1126089159	
626.25	0.03133730099	-0.09155503801	
626.875	-0.1776343453	-0.1365996795	
627.5	-0.1389038711	-0.008365569625	
628.125	-0.0365062035	-0.09859711868	
628.75	-0.138285029	-0.1703562396	
629.375	-0.07932455381	-0.07424417817	
630.0	-0.1178198084	-0.07740457766	
630.625	-0.2335825678	0.06744429126	
631.25	-0.05822952339	0.2206405332	
631.875	-0.09465392605	0.2302374767	
632.5	0.2087096904	0.3146044409	
633.125	0.1705413459	-0.008629909565	
633.75	0.1675364172	0.0153831744	
634.375	0.05826199289	-0.2382786333	
635.0	-0.004750539615	-0.03091229621	
635.625	-0.1371769616	-0.2061421457	
636.25	-0.1482878682	0.1448193925	
636.875	-0.02499849203	0.04219197342	
637.5	-0.1219066595	0.1289383179	
638.125	0.05204038804	0.07640102056	
638.75	-0.1574699245	0.1179027024	
639.375	0.05151478072	0.3068645888	
640.0	0.1352683706	0.1272462158	
640.625	0.1328009222	0.1762039412	
641.25	0.3519369841	-0.01412690464	
641.875	0.05988840916	-0.1460299694	
642.5	0.09585099836	-0.1733457167	
643.125	-0.2496101844	-0.315444384	
643.75	-0.05357792471	0.04514821097	
644.375	-0.2385888794	-0.07213174673	
645.0	-0.08242358351	0.2397054619	
645.625	-0.03685312533	-0.007994824978	
646.25	0.196779146	0.2356916725	
646.875	0.08805449209	-0.1763092117	
647.5	0.001067129043	0.2275611787	
648.125	0.2346164965	-0.05909613101	
648.75	0.06932703338	-0.05868043708	
649.375	0.3644953567	-0.1406786234	
650.0	0.05592238475	-0.4613781497	
650.625	0.06233567363	-0.1247406468	
651.25	0.3411207723	-0.1998191443	
651.875	0.1945525621	-0.3018114881	
652.5	0.1406151721	0.02561096808	
653.125	0.384906834	-0.07282446365	
653.75	0.09430728322	-0.3510719552	
654.375	0.03158342034	-0.1710078232	
655.0	-0.3332686271	-0.3021621604	
655.625	-0.09240210692	0.3048684283	
656.25	-0.06400211766	-0.0692773215	
656.875	0.04521934794	0.2537087045	
657.5	0.02257750606	-0.06885580612	
658.125	0.07185171409	0.3335431222	
658.75	0.3806080128	-0.09784422267	
659.375	0.1460845986	-0.08489872146	
660.0	0.3265585602	-0.1877030416	
660.625	0.07741756597	-0.4698366078	
661.25	0.0422707787	-0.1054083637	
661.875	0.3324208148	-0.2168585814	
662.5	0.2151946897	-0.2876071631	
663.125	0.1490020813	-0.09366434424	
663.75	0.2922731139	-0.2966869636	
664.375	-0.1461187554	-0.3069618136	
665.0	-0.1316137732	-0.159571824	
665.625	-0.3730252212	-0.001042618398	
666.25	-0.02556692705	0.3151262214	
666.875	0.01893206072	0.1159373566	
667.5	0.2646210307	0.2177807873	
668.125	0.1543770162	-0.1222683383	
668.75	0.2051526217	0.02596147574	
669.375	0.149052379	-0.3583053394	
670.0	-0.09549138474	-0.05951345595	
670.625	0.1162229968	-0.1478886793	
671.25	-0.03273974515	-0.2729854236	
671.875	0.01568835909	-0.07110503711	
672.5	0.2919565287	-0.05927302958	
673.125	0.1728763598	-0.2670484175	
673.75	0.1043536385	-0.1115348422	
674.375	0.1602707585	-0.2511831909	
675.0	-0.2241357028	-0.2171428252	
675.625	-0.04242984319	-0.05860442752	
676.25	-0.2294111831	-0.1275307402	
676.875	-0.1464689195	0.1075068596	
677.5	-0.03028976078	-0.05202165673	
678.125	-0.2567984183	0.1670963569	
678.75	0.2133581303	0.1418410367	
679.375	0.0121913663	0.1089665424	
680.0	0.2935392676	-0.06667794244	
680.625	-0.1400238909	-0.1366084604	
681.25	0.2454258833	0.1991138403	
681.875	0.2289304467	-0.1062912747	
682.5	-0.006816848261	0.05647510817	
683.125	0.3335968705	0.2505511223	
683.75	0.3949771742	-0.1037510896	
684.375	0.1314173672	0.2361507233	
685.0	0.3783588632	0.1391134194	
685.625	0.3026653765	-0.1235579867	
686.25	0.1049812758	0.05860723483	
686.875	0.43007275	-0.2166445455	
687.5	0.05837895859	-0.2694496913	
688.125	0.1421746005	-0.3151056749	
688.75	-0.4580343812	-0.3013959082	
689.375	-0.1515214419	0.3823725571	
690.0	-0.111142678	0.2350683628	
690.625	0.3535802408	0.3472564256	
691.25	0.2117744044	0.01061246324	
691.875	0.2578294715	0.4977581585	
692.5	0.756669378	0.01120612439	
693.125	0.3298841753	-0.05608658696	
693.75	0.6169956542	-0.05910858778	
694.375	0.4654746184	-0.5359257556	
695.0	0.3552189374	-0.03501219063	
695.625	0.6001434653	0.1070933507	
696.25	0.5445975789	-0.01338459474	
696.875	0.3552657373	0.4161501708	
697.5	0.2382616129	0.5562427028	
698.125	0.4690905672	0.3612140263	
698.75	0.2907394619	-0.1954758737	
699.375	-0.2416224516	-0.5037110466	
700.0	-0.3458842411	0.4113042975	
700.625	0.08202552831	0.1281523854	
701.25	0.2174979694	0.3512389806	
701.875	0.3388572557	0.04428764066	
702.5	0.1399991227	0.2554459645	
703.125	0.4950363428	0.1833630463	
703.75	0.3076906908	-0.2642232869	
704.375	0.2898226568	-0.03684471556	
705.0	0.3719507578	-0.1649349365	
705.625	0.1633171536	0.05071967057	
706.25	0.1667800098	0.2830598753	
706.875	0.3706701317	0.3525759327	
707.5	0.182232826	0.3008946454	
708.125	0.3439496079	0.06084076176	
708.75	0.3347125865	-0.3364627618	
709.375	-0.259364546	-0.1545739429	
710.0	-0.009703791952	0.01656392135	
710.625	0.1259572	0.2339165845	
711.25	0.004012234633	0.02743902993	
711.875	0.2124390161	0.2137720589	
712.5	0.2989167437	-0.1652773713	
713.125	0.1536846062	-0.0387908757	
713.75	0.2240480982	-0.2669719537	
714.375	-0.08683630918	-0.2456795114	
715.0	0.02845005254	-0.1056741514	
715.625	0.07001512364	-0.3168823034	
716.25	0.07409531991	-0.2329490227	
716.875	0.315178849	-0.03523307334	
717.5	0.6552024172	-0.05604575451	
718.125	0.6477158612	-0.02092396871	
718.75	0.5400757554	0.03908844234	
719.375	1.092932016	-0.2479153834	
720.0	0.2975225632	-0.7016039721	
720.625	0.577935534	-0.4216028464	
721.25	-0.08810976647	-1.426258967	
721.875	-0.2909917476	-0.5049568673	
722.5	-0.3913028949	-0.8967319373	
723.125	-0.8583795884	-0.0608907325	
723.75	-0.09715143321	0.3065696705	
724.375	-0.2132609124	0.4761244682	
725.0	0.3752322067	0.3020170558	
725.625	0.003109431146	0.2561321847	
726.25	-0.05874383482	0.7515144975	
726.875	0.1506041443	0.9619295428	
727.5	-0.1432846158	0.7152623193	
728.125	-0.4609770612	2.033740066	
728.75	0.4073010247	2.827331699	
729.375	-0.2236955456	1.827493357	
730.0	-1.712312795	4.092328343	
730.625	0.9126417214	3.578764567	
731.25	-0.7510261903	1.369842863	
731.875	-3.235239748	2.565203299	
732.5	-2.858094949	3.353301563	
733.125	-1.195662061	-0.4010025707	
733.75	-1.421799058	1.522127578	
734.375	0.9169216691	0.06176539726	
735.0	0.1807022236	-0.2492446955	
735.625	-0.7513025057	-0.004220466371	
736.25	0.3377763626	0.1719486669	
736.875	0.01959019305	0.6797816987	
737.5	1.246586747	0.06269626889	
738.125	0.7041365221	-0.6658418992	
738.75	1.448203576	0.2765069291	
739.375	2.948181398	-2.270882733	
740.0	-0.2864620774	-2.355327315	
740.625	0.962615872	2.512839	
741.25	3.575729095	4.024658232	
741.875	1.654668626	0.1096473755	
742.5	-0.8101666932	-3.946328181	
743.125	-0.6425108842	-1.909804473	
743.75	0.09669738389	-0.3596997202	
744.375	-0.4451188051	-0.4792931309	
745.0	0.2927827728	0.09239708137	
745.625	0.0222802567	0.1137309774	
746.25	-0.05717496223	-0.1620547435	
746.875	-0.05036371992	0.008841940176	
747.5	-0.2194558325	0.2930768724	
748.125	0.2745288976	0.469623506	
748.75	0.1988689918	0.262365143	
749.375	-0.01154572024	0.4272040676	
750.0	-0.2782102505	0.3040558759	
