!Created with skrf (http://scikit-rf.org).
# GHz S RI R (50+0j) 
!freq	ReS11	ImS11	
500.0	0.02920493422	-0.3967910747	
500.625	0.6618567111	-1.028793478	
501.25	-0.7941036873	-0.4837374565	
501.875	0.01497555302	-0.2068478789	
502.5	-0.06016253091	-0.2032719914	
503.125	-0.02980601061	0.03313226702	
503.75	-0.03833774923	0.06785132093	
504.375	0.0359567951	-0.02635788137	
505.0	0.03109737774	0.0172081404	
505.625	-0.01424211035	-0.08849154264	
506.25	0.004170978104	0.03935364184	
506.875	-0.2205540793	-0.1689770319	
507.5	-0.3126124037	-0.05382529015	
508.125	0.4251852952	-0.4478014773	
508.75	0.7106092163	-1.153537494	
509.375	-0.2360929946	-0.9128183561	
510.0	-0.1846440219	-0.5005649173	
510.625	-0.2087622398	-0.2131797212	
511.25	-0.01097686388	0.02734917308	
511.875	-0.1336529219	-0.1308247554	
512.5	-0.01804958196	0.05947439469	
513.125	0.007111275255	-0.02008903633	
513.75	-0.05275491307	-0.1002660372	
514.375	-0.03426533808	0.1044104093	
515.0	0.1918474199	-0.1811361007	
515.625	-0.1068937647	0.249659214	
516.25	0.3566951944	-0.5252023547	
516.875	-0.3539096028	-0.6160746477	
517.5	-0.08359121739	0.004466343555	
518.125	-0.0752233167	-0.06501866408	
518.75	-0.123066324	-0.02524295994	
519.375	-0.05924209131	0.02598673655	
520.0	0.1132950754	0.06525817649	
520.625	0.1298737216	-0.02901223609	
521.25	0.005166836292	-0.1283790351	
521.875	-0.1531775781	-0.1104699255	
522.5	-0.01573702979	0.09787419387	
523.125	-0.005976823031	-0.0829936115	
523.75	-0.1702749051	0.05943905341	
524.375	0.002592704099	0.01271211194	
525.0	-0.173422698	0.1219742607	
525.625	0.1258761152	0.03875817493	
526.25	-0.09249305561	0.0007152433474	
526.875	0.01451046339	0.02324064699	
527.5	-0.1111703809	0.09290180585	
528.125	0.09701778139	0.2545654559	
528.75	0.1020059039	0.08350743353	
529.375	0.06263099821	0.06631740788	
530.0	-0.01717621038	0.1395620586	
530.625	-0.005721523279	0.1723754041	
531.25	0.4777243768	0.2361602434	
531.875	0.2437254007	-0.2594431595	
532.5	-0.01087961371	0.0003182244962	
533.125	0.02967345678	-0.1907220768	
533.75	0.1245764045	-0.04512816485	
534.375	-0.02059268065	-0.3749833542	
535.0	-0.1823381348	-0.01167322994	
535.625	-0.1260443639	0.02726382904	
536.25	-0.005025639441	0.1151109501	
536.875	0.06334954957	-0.02393739869	
537.5	0.07746082646	-0.01294227894	
538.125	0.09880032314	-0.112624399	
538.75	0.07385713831	-0.0522229347	
539.375	-0.0571550953	-0.1756890856	
540.0	-0.1885881556	-0.09577005406	
540.625	-0.08739753467	-0.04060351813	
541.25	-0.1290671229	-0.02604432741	
541.875	-0.04335158376	0.03163846435	
542.5	0.04622354243	-0.0525581435	
543.125	-0.1239533026	-0.01651675513	
543.75	-0.01505814359	-0.01345160111	
544.375	-0.1276797285	0.0192914117	
545.0	0.03398021045	0.02506603274	
545.625	-0.02548863584	0.1041294599	
546.25	0.1377789192	0.01176466689	
546.875	0.05289613156	-0.002533568629	
547.5	0.1137796745	-0.1212574823	
548.125	-0.09410432683	-0.1402351561	
548.75	-0.05827620314	-0.08287116815	
549.375	-0.1082271371	-0.1109972278	
550.0	-0.06595185115	0.04827686015	
550.625	-0.03757603131	-0.02863782248	
551.25	-0.07104942026	0.05788842121	
551.875	-0.04020983517	0.04528454195	
552.5	-0.0627081433	0.07379104069	
553.125	0.002374115918	0.05159102052	
553.75	0.03328659006	0.05003116059	
554.375	0.09706365333	-0.006127578324	
555.0	0.08363610228	-0.05940595326	
555.625	0.08914341902	-0.09235635066	
556.25	0.05931310415	-0.1308681533	
556.875	-0.03148791977	-0.1411102297	
557.5	-0.08841115397	-0.09572530509	
558.125	-0.1106449094	-0.03927290625	
558.75	-0.1009727327	0.003194406374	
559.375	-0.09488459512	0.01259082871	
560.0	-0.09939984505	0.07277638932	
560.625	-0.02531657834	0.1080217278	
561.25	-0.01293573128	0.07576917722	
561.875	0.04958897576	0.0615958729	
562.5	-0.01151769382	0.02422383127	
563.125	0.0834154049	0.09812415797	
563.75	0.1123345921	-0.02920897159	
564.375	0.1080990297	-0.03695792776	
565.0	0.08950058046	-0.1777555486	
565.625	-0.08028083337	-0.0970908376	
566.25	-0.05586819635	-0.1237637039	
566.875	-0.179348515	-0.05830065528	
567.5	-0.07099140809	-0.05351134029	
568.125	-0.1335786837	-0.2398779982	
568.75	-0.2234002224	-0.00348432846	
569.375	-0.1666533809	0.02572626881	
570.0	-0.1783846761	0.2430981102	
570.625	0.05332403862	0.1452832257	
571.25	-0.06702035405	0.06013606663	
571.875	0.1196430626	0.08830807798	
572.5	0.02296228874	-0.005712430955	
573.125	0.1895925244	-0.1015636792	
573.75	-0.02180852603	-0.1610956533	
574.375	0.0210886626	0.02216463799	
575.0	0.04647873747	-0.1204388491	
575.625	-0.01206991783	0.009767553531	
576.25	0.118889632	-0.1098318902	
576.875	-0.08383236337	-0.1834982635	
577.5	-0.004978561467	-0.06745925905	
578.125	0.08639951372	-0.2035928689	
578.75	-0.1882337227	-0.1427535632	
579.375	-0.02493820075	0.0128758741	
580.0	-0.06378097583	-0.1473905056	
580.625	-0.0121718025	0.1169768034	
581.25	-0.1410654612	-0.05500276489	
581.875	0.03575847687	0.2473064384	
582.5	0.08603560793	0.008020979888	
583.125	-0.0286433133	0.1170311026	
583.75	0.1465152614	0.007002177525	
584.375	-0.08011528658	0.0355750746	
585.0	0.1969145939	0.08708387339	
585.625	0.07790933071	-0.07618756189	
586.25	0.1204927887	0.0330656644	
586.875	0.1082675691	-0.2016082982	
587.5	-0.05262998131	-0.05655455616	
588.125	0.06484732278	-0.1369857448	
588.75	-0.01655823257	-0.2004517302	
589.375	0.007235681276	-0.05584576006	
590.0	0.02479862762	-0.2686964631	
590.625	-0.2115197036	0.03990832974	
591.25	-0.04586711558	-0.008802193221	
591.875	-0.1354359433	0.1516978437	
592.5	0.1293795621	0.01961739607	
593.125	-0.1341099324	0.07264097695	
593.75	0.1107318642	0.03519637964	
594.375	0.03252721901	0.09063034956	
595.0	0.2286349821	0.1417853085	
595.625	0.2036564331	-0.01858145783	
596.25	0.09581140129	0.1207350779	
596.875	0.2259685567	0.04595818876	
597.5	0.1085507898	0.0007843262675	
598.125	0.08617903087	0.1513475679	
598.75	0.2394635776	0.06401377853	
599.375	0.1142195031	-0.04747997274	
600.0	0.1861049014	-0.09293486614	
600.625	0.1482777338	-0.2205028925	
601.25	-0.03439724549	-0.1326658408	
601.875	0.0226674942	-0.1617161658	
602.5	-0.1970664869	0.04938743508	
603.125	-0.01197384309	0.02136716115	
603.75	-0.2723994866	0.0949856884	
604.375	-0.02305412664	0.1737125101	
605.0	-0.04659970507	-0.03155505376	
605.625	-0.07169563216	0.1685724744	
606.25	-0.04785384256	-0.0277538664	
606.875	-0.2265239915	0.008408869579	
607.5	-0.1141539652	0.2625853626	
608.125	-0.02401448072	0.1526482786	
608.75	0.1967878381	0.1205965585	
609.375	0.2574240887	-0.08868769135	
610.0	0.05604453547	-0.07226739007	
610.625	0.1364703415	-0.1313672882	
611.25	-0.03656976878	-0.196005789	
611.875	0.003791430882	-0.07481124517	
612.5	-0.216801148	-0.124845014	
613.125	-0.1260861215	0.1642676565	
613.75	-0.1039595934	0.02117724249	
614.375	0.1203841308	0.1988821491	
615.0	0.04806199924	-0.08471645152	
615.625	-0.05878505969	0.1668706873	
616.25	0.08771134665	0.1641070353	
616.875	-0.1435607306	0.1918037482	
617.5	-0.107485069	0.2822313201	
618.125	-0.03011460948	0.1781513563	
618.75	-0.05120680404	0.0872052578	
619.375	-0.03642447674	0.08088163067	
620.0	0.1651171932	-0.001156193535	
620.625	0.02099833366	-0.09729072726	
621.25	-0.05990558155	-0.2439901627	
621.875	-0.2895413652	0.03885337142	
622.5	-0.1656120036	-0.01259320215	
623.125	-0.05885253595	0.2417779545	
623.75	0.1198373981	-0.03317838751	
624.375	0.05107039237	0.04725990504	
625.0	0.006906381481	-0.1079402755	
625.625	0.06825309903	-0.006851610693	
626.25	-0.04088299914	-0.1941941904	
626.875	-0.1478543049	-0.01888975914	
627.5	-0.05765050785	-0.07797887346	
628.125	-0.1734598133	-0.08725547784	
628.75	-0.08494527103	-0.1080941998	
629.375	-0.04698618071	-0.1448586467	
630.0	-0.1999279904	-0.1567187789	
630.625	-0.142185484	0.05962855042	
631.25	-0.1856308174	0.1402715953	
631.875	-0.0677906171	0.311005753	
632.5	0.1463857136	0.125718635	
633.125	0.1375068393	0.1079488276	
633.75	0.264928258	-0.1310387049	
634.375	0.01515993903	-0.06574251854	
635.0	0.09903859777	-0.2211225372	
635.625	-0.2026717367	-0.03598107792	
636.25	-0.07718872605	0.0009650022971	
636.875	-0.1640265664	0.1427637533	
637.5	0.05692182991	0.1069803424	
638.125	-0.1234268792	0.009705350443	
638.75	-0.06244130649	0.2440758423	
639.375	0.05905482014	0.1577170817	
640.0	0.03615993877	0.2691596521	
640.625	0.2940899485	0.1980226326	
641.25	0.2055675087	-0.04950317402	
641.875	0.147655356	-0.0301775353	
642.5	0.008665576489	-0.3654520119	
643.125	-0.084559695	-0.02660263927	
643.75	-0.08803087521	-0.1788708806	
644.375	-0.2919280781	0.1754323519	
645.0	-0.01568928819	-0.01916221392	
645.625	-0.05652572634	0.4198562544	
646.25	0.2732331139	-0.04350247591	
646.875	-0.04335007827	0.07128063321	
647.5	0.1949646211	0.01576741877	
648.125	-0.06839092943	-0.001936523278	
648.75	0.383863008	0.04042870499	
649.375	0.1370932151	-0.3464092026	
650.0	0.08503024173	-0.1445339655	
650.625	0.3207472631	-0.2417957794	
651.25	0.09573049657	-0.3675224071	
651.875	0.1382888516	-0.01677397694	
652.5	0.3925316064	-0.02924915648	
653.125	0.2413195788	-0.2342427362	
653.75	0.124099503	-0.06780473556	
654.375	0.05343226982	-0.4664202854	
655.0	-0.3007126786	0.0135748433	
655.625	-0.02924153515	-0.06003555944	
656.25	-0.1045493497	0.295082743	
656.875	0.1264261027	-0.04899877301	
657.5	-0.113229372	0.2528547564	
658.125	0.2864948673	0.09612878663	
658.75	0.1099025784	0.03939204307	
659.375	0.4225498043	0.006473384142	
660.0	0.1115685424	-0.4485803633	
660.625	0.07249041745	-0.1551431223	
661.25	0.2707367087	-0.2853662921	
661.875	0.1623003049	-0.3513360571	
662.5	0.106085625	-0.05214352591	
663.125	0.3970690241	-0.1682055099	
663.75	0.05588109515	-0.3141526942	
664.375	0.03943539088	-0.2108465642	
665.0	-0.2659966253	-0.3015479148	
665.625	-0.280692833	0.2115305531	
666.25	-0.1025907293	0.127496307	
666.875	0.08808599637	0.321497819	
667.5	0.1974743974	1.615610131e-05	
668.125	0.08584967088	0.1841861777	
668.75	0.2981068761	-0.2271316717	
669.375	-0.004673207144	-0.1765479867	
670.0	0.1176462519	-0.1560822568	
670.625	-0.1004266822	-0.3165715763	
671.25	-0.01105107642	-0.02874910107	
671.875	0.2512226701	-0.1642802971	
672.5	0.09447406646	-0.1975060762	
673.125	0.1400607785	-0.07062131567	
673.75	0.2718198686	-0.1709844815	
674.375	-0.05817017587	-0.3130485541	
675.0	-0.00807995254	-0.1083997234	
675.625	-0.196184588	-0.2248602378	
676.25	-0.2150532829	0.06284176203	
676.875	-0.02168270239	-0.05810699849	
677.5	-0.2667033943	0.03339172004	
678.125	0.005308317965	0.1532202088	
678.75	-0.100207974	0.1532885086	
679.375	0.3088865626	0.1623307676	
680.0	-0.05189186545	-0.207318566	
680.625	0.1663590056	0.1073577313	
681.25	0.1002036226	-0.2882342724	
681.875	-0.08225561574	0.02651560409	
682.5	0.2399611727	0.2989533478	
683.125	0.2872043898	-0.1657175445	
683.75	0.1405119481	0.2522958379	
684.375	0.3521566012	0.1466087581	
685.0	0.2802142676	-0.1379642797	
685.625	0.1220877741	0.1721724149	
686.25	0.4422746899	-0.08518277696	
686.875	0.1608618644	-0.1802226854	
687.5	0.2829288529	-0.1019597489	
688.125	0.009742549697	-0.5389224065	
688.75	-0.3577493591	-0.01671717847	
689.375	-0.3033641643	0.09358150702	
690.0	0.1080825665	0.4777669338	
690.625	0.2082562983	0.004064751936	
691.25	0.1532736369	0.4298121455	
691.875	0.6779564795	0.005132813698	
692.5	0.3096716163	0.1199015521	
693.125	0.632425912	0.1637516672	
693.75	0.5023135505	-0.502788017	
694.375	0.345706668	-0.07705529775	
695.0	0.5425822221	-0.2887259749	
695.625	0.3981700841	-0.2273836046	
696.25	0.4091455876	0.2043903752	
696.875	0.315602239	0.5821562445	
697.5	0.3012160543	0.4075615979	
698.125	0.3605636081	0.281024947	
698.75	0.5140010235	-0.2758838121	
699.375	-0.4266358957	-0.4028176327	
700.0	-0.1106053348	0.1926266058	
700.625	0.035060636	0.4299688216	
701.25	0.3152758967	0.02193081242	
701.875	0.09650505604	0.225429509	
702.5	0.4825918443	0.3124004549	
703.125	0.3636508061	-0.08647184019	
703.75	0.2762552544	0.05481509195	
704.375	0.3772032991	-0.2372639755	
705.0	0.09414340482	-0.07880316652	
705.625	0.2441890413	0.09913282686	
706.25	0.3723652885	0.1065396316	
706.875	0.1904128164	0.3457981937	
707.5	0.1616654331	0.4062637493	
708.125	0.4044093409	0.2950768497	
708.75	0.2257513892	-0.2574219968	
709.375	-0.08544551199	-0.1447714279	
710.0	-0.1924060058	0.2648184946	
710.625	0.1783532586	-0.0111889306	
711.25	0.0104420447	0.2199475601	
711.875	0.2843064459	-0.05205689999	
712.5	0.1674025045	0.07700226874	
713.125	0.3435436831	-0.1739232527	
713.75	0.04012315387	-0.2883712096	
714.375	0.05863273013	-0.1046032852	
715.0	-0.01087214643	-0.3081412814	
715.625	-0.06160985602	-0.1561241356	
716.25	0.2319891513	-0.1198611589	
716.875	0.3831726184	-0.300570679	
717.5	0.4159621729	-0.08260946392	
718.125	0.6043310884	0.3198759422	
718.75	0.9134284914	0.2508202674	
719.375	0.5616575974	-0.3825094214	
720.0	0.8690170782	-0.5466247879	
720.625	0.06769861807	-1.19536375	
721.25	-0.3134635688	0.03777836623	
721.875	0.09796576746	-0.9682314807	
722.5	-0.9963727298	-0.786281283	
723.125	-0.3115259061	-0.006340693326	
723.75	-0.7383586703	0.3227765188	
724.375	0.2246006912	0.473356573	
725.0	0.03105017485	0.1996452941	
725.625	0.1188929955	0.5912600653	
726.25	0.3026107349	0.5749755074	
726.875	-0.2475479487	0.5638112105	
727.5	-0.2727746664	1.455799635	
728.125	0.5555145991	1.76341015	
728.75	-0.6917741647	1.310030944	
729.375	-1.808078579	3.491872505	
730.0	0.7597479829	2.954909785	
730.625	-1.168182273	2.090233904	
731.25	-1.701095088	3.972186685	
731.875	-0.3533203477	4.431972775	
732.5	-2.32732219	-0.5595220226	
733.125	-2.929690837	0.121743362	
733.75	-0.2310953969	1.289454908	
734.375	-0.1851767476	0.7171398298	
735.0	0.08262764434	-1.019356741	
735.625	-0.04689500495	0.194787939	
736.25	-0.3317233775	0.4166835317	
736.875	0.6610521863	0.5458785722	
737.5	0.4591160071	-0.1797284079	
738.125	1.4692381	0.3576098852	
738.75	1.773003445	-1.870458846	
739.375	0.3868350807	-1.497005502	
740.0	2.822568858	1.267634121	
740.625	5.108497689	-1.769140775	
741.25	-0.9942170239	-2.067336864	
741.875	-5.065903341	0.3030266145	
742.5	-2.762210478	-1.067272756	
743.125	0.7128384335	-0.4262384012	
743.75	0.418825705	-1.540188622	
744.375	-0.4842912801	0.1691781821	
745.0	-0.09548963142	-0.03935333148	
745.625	0.1532224047	-0.07418192527	
746.25	0.07577875099	0.006904434387	
746.875	-0.2652981707	-0.03951172514	
747.5	0.04834565368	0.3105210159	
748.125	0.03954774621	0.2968711456	
748.75	0.1523471491	0.4971957153	
749.375	0.2504975279	0.3829979949	
750.0	-0.2866773444	0.1442217767	
