!Created with skrf (http://scikit-rf.org).
# GHz S RI R (50+0j) 
!freq	ReS11	ImS11	
500.0	1.906602189	-3.847452543	
500.625	-0.7966859541	-4.863072414	
501.25	-0.537263735	-0.6656802721	
501.875	-1.109199719	-3.279456313	
502.5	-0.4418392776	-0.1978547694	
503.125	-0.1393117478	-0.08080048337	
503.75	0.1348637594	0.4796141394	
504.375	-0.0564807648	-0.04618390139	
505.0	0.247796641	-0.1058049838	
505.625	-0.2223926315	-0.02226962748	
506.25	0.2340459362	-0.442728951	
506.875	-0.4334752547	0.9287644064	
507.5	0.8894721239	-0.9145618673	
508.125	0.006581994689	-3.320614841	
508.75	-0.9366771839	-2.415636647	
509.375	1.997924147	-3.864599964	
510.0	-2.921111945	-0.2632392633	
510.625	-0.2494413507	-0.2202327711	
511.25	-0.5066140273	-0.3451414501	
511.875	-0.4519328345	0.240653864	
512.5	-0.06445966792	0.1096295589	
513.125	0.04506203486	-0.3077564555	
513.75	-0.4438248665	-0.1044457267	
514.375	0.2090361474	-0.1118621575	
515.0	-1.028105988	-0.6897162394	
515.625	1.977270932	0.02724243139	
516.25	-3.287635544	-4.675217966	
516.875	-0.63410686	0.7393014886	
517.5	0.5428408998	-0.8179408621	
518.125	-0.3716998628	0.2728546834	
518.75	0.3306063577	-0.7945306658	
519.375	-0.1914584121	0.3008935091	
520.0	0.1998961956	0.01881610913	
520.625	0.5602531226	-0.0002117798953	
521.25	-0.2523903837	-0.92121381	
521.875	-0.16339434	-0.1037199319	
522.5	-0.225560935	0.09664196371	
523.125	-0.1014227337	-0.07109419648	
523.75	-0.3786585074	0.1515008331	
524.375	-0.2201900913	-0.1432321813	
525.0	-0.2257646535	0.661243187	
525.625	0.1196803876	-0.1558780152	
526.25	0.03815361185	0.1570688498	
526.875	-0.1811083152	-0.07379806724	
527.5	-0.1992084609	0.9681502397	
528.125	0.43053825	0.4001899434	
528.75	-0.3761166106	0.7576898958	
529.375	0.3747729784	0.1467289535	
530.0	-0.3774608354	0.8323294646	
530.625	0.6623960253	0.7073050112	
531.25	0.886050256	0.6296021283	
531.875	0.7294077351	-0.7959105211	
532.5	0.2393058606	0.03852740548	
533.125	-0.2169012635	-0.5365382246	
533.75	0.6971010078	-0.168426881	
534.375	-0.8092726313	-1.046087948	
535.0	-0.2465062611	-0.1177907671	
535.625	-0.6964842828	0.1979026178	
536.25	0.1393762559	0.2587412655	
536.875	0.1301711081	0.1569625306	
537.5	0.2686562106	-0.1860366346	
538.125	0.1045176385	-0.1477080451	
538.75	0.5345213965	-0.1893299966	
539.375	-0.3622910341	-0.3965512233	
540.0	-0.2167512347	-0.3162714887	
540.625	-0.4787679153	-0.1601801611	
541.25	-0.2099187359	0.1065892454	
541.875	-0.05151677629	-0.07556343429	
542.5	-0.1719379308	-0.2229818032	
543.125	-0.206507291	0.0255285837	
543.75	-0.1563403012	-0.1636019536	
544.375	-0.140901568	0.2873260322	
545.0	-0.09000451188	-0.08179352958	
545.625	0.2649170561	0.3530097621	
546.25	0.06158705938	-0.1494107956	
546.875	0.4531416798	0.2381877073	
547.5	-0.03365951486	-0.5039005655	
548.125	0.07835457779	-0.2130921195	
548.75	-0.3055811421	-0.4918123514	
549.375	-0.3963288845	-0.04759166972	
550.0	-0.03627613949	-0.09814922945	
550.625	-0.2647145458	0.0971557448	
551.25	-0.0611382237	-0.0137341603	
551.875	-0.317871235	0.1890688052	
552.5	-0.01453931611	0.2117879576	
553.125	-0.1037100663	0.1472899892	
553.75	0.1452887245	0.1241012562	
554.375	0.2096950015	0.01040756551	
555.0	0.2705031882	-0.1502606253	
555.625	0.2150712654	-0.2735275065	
556.25	0.1706640948	-0.3350312356	
556.875	-0.05064498981	-0.401905917	
557.5	-0.2355632018	-0.2770546482	
558.125	-0.2783531978	-0.08949889417	
558.75	-0.2451745898	-0.03511581789	
559.375	-0.3080454977	0.04251345678	
560.0	-0.1869565199	0.1840611191	
560.625	-0.1847612517	0.2168413376	
561.25	0.05019011858	0.3164784336	
561.875	0.04296244416	0.008773007412	
562.5	0.02044136827	0.2510649273	
563.125	0.1560342493	0.04108623642	
563.75	0.3203349155	0.1717164654	
564.375	0.3669752714	-0.3673667374	
565.0	0.07584668535	-0.2183391587	
565.625	0.06513775383	-0.4593489994	
566.25	-0.3930678703	-0.2064489013	
566.875	-0.1777913672	-0.1685903045	
567.5	-0.3884281146	-0.4254711139	
568.125	-0.4716282	-0.2396448357	
568.75	-0.3154233429	-0.3419169319	
569.375	-0.8404704044	0.2725352267	
570.0	-0.04135307248	0.5049550044	
570.625	-0.3876565903	0.1365110559	
571.25	0.1464709368	0.6771882034	
571.875	-0.1841912742	-0.04041013959	
572.5	0.6387404893	0.1347500234	
573.125	-0.141753497	-0.3711789865	
573.75	0.3175250556	0.0400786464	
574.375	0.04066428776	-0.526014179	
575.0	-0.062924174	0.1908250559	
575.625	0.3321933487	-0.381404274	
576.25	-0.2134688325	-0.2944908625	
576.875	0.3072606234	-0.175960839	
577.5	-0.03576205415	-0.6748549847	
578.125	-0.2809174569	-0.2213664788	
578.75	0.04134215473	-0.2563450023	
579.375	-0.3042502833	-0.3923945086	
580.0	-0.1668917672	0.2035022403	
580.625	-0.1263650942	-0.36949372	
581.25	-0.284554733	0.4647047504	
581.875	0.05629895663	0.02535705056	
582.5	-0.2284245771	0.5554666885	
583.125	0.6669361492	0.1550445021	
583.75	-0.3504218075	-0.003821121561	
584.375	0.5292136742	0.2733862142	
585.0	-0.2042466705	-0.02621517735	
585.625	0.6483770913	0.3150619209	
586.25	0.3085964875	-0.4540453097	
586.875	0.1204268165	-0.02050728046	
587.5	0.1389273825	-0.5798904168	
588.125	-0.3397157505	-0.2151407702	
588.75	0.370896193	-0.1531605341	
589.375	0.2120332821	-0.6409334181	
590.0	-0.1052044785	-0.1413061623	
590.625	-0.4123742938	-0.363434891	
591.25	-0.3988418354	0.4346876446	
591.875	0.02661062114	0.1639613489	
592.5	-0.1759148267	0.1011472794	
593.125	0.1520266861	0.1485402866	
593.75	-0.2156887459	0.3030255241	
594.375	0.713403123	0.369004892	
595.0	0.2335505748	-0.09821214879	
595.625	0.2123537623	0.5921811886	
596.25	0.7978893107	-0.1367112276	
596.875	-0.1038452369	0.2266948757	
597.5	0.6973317109	0.4718494862	
598.125	0.3390645022	-0.06552327736	
598.75	0.2121264806	0.502338946	
599.375	0.7101810234	-0.1606575376	
600.0	0.2098864809	-0.3052843036	
600.625	0.5101634958	-0.2589166475	
601.25	0.2014804431	-0.6428417658	
601.875	-0.1489908102	-0.1683630001	
602.5	-0.3657255397	-0.1742249225	
603.125	-0.2313306265	0.1346811067	
603.75	-0.2372939175	0.1757855724	
604.375	-0.2433333118	0.05279973394	
605.0	-0.2836052934	0.3133269173	
605.625	0.05286684817	-0.02302861775	
606.25	-0.6632040323	0.1463012002	
606.875	-0.08646534251	0.4051333622	
607.5	-0.5840553997	-0.01078237682	
608.125	0.0188603029	1.066625626	
608.75	0.126860146	0.07344317636	
609.375	0.8079515929	0.2832551705	
610.0	0.2405342394	-0.6078364365	
610.625	0.3318030184	-0.02302090784	
611.25	-0.1408918457	-0.6486845171	
611.875	-0.05045416905	-0.1259738242	
612.5	-0.4509852565	-0.3412859882	
613.125	-0.1892025966	0.2132566388	
613.75	-0.5025330898	0.2436865965	
614.375	0.3061775889	0.2864875881	
615.0	-0.2227724096	0.136614042	
615.625	0.3845549408	0.2048193719	
616.25	-0.3109134046	0.1051632894	
616.875	-0.3084580104	0.7593955746	
617.5	0.1385169842	0.3324151675	
618.125	-0.4104292606	0.5562964038	
618.75	0.2722479705	0.5431517711	
619.375	0.02217443216	0.2628336487	
620.0	0.6065266931	0.2518777133	
620.625	0.1585472639	-0.2928651837	
621.25	-0.1309372547	-0.5754858851	
621.875	-0.4872422504	-0.1436876406	
622.5	-0.5262252285	-0.06243897161	
623.125	0.06681811056	0.6229670688	
623.75	0.01156309975	0.09414070115	
624.375	0.364621494	-0.3110930394	
625.0	-0.08571760016	0.2212468735	
625.625	0.3792062979	-0.4962586105	
626.25	-0.304257687	0.02089351242	
626.875	-0.1115784617	-0.6059487277	
627.5	-0.6233895206	0.03536471133	
628.125	-0.02221377131	-0.01828363345	
628.75	-0.1020739282	-0.5729991037	
629.375	-0.3935893626	-0.1688110221	
630.0	-0.2329463864	-0.3445428773	
630.625	-0.7060661073	0.08286337822	
631.25	-0.1907490489	0.5251453585	
631.875	-0.235780961	0.4194141826	
632.5	0.3959791398	0.6138042115	
633.125	0.4675525833	0.08452716621	
633.75	0.3219383299	-0.09055147007	
634.375	0.3671597329	-0.3176056813	
635.0	-0.264983855	-0.3090693086	
635.625	-0.03753748649	-0.3716472682	
636.25	-0.6555493475	0.2665846044	
636.875	0.1503284068	0.2914317528	
637.5	-0.607312122	-0.04366860389	
638.125	0.256786368	0.5026728456	
638.75	-0.4118274276	-0.04728636025	
639.375	-0.05747201891	1.053374742	
640.0	0.5273826529	0.2348590793	
640.625	0.1236615686	0.5416973143	
641.25	1.038410932	0.03897140439	
641.875	0.08465979736	-0.5233234661	
642.5	0.3592481061	-0.2708005182	
643.125	-0.6503783879	-0.6126774978	
643.75	0.06125116846	0.1571638875	
644.375	-0.6493795155	-0.3243044609	
645.0	-0.2560186457	0.5906883166	
645.625	0.1046249795	0.218237519	
646.25	0.2180261833	0.5732545965	
646.875	0.4787438575	-0.3898738299	
647.5	-0.2357288675	0.2839216891	
648.125	0.8180407082	0.141184282	
648.75	0.03356219622	-0.4155292195	
649.375	1.159648593	0.02497602244	
650.0	0.271430175	-1.455376389	
650.625	-0.1574417393	-0.08301834564	
651.25	1.256742693	-0.3271395239	
651.875	0.4139795705	-1.177717451	
652.5	0.1731313066	0.287256478	
653.125	1.231286618	-0.163587542	
653.75	0.1055253407	-0.8265089317	
654.375	0.2587973609	-0.2754557627	
655.0	-1.078884867	-0.7364203929	
655.625	-0.1203749812	0.6874657669	
656.25	-0.2291504625	0.03489276272	
656.875	0.270019272	0.5845972896	
657.5	-0.03267403869	-0.1964977626	
658.125	0.256076152	0.8437163717	
658.75	0.8824156242	0.002005820967	
659.375	0.4900460553	-0.3145763103	
660.0	0.8714129847	-0.2467535921	
660.625	0.262758854	-1.404810514	
661.25	0.0245171674	-0.2113690864	
661.875	1.079876394	-0.4693070912	
662.5	0.5701896138	-0.9745202041	
663.125	0.169044289	0.05047290217	
663.75	0.9839992755	-0.9863984519	
664.375	-0.5251212552	-0.5722613277	
665.0	-0.1221299478	-0.6311859651	
665.625	-1.154243385	0.1732325559	
666.25	0.1238589247	0.6107877739	
666.875	-0.1151443201	0.5308901014	
667.5	0.7013581938	0.3631786921	
668.125	0.2510471751	-0.2273313665	
668.75	0.6966085216	0.03598666163	
669.375	0.1081085741	-0.8548335014	
670.0	0.00386917374	-0.2555749199	
670.625	0.2309989039	-0.495843438	
671.25	0.03449585248	-0.6422348587	
671.875	0.1038983913	-0.1039835185	
672.5	0.8567392109	-0.285717152	
673.125	0.353043323	-0.7058292194	
673.75	0.2034831404	-0.1530935125	
674.375	0.6775381008	-0.8083932196	
675.0	-0.8354106705	-0.4734185439	
675.625	0.2864929626	-0.3994443833	
676.25	-0.9647039905	-0.2378048606	
676.875	0.02241719057	0.4504077586	
677.5	-0.5654583688	-0.5376752635	
678.125	-0.1688572297	0.8540002808	
678.75	-0.07003470657	0.170767491	
679.375	0.3961342399	0.5924743278	
680.0	0.5977885541	-0.5926458673	
680.625	-0.1737342368	0.2240433252	
681.25	0.6255577794	-0.03819912429	
681.875	0.2484946387	-0.1510492232	
682.5	0.2107287147	0.3847267365	
683.125	0.8734057843	0.4094351517	
683.75	0.5893934782	-0.1050458703	
684.375	0.3184388306	0.234267709	
685.0	1.074360471	0.4901790361	
685.625	0.5450128291	-0.7244682248	
686.25	0.50514218	0.9672968535	
686.875	1.238984973	-1.204946959	
687.5	-0.003670730863	-0.06403422803	
688.125	0.7981526275	-1.429600646	
688.75	-1.738829056	0.098693783	
689.375	-0.412094121	-0.1516734506	
690.0	0.1851304841	1.602065588	
690.625	0.5395651583	0.1280281792	
691.25	0.417188683	1.068066445	
691.875	1.441686372	0.6797792882	
692.5	1.11675241	0.4540620431	
693.125	1.62549167	0.1445571713	
693.75	1.502969511	-0.6349861806	
694.375	1.125730179	-0.8085709558	
695.0	0.9928282837	-0.6750503665	
695.625	1.270972902	0.1376670614	
696.25	1.641720518	0.01148956345	
696.875	0.3549881296	0.7328434326	
697.5	1.340017713	2.081670428	
698.125	1.169725595	-0.2676909559	
698.75	1.729127825	-0.09771207025	
699.375	-1.579904061	-1.328864332	
700.0	-0.02732526738	0.3889176401	
700.625	-0.0652848974	1.462377804	
701.25	0.5430656028	-0.08516269896	
701.875	0.236794838	1.053206372	
702.5	1.247876295	0.4421296367	
703.125	0.53909629	0.4430488922	
703.75	1.332181325	-0.2595208708	
704.375	0.3102444419	-0.5573433873	
705.0	1.150879488	0.1545788726	
705.625	0.6063779375	-0.5126253686	
706.25	0.1664609155	0.6240574949	
706.875	1.114091164	1.077067471	
707.5	0.2683356562	0.1886358161	
708.125	1.222348776	0.9336633869	
708.75	0.6859481993	-1.302610598	
709.375	-0.2146120921	-0.5608084445	
710.0	-0.8981307956	0.4872998174	
710.625	0.3624914415	0.2252552568	
711.25	0.06773507759	0.4624011066	
711.875	0.5680504947	0.1981622253	
712.5	0.8801428024	0.04333859004	
713.125	0.5941346618	-0.4329091653	
713.75	0.4485292106	-0.4187390255	
714.375	-0.07362088562	-0.8673427023	
715.0	-0.1027535326	-0.0386563675	
715.625	0.4867609739	-1.133315679	
716.25	-0.3998546085	-0.610100644	
716.875	1.047285585	0.3727689512	
717.5	2.452236592	-0.6013599058	
718.125	-0.1917867335	-0.5984872368	
718.75	3.459822197	1.439295736	
719.375	1.352989804	-2.676524799	
720.0	1.041968096	-0.5164074239	
720.625	2.174459071	-3.77857777	
721.25	-1.311308531	-1.851804438	
721.875	0.6007231482	-2.583149173	
722.5	-1.761500863	-2.66863467	
723.125	-1.986130008	0.1983137231	
723.75	-1.046653095	0.4053553733	
724.375	0.003635943432	1.662873105	
725.0	0.5479166131	0.5850704577	
725.625	0.1137045984	0.9718652414	
726.25	-0.1865897427	2.320428115	
726.875	1.297377906	2.303085645	
727.5	-2.216944866	2.039944965	
728.125	-0.2319363867	7.725367639	
728.75	5.562217061	4.408127018	
729.375	-10.64483338	4.942390281	
730.0	0.8665315035	18.95892658	
730.625	1.556078822	1.410133753	
731.25	-12.20390001	12.59624802	
731.875	-3.734628603	16.91128071	
732.5	-2.940895428	-3.154035412	
733.125	-10.47941424	-0.6929081766	
733.75	-1.830854026	3.956641009	
734.375	1.17925699	0.3614508049	
735.0	1.465632684	-2.050024163	
735.625	-0.9075944409	1.303805317	
736.25	-0.9436821272	0.6588317356	
736.875	1.323007612	2.10777571	
737.5	3.312138042	-0.4980843272	
738.125	1.408092475	0.3694993461	
738.75	8.847875282	-2.774297986	
739.375	2.887413489	-9.621194186	
740.0	-2.381303355	3.167264633	
740.625	18.66997511	11.58394036	
741.25	17.23258004	-13.09425865	
741.875	-23.47391751	-11.13852558	
742.5	-19.91779675	-1.076384094	
743.125	0.6068013272	2.20052413	
743.75	3.477916937	-5.355750495	
744.375	-2.235904212	0.466329632	
745.0	-0.0344271052	-0.1875415717	
745.625	0.3741168204	-0.08835804427	
746.25	-0.1280549947	0.02753428359	
746.875	-1.414663866	0.006710346114	
747.5	-0.1545537934	1.469673207	
748.125	0.2068705264	1.086159321	
748.75	0.3685490539	1.230648831	
749.375	0.5856920386	1.706758104	
750.0	-0.3246844431	0.7946247637	
