!Created with skrf (http://scikit-rf.org).
# GHz S RI R (50+0j) 
!freq	ReS11	ImS11	
500.0	-0.2949920001	-5.156939337	
500.625	0.3839028461	-1.262963542	
501.25	-3.202306441	-3.274929004	
501.875	-0.7550211825	-0.6771569079	
502.5	-0.2474257288	-0.5229398879	
503.125	-0.156300697	0.1550864748	
503.75	-0.1035051458	0.07902151176	
504.375	0.2052318103	-0.02543340594	
505.0	-0.1102462983	-0.01826566006	
505.625	0.1925505151	-0.2156758638	
506.25	-0.5248521232	-0.03371958244	
506.875	-0.02182020354	-0.70970299	
507.5	-1.764347815	-0.3205825049	
508.125	1.615838437	-1.18202094	
508.75	1.725059078	-4.782308775	
509.375	-2.477502115	-3.28856748	
510.0	-0.8764925631	-1.018599968	
510.625	-0.8014371947	-0.6627963241	
511.25	-0.2834231207	0.02154606745	
511.875	-0.3346609498	-0.1467551942	
512.5	-0.08937328539	0.1511210836	
513.125	-0.05941050248	-0.1812516972	
513.75	-0.1375878216	-0.3097001353	
514.375	-0.5459136664	0.1521327226	
515.0	1.382572698	-0.6424011277	
515.625	-2.407604525	-0.8459992308	
516.25	1.686522318	-0.5669763244	
516.875	-1.224123351	-2.79771808	
517.5	-0.6883570968	0.2350282451	
518.125	-0.01471172071	-0.5272517384	
518.75	-0.6061400426	0.1972406888	
519.375	-0.2996561454	0.009584002969	
520.0	0.5151406984	0.2086087584	
520.625	0.283288379	-0.2961044797	
521.25	0.2097215765	-0.6535192766	
521.875	-0.4767033065	-0.05292175771	
522.5	-0.1133153103	0.02304861362	
523.125	-0.0948697042	0.316486018	
523.75	-0.2320829845	-0.1723555628	
524.375	-0.4397254474	0.2540676504	
525.0	-0.1389439004	0.1498241051	
525.625	0.1295827841	0.2939532133	
526.25	-0.2116548289	-0.237391765	
526.875	0.03965089834	0.2939752034	
527.5	-0.202390618	0.1809744539	
528.125	0.1365483544	1.232077947	
528.75	0.4335146159	0.4060012658	
529.375	-0.01964695433	0.3847048483	
530.0	0.3474008017	0.2253664153	
530.625	-0.1889453807	0.9622191558	
531.25	1.440863386	-0.01328235003	
531.875	0.6610978657	-0.1462058529	
532.5	-0.5967512525	-0.4605746829	
533.125	0.8083395262	-0.01465819225	
533.75	-0.3325829938	-0.707202234	
534.375	0.3665199894	-0.5717836995	
535.0	-1.061554419	-0.2981013649	
535.625	-0.1377019314	0.1668640377	
536.25	-0.1219147725	0.3208488183	
536.875	0.2900491155	-0.1460098567	
537.5	0.1889538331	0.08639104812	
538.125	0.3977805533	-0.3101732568	
538.75	0.1325726204	-0.2520878961	
539.375	-0.03484728922	-0.4674103536	
540.0	-0.5252584381	-0.3824492008	
540.625	-0.341834467	-0.002704908442	
541.25	-0.2030216348	-0.04503808779	
541.875	-0.1451734083	0.01477844547	
542.5	-0.04957155538	-0.1549196216	
543.125	-0.2796638834	-0.1048638812	
543.75	-0.1322675881	0.08322815833	
544.375	-0.2172429056	-0.05354186524	
545.0	0.1277203499	0.2646998833	
545.625	-0.1792831519	0.002374855429	
546.25	0.5196646033	0.2492252187	
546.875	0.05820648699	-0.182406642	
547.5	0.4016547125	-0.1847462558	
548.125	-0.3377011774	-0.5158098656	
548.75	-0.07583443565	-0.1493347419	
549.375	-0.3050211289	-0.3646589335	
550.0	-0.2224547813	0.1597367124	
550.625	-0.05240930605	-0.1382562348	
551.25	-0.2787516335	0.1868413663	
551.875	-0.08765076396	0.1004273619	
552.5	-0.2006937718	0.2059835548	
553.125	0.01163377494	0.1536711808	
553.75	0.09239931461	0.1569342683	
554.375	0.2481802519	-0.01541277073	
555.0	0.234221586	-0.1504158247	
555.625	0.231808173	-0.2538688062	
556.25	0.1720700515	-0.3604232561	
556.875	-0.09271588919	-0.3936157875	
557.5	-0.2211261131	-0.2562156571	
558.125	-0.2853482817	-0.1250456254	
558.75	-0.275322673	0.00800914205	
559.375	-0.2387866032	0.01523573277	
560.0	-0.2875820471	0.2024006903	
560.625	-0.04632934765	0.2495200628	
561.25	-0.08402541152	0.2242399448	
561.875	0.1675109611	0.1466350078	
562.5	-0.05833732132	0.04209044061	
563.125	0.2138824185	0.3087761095	
563.75	0.2903124211	-0.1303619488	
564.375	0.3324292556	-0.06616302745	
565.0	0.1934190866	-0.4882827302	
565.625	-0.08012949578	-0.2157390109	
566.25	-0.2415936004	-0.4207135587	
566.875	-0.4135666703	-0.05583321834	
567.5	-0.1653501308	-0.274507363	
568.125	-0.3983369168	-0.5808613499	
568.75	-0.6248713628	-0.02526513012	
569.375	-0.3477243523	0.0272584651	
570.0	-0.6722804259	0.622126784	
570.625	0.2035572431	0.4613894105	
571.25	-0.3413072068	0.1035963396	
571.875	0.5334668078	0.2013119349	
572.5	-0.04783256142	0.2679600224	
573.125	0.5142406782	-0.5245524139	
573.75	-0.2476115699	-0.2935061133	
574.375	0.2460683563	0.1000600491	
575.0	0.07915802666	-0.4358684066	
575.625	0.03126727623	0.1783073035	
576.25	0.3603421227	-0.4405011171	
576.875	-0.3128330432	-0.2859418303	
577.5	0.2474561492	-0.1705311772	
578.125	-0.1857226678	-0.7036721435	
578.75	-0.3124859645	-0.0703398102	
579.375	0.03426523441	-0.1485119491	
580.0	-0.2773332217	-0.2871464119	
580.625	-0.04048443886	0.1953211583	
581.25	-0.4094771859	-0.1811149974	
581.875	0.1416815224	0.718284223	
582.5	0.2296910387	-0.07146853835	
583.125	-0.1820046548	0.4950395773	
583.75	0.4580920432	-0.3070618082	
584.375	-0.2194100667	0.5002079643	
585.0	0.6350927963	-0.07263890246	
585.625	-0.0809659127	0.01446272909	
586.25	0.6024031874	0.1096628324	
586.875	0.1136287552	-0.6102016655	
587.5	-0.007931854537	-0.03970800688	
588.125	0.170197754	-0.5505497621	
588.75	-0.2295015924	-0.3572302699	
589.375	0.4895198987	-0.1331448189	
590.0	-0.3406239368	-0.5626264797	
590.625	-0.1592493964	-0.0430151996	
591.25	-0.5439239243	0.151942789	
591.875	-0.05884954872	0.4657095545	
592.5	0.1706503286	-0.05279154595	
593.125	-0.3390592795	0.2756623209	
593.75	0.4069498657	0.1098842655	
594.375	-0.05200584846	0.3329496242	
595.0	0.8269803812	0.4918554193	
595.625	0.120758044	-0.168168934	
596.25	0.4545878917	0.5208917099	
596.875	0.5875170737	-0.3023948604	
597.5	-0.1148423408	0.3874802557	
598.125	0.6903470886	0.5287479645	
598.75	0.406282237	-0.01292894641	
599.375	0.3883122459	0.149329852	
600.0	0.5931151816	-0.4354201605	
600.625	0.1417023514	-0.409973228	
601.25	0.341583282	-0.3339546034	
601.875	-0.3097925116	-0.450754284	
602.5	-0.1111602869	-0.05694878011	
603.125	-0.4074614388	0.06475429344	
603.75	-0.1682426669	0.1382064965	
604.375	-0.1934498422	0.1782017029	
605.0	-0.2655600343	0.004173705286	
605.625	-0.2154560473	0.4304235119	
606.25	-0.002748912714	-0.1548270138	
606.875	-0.8934841438	0.2848092532	
607.5	0.06533838789	0.4064139059	
608.125	-0.5447573876	0.4245741778	
608.75	0.941088438	0.4432465295	
609.375	0.1072173655	0.0387426124	
610.0	0.7529004834	-0.2086580004	
610.625	-0.09631286374	-0.4742352921	
611.25	0.4206062196	-0.2593353429	
611.875	-0.372896362	-0.3182229038	
612.5	-0.1840555652	-0.2487754485	
613.125	-0.6623029104	0.1120673278	
613.75	-0.06491283664	0.2242774963	
614.375	-0.0459580879	0.5720688641	
615.0	0.1910012471	-0.1470315793	
615.625	-0.216253141	0.4005863546	
616.25	0.2234775498	0.3175470593	
616.875	-0.4734203971	0.1693067156	
617.5	-0.1805924584	0.836886121	
618.125	0.1299712676	0.2588976657	
618.75	-0.2062246179	0.6273046562	
619.375	0.3880397687	0.2679095108	
620.0	0.2610128588	0.276166941	
620.625	0.3457765135	-0.5008620974	
621.25	-0.1414191252	-0.3117722826	
621.875	-0.6152809464	-0.2673939277	
622.5	-0.3278090445	0.1281335581	
623.125	-0.337119955	0.430527474	
623.75	0.5014327407	-0.0611172243	
624.375	0.02919229603	0.3710867246	
625.0	-0.09025053386	-0.4026659338	
625.625	0.2991997425	0.0418054137	
626.25	-0.3230091762	-0.638078586	
626.875	-0.03521433069	0.1812734596	
627.5	-0.3911606608	-0.5101551565	
628.125	-0.4608334734	0.07851225497	
628.75	0.06063745428	-0.1831046763	
629.375	-0.1257836078	-0.5639628353	
630.0	-0.6034620566	-0.09839133068	
630.625	-0.3923968856	-0.02522092241	
631.25	-0.4868175265	0.5370111628	
631.875	0.05424074297	0.5097840552	
632.5	0.08626286407	0.5578057311	
633.125	0.6789950843	0.06463203812	
633.75	0.2644579152	-0.09439134264	
634.375	0.2419374893	-0.2694746781	
635.0	0.06358663727	-0.5280589629	
635.625	-0.4383041621	0.04812818297	
636.25	-0.219773881	-0.2859335117	
636.875	-0.3723731318	0.6920058815	
637.5	0.2915535118	-0.01416500966	
638.125	-0.633182238	0.2925596013	
638.75	0.3561461147	0.3444511231	
639.375	-0.548340274	0.4656033	
640.0	0.6810139347	0.8861896728	
640.625	0.3209927324	-0.06111517861	
641.25	0.5884842073	0.5497826861	
641.875	0.6563655937	-0.7950921885	
642.5	-0.3182444104	-0.3386489563	
643.125	0.1331447353	-0.3944630261	
643.75	-0.6501818949	-0.2278838592	
644.375	0.02711676199	0.02010422437	
645.0	-0.7066961537	0.4230072253	
645.625	0.3578935195	0.4659573439	
646.25	0.11351805	0.1206833898	
646.875	0.5046995268	0.2620722829	
647.5	-0.07125631173	-0.3334622213	
648.125	0.338444448	0.6451371259	
648.75	0.9899195778	-0.5289836172	
649.375	-0.1068294885	-0.4229030845	
650.0	1.160195092	-0.2965885185	
650.625	-0.02061612318	-1.430405674	
651.25	0.1012073558	0.1280220212	
651.875	1.393537219	-0.3632180784	
652.5	0.2709728119	-0.8453877898	
653.125	0.4665947345	0.4223781454	
653.75	0.8995577803	-0.7952836404	
654.375	-0.5522749551	-0.6163710962	
655.0	-0.1168611442	-0.3786924755	
655.625	-1.017874678	0.6061944691	
656.25	0.4550663465	0.1349545617	
656.875	-0.2778027369	0.316951684	
657.5	0.4608490963	0.1694048774	
658.125	-0.08597687347	0.2445611629	
658.75	0.9157688663	0.6197148543	
659.375	0.824441848	-0.6791389887	
660.0	0.2129249984	-0.4608112648	
660.625	0.7535116031	-0.4798307611	
661.25	0.3553880938	-1.381032817	
661.875	0.08066979387	-0.01011133528	
662.5	1.206989587	-0.5829530577	
663.125	0.2411835673	-0.7420303186	
663.75	0.6714315388	-0.0616993719	
664.375	-0.2988261041	-1.37519417	
665.0	-0.5336700031	-0.03357477817	
665.625	-0.6159620131	-0.1984800938	
666.25	-0.5470864301	0.8123236184	
666.875	0.5506668827	0.2928829521	
667.5	0.1350907196	0.5355327403	
668.125	0.7125277811	-0.2305530628	
668.75	0.1965428478	-0.09833425951	
669.375	0.6493172886	-0.6762643263	
670.0	-0.3642322951	-0.4358001371	
670.625	0.2541479521	-0.2771413945	
671.25	0.284306597	-0.5538211167	
671.875	0.2366425513	-0.6587765949	
672.5	0.06795021058	-0.1413281772	
673.125	1.064423784	-0.1809770327	
673.75	0.01574777253	-0.8289400932	
674.375	0.371021203	-0.2068518571	
675.0	-0.2298451918	-1.109540795	
675.625	-0.3598913933	0.3499081651	
676.25	-0.3405478169	-0.7729719624	
676.875	-0.7077375073	0.4298379522	
677.5	0.1393281801	-0.03028564009	
678.125	-0.8424086758	0.1911563413	
678.75	0.3748532202	0.79407757	
679.375	0.1794222572	-0.02553381196	
680.0	0.6184747669	0.09125489779	
680.625	0.03227483087	-0.6125537726	
681.25	0.2277688929	0.5334918605	
681.875	0.6078415842	-0.2081828666	
682.5	0.1906442482	0.08536979362	
683.125	0.5359237017	0.5119894382	
683.75	0.9507752819	0.1688297406	
684.375	0.4607980034	-0.313362268	
685.0	0.2834826418	0.6200021812	
685.625	1.453333687	0.03013607876	
686.25	0.02154698797	-0.6137909166	
686.875	1.468284325	0.5555273089	
687.5	-0.01064485783	-1.528198203	
688.125	0.7105882501	-0.368826259	
688.75	-1.50065106	-1.200471433	
689.375	0.1234321306	1.054463413	
690.0	-0.7411672187	0.8115061352	
690.625	1.129552075	0.67538242	
691.25	0.5357591298	0.4076887941	
691.875	0.9974419793	1.092984469	
692.5	1.639328658	0.3645647235	
693.125	1.327146829	0.01734058049	
693.75	1.482700667	-0.5895227051	
694.375	0.9460904673	-0.889332963	
695.0	1.136917613	-0.6834241127	
695.625	1.05273931	-0.2063446428	
696.25	1.498174996	0.818101728	
696.875	1.13283046	0.3614901942	
697.5	0.05554576419	1.466887833	
698.125	2.249054674	0.7184105225	
698.75	0.2950021323	-0.5621984117	
699.375	-0.5741971744	-1.922618744	
700.0	-0.4543917404	1.309435791	
700.625	-0.508895736	0.3810900934	
701.25	1.223761797	0.5041418583	
701.875	0.2228252458	0.3009820072	
702.5	1.042421802	1.090232417	
703.125	0.8936726677	-0.1997610344	
703.75	0.9454289157	0.1658880921	
704.375	0.7402744749	-0.8123260921	
705.0	0.108957535	0.05535325254	
705.625	1.260268387	0.0005680109125	
706.25	0.2686311579	-0.03584792133	
706.875	0.2980622497	1.40013456	
707.5	1.28968421	0.5932084075	
708.125	0.387684304	0.7754773584	
708.75	1.284672838	-1.145211264	
709.375	-0.8472031083	-0.4604755546	
710.0	-0.5576165463	0.1755709637	
710.625	0.211817507	0.5428589744	
711.25	0.0827159719	0.2430140884	
711.875	0.5853757816	0.4013256745	
712.5	0.6414697951	-0.01736322225	
713.125	0.6657821828	-0.4296515751	
713.75	0.3125330656	-0.5253278725	
714.375	0.1678639442	-0.6270301841	
715.0	-0.3521993596	-0.4667953716	
715.625	0.5575841899	-0.1444979643	
716.25	0.5557592753	-1.353091207	
716.875	-0.1997220945	-0.1871833478	
717.5	2.03668741	0.8009505644	
718.125	2.566678016	-1.026416777	
718.75	0.1836012642	1.441508907	
719.375	4.045887437	-2.321618673	
720.0	-0.2145918615	-1.139236793	
720.625	2.708060915	-1.939276875	
721.25	-1.129927126	-3.910591892	
721.875	-0.8542987015	-1.39306358	
722.5	-0.574756414	-2.510716171	
723.125	-2.478691665	-0.4278380323	
723.75	-0.6857665941	1.076291489	
724.375	-0.3009127395	0.9019110682	
725.0	0.8301409135	1.020561376	
725.625	0.2063844376	0.8288836732	
726.25	-0.2021507984	1.803972503	
726.875	0.1448652115	3.08658452	
727.5	0.7393610111	1.593478303	
728.125	-4.268081784	6.151728792	
728.75	3.145306571	15.00064174	
729.375	2.594524805	2.085864083	
730.0	-15.51716446	14.88766075	
730.625	12.75054851	11.99954274	
731.25	-8.23426544	3.403082381	
731.875	-14.66592317	12.85729036	
732.5	-2.112717381	7.950970157	
733.125	-8.132684472	-4.343940641	
733.75	-2.598744256	5.407152222	
734.375	2.049971947	0.6582196307	
735.0	0.3873808492	-0.5606034751	
735.625	-2.127829841	-0.1988087912	
736.25	0.8502041178	0.8886367098	
736.875	0.2138290091	2.083696904	
737.5	3.646957653	0.3819451692	
738.125	2.117718269	-2.184472565	
738.75	7.10558601	0.3830011906	
739.375	8.78814189	-9.603016104	
740.0	-0.8946628905	-8.244683222	
740.625	0.2698432697	19.02597083	
741.25	16.74294143	11.55923583	
741.875	12.72911159	-9.150665364	
742.5	-6.443661249	-22.9567186	
743.125	-7.555536865	-8.545880449	
743.75	2.641453065	-0.1347833877	
744.375	-2.884590504	-0.8294721106	
745.0	0.2802924268	-0.4068251296	
745.625	0.4242833705	0.1054839568	
746.25	-0.2436713012	-0.1832301299	
746.875	-0.2444694445	-0.3864125567	
747.5	-0.4992318079	1.111889948	
748.125	0.7427293904	1.140965919	
748.75	0.6682512857	0.9379926135	
749.375	-0.6630311345	1.20997745	
750.0	0.1158380306	0.9405428426	
