!Created with skrf (http://scikit-rf.org).
# GHz S RI R (50+0j) 
!freq	ReS11	ImS11	
500.0	0.2902730801	-0.7766227671	
500.625	0.2181624528	-0.7160314938	
501.25	-0.3949725992	-0.4786043294	
501.875	-0.1830468547	-0.3480949069	
502.5	-0.0358828758	-0.1029395483	
503.125	-0.05799179631	0.001584062977	
503.75	0.007678111286	0.06745283527	
504.375	0.02265563358	-0.00570658869	
505.0	0.01685425424	-0.01753249964	
505.625	0.0001968687819	-0.04106737536	
506.25	-0.04916976362	-0.0524609672	
506.875	-0.090731973	0.003638168304	
507.5	-0.07605387525	-0.2985016218	
508.125	0.1495443538	-0.5227769521	
508.75	0.4765487842	-0.8309214222	
509.375	-0.05026451711	-0.9804640948	
510.0	-0.2815911673	-0.1985292163	
510.625	-0.09290236253	-0.1630816073	
511.25	-0.07596711261	-0.04754293824	
511.875	-0.07417527298	-0.01719633775	
512.5	-0.03731232329	0.01616609947	
513.125	-0.01730170008	-0.04490424546	
513.75	-0.03637160342	-0.03057473207	
514.375	-0.04010170824	-0.01642628765	
515.0	-0.01674806469	-0.02827638668	
515.625	0.002213569987	-0.2847927013	
516.25	-0.1289818749	-0.5364708995	
516.875	-0.1776428313	-0.320092235	
517.5	-0.04372853592	-0.1119058871	
518.125	-0.02184140418	-0.02472530799	
518.75	-0.03455625989	-0.1112485788	
519.375	-0.04396647728	0.03396889231	
520.0	0.08757435732	0.04131414666	
520.625	0.1232920017	-0.0515915407	
521.25	-0.02200078135	-0.2087250743	
521.875	-0.1209867884	-0.0184051204	
522.5	-0.0397122558	0.0220593176	
523.125	-0.04683280645	0.02413714628	
523.75	-0.09005082126	-0.003755582388	
524.375	-0.1291710027	0.02687363773	
525.0	-0.03471726172	0.1130242501	
525.625	0.0300771921	0.03952550105	
526.25	-0.01073716814	-0.01194282546	
526.875	-0.04164462224	0.0432073274	
527.5	-0.03611234896	0.1474241639	
528.125	0.04752590688	0.2061819172	
528.75	0.02546871177	0.1762933266	
529.375	0.04182062812	0.04909711103	
530.0	0.01416327283	0.1201890072	
530.625	0.0884980082	0.2334934929	
531.25	0.3355834623	0.06915769485	
531.875	0.1710836884	-0.152628599	
532.5	-0.04325996027	-0.0874422693	
533.125	0.04234809633	-0.04410526116	
533.75	0.07680647274	-0.1476285978	
534.375	-0.07801292454	-0.2226498424	
535.0	-0.1922835815	-0.0770734737	
535.625	-0.1332253514	0.09823025504	
536.25	0.0002522521576	0.08157016109	
536.875	0.07892078525	0.01070336764	
537.5	0.05548081193	-0.03763244062	
538.125	0.09441568415	-0.05381550918	
538.75	0.1028783097	-0.1065890909	
539.375	-0.06633664904	-0.1368738335	
540.0	-0.1422551673	-0.1213441244	
540.625	-0.1403705623	-0.0169165876	
541.25	-0.07373186249	0.005733715476	
541.875	-0.03881133444	-0.01703320369	
542.5	-0.04082513421	-0.04469011843	
543.125	-0.07009951144	-0.03728582503	
543.75	-0.074697753	-0.0002127912461	
544.375	-0.03848859504	0.03756247549	
545.0	-0.002815193213	0.05072945581	
545.625	0.0469708497	0.05342584355	
546.25	0.084229841	0.02882041795	
546.875	0.100443419	-0.02715927713	
547.5	0.05468249771	-0.1079202648	
548.125	-0.04277745878	-0.1368170376	
548.75	-0.1084027679	-0.0946715604	
549.375	-0.09765750559	-0.05391103512	
550.0	-0.06634530513	0.008790802497	
550.625	-0.04565301587	0.008316587809	
551.25	-0.06601309173	0.0277655794	
551.875	-0.06077275741	0.06150687019	
552.5	-0.03432029169	0.06763469959	
553.125	-0.00947059013	0.05595535705	
553.75	0.0428832006	0.03847764718	
554.375	0.08191261074	-0.005164077778	
555.0	0.08387902436	-0.06624053017	
555.625	0.07221275584	-0.09817930872	
556.25	0.0519589214	-0.1270572845	
556.875	-0.03765965213	-0.1405585086	
557.5	-0.09237784872	-0.08945367877	
558.125	-0.1054480851	-0.03003882123	
558.75	-0.09899241305	0.002063219722	
559.375	-0.09939243461	0.02256129809	
560.0	-0.08369130365	0.07146165619	
560.625	-0.04292413627	0.1035293745	
561.25	0.008749450453	0.0879967814	
561.875	0.02754530556	0.03930459177	
562.5	0.01253339554	0.04759559587	
563.125	0.06568143566	0.06200260836	
563.75	0.1245741528	-0.002450743699	
564.375	0.1118153109	-0.08955294921	
565.0	0.06034199816	-0.1344700265	
565.625	-0.03416761599	-0.1389034255	
566.25	-0.1063966856	-0.09178376138	
566.875	-0.1259262745	-0.06279260854	
567.5	-0.1264424005	-0.08963208555	
568.125	-0.1336194262	-0.1296698074	
568.75	-0.2005389388	-0.05551107906	
569.375	-0.1980778244	0.09662889855	
570.0	-0.09381476218	0.1806999124	
570.625	-0.03907196575	0.1542990015	
571.25	0.008714118927	0.1022853555	
571.875	0.05480415504	0.06216855581	
572.5	0.1088543429	-0.007090339328	
573.125	0.0730043344	-0.1003554653	
573.75	0.03324556544	-0.1004699202	
574.375	0.007743626905	-0.06224227805	
575.0	0.02197212531	-0.03554951691	
575.625	0.03139761845	-0.06542179093	
576.25	0.03670722801	-0.09741827628	
576.875	-0.006916616269	-0.1250682314	
577.5	-0.007870233605	-0.1408024425	
578.125	-0.04553709934	-0.1368688024	
578.75	-0.07956476932	-0.1035447169	
579.375	-0.07687442304	-0.0541875245	
580.0	-0.04739033754	-0.02598209464	
580.625	-0.06430231907	-0.02130917846	
581.25	-0.08674229295	0.07040481711	
581.875	0.01179214084	0.1365002805	
582.5	0.05380013749	0.1208305181	
583.125	0.06963667933	0.06563544794	
583.75	0.03649179516	0.01761803223	
584.375	0.03164237377	0.04817112053	
585.0	0.09722928152	0.0482852704	
585.625	0.1363612045	-0.00688949863	
586.25	0.1297178092	-0.06211993342	
586.875	0.05815473282	-0.1211946758	
587.5	-0.01686951866	-0.1225195006	
588.125	-0.018966686	-0.1222808239	
588.75	0.02246744548	-0.1283492385	
589.375	0.04957298622	-0.1371040151	
590.0	-0.05663058199	-0.1497873804	
590.625	-0.1627026228	-0.03115176875	
591.25	-0.1101210133	0.1036889	
591.875	-0.02466120297	0.1056831152	
592.5	0.009322623161	0.04272828583	
593.125	-0.02392764571	0.04517988397	
593.75	0.05082126727	0.1018492845	
594.375	0.1338365653	0.08208674311	
595.0	0.1500318985	0.08130075013	
595.625	0.1511501399	0.06224937297	
596.25	0.1402745473	0.03072044965	
596.875	0.1380209511	0.02489553521	
597.5	0.1316594903	0.06311769251	
598.125	0.1358870458	0.09140821961	
598.75	0.158384455	0.0645009453	
599.375	0.1838218804	-0.03963325138	
600.0	0.1380666651	-0.1348945137	
600.625	0.111343819	-0.1618721822	
601.25	0.0480044344	-0.1690656268	
601.875	-0.07458556427	-0.122077667	
602.5	-0.1144663931	-0.007882658621	
603.125	-0.09293558023	0.04810934589	
603.75	-0.0896183787	0.06676691544	
604.375	-0.08263433492	0.06926461489	
605.0	-0.05800380585	0.07046258357	
605.625	-0.06074460683	0.056915263	
606.25	-0.09727312705	0.06067340215	
606.875	-0.1456806297	0.08256805326	
607.5	-0.1345101662	0.1648841518	
608.125	-0.01314337051	0.2159190606	
608.75	0.1666282461	0.138873324	
609.375	0.2073801791	-0.03897984928	
610.0	0.1406487625	-0.1160499152	
610.625	0.06822260765	-0.1456524048	
611.25	-0.00394102723	-0.1409830266	
611.875	-0.08135763451	-0.1055975282	
612.5	-0.1469982874	-0.05076840638	
613.125	-0.1679022854	0.03841866483	
613.75	-0.07576603526	0.1319821064	
614.375	0.04439071059	0.09666202914	
615.0	0.03951606054	0.03766607627	
615.625	0.0009291791814	0.07487307065	
616.25	-0.03378557389	0.125949345	
616.875	-0.06735704216	0.1700712288	
617.5	-0.05359535584	0.198627737	
618.125	-0.007874720208	0.1893562186	
618.75	0.03019588352	0.1687694478	
619.375	0.09062545322	0.1418310041	
620.0	0.170561954	0.03199437126	
620.625	0.09109600133	-0.1451100959	
621.25	-0.08714199136	-0.1601949102	
621.875	-0.1844461961	-0.06733133419	
622.5	-0.189770491	0.06221622814	
623.125	-0.0264771328	0.1681296198	
623.75	0.1193091476	0.03229410738	
624.375	0.03294513695	-0.04931683565	
625.0	0.03468074914	-0.025386332	
625.625	0.04189503541	-0.08147283248	
626.25	-0.04667739671	-0.1206906698	
626.875	-0.1256194249	-0.07247042608	
627.5	-0.1322196299	-0.03395240825	
628.125	-0.1009335414	-0.05789637772	
628.75	-0.06865437191	-0.1061753776	
629.375	-0.08515583587	-0.1334806608	
630.0	-0.1687524088	-0.08159775574	
630.625	-0.1952102583	0.0659242059	
631.25	-0.1199827282	0.1797906328	
631.875	-0.01210554641	0.222187127	
632.5	0.1373793441	0.1692192509	
633.125	0.1903618565	0.03888229335	
633.75	0.1475275509	-0.06644193061	
634.375	0.05180863943	-0.1240506497	
635.0	-0.01893501493	-0.1331077363	
635.625	-0.1329045509	-0.07540521896	
636.25	-0.1367227346	0.06931752228	
636.875	-0.05329870348	0.1153413896	
637.5	-0.02776528686	0.08253289987	
638.125	-0.0548584376	0.08142158309	
638.75	-0.05694769345	0.1502781284	
639.375	0.00855983419	0.2210700409	
640.0	0.1344287133	0.2113060036	
640.625	0.2189278988	0.1199120174	
641.25	0.2453129801	-0.01479794872	
641.875	0.1464484849	-0.1712752978	
642.5	-0.01622426475	-0.1922070681	
643.125	-0.1143206031	-0.1029677533	
643.75	-0.1223791429	-0.05970304409	
644.375	-0.157547833	0.006653389286	
645.0	-0.1269738528	0.1450286477	
645.625	0.05822936787	0.1910989625	
646.25	0.1514752793	0.06034735638	
646.875	0.08784973577	-0.02052383691	
647.5	0.051700654	0.02800890948	
648.125	0.1433723872	0.04055425407	
648.75	0.229707302	-0.07145108444	
649.375	0.1899922731	-0.2214787681	
650.0	0.1314835888	-0.2719658875	
650.625	0.1239788753	-0.2577057978	
651.25	0.1624691743	-0.2164978902	
651.875	0.2135993607	-0.1587041444	
652.5	0.2391777129	-0.09952169814	
653.125	0.2349154244	-0.110145893	
653.75	0.1632262061	-0.2123839187	
654.375	-0.06578133593	-0.2711149541	
655.0	-0.2574109481	-0.07081058715	
655.625	-0.1504329498	0.1703542167	
656.25	0.03502768221	0.1549596231	
656.875	0.04997249557	0.05884429526	
657.5	0.03789215046	0.08946610743	
658.125	0.1334778211	0.1333098626	
658.75	0.2623438241	0.05859374556	
659.375	0.2826811245	-0.1399136854	
660.0	0.1871744687	-0.2711381645	
660.625	0.1060950996	-0.2978963909	
661.25	0.1269221915	-0.2682314657	
661.875	0.1764341618	-0.2305139661	
662.5	0.2205024269	-0.1885847166	
663.125	0.2220316467	-0.1844717843	
663.75	0.1298901491	-0.2593575989	
664.375	-0.04993195373	-0.2901150075	
665.0	-0.2443437564	-0.1738947619	
665.625	-0.2758643674	0.09069102578	
666.25	-0.07979440715	0.2443653526	
666.875	0.1135222166	0.1804611889	
667.5	0.169162198	0.07368400637	
668.125	0.1929772693	-0.02362846167	
668.75	0.1634298201	-0.1343677611	
669.375	0.07677628071	-0.2010411273	
670.0	-0.003462566854	-0.1981970678	
670.625	-0.003797226217	-0.1698452115	
671.25	0.04420001093	-0.1578320371	
671.875	0.1135128858	-0.1540753762	
672.5	0.1726396807	-0.1411789616	
673.125	0.1762550146	-0.1624933977	
673.75	0.1299171149	-0.2015693418	
674.375	0.03247150887	-0.2322533875	
675.0	-0.08851966096	-0.2088710841	
675.625	-0.1716628021	-0.1065390871	
676.25	-0.1628699283	-0.01107398825	
676.875	-0.1301636457	0.01460574162	
677.5	-0.1319235336	0.03188234934	
678.125	-0.1145809816	0.1321051495	
678.75	0.04283735862	0.1968247098	
679.375	0.1879446067	0.05581354178	
680.0	0.1276110949	-0.08576137821	
680.625	0.05794613132	-0.07381821925	
681.25	0.07974175347	-0.01686800179	
681.875	0.1317570566	0.03615083783	
682.5	0.1807826504	0.07167630502	
683.125	0.218984298	0.06062759698	
683.75	0.2360276633	0.05205412117	
684.375	0.2443029191	0.02632624298	
685.0	0.25104365	0.02663054173	
685.625	0.2570949581	-0.0076401257	
686.25	0.2625447456	-0.05002426215	
686.875	0.2577985413	-0.1446515401	
687.5	0.2070742949	-0.2747398346	
688.125	-0.04763517602	-0.3832746924	
688.75	-0.3777472554	-0.1443828877	
689.375	-0.2368357009	0.2953310333	
690.0	0.1072236951	0.3083637618	
690.625	0.2220975334	0.2096970088	
691.25	0.2912243352	0.2233417676	
691.875	0.4120549543	0.2502167904	
692.5	0.5396797293	0.1591874492	
693.125	0.5835982551	-0.04953657049	
693.75	0.5074662139	-0.2389688536	
694.375	0.3662443363	-0.3624994875	
695.0	0.3816759438	-0.2710832725	
695.625	0.4376914532	-0.09880175595	
696.25	0.4384342269	0.1173945632	
696.875	0.3697380652	0.3106928531	
697.5	0.3631059452	0.3572699028	
698.125	0.5052865619	0.1551708429	
698.75	0.3521307534	-0.3819976611	
699.375	-0.3622123074	-0.3130345407	
700.0	-0.224227559	0.3128829703	
700.625	0.1336892516	0.2506603859	
701.25	0.2051175893	0.1474145158	
701.875	0.2387781073	0.1896595548	
702.5	0.3112825679	0.1923027125	
703.125	0.3723922433	0.08699560266	
703.75	0.3361275975	-0.1021622848	
704.375	0.2360486555	-0.1770876586	
705.0	0.2062373226	-0.1274596482	
705.625	0.2281353483	-0.008791772052	
706.25	0.2258311307	0.1408217831	
706.875	0.2132378206	0.2437104811	
707.5	0.2542859053	0.2810650611	
708.125	0.3888418995	0.08103552174	
708.75	0.2324589369	-0.3112646398	
709.375	-0.2466137954	-0.2289340843	
710.0	-0.1503169674	0.1929591753	
710.625	0.06662890019	0.1256033635	
711.25	0.08611131956	0.09622180838	
711.875	0.1879138157	0.08796114059	
712.5	0.2657265847	-0.03529332437	
713.125	0.2225907529	-0.1619754182	
713.75	0.1093227652	-0.2244738655	
714.375	0.0007002846094	-0.2086852703	
715.0	-0.02698079493	-0.1762292868	
715.625	0.00781393319	-0.1889174639	
716.25	0.1199738329	-0.2102946288	
716.875	0.2718673551	-0.1646637836	
717.5	0.4250911841	-0.05624568299	
718.125	0.5536545543	-0.006969363726	
718.75	0.622952662	-0.140174402	
719.375	0.5869118388	-0.3883978274	
720.0	0.3396725971	-0.7029450251	
720.625	0.1150521314	-0.7742247781	
721.25	-0.119750647	-0.7991510216	
721.875	-0.2665915239	-0.7988736319	
722.5	-0.5721948236	-0.5806701625	
723.125	-0.6679812026	-0.06017915974	
723.75	-0.3196271219	0.4016090227	
724.375	0.05697238029	0.3922423518	
725.0	0.161476669	0.3050244568	
725.625	0.1649541056	0.3821260732	
726.25	0.07110396899	0.562333347	
726.875	-0.01414783027	0.7798810647	
727.5	-0.0398308373	1.125864528	
728.125	0.1032327366	1.576763859	
728.75	0.0715933381	2.16409825	
729.375	-0.3959602266	2.879605798	
730.0	0.2376555521	2.987461183	
730.625	0.3763892385	3.11140483	
731.25	-0.1919684911	3.228153201	
731.875	-1.753407051	2.209308952	
732.5	-2.522943771	0.9249466527	
733.125	-1.949535309	0.5446359	
733.75	-0.6319429053	1.140433349	
734.375	0.7288579409	0.304138574	
735.0	-0.03884338787	-0.5211156226	
735.625	-0.3972162858	0.115570283	
736.25	-0.02653153224	0.4462852253	
736.875	0.3728877266	0.4396134833	
737.5	0.8569620016	0.09968704474	
738.125	1.161811743	-0.4391622969	
738.75	1.309916807	-1.021258249	
739.375	1.688076372	-1.408231104	
740.0	2.249702659	-1.181884743	
740.625	2.153776834	-0.1576629713	
741.25	0.7406805326	1.682577708	
741.875	-1.74931419	0.1616473342	
742.5	-1.269277844	-2.084636129	
743.125	-0.03529619882	-1.548066612	
743.75	-0.02956535459	-0.7461796903	
744.375	-0.3724919329	-0.06733555572	
745.0	0.05429944633	0.07229888029	
745.625	0.04792649602	-0.00322483657	
746.25	-0.006168638171	-0.1011501068	
746.875	-0.1906283351	0.03506172944	
747.5	-0.07527555051	0.2829357095	
748.125	0.107457006	0.4228959353	
748.75	0.2428337028	0.3249545086	
749.375	0.1332370336	0.3738316146	
750.0	-0.3291352686	0.2477973839	
