!Created with skrf (http://scikit-rf.org).
# GHz S MA R 50.0 
!freq magS11 angS11
500.0 0.0171142424259 169.931472073
500.625 0.0110169414685 112.489814003
501.25 0.0089394551466 -171.242914314
501.875 0.0312845633128 173.508170079
502.5 0.0373398354498 173.991122358
503.125 0.0266046218262 125.336994578
503.75 0.00750401741739 88.5053947225
504.375 0.0219308583136 -64.3941108359
505.0 0.00674675738112 85.0229362102
505.625 0.0166230505567 -79.7997602281
506.25 0.0401439975032 -112.700964759
506.875 0.0790529289624 -92.2354672415
507.5 0.0438973579124 -126.373642896
508.125 0.0414759934767 -95.0973270606
508.75 0.0585689577657 -131.415871613
509.375 0.0591195998284 -130.12806883
510.0 0.0322029079572 -129.875766381
510.625 0.024912649631 -168.707531079
511.25 0.0551437750496 -174.132866681
511.875 0.0637227066431 151.501751092
512.5 0.0351495310667 79.7944070366
513.125 0.0435068366577 27.6406403849
513.75 0.0529356413952 31.2787492812
514.375 0.0414906628005 6.06422995545
515.0 0.0452594362676 3.16043506231
515.625 0.0829910530119 41.0446772175
516.25 0.088807938315 30.167853799
516.875 0.113592795222 66.9398726106
517.5 0.116762602981 19.1379392087
518.125 0.210817648612 71.5744784068
518.75 0.0982852834752 15.1151505304
519.375 0.0525403111918 5.33812914871
520.0 0.0830432415231 -8.77294894761
520.625 0.100658967622 -8.60579116604
521.25 0.0952939231254 -22.397428759
521.875 0.0687873144835 -0.642309523524
522.5 0.0963331588421 -34.2584749416
523.125 0.191918915636 -34.3045269178
523.75 0.210407686785 -59.5471379023
524.375 0.22459759343 -48.8271903991
525.0 0.0680501969056 -50.7676983598
525.625 0.0353629401423 -46.4382598904
526.25 0.0576145034025 -7.69036227019
526.875 0.0407741581642 -36.7513227993
527.5 0.0435621853874 -35.2610220183
528.125 0.0366851963093 -68.3617230937
528.75 0.0699928274496 -73.289915254
529.375 0.0672385787686 -127.563871222
530.0 0.0423934099021 -138.009629794
530.625 0.0370943751708 -141.995238371
531.25 0.133265746925 -141.517562278
531.875 0.140254094032 -150.461838072
532.5 0.125011140774 -173.476564008
533.125 0.0904838690602 171.896148705
533.75 0.133944561527 164.600473276
534.375 0.0868987739701 172.233759864
535.0 0.0835512706187 160.873148443
535.625 0.0605248346457 173.375488168
536.25 0.0721051533027 160.588214743
536.875 0.0738326180689 -162.840909947
537.5 0.093612166387 -144.349025797
538.125 0.102214315147 -174.082442676
538.75 0.117007413133 178.837410396
539.375 0.0617688903771 -168.193197469
540.0 0.0834586911068 -155.618068632
540.625 0.128488453319 -156.414236706
541.25 0.139935691931 -143.960304964
541.875 0.0959924194375 -144.346343486
542.5 0.110070158016 -142.382189044
543.125 0.134796025439 -167.219417575
543.75 0.141799677931 158.732231816
544.375 0.0827628934018 131.261583184
545.0 0.084670145433 89.92887765
545.625 0.0942743648606 79.1561473186
546.25 0.0941578528239 66.3334571949
546.875 0.089565032364 52.7160991915
547.5 0.104635058275 57.4714928603
548.125 0.115686611092 76.5909218589
548.75 0.0998750856555 88.1626896994
549.375 0.0751229196561 82.5965511091
550.0 0.0839503060432 122.790644968
550.625 0.0404084812594 147.633143632
551.25 0.0413699695432 -148.058937135
551.875 0.0517803174702 -147.790979941
552.5 0.0962927863062 -161.859925607
553.125 0.0854736651278 -168.166574559
553.75 0.0950076586935 -175.803249171
554.375 0.0948739230056 170.980854217
555.0 0.121090885436 163.794408652
555.625 0.0986628926528 155.009056044
556.25 0.0990928220768 161.930893683
556.875 0.126013809415 162.263919294
557.5 0.108354744288 164.93478934
558.125 0.0928441146059 163.704405884
558.75 0.0853395586193 176.129774197
559.375 0.0489539228976 -174.04722809
560.0 0.0391712191019 -146.527228681
560.625 0.0541193729875 -141.684688594
561.25 0.0901651034664 -155.682658464
561.875 0.095308207398 -160.43838934
562.5 0.0929576272751 171.33947157
563.125 0.0999221422974 146.07977907
563.75 0.140454271119 125.812307394
564.375 0.0903614646978 122.736674123
565.0 0.0799282923371 120.121842655
565.625 0.0766932961911 113.623327591
566.25 0.102195223181 146.200544082
566.875 0.0759024522225 177.705011313
567.5 0.0729153222293 -179.327856095
568.125 0.0812406533476 -172.249049762
568.75 0.0682423328039 -149.116226016
569.375 0.053076717205 -121.052571754
570.0 0.0585429138576 -103.569209039
570.625 0.0926981496656 -120.036591564
571.25 0.090220860258 -122.219975425
571.875 0.0895685202822 -133.225387382
572.5 0.111293991384 -157.037677854
573.125 0.141304794816 -175.533323956
573.75 0.104369078661 160.938144865
574.375 0.0871182445515 143.930269947
575.0 0.104345386193 151.247909638
575.625 0.112416499671 151.445915283
576.25 0.0927647430422 141.265659317
576.875 0.071391475461 135.341596146
577.5 0.0820912619124 135.166062673
578.125 0.0572959364636 157.625690265
578.75 0.0490177705831 160.988996769
579.375 0.0559362166441 157.047530375
580.0 0.0651417685769 -178.874861985
580.625 0.0788290026046 -151.020061729
581.25 0.089204660076 -164.987947004
581.875 0.11534732178 175.273040807
582.5 0.112256945738 -171.745962295
583.125 0.0903388420424 -166.288081282
583.75 0.0786787931029 -163.613296425
584.375 0.105990344792 -168.562986494
585.0 0.0884629064819 -138.061277645
585.625 0.0692523142076 -141.149652616
586.25 0.0713643909485 -140.791065811
586.875 0.0850987657549 -145.627661684
587.5 0.0706965355727 -140.91341267
588.125 0.0583266662471 -167.508714107
588.75 0.0628984599717 -159.542161648
589.375 0.0809446180214 -165.539183299
590.0 0.0953927597245 -159.449025792
590.625 0.106698267728 165.954236762
591.25 0.115414284467 156.752902628
591.875 0.0992013686665 151.836347265
592.5 0.0620560605896 150.162532539
593.125 0.0630116541838 153.524672243
593.75 0.0678725819355 -177.689122458
594.375 0.0607496247501 -168.817927744
595.0 0.0485648433034 -101.148684373
595.625 0.0609217243278 -99.3410575292
596.25 0.0694214821864 -81.2309438472
596.875 0.0670358987083 -76.7541121625
597.5 0.0584288509132 -58.492106147
598.125 0.073589249813 -53.6739490921
598.75 0.0806494379948 -63.2264162677
599.375 0.0808348810649 -74.2122504879
600.0 0.107261702589 -59.8048265717
600.625 0.103617974295 -59.8637692275
601.25 0.0836613582511 -69.1071521333
601.875 0.0693368369692 -102.077952556
602.5 0.0642679498907 -68.3776583658
603.125 0.0473561035468 -52.487093403
603.75 0.0275007485604 -55.573584564
604.375 0.0415683187178 -25.2819109685
605.0 0.0514814631765 -32.7991817762
605.625 0.0577860748955 5.78328890278
606.25 0.0345765932031 24.6521847772
606.875 0.0357591755784 43.8896101775
607.5 0.0391355213776 35.2670748808
608.125 0.0704326250889 29.1126159995
608.75 0.054723454 16.4063818735
609.375 0.066705626526 28.067496475
610.0 0.0616559661166 32.0260974048
610.625 0.0731974097701 42.6875484232
611.25 0.0605479589417 41.2342883298
611.875 0.0393033316277 46.9450402637
612.5 0.0122321831843 18.7190811102
613.125 0.0506521222402 126.041531812
613.75 0.0534809156154 118.382317325
614.375 0.0388328740009 122.10335791
615.0 0.026424144377 107.300831734
615.625 0.0414716475132 132.918256263
616.25 0.0492670047991 133.746947936
616.875 0.0409315735107 128.020857333
617.5 0.0196169454345 102.715268145
618.125 0.054125887775 136.88272851
618.75 0.0297735370333 139.940864369
619.375 0.012971825617 143.675545356
620.0 0.0168665615127 -29.5145604025
620.625 0.0276473101714 -176.391167537
621.25 0.0431409688735 -127.338207554
621.875 0.0705399574227 -115.25079095
622.5 0.0693254129638 -151.939780909
623.125 0.0764513234021 172.163989187
623.75 0.061559892 167.303330686
624.375 0.0391283922106 -167.548115777
625.0 0.0428422090914 -153.466909765
625.625 0.0233599794041 -140.403715423
626.25 0.0359848910244 -177.91859614
626.875 0.0133361701046 148.700552123
627.5 0.0221985657998 -21.4121646071
628.125 0.0538196620671 -5.18808162331
628.75 0.0346486819965 -60.0967380609
629.375 0.034993189928 -32.5848993607
630.0 0.067487971212 -16.8373131939
630.625 0.0811954117808 19.3727285858
631.25 0.0688886851173 -1.32423984147
631.875 0.06551777515 -17.499304279
632.5 0.0602416005609 -7.50387672371
633.125 0.0543446625577 26.2064455393
633.75 0.0502471264387 -27.6600158298
634.375 0.0416126012212 -0.156817412121
635.0 0.0438846004238 26.1992589276
635.625 0.0330803524437 36.009746722
636.25 0.0650838830686 45.7157867682
636.875 0.0606301700033 22.3218736568
637.5 0.0382190406141 16.496651741
638.125 0.0319104289093 52.606667241
638.75 0.0954695093304 76.6408796893
639.375 0.0784655909435 72.1321735379
640.0 0.0685003400317 93.9696071388
640.625 0.0537084600089 90.7794905983
641.25 0.0738025535991 124.350677302
641.875 0.0524031856742 120.718017331
642.5 0.0481218484954 154.888843136
643.125 0.0556402021469 158.341813509
643.75 0.0869788535567 174.569944914
644.375 0.0567960322974 172.65633354
645.0 0.0653793647355 172.760884616
645.625 0.0834395404102 159.739931409
646.25 0.109131106642 167.400334975
646.875 0.0620157811937 166.041086287
647.5 0.0620303273405 178.884626931
648.125 0.0810706169586 176.842545738
648.75 0.0774595704904 -162.874195594
649.375 0.0499705157916 -155.301956973
650.0 0.0480315774021 -123.414609672
650.625 0.0662368170747 -88.8258273044
651.25 0.0673169423209 -65.2922069136
651.875 0.0744959963758 -44.9978078827
652.5 0.0744666775264 -24.7373952969
653.125 0.106765510095 -3.144235772
653.75 0.112320594985 6.3928779652
654.375 0.0904040638732 -0.935786580016
655.0 0.108896074502 7.50341303544
655.625 0.100940648467 23.2031179323
656.25 0.0615526292253 19.1185675571
656.875 0.077794966281 4.49302984401
657.5 0.0717877088017 15.7379896146
658.125 0.0505760653541 45.3289899738
658.75 0.0502428442343 59.8059165563
659.375 0.0935620369365 33.4808225801
660.0 0.087281486568 24.530511286
660.625 0.105722347281 15.7989963541
661.25 0.0992971283648 0.0974471042033
661.875 0.128629880883 -15.4157228985
662.5 0.0991214824485 -27.0210438926
663.125 0.101637222183 -17.0076162126
663.75 0.0968028789863 1.50476032177
664.375 0.115434857787 51.9503297199
665.0 0.0734566641579 88.2046284792
665.625 0.0631775974897 103.344796663
666.25 0.0925061535867 125.287060937
666.875 0.0867767968118 170.381445777
667.5 0.0991343164481 -171.378920208
668.125 0.103598208074 177.425802111
668.75 0.132182535558 163.956066978
669.375 0.141365791813 173.946322752
670.0 0.0869113677171 -171.642502765
670.625 0.0932104918302 -173.583484915
671.25 0.113905561532 173.626264182
671.875 0.11529113802 164.630412282
672.5 0.0584984403194 155.10936185
673.125 0.0831386011638 152.217047219
673.75 0.115908542141 153.861202909
674.375 0.103334742236 168.701018809
675.0 0.110620199886 -176.646617978
675.625 0.136107260723 -154.022754347
676.25 0.133452491453 -129.568052048
676.875 0.112845091415 -122.95151752
677.5 0.125760441046 -130.478095306
678.125 0.132472944786 -118.016856498
678.75 0.0712935942506 -96.1795951446
679.375 0.0601727071365 -83.4471132811
680.0 0.0714228773489 -77.9702980211
680.625 0.105364198976 -72.7018754425
681.25 0.0973425083949 -74.2443312546
681.875 0.104230540929 -98.7690021248
682.5 0.133576512686 -120.583084846
683.125 0.159158469224 -124.658510226
683.75 0.142842312604 -107.657206326
684.375 0.11910282994 -81.1331372194
685.0 0.145653673695 -46.3260633071
685.625 0.128339604135 -4.29734292509
686.25 0.0984086557114 21.9745527121
686.875 0.0873112997773 45.1511257498
687.5 0.0870501916414 73.7503698765
688.125 0.0748030781987 110.467042582
688.75 0.0956475961193 118.258964159
689.375 0.135725149251 120.961096786
690.0 0.142283183923 127.597434187
690.625 0.107954650892 131.531338824
691.25 0.138509105639 99.2573743595
691.875 0.188985715413 63.9691106351
692.5 0.153042862729 36.738568493
693.125 0.0976041047408 -20.3823319326
693.75 0.0904773809016 -37.028935341
694.375 0.131770205464 -28.3158877458
695.0 0.121768320147 11.1460086427
695.625 0.107132345111 46.0660809292
696.25 0.104748536226 121.803359383
696.875 0.135610360501 168.9296713
697.5 0.146649857116 -149.195290633
698.125 0.139712828057 -134.357660193
698.75 0.120423371648 -129.145770406
699.375 0.100582310127 -120.442299065
700.0 0.094004082202 -115.959638151
700.625 0.121374920779 -101.856008876
701.25 0.0858785632539 -55.1446389092
701.875 0.0785980447287 -57.5857458384
702.5 0.0957813490093 -80.8466355348
703.125 0.167784866635 -129.094993808
703.75 0.189911742576 -159.017551496
704.375 0.129782327317 168.95581689
705.0 0.110365584479 158.825552086
705.625 0.141764039911 -171.98017066
706.25 0.157691059215 -122.996093509
706.875 0.0848623348314 -57.7847713841
707.5 0.0728017387204 -31.6628273924
708.125 0.0865575845231 23.130180983
708.75 0.111495995385 50.884550883
709.375 0.104695139341 114.718252526
710.0 0.104161926621 130.876991903
710.625 0.106578951443 147.538011416
711.25 0.116749931163 161.466960253
711.875 0.145708010929 167.236310363
712.5 0.14985947681 149.994943831
713.125 0.123561721005 100.865174903
713.75 0.109054037043 35.7412977936
714.375 0.102141977558 21.7477494665
715.0 0.114182722552 24.0397496684
715.625 0.0885241116387 44.8335057177
716.25 0.0791462133688 73.6521792803
716.875 0.107148754765 90.5072013327
717.5 0.15145872327 159.249039749
718.125 0.122629382899 168.178178544
718.75 0.0984686014727 173.369309208
719.375 0.112673478109 -177.890311084
720.0 0.127468382469 -140.372543631
720.625 0.116806047942 -76.7767756759
721.25 0.0976340727306 -22.6572431058
721.875 0.0880766037211 11.295928192
722.5 0.0827275165701 87.7699208621
723.125 0.0970583451064 80.9026949216
723.75 0.109402611073 47.9005162318
724.375 0.103122891467 -9.5579550056
725.0 0.0983967457769 -36.0401680367
725.625 0.0995251772773 -67.8636118848
726.25 0.119709786949 -63.1036031877
726.875 0.104913048768 -51.9991251202
727.5 0.0782488634804 -49.8903822162
728.125 0.0993453377318 12.3253665314
728.75 0.0970350048806 25.5693757178
729.375 0.0834998085683 25.3825591218
730.0 0.0613832382952 -6.94530988038
730.625 0.0531794410447 9.41002527248
731.25 0.0729076184928 60.2540983664
731.875 0.0625060685406 102.527910441
732.5 0.0747888097912 149.301782595
733.125 0.0623833676733 156.778748338
733.75 0.0774914446486 171.439726904
734.375 0.0588074907559 -175.493812975
735.0 0.0330087984116 117.363862129
735.625 0.0913321684633 154.790029803
736.25 0.0392218245407 139.205040596
736.875 0.0419217601995 169.856109955
737.5 0.0627888808328 177.203988358
738.125 0.0705353507842 178.988750435
738.75 0.0798079139016 -177.956799754
739.375 0.0413771425447 175.230975542
740.0 0.0457116279666 -150.089406194
740.625 0.0209074451126 -127.167519632
741.25 0.0829493215128 -154.533072711
741.875 0.0528671099926 -113.066915675
742.5 0.0270263793711 -11.588270993
743.125 0.0212514071114 119.986310528
743.75 0.069845342835 77.9252330596
744.375 0.0597075526464 90.1072204335
745.0 0.0530105290154 125.89183798
745.625 0.0651174450827 144.787524408
746.25 0.103861518563 65.3258889776
746.875 0.0715478826597 36.84519513
747.5 0.0436033955667 11.860178691
748.125 0.0253339981512 -11.9700062057
748.75 0.0223474366825 46.5909889478
749.375 0.054546533168 -66.0412641839
750.0 0.0420378908351 -127.41953149
