!Created with skrf (http://scikit-rf.org).
# GHz S RI R (50+0j) 
!freq	ReS11	ImS11	
500.0	-0.2531233667	-0.3918849599	
500.625	0.4778339923	-0.9158055954	
501.25	-0.7231223508	-0.2759339789	
501.875	0.09533522379	-0.2874871014	
502.5	-0.07576465105	-0.1573307165	
503.125	-0.01989106687	0.02041278415	
503.75	-0.02849467501	0.07896019956	
504.375	0.021631199	-0.04295233207	
505.0	0.01129741817	0.01273013514	
505.625	-0.00392483538	-0.0833119771	
506.25	-0.05107689071	0.03823538689	
506.875	-0.3423248028	-0.08848841239	
507.5	-0.2274380149	0.0156423705	
508.125	0.4099959873	-0.6057917488	
508.75	0.329467625	-1.065796752	
509.375	-0.2839661798	-0.5654203949	
510.0	-0.1556180035	-0.337015468	
510.625	-0.1502125034	-0.139522485	
511.25	-0.0341992425	0.003265475097	
511.875	-0.1143567484	-0.09671338342	
512.5	0.008045048235	0.03724290441	
513.125	0.02194035528	-0.02346956544	
513.75	-0.07657780995	-0.08487608978	
514.375	-0.002809875876	0.06671134151	
515.0	0.07732455256	-0.2286481744	
515.625	-0.2182920636	0.0350097138	
516.25	0.1739361498	-0.7675723368	
516.875	-0.2938716113	-0.548749219	
517.5	-0.1104438523	-0.03176950205	
518.125	-0.02044705564	-0.07162358864	
518.75	0.01349422877	-0.03072768012	
519.375	-0.05604644952	0.009335449313	
520.0	0.1266913311	0.04328762253	
520.625	0.09234882831	-0.08950819942	
521.25	-0.03501110273	-0.2043401939	
521.875	-0.1611252905	-0.08883561416	
522.5	-0.02049875964	0.09629564888	
523.125	-0.04356591653	-0.0768943105	
523.75	-0.1880559625	0.05683285493	
524.375	0.008986485843	0.02214218917	
525.0	-0.1554658739	0.1579542449	
525.625	0.1157899299	0.005687471333	
526.25	-0.04851054896	0.05853078094	
526.875	0.01905049884	0.03226395499	
527.5	-0.09889707034	0.09279229195	
528.125	0.06075368097	0.3201360732	
528.75	0.01193096292	0.1462174667	
529.375	-0.002488799023	0.06068595467	
530.0	-0.02776234004	0.1390123514	
530.625	0.05628227927	0.1731885982	
531.25	0.3434004692	0.1568854852	
531.875	0.1055691609	-0.234938346	
532.5	-0.01228994543	0.01374583274	
533.125	-0.05663910477	-0.1400122633	
533.75	0.008086737462	0.01540919567	
534.375	-0.08299623794	-0.3219509596	
535.0	-0.1959494246	0.01630831057	
535.625	-0.1287527505	0.03813049214	
536.25	-0.0005766341548	0.1121892042	
536.875	0.05200097849	-0.02142460519	
537.5	0.08189747451	-0.01732531361	
538.125	0.08158647633	-0.1073573716	
538.75	0.08490546543	-0.08957660589	
539.375	-0.05897657941	-0.1767718261	
540.0	-0.2069420157	-0.08607112118	
540.625	-0.08919323874	-0.003030534516	
541.25	-0.08293886323	-0.04102034514	
541.875	-0.0287094731	0.03238633032	
542.5	0.02512325731	-0.06432029526	
543.125	-0.1054137868	0.01378912418	
543.75	0.03959271047	0.002545747215	
544.375	-0.0904328716	0.05537696045	
545.0	0.03448820595	0.01711383679	
545.625	0.0002914580577	0.08227083208	
546.25	0.1527090457	0.01981505764	
546.875	0.0424728154	-0.02529440126	
547.5	0.1008620796	-0.1239206244	
548.125	-0.09761214523	-0.1167580742	
548.75	-0.04491523947	-0.09143946789	
549.375	-0.1348007065	-0.08555328527	
550.0	-0.03776720521	0.04563316163	
550.625	-0.05877315281	-0.02743214936	
551.25	-0.07555841345	0.05662394278	
551.875	-0.03582178471	0.04753045617	
552.5	-0.06041256938	0.06720669375	
553.125	0.009424383986	0.05095839228	
553.75	0.02695176457	0.04320393994	
554.375	0.08738432045	-0.01502083749	
555.0	0.07985007109	-0.06153849003	
555.625	0.07440113946	-0.100984452	
556.25	0.04315328404	-0.1312112028	
556.875	-0.04336558263	-0.13300079	
557.5	-0.09215809949	-0.08517191049	
558.125	-0.1079640715	-0.03062112338	
558.75	-0.1009464548	0.0108420311	
559.375	-0.09081123878	0.02129876806	
560.0	-0.09174206949	0.07644549721	
560.625	-0.02170624297	0.1012966169	
561.25	-0.01590739825	0.08280439588	
561.875	0.05827382327	0.04300320766	
562.5	-0.0159469235	0.03384942247	
563.125	0.09304408448	0.08343890441	
563.75	0.1207397241	-0.04621826142	
564.375	0.09512231564	-0.05074148116	
565.0	0.08129693594	-0.1750543258	
565.625	-0.07509546726	-0.09921138439	
566.25	-0.04940740779	-0.1241207932	
566.875	-0.1789609208	-0.0357129027	
567.5	-0.06096549879	-0.06517870659	
568.125	-0.1712702989	-0.2194015314	
568.75	-0.1959429927	0.01490774588	
569.375	-0.1711692545	-0.01307947862	
570.0	-0.1639373708	0.2416792515	
570.625	0.05069664328	0.1588745351	
571.25	-0.06272386398	0.05107615215	
571.875	0.139212341	0.079390793	
572.5	0.01808304032	0.0001301493293	
573.125	0.1749892744	-0.1369597964	
573.75	-0.04396959728	-0.1378702804	
574.375	0.04715110929	0.02117751941	
575.0	0.03024900389	-0.1236838983	
575.625	-0.01371032555	0.007680267791	
576.25	0.1216790874	-0.1002805618	
576.875	-0.08131520145	-0.169266951	
577.5	-0.002982006751	-0.05999559672	
578.125	0.02460024748	-0.2080841034	
578.75	-0.2049952972	-0.08384096671	
579.375	0.005547612297	-0.00467072725	
580.0	-0.098636689	-0.1259629163	
580.625	0.008727052769	0.1163074242	
581.25	-0.1469101471	-0.05060944976	
581.875	0.09089757215	0.263612675	
582.5	0.1078332183	0.02927646614	
583.125	-0.02655674172	0.09189222974	
583.75	0.1396656167	0.003957559228	
584.375	-0.08278833637	0.108289358	
585.0	0.196756543	0.0441143807	
585.625	0.05056352614	-0.04867071939	
586.25	0.1406863723	0.02759069964	
586.875	0.05932655895	-0.2047654475	
587.5	-0.07814350999	-0.06079708871	
588.125	0.06493223634	-0.1089830808	
588.75	0.002817830229	-0.2090974902	
589.375	-0.03192082487	-0.0392840608	
590.0	-0.003176591478	-0.2519105539	
590.625	-0.1679567204	0.0566362997	
591.25	-0.09743720676	0.01523639568	
591.875	-0.1064950079	0.2074551753	
592.5	0.1080266756	-0.01890940178	
593.125	-0.1138243712	0.09344209215	
593.75	0.1358604378	0.06803164841	
594.375	0.03468201123	0.1064911895	
595.0	0.1636784144	0.1604836823	
595.625	0.2149263505	-0.006815382178	
596.25	0.06952829866	0.08365256422	
596.875	0.2077394972	-0.01236770838	
597.5	0.07702386512	0.01383798013	
598.125	0.1162804924	0.166882184	
598.75	0.2157163392	0.02381776178	
599.375	0.1495103798	-0.03070682134	
600.0	0.1732129017	-0.07270788383	
600.625	0.1660358306	-0.2142130467	
601.25	-0.03518346187	-0.1463462905	
601.875	0.05171546855	-0.1866992765	
602.5	-0.1804522216	0.05457780153	
603.125	-0.02683629488	-0.004932374898	
603.75	-0.2128126552	0.1011228654	
604.375	0.03045715875	0.1049922133	
605.0	-0.128454722	-0.0008078909509	
605.625	-0.07672405929	0.1529555744	
606.25	-0.06137284766	-0.02103761834	
606.875	-0.1992149536	0.004139155254	
607.5	-0.0668172142	0.1402457526	
608.125	0.006377738502	0.1494662997	
608.75	0.1571334351	0.1820476805	
609.375	0.2245607897	-0.07233444497	
610.0	0.09004281387	-0.07432380998	
610.625	0.1363005192	-0.1702605817	
611.25	-0.04743920375	-0.1802887781	
611.875	0.000429295398	-0.07204054352	
612.5	-0.1995617121	-0.1604816747	
613.125	-0.1284970784	0.1457821562	
613.75	-0.09286811322	0.02607885963	
614.375	0.07859691595	0.1953682908	
615.0	-0.005149472947	-0.07254042356	
615.625	-0.04580632889	0.1813366919	
616.25	0.07429715151	0.1128717833	
616.875	-0.1214653511	0.1551737122	
617.5	0.01121673316	0.2414079799	
618.125	0.06370261842	0.1804326846	
618.75	-0.01952721558	0.08854367527	
619.375	0.0653311972	0.1674925853	
620.0	0.2875610682	0.0428095838	
620.625	0.09480484103	-0.09292532789	
621.25	-0.1175121531	-0.2199280765	
621.875	-0.1710869705	0.02155260267	
622.5	-0.1113391401	-0.03129883854	
623.125	-0.03057928289	0.2398846196	
623.75	0.114381439	-0.04852018674	
624.375	0.03995397452	0.03621264292	
625.0	0.01380129258	-0.1075552277	
625.625	0.05435851804	-0.009972121402	
626.25	-0.05228089996	-0.1885432407	
626.875	-0.1451664404	-0.001700389143	
627.5	-0.07662687026	-0.08793007198	
628.125	-0.1333456152	-0.05803574347	
628.75	-0.05578412049	-0.05045020592	
629.375	-0.05079136991	-0.1484174872	
630.0	-0.2386794736	-0.06734338361	
630.625	-0.200022672	0.2012275141	
631.25	-0.1468452644	0.1199700483	
631.875	-0.04930337362	0.3126249148	
632.5	0.1536156454	0.09404027083	
633.125	0.0776795873	0.1547171798	
633.75	0.1955034493	-0.1475695787	
634.375	0.04213033922	-0.04747449563	
635.0	0.02932856005	-0.2195591622	
635.625	-0.1804849089	0.01445041791	
636.25	-0.06784451763	0.005647954241	
636.875	-0.1488136318	0.1441032769	
637.5	0.06429102565	0.1100002888	
638.125	-0.1043863603	0.01487842042	
638.75	-0.06111471296	0.2359555345	
639.375	0.0727409317	0.1397243836	
640.0	0.06255812465	0.2758324358	
640.625	0.3114984969	0.0862083704	
641.25	0.1707482137	-0.07177618736	
641.875	0.2159962154	-0.1059185994	
642.5	-0.04859285373	-0.3483956875	
643.125	-0.08642859203	0.02034323159	
643.75	-0.002637664836	-0.2686371763	
644.375	-0.2524637363	0.1341796758	
645.0	-0.006568749606	-0.01352571443	
645.625	0.02217561932	0.3332226085	
646.25	0.2295292974	-0.1587451644	
646.875	-0.01097043007	0.08879413193	
647.5	0.1713422777	-0.05495062997	
648.125	-0.0328141595	0.07668279411	
648.75	0.4056597515	-0.02753832288	
649.375	0.0934160484	-0.3567613973	
650.0	0.05583193021	-0.1496794962	
650.625	0.2782318576	-0.2427735303	
651.25	0.06435232548	-0.3830205944	
651.875	0.1271050018	-0.019471549	
652.5	0.3835997542	-0.1015790587	
653.125	0.1502161112	-0.2351049829	
653.75	0.1672591337	-0.05264456358	
654.375	-0.05713823459	-0.4267490383	
655.0	-0.2707543338	0.06810025154	
655.625	-0.06151234162	0.0118389626	
656.25	-0.07793485014	0.3244258893	
656.875	0.1605113192	-0.1109280605	
657.5	-0.07475259907	0.2466442655	
658.125	0.2607666621	0.05387787998	
658.75	0.1234558731	0.0407666509	
659.375	0.5245616059	-0.1109635604	
660.0	0.02525936134	-0.4070284304	
660.625	0.08841050129	-0.1625772455	
661.25	0.2243371809	-0.2981068737	
661.875	0.1121524054	-0.3669734572	
662.5	0.09281984647	-0.09773742651	
663.125	0.366083473	-0.2036248445	
663.75	0.01930232586	-0.3089148987	
664.375	0.04271149403	-0.2319376956	
665.0	-0.3190510492	-0.2547688264	
665.625	-0.2012696177	0.194748583	
666.25	-0.1096128868	0.1161777314	
666.875	0.1293079702	0.2929205282	
667.5	0.19204654	-0.03701257012	
668.125	0.1066140478	0.1208945032	
668.75	0.2586630293	-0.2956198117	
669.375	-0.04043876618	-0.1253566132	
670.0	0.1029905132	-0.1889457242	
670.625	-0.1770434979	-0.2754007724	
671.25	0.03093413187	-0.01151071744	
671.875	0.2009654063	-0.2906203883	
672.5	0.08331513178	-0.210693623	
673.125	0.1250603514	-0.08577748149	
673.75	0.2542106276	-0.2008854913	
674.375	-0.090686015	-0.3035685179	
675.0	-0.0153230809	-0.1138342569	
675.625	-0.2233938854	-0.1885938934	
676.25	-0.1546986107	0.09360387008	
676.875	-0.04678558356	-0.08605682181	
677.5	-0.2447565513	0.1004096844	
678.125	0.02028411191	0.1276590156	
678.75	-0.08217811561	0.1690609367	
679.375	0.4024655517	0.1391090984	
680.0	-0.06034239397	-0.204212674	
680.625	0.1517001586	0.07362654715	
681.25	0.1147894769	-0.184038241	
681.875	-0.109680802	0.1369818688	
682.5	0.3306270389	0.2184607802	
683.125	0.1796939554	-0.1745282191	
683.75	0.1983858158	0.258621039	
684.375	0.3676297332	0.09298474488	
685.0	0.1184701444	-0.1192766481	
685.625	0.1155674375	0.141213331	
686.25	0.4360157707	-0.1048409343	
686.875	0.1113761938	-0.2240103115	
687.5	0.2686815303	-0.2213239753	
688.125	-0.08874192248	-0.5510141443	
688.75	-0.2950498426	0.04114529457	
689.375	-0.3538375696	0.1703761356	
690.0	0.1901457797	0.4238056528	
690.625	0.1614176513	0.0175633391	
691.25	0.2418969957	0.4146525258	
691.875	0.6354549713	0.03410972716	
692.5	0.2594601684	0.1560942613	
693.125	0.7054823837	0.0579138445	
693.75	0.5105064762	-0.4781138872	
694.375	0.3621869354	-0.1159662391	
695.0	0.5547243326	-0.2646767217	
695.625	0.2417073049	-0.1486535069	
696.25	0.3119802685	0.1678320792	
696.875	0.4568217345	0.4893406918	
697.5	0.2903409776	0.366874196	
698.125	0.4448768118	0.1745148522	
698.75	0.4742271313	-0.3686106899	
699.375	-0.4894204684	-0.3069086551	
700.0	-0.08795994086	0.1662248683	
700.625	-0.06373333538	0.3785420916	
701.25	0.2502611113	-0.001886984577	
701.875	0.1248026938	0.2496569198	
702.5	0.4652025425	0.2223626926	
703.125	0.2520226444	-0.08621320498	
703.75	0.3466630799	0.01722898809	
704.375	0.3182324107	-0.2813601974	
705.0	0.1070494192	-0.08659681791	
705.625	0.1978519644	0.1232690834	
706.25	0.09836033995	0.1099101275	
706.875	0.1689280056	0.1794489817	
707.5	0.1800485294	0.3653729718	
708.125	0.5010484154	0.01717688867	
708.75	0.1748716128	-0.470373647	
709.375	-0.1841390969	-0.2795971795	
710.0	-0.133612588	0.306768462	
710.625	0.1505648544	-0.04737332778	
711.25	0.003817953823	0.2786777918	
711.875	0.2423602145	-0.04629463787	
712.5	0.1801125748	0.05736498644	
713.125	0.3056557092	-0.2152140582	
713.75	-0.00752437008	-0.270147969	
714.375	0.05871412309	-0.1222861787	
715.0	-0.0676930384	-0.2851530658	
715.625	-0.06814045283	-0.1329448526	
716.25	0.2217017567	-0.1581568738	
716.875	0.3155279944	-0.2386730603	
717.5	0.2850742403	-0.1003444199	
718.125	0.5888934073	0.2032424889	
718.75	0.7820339986	-0.2374193368	
719.375	0.3740188888	-0.6293452343	
720.0	0.6114510544	-0.2438176513	
720.625	-0.09782389565	-1.110915609	
721.25	-0.08923226227	-0.3439456941	
721.875	0.1201840567	-1.232006409	
722.5	-0.9102716841	-0.5138416376	
723.125	-0.3069102101	-0.009919925861	
723.75	-0.529173735	0.4523966966	
724.375	0.3309867448	0.3826785823	
725.0	0.03462805064	0.2111234411	
725.625	0.1951602345	0.5540083332	
726.25	0.3280303172	0.4748146787	
726.875	-0.2113834023	0.604468001	
727.5	-0.1382923294	1.45727659	
728.125	0.6261061402	1.445352923	
728.75	-0.5013063517	1.612808213	
729.375	-0.944184633	3.814162722	
730.0	1.415209375	3.072337356	
730.625	-0.6007810207	1.75242003	
731.25	-1.166460526	4.427328318	
731.875	0.5061981438	3.814218069	
732.5	-2.654649547	-0.1330915787	
733.125	-3.211614417	1.207133175	
733.75	0.06848724601	1.107399662	
734.375	0.2941531404	0.7390921131	
735.0	-0.2695624414	-1.063384639	
735.625	-0.04973148774	0.2058630562	
736.25	-0.2624952189	0.4897518816	
736.875	0.6810320357	0.4720304211	
737.5	0.4264274221	-0.2774546238	
738.125	1.560830825	0.2216423812	
738.75	1.350753797	-2.025798593	
739.375	0.2803429662	-1.008244472	
740.0	3.573899678	0.5682085939	
740.625	4.943377298	-3.631129128	
741.25	-1.50598735	-1.499738142	
741.875	-5.012758497	0.2141436919	
742.5	-3.386313062	-0.5824930998	
743.125	0.7451071596	0.07139389896	
743.75	0.1579027249	-1.374012135	
744.375	-0.4090064745	0.2555752702	
745.0	-0.1169417241	0.05512996164	
745.625	0.1170103713	-0.207954936	
746.25	0.05182253273	-0.03802273314	
746.875	-0.3131653672	0.003404157812	
747.5	0.003147422002	0.2223346244	
748.125	0.08469662244	0.287820817	
748.75	0.2335881021	0.5326915044	
749.375	0.2191298254	0.3358500369	
750.0	-0.2971500026	0.1610428207	
