!Created with skrf (http://scikit-rf.org).
# GHz S RI R (50+0j) 
!freq	ReS11	ImS11	
500.0	2.181446371	-4.225681091	
500.625	0.2752699821	-3.979772061	
501.25	-0.6224913764	-1.204997958	
501.875	-1.455660479	-2.17928075	
502.5	-0.4740181414	-0.2165356487	
503.125	-0.1231515159	-0.08993685311	
503.75	0.1082460469	0.4899810009	
504.375	-0.06781453973	-0.04874367226	
505.0	0.2543004057	-0.09792157371	
505.625	-0.2277177196	-0.04060617988	
506.25	0.2789358374	-0.4777827718	
506.875	-0.4240564745	1.002363175	
507.5	1.070056943	-0.9557173563	
508.125	-0.02247585116	-3.514600683	
508.75	-1.056365079	-2.288086893	
509.375	2.63661069	-4.099507293	
510.0	-3.336116166	0.4684825764	
510.625	-0.07173889431	-0.2132920011	
511.25	-0.2427155092	-0.4062043597	
511.875	-0.4026649327	0.01343303164	
512.5	-0.07629761658	0.08181313964	
513.125	0.02637513688	-0.3570072286	
513.75	-0.4349470296	-0.1387277059	
514.375	0.1523040443	-0.08701788111	
515.0	-0.9298072186	-0.5100199008	
515.625	2.199341092	0.04493993723	
516.25	-2.856858576	-4.465199992	
516.875	-0.5265446813	0.7592518872	
517.5	0.6035763306	-0.8537689607	
518.125	-0.3839061778	0.2958260872	
518.75	0.3398430031	-0.9538835341	
519.375	-0.2067706804	0.2968748902	
520.0	0.1928923392	0.04599130844	
520.625	0.6831435499	0.03852353587	
521.25	-0.3403667792	-0.8648796443	
521.875	-0.1335851662	-0.1151962362	
522.5	-0.2752501977	0.1293121098	
523.125	-0.03663492641	-0.1583446979	
523.75	-0.4466798734	0.1517274687	
524.375	-0.164239927	-0.148632933	
525.0	-0.2822188574	0.6710584096	
525.625	0.128463341	-0.1808424073	
526.25	0.03013391056	0.1817514855	
526.875	-0.1430617712	-0.09788428868	
527.5	-0.2643275204	0.9810613896	
528.125	0.3612214871	0.3629957714	
528.75	-0.4664624629	0.8023927391	
529.375	0.4407367918	0.1242736791	
530.0	-0.4709911053	0.752718632	
530.625	0.6802420944	0.6768045199	
531.25	0.8727935081	0.8199531787	
531.875	0.7397501433	-1.059549885	
532.5	0.2327848687	0.05167790971	
533.125	-0.3617715439	-0.7552194529	
533.75	0.9252793873	-0.003302730921	
534.375	-0.8824942506	-1.107900201	
535.0	-0.2313884875	-0.1083682309	
535.625	-0.7722714153	0.1803784679	
536.25	0.160683342	0.2467705002	
536.875	0.111763277	0.1834026681	
537.5	0.2840706826	-0.1888855351	
538.125	0.08379718221	-0.1397615259	
538.75	0.5659790598	-0.1787056516	
539.375	-0.3649192008	-0.3975331051	
540.0	-0.2151903495	-0.3121452689	
540.625	-0.4670343822	-0.1633641886	
541.25	-0.224627717	0.09075441482	
541.875	-0.05173536112	-0.04880664632	
542.5	-0.1646453081	-0.199748879	
543.125	-0.197269057	0.03831056049	
543.75	-0.1505437056	-0.197959965	
544.375	-0.1415872563	0.3032311904	
545.0	-0.0953094996	-0.08908802433	
545.625	0.3037266084	0.3834842796	
546.25	0.06223794037	-0.1536712156	
546.875	0.4436961433	0.2536985692	
547.5	-0.007597355177	-0.5157208408	
548.125	0.08115390685	-0.2027518331	
548.75	-0.2937553263	-0.507181507	
549.375	-0.4091564155	-0.04495757716	
550.0	-0.03145833714	-0.1111237245	
550.625	-0.2703027874	0.1071537056	
551.25	-0.06521627732	-0.02297918246	
551.875	-0.320588735	0.1875693779	
552.5	-0.02132395082	0.2111202097	
553.125	-0.1041734358	0.1396818636	
553.75	0.1440271888	0.1299859676	
554.375	0.2094167528	0.01562414561	
555.0	0.2725209582	-0.1443385458	
555.625	0.2235719965	-0.2750510041	
556.25	0.1725121793	-0.3387323946	
556.875	-0.06272801003	-0.4053982447	
557.5	-0.240216811	-0.279388365	
558.125	-0.2786210736	-0.09740152699	
558.75	-0.2445104382	-0.0425937458	
559.375	-0.308083759	0.03597935649	
560.0	-0.186431976	0.1806631578	
560.625	-0.1916368936	0.2130093328	
561.25	0.04549567161	0.3236516915	
561.875	0.04723628312	0.005289319009	
562.5	0.01358757451	0.2580333719	
563.125	0.1478908831	0.03504626331	
563.75	0.3259035532	0.1810943901	
564.375	0.3592683047	-0.3671506786	
565.0	0.08292503516	-0.2077992982	
565.625	0.06571688943	-0.475451874	
566.25	-0.3861076979	-0.1991588544	
566.875	-0.1719713568	-0.1726108174	
567.5	-0.3822434735	-0.4408960258	
568.125	-0.4724654813	-0.2657245129	
568.75	-0.2887905318	-0.3457925614	
569.375	-0.8694850088	0.2515078642	
570.0	-0.04237601557	0.5085638654	
570.625	-0.402028663	0.1252101267	
571.25	0.1324225346	0.6803680632	
571.875	-0.2089959132	-0.03272799745	
572.5	0.6578731102	0.1386343941	
573.125	-0.1410195879	-0.3742734682	
573.75	0.3405977104	0.05202938747	
574.375	0.05961462865	-0.5336940392	
575.0	-0.07442078727	0.1988430508	
575.625	0.3440413677	-0.3719113668	
576.25	-0.2106754791	-0.2953226531	
576.875	0.3209356665	-0.170536959	
577.5	-0.02406626646	-0.6788522403	
578.125	-0.2641442232	-0.2055170886	
578.75	0.06309740898	-0.2754358987	
579.375	-0.3065421784	-0.398155962	
580.0	-0.1521992997	0.1982968646	
580.625	-0.120643799	-0.3708588099	
581.25	-0.3029012778	0.452568507	
581.875	0.06449791735	0.01879361789	
582.5	-0.2662593493	0.5523684082	
583.125	0.6672902905	0.1862279124	
583.75	-0.3693084965	-0.01120184124	
584.375	0.549170914	0.2843128324	
585.0	-0.2138779321	-0.03122127977	
585.625	0.6452174685	0.3425206593	
586.25	0.305283202	-0.4545387571	
586.875	0.1409885402	0.005761603624	
587.5	0.1409494564	-0.6075647455	
588.125	-0.3294587806	-0.2145692943	
588.75	0.4027224964	-0.1536706193	
589.375	0.2300694848	-0.6363327672	
590.0	-0.0956982868	-0.1466150378	
590.625	-0.3963335328	-0.3745204998	
591.25	-0.399205843	0.4136386995	
591.875	0.01457806157	0.1625728776	
592.5	-0.1814080477	0.08768206271	
593.125	0.1390190464	0.149722549	
593.75	-0.230702451	0.3016315147	
594.375	0.7068307481	0.3871806412	
595.0	0.2302140648	-0.07837760587	
595.625	0.1957754566	0.606890349	
596.25	0.8340219701	-0.1545085946	
596.875	-0.1161822533	0.2095765669	
597.5	0.6758097262	0.5032657741	
598.125	0.3596381651	-0.04565392726	
598.75	0.1675037544	0.5227757927	
599.375	0.7195617798	-0.1755184875	
600.0	0.204500778	-0.2434501085	
600.625	0.527741558	-0.2493583267	
601.25	0.176685002	-0.6458270827	
601.875	-0.07737092142	-0.1696360652	
602.5	-0.3789189993	-0.1818701366	
603.125	-0.2292736391	0.1232044488	
603.75	-0.2547692774	0.1710613395	
604.375	-0.2290897836	0.05271331977	
605.0	-0.323636757	0.2968222959	
605.625	0.06726825297	0.01636004594	
606.25	-0.6424597544	0.1066031493	
606.875	-0.09696190846	0.4053605566	
607.5	-0.603768255	-0.07411122299	
608.125	0.01860186883	1.088748142	
608.75	0.1050514237	0.0668065568	
609.375	0.8047675088	0.3326616275	
610.0	0.2279136165	-0.6120890465	
610.625	0.4066754053	0.04793649119	
611.25	-0.09088730046	-0.6707761542	
611.875	0.01025640816	-0.09192099845	
612.5	-0.5712691635	-0.4024712643	
613.125	-0.1355887678	0.2259268605	
613.75	-0.5208330323	0.2208983877	
614.375	0.3634304379	0.3079793153	
615.0	-0.2656607966	0.125101812	
615.625	0.4043192608	0.2082866623	
616.25	-0.3363404277	0.06021746359	
616.875	-0.3759660648	0.7457486706	
617.5	0.1926427504	0.3347216641	
618.125	-0.4426465864	0.5365711961	
618.75	0.2694241191	0.5654245446	
619.375	-0.01746136642	0.2380566061	
620.0	0.6326392898	0.246803755	
620.625	0.1619462182	-0.2715431821	
621.25	-0.09899977227	-0.5860483501	
621.875	-0.4325605655	-0.1097261759	
622.5	-0.5478552641	-0.1173228883	
623.125	0.06061996934	0.6323326954	
623.75	-0.06317991294	0.1044386214	
624.375	0.4018332561	-0.344150634	
625.0	-0.09909391427	0.2430354258	
625.625	0.412122106	-0.5151175332	
626.25	-0.3084963345	0.08961275025	
626.875	-0.08662327321	-0.5766914563	
627.5	-0.6302229272	0.0280746771	
628.125	0.003667596547	-0.01533013609	
628.75	-0.07606875833	-0.6122346283	
629.375	-0.3962434593	-0.1699089039	
630.0	-0.2214289311	-0.359774449	
630.625	-0.7183926391	0.0645485469	
631.25	-0.2029688768	0.5033004721	
631.875	-0.2531261489	0.4256619255	
632.5	0.3878061598	0.623933975	
633.125	0.4792655354	0.1034289496	
633.75	0.3173631737	-0.08223805088	
634.375	0.3827693577	-0.3046379165	
635.0	-0.2880188148	-0.3261331193	
635.625	-0.007745660164	-0.3730825667	
636.25	-0.6863729673	0.2558026647	
636.875	0.1840324564	0.2864625114	
637.5	-0.6080933175	-0.05378029812	
638.125	0.2979490391	0.4914697039	
638.75	-0.4615244827	-0.06316697875	
639.375	-0.06584046079	1.069945121	
640.0	0.5280584686	0.2278580077	
640.625	0.09818918877	0.5683250098	
641.25	1.050735508	0.05780402383	
641.875	0.07854371089	-0.5303502577	
642.5	0.3644723021	-0.2739353613	
643.125	-0.6430305425	-0.6221733694	
643.75	0.0766397854	0.1565071663	
644.375	-0.6506041154	-0.3249245762	
645.0	-0.2536612189	0.588250372	
645.625	0.09277655348	0.2048384457	
646.25	0.2191370432	0.6015966026	
646.875	0.4716005734	-0.387788122	
647.5	-0.2445084667	0.2881810347	
648.125	0.8444172065	0.1560845646	
648.75	0.03506109829	-0.437359477	
649.375	1.166058282	0.07192939581	
650.0	0.2816524229	-1.478603227	
650.625	-0.1486943	-0.1081508769	
651.25	1.274999114	-0.3267890927	
651.875	0.396549276	-1.188256893	
652.5	0.1750569512	0.3249745689	
653.125	1.246927624	-0.1526004578	
653.75	0.09376420905	-0.8236107427	
654.375	0.2759157458	-0.2643034831	
655.0	-1.062383758	-0.7571777449	
655.625	-0.116554562	0.6710492659	
656.25	-0.2320519391	0.04795467756	
656.875	0.2672950625	0.5904221987	
657.5	-0.03778428825	-0.2042507699	
658.125	0.2428780174	0.8534311712	
658.75	0.8832214675	0.01659119122	
659.375	0.4897833963	-0.3129393994	
660.0	0.8706368185	-0.2294290087	
660.625	0.2897488912	-1.412103775	
661.25	0.02935213412	-0.1821073976	
661.875	1.08136147	-0.4735307139	
662.5	0.5654797787	-0.9662657903	
663.125	0.1840107698	0.04630224594	
663.75	0.995773403	-1.006367836	
664.375	-0.51998535	-0.5518696618	
665.0	-0.1105849697	-0.639283111	
665.625	-1.158667777	0.1362832115	
666.25	0.1227633714	0.6213693617	
666.875	-0.1334029163	0.5284748989	
667.5	0.7075012234	0.359911093	
668.125	0.2427528747	-0.2083113099	
668.75	0.7203214542	0.03119178982	
669.375	0.07876785438	-0.8449790853	
670.0	0.03463270611	-0.2576198386	
670.625	0.2365242896	-0.4942877156	
671.25	0.0489218071	-0.6419468421	
671.875	0.07584325328	-0.1152173414	
672.5	0.8693881001	-0.252892621	
673.125	0.3668405178	-0.7042095969	
673.75	0.205883832	-0.1572925097	
674.375	0.6847058675	-0.8222314622	
675.0	-0.8248152893	-0.43437831	
675.625	0.2679330733	-0.4254485393	
676.25	-0.9624816047	-0.2309512768	
676.875	0.01944270671	0.4476786493	
677.5	-0.5612637809	-0.5525088445	
678.125	-0.2411925832	0.8537482514	
678.75	-0.04869074513	0.1653428565	
679.375	0.389715455	0.6083229988	
680.0	0.5668712153	-0.6123202532	
680.625	-0.1615758862	0.2252977458	
681.25	0.6060653387	-0.1079836977	
681.875	0.222440907	-0.122255389	
682.5	0.2259951094	0.4325618105	
683.125	0.8743622453	0.342765804	
683.75	0.5468300502	-0.1126695145	
684.375	0.3198223255	0.2206784123	
685.0	1.042191042	0.5396035905	
685.625	0.6074723116	-0.7605397857	
686.25	0.4335208032	0.9478784822	
686.875	1.305542587	-1.230274201	
687.5	-0.03412008911	0.01617520996	
688.125	0.8511640601	-1.434038643	
688.75	-1.760924583	0.05289021613	
689.375	-0.4996238231	-0.3012904558	
690.0	0.1919330506	1.660952824	
690.625	0.5367602722	0.1010579603	
691.25	0.3872724898	1.119356248	
691.875	1.463295531	0.6138834306	
692.5	1.070989823	0.5249762623	
693.125	1.684457591	0.1414592126	
693.75	1.393170088	-0.6206646974	
694.375	1.100394303	-0.8211603429	
695.0	0.9616635667	-0.8066488309	
695.625	1.219079765	0.1788837586	
696.25	1.658023445	0.07312856975	
696.875	0.3280574313	0.7004887522	
697.5	1.213990004	2.044882265	
698.125	1.243040281	-0.2250633285	
698.75	1.770471825	-0.04286691773	
699.375	-1.561681707	-1.459179903	
700.0	-0.006044133135	0.2360462369	
700.625	0.02070172419	1.602007875	
701.25	0.5360464276	-0.1320229966	
701.875	0.1983593184	1.066002778	
702.5	1.355599622	0.2261659307	
703.125	0.4382682618	0.5043491625	
703.75	1.385019852	-0.2424454626	
704.375	0.1447217097	-0.5663732508	
705.0	1.091790138	0.1422816895	
705.625	0.5405556192	-0.6246208982	
706.25	0.04413302507	0.6909200906	
706.875	1.195842382	1.154999808	
707.5	0.272066174	0.1654047232	
708.125	1.321754131	0.9916230125	
708.75	0.6868221536	-1.323519688	
709.375	-0.1948926922	-0.5126794183	
710.0	-0.9316458492	0.4687047666	
710.625	0.4107006482	0.1806276994	
711.25	0.07677484171	0.5124910207	
711.875	0.5036455091	0.1574676997	
712.5	0.8756956	0.07012457049	
713.125	0.5373456309	-0.4263964174	
713.75	0.4911682226	-0.402307538	
714.375	-0.07966526758	-0.8707993069	
715.0	-0.08531528277	0.0113047937	
715.625	0.5015781005	-1.069372227	
716.25	-0.4755968065	-0.5732178986	
716.875	1.151026806	0.4635357403	
717.5	2.520894632	-0.5833376462	
718.125	-0.2347783123	-0.5987841261	
718.75	3.763672345	1.322748988	
719.375	1.471624084	-2.632366647	
720.0	1.177645912	-0.3917466419	
720.625	1.891296712	-4.323178504	
721.25	-1.353964214	-1.821405368	
721.875	0.7736258511	-2.607726161	
722.5	-1.847503065	-2.604498851	
723.125	-2.033225083	0.1074126904	
723.75	-0.9908560493	0.4156599655	
724.375	-0.0260804773	1.615897373	
725.0	0.5518921823	0.6063366334	
725.625	0.1101867814	0.9470595527	
726.25	-0.1717616252	2.267118006	
726.875	1.316290135	2.223497345	
727.5	-2.480666551	2.032595926	
728.125	-0.1933318168	8.111014536	
728.75	3.596645137	6.202304331	
729.375	-10.49755379	2.09002348	
730.0	3.865953561	22.05876609	
730.625	1.274119086	0.5435352137	
731.25	-13.51497444	8.998487797	
731.875	-6.306510738	16.14440918	
732.5	-2.937988535	-2.94853086	
733.125	-10.90277403	-0.7273399796	
733.75	-1.78960229	4.027814101	
734.375	1.151490723	0.4145969751	
735.0	1.470633168	-2.069012554	
735.625	-0.9431176416	1.299424353	
736.25	-0.9622971566	0.652726067	
736.875	1.267009338	2.152350124	
737.5	3.325551628	-0.5902683361	
738.125	1.31147398	0.3638030658	
738.75	8.781992874	-2.494898752	
739.375	2.597493381	-9.734830454	
740.0	-1.97644607	3.642912776	
740.625	15.59382914	16.92162011	
741.25	31.74171568	-31.57595218	
741.875	-3.399280637	-31.55938809	
742.5	-16.14523934	-7.758686936	
743.125	0.9498441654	2.21917809	
743.75	3.78189972	-6.048223602	
744.375	-1.726939284	0.8416967099	
745.0	-0.1716173702	-0.05322671808	
745.625	0.3975595092	-0.0469406005	
746.25	-0.1302626453	0.008579017196	
746.875	-0.6135144418	-0.1708614659	
747.5	-0.0656973094	1.30623685	
748.125	0.3892862126	0.9998780604	
748.75	0.4241640763	1.58872833	
749.375	1.226797371	1.196991536	
750.0	-0.3804751426	0.3269277946	
