!Created with skrf (http://scikit-rf.org).
# GHz S RI R (50+0j) 
!freq	ReS11	ImS11	
500.0	0.3965407251	-1.402278825	
500.625	-0.2029751163	-0.8169452614	
501.25	0.05031190685	-0.6093793682	
501.875	-0.4169444075	-0.4287805894	
502.5	-0.004464994667	-0.03718828373	
503.125	-0.08208982661	-0.02566265788	
503.75	0.07168704711	0.05955522938	
504.375	0.005900350686	0.01410364076	
505.0	0.01383088685	-0.05599714339	
505.625	-0.006896378831	0.009456474019	
506.25	-0.03031977001	-0.1375664648	
506.875	0.004365191331	0.1673898358	
507.5	0.140233003	-0.5060908773	
508.125	-0.09790008597	-0.7686635407	
508.75	0.4613975669	-0.3033443076	
509.375	0.1049296505	-1.013596232	
510.0	-0.4749810499	-0.2025156869	
510.625	-0.0163099126	-0.06605304445	
511.25	-0.1154371004	-0.09025029415	
511.875	-0.1213363793	0.02744646843	
512.5	-0.03285731794	0.01660335966	
513.125	-0.02399126965	-0.08450183822	
513.75	-0.0207283324	0.02328006381	
514.375	-0.02557748068	-0.1107616959	
515.0	-0.2090305085	0.1302841199	
515.625	0.3070797005	-0.4973658946	
516.25	-0.6153247572	-0.4344370153	
516.875	0.08766731833	-0.1724504834	
517.5	0.01339145907	-0.2363626266	
518.125	-0.07007846317	0.03148501176	
518.75	0.06452189183	-0.1602022411	
519.375	-0.02304669914	0.0414839091	
520.0	0.06797614924	0.01141003876	
520.625	0.1252575521	0.01724347208	
521.25	-0.02875308404	-0.324770156	
521.875	-0.1246656666	0.01631858503	
522.5	-0.04252504133	-0.03767539925	
523.125	-0.04454283815	0.1360888449	
523.75	0.01466684415	-0.0313502816	
524.375	-0.2757337231	0.014244261	
525.0	0.09590869315	0.116824039	
525.625	-0.05173216532	0.01917650071	
526.25	0.06227395067	0.01282258721	
526.875	-0.1017441718	0.07774306585	
527.5	0.03907232475	0.2440455836	
528.125	0.05821840445	0.09052389138	
528.75	-0.05441718962	0.2127070307	
529.375	-0.02622235434	0.02678625877	
530.0	-0.08735910163	0.1203907395	
530.625	0.02441590856	0.2186322955	
531.25	0.337287971	0.01068773894	
531.875	0.03450912895	-0.06639089568	
532.5	-0.08192141051	-0.1732850497	
533.125	0.06887316591	0.09265727026	
533.75	0.07935216186	-0.2682189032	
534.375	-0.1605121789	-0.123879438	
535.0	-0.1609269314	-0.1593346803	
535.625	-0.1532796782	0.156301413	
536.25	0.004135854388	0.04767337921	
536.875	0.09241005911	0.04646870088	
537.5	0.04513660481	-0.07259762542	
538.125	0.07882202273	-0.004999772879	
538.75	0.16452079	-0.1542481773	
539.375	-0.07679928745	-0.1374133854	
540.0	-0.0927120959	-0.1513857385	
540.625	-0.1462586414	-0.04750443356	
541.25	-0.06831740814	0.03904623328	
541.875	-0.003848323517	-0.0663955546	
542.5	-0.07094921594	-0.01681888914	
543.125	0.004736847001	-0.007759116219	
543.75	-0.1274894956	-0.01621806529	
544.375	0.06176884567	0.08505616841	
545.0	-0.05342939091	0.05298558218	
545.625	0.09242138648	0.03196384137	
546.25	0.01696669916	0.02579946286	
546.875	0.1731440938	-0.003356142213	
547.5	0.002117838239	-0.1209276562	
548.125	0.01680469093	-0.1115116979	
548.75	-0.1446633163	-0.1415753593	
549.375	-0.1092678339	0.003331683196	
550.0	-0.05889308717	-0.04032820233	
550.625	-0.05414153098	0.04891593344	
551.25	-0.05009532882	-0.001773086091	
551.875	-0.09613591693	0.06231472291	
552.5	-0.01641321313	0.06574170829	
553.125	-0.02850801156	0.05158137195	
553.75	0.04913371904	0.03552596248	
554.375	0.0688039867	-0.0006355477302	
555.0	0.0968645718	-0.0627529094	
555.625	0.07398640835	-0.09910440491	
556.25	0.05788444777	-0.1189696253	
556.875	-0.02737748922	-0.1452905334	
557.5	-0.09377420727	-0.09409773308	
558.125	-0.1054091578	-0.03249904248	
558.75	-0.09775930656	-0.006782074908	
559.375	-0.1105120816	0.0252005862	
560.0	-0.07603632813	0.0708343587	
560.625	-0.05978530307	0.0920305726	
561.25	0.01876966481	0.1096789699	
561.875	0.01703088259	0.009691671132	
562.5	0.01500507366	0.08112110519	
563.125	0.05696831322	0.03061079587	
563.75	0.129862559	0.03951585762	
564.375	0.14410473	-0.1279072918	
565.0	0.03238561296	-0.1100193901	
565.625	0.004148333234	-0.1706637637	
566.25	-0.1472766517	-0.07757856868	
566.875	-0.05409723191	-0.04699588998	
567.5	-0.1543465983	-0.1544522542	
568.125	-0.1746333815	-0.07437634348	
568.75	-0.1198949863	-0.1331834675	
569.375	-0.2747514482	0.1210890844	
570.0	-0.006964543155	0.1605830925	
570.625	-0.1084689324	0.110420675	
571.25	0.0600326204	0.178829757	
571.875	-0.01749979218	0.01089489491	
572.5	0.1939688254	0.02967315547	
573.125	-0.002479711404	-0.1451512737	
573.75	0.0791140817	0.0007884114307	
574.375	0.03649845807	-0.159164707	
575.0	-0.03457149658	0.02713670998	
575.625	0.1034091969	-0.1002638557	
576.25	-0.03047477572	-0.13095045	
576.875	0.02239325528	-0.03271856652	
577.5	0.0472219083	-0.2115257186	
578.125	-0.1158508051	-0.1215323429	
578.75	0.01265872528	-0.03159140412	
579.375	-0.09028546824	-0.1808200435	
580.0	-0.08721960338	0.1050948673	
580.625	-0.02697658098	-0.1474203292	
581.25	-0.08285218203	0.2224611526	
581.875	0.04516777606	0.03944863785	
582.5	-0.04648341511	0.2112937802	
583.125	0.1925244839	0.08869984396	
583.75	-0.05953259434	-0.02789499254	
584.375	0.1022599201	0.1182456351	
585.0	0.03136790248	-0.03955650225	
585.625	0.1305832467	0.1008469646	
586.25	0.1757344105	-0.1493076939	
586.875	-0.003774912637	-0.07172861404	
587.5	0.05376577638	-0.165220631	
588.125	-0.08857069982	-0.1605910606	
588.75	0.02585264304	-0.0366765348	
589.375	0.1224095182	-0.1913297758	
590.0	-0.1591056304	-0.1117390165	
590.625	-0.06585460806	-0.06669259601	
591.25	-0.2071321456	0.1120404113	
591.875	0.1022729143	0.1310068515	
592.5	-0.1290516347	0.01411359342	
593.125	0.08397919382	0.08193876152	
593.75	-0.0523279692	0.06988659577	
594.375	0.2042217605	0.1635683335	
595.0	0.07013115164	-0.0228078446	
595.625	0.08674432588	0.1367321363	
596.25	0.2266573834	0.04427657914	
596.875	0.08171080192	-0.02207283672	
597.5	0.1245910926	0.1506991191	
598.125	0.2175230817	0.07769754983	
598.75	0.1009547431	0.06497557286	
599.375	0.2220237277	0.03010164478	
600.0	0.1554807049	-0.1695220066	
600.625	0.05743817737	-0.1111687086	
601.25	0.1286673077	-0.1721481199	
601.875	-0.1489490255	-0.1402495354	
602.5	-0.005515824387	0.007793095762	
603.125	-0.2048703597	0.001345718374	
603.75	-0.03365270238	0.1490434242	
604.375	-0.1246845742	-0.05728337872	
605.0	-0.1219974308	0.1599612383	
605.625	0.01094072909	-0.07861044338	
606.25	-0.2060674579	0.0195497753	
606.875	-0.07170335396	0.1264420803	
607.5	-0.08810420799	0.07173546273	
608.125	-0.03361169393	0.2638859598	
608.75	0.2539848671	0.1140406196	
609.375	0.2126370752	-0.01982087813	
610.0	0.2026332125	-0.1021895537	
610.625	0.09861526127	-0.1899164187	
611.25	0.03033412888	-0.07064374818	
611.875	-0.06057217011	-0.190683844	
612.5	-0.1361417054	0.05000920412	
613.125	-0.1223019937	-0.07482855588	
613.75	-0.1495958314	0.2125930944	
614.375	0.122056851	0.01874135975	
615.0	-0.05737266729	0.1460117196	
615.625	0.08864810167	0.003559896716	
616.25	-0.08585473048	0.0460680289	
616.875	-0.1477717682	0.2601920974	
617.5	0.05558258753	0.2135556292	
618.125	-0.02823982618	0.2318025181	
618.75	0.03926642652	0.2493531486	
619.375	0.1289990493	0.07068804732	
620.0	0.1182016338	0.1081338236	
620.625	0.2212765189	-0.06076764519	
621.25	-0.1151721016	-0.1236871998	
621.875	-0.1408741574	-0.1414499467	
622.5	-0.2671373693	0.07454116259	
623.125	0.06505620285	0.1787800027	
623.75	0.05106089814	0.09089707665	
624.375	0.06827068491	-0.1255229522	
625.0	-0.007086490481	0.04879276694	
625.625	0.09437816928	-0.1398884801	
626.25	-0.1029759619	-0.07775301667	
626.875	-0.04511416709	-0.11618604	
627.5	-0.1854767043	-0.04774822534	
628.125	-0.09236703023	0.01715391823	
628.75	-0.0564571622	-0.08491648417	
629.375	-0.1359300885	-0.1423198797	
630.0	-0.106410484	-0.04402919431	
630.625	-0.240180191	0.01520690437	
631.25	-0.139413115	0.2335543002	
631.875	0.02152531408	0.1999974262	
632.5	0.007797910083	0.1769274879	
633.125	0.2435788097	0.01481614777	
633.75	0.03376643362	-0.09814165192	
634.375	0.1391332747	-0.08538423273	
635.0	-0.08845957429	-0.1700045021	
635.625	-0.0223064894	-0.02756575353	
636.25	-0.237422849	0.03286864903	
636.875	0.0202301235	0.1763682735	
637.5	-0.05571852622	-0.006439749311	
638.125	-0.08266959165	0.1803008758	
638.75	-0.005552652177	0.06239744949	
639.375	-0.1071802753	0.2418934528	
640.0	0.2143879084	0.2490512293	
640.625	0.1607572428	0.04683454145	
641.25	0.2303691716	0.09359459489	
641.875	0.2935105032	-0.2439265949	
642.5	-0.07824984805	-0.1469778037	
643.125	0.05787067385	-0.1545962783	
643.75	-0.2185026718	-0.01708661682	
644.375	0.1255321927	-0.02103846281	
645.0	-0.2892052555	0.142460487	
645.625	0.1629676188	0.178043997	
646.25	0.01932425151	0.04450582374	
646.875	0.2914570154	0.07962824643	
647.5	-0.08322981625	-0.09931608242	
648.125	0.2111717748	0.1720945803	
648.75	0.2312204594	-0.2281715455	
649.375	0.09077907663	-0.1108378241	
650.0	0.3151621767	-0.276016368	
650.625	0.01974174937	-0.3928598257	
651.25	0.1004889872	-0.02617878195	
651.875	0.3848560331	-0.149987467	
652.5	0.2239377561	-0.2372303259	
653.125	0.1502070858	0.01203652091	
653.75	0.3343256667	-0.2312508694	
654.375	-0.2212784225	-0.2828125474	
655.0	-0.1019296006	-0.07493029215	
655.625	-0.3016934793	0.187796038	
656.25	0.2784686328	0.1443069967	
656.875	-0.1252858407	0.03486629638	
657.5	0.2375422317	0.1562454953	
658.125	0.00339715507	-0.01471687053	
658.75	0.3209039891	0.2616830972	
659.375	0.31890887	-0.2847414213	
660.0	0.1218187249	-0.1104836317	
660.625	0.2600995925	-0.2959747549	
661.25	0.08533776909	-0.3930231818	
661.875	0.09768205859	-0.07710356995	
662.5	0.4041988816	-0.2039523303	
663.125	0.1731955402	-0.2770624763	
663.75	0.1304540901	-0.137555703	
664.375	0.03160338114	-0.3973200535	
665.0	-0.3157294977	-0.1030685892	
665.625	-0.2108177182	0.008042384156	
666.25	-0.1844234812	0.2902872035	
666.875	0.2379709231	0.1570018388	
667.5	0.05283302636	0.1190893059	
668.125	0.2972984274	-0.02321234806	
668.75	0.04280777758	-0.165230505	
669.375	0.1936028144	-0.089977786	
670.0	-0.0228150744	-0.3487299779	
670.625	-0.0838569418	-0.04094308178	
671.25	0.202314265	-0.2163500859	
671.875	0.07942079764	-0.2518874631	
672.5	0.09519345016	-0.04114280262	
673.125	0.3148068125	-0.1039633088	
673.75	0.05005121961	-0.2983729779	
674.375	0.08795270775	-0.1300850288	
675.0	-0.022478078	-0.3041239973	
675.625	-0.2690222609	-0.06464125245	
676.25	-0.03183135801	-0.02669666478	
676.875	-0.2447911942	-0.04257394419	
677.5	-0.09153770983	0.1229544415	
678.125	-0.122158899	0.001747429724	
678.75	-0.02671609585	0.3643864687	
679.375	0.2156503159	-0.07761204545	
680.0	0.08642891274	0.14268948	
680.625	0.2084588332	-0.2007902524	
681.25	-0.09214947501	-0.05221137809	
681.875	0.2429236959	0.2424240211	
682.5	0.2206315551	-0.1966555826	
683.125	0.03811693193	0.1417723608	
683.75	0.3196162273	0.2253587387	
684.375	0.2783364388	-0.1822305795	
685.0	0.01594427099	0.0810073396	
685.625	0.3993338557	-0.02716446908	
686.25	0.2143005921	-0.1405370797	
686.875	0.2087663201	0.01587914417	
687.5	0.4099970261	-0.3739355648	
688.125	-0.05527987813	-0.2895550815	
688.75	-0.2482129641	-0.2824549821	
689.375	-0.3853810137	0.3506652722	
690.0	0.231611888	0.2401120287	
690.625	-0.03219585258	0.3040625104	
691.25	0.5122963073	0.2761182388	
691.875	0.3085869689	0.1097125954	
692.5	0.501767304	0.4342272418	
693.125	0.7688094779	-0.2297246637	
693.75	0.3035715014	0.05211352788	
694.375	0.6155242569	-0.2986279808	
695.0	0.3983517774	-0.4272070244	
695.625	0.272606016	-0.06005964709	
696.25	0.5781513575	0.1468538323	
696.875	0.5148221068	0.2180440492	
697.5	0.2113685585	0.3765018299	
698.125	0.4381389309	0.1925511732	
698.75	0.457463413	-0.396818088	
699.375	-0.2251272692	-0.2315308927	
700.0	-0.4016692534	0.2336011799	
700.625	0.2585708149	0.258265843	
701.25	0.07368646794	0.06407579839	
701.875	0.2612898918	0.3609996232	
702.5	0.4057259972	0.05216648588	
703.125	0.2196649909	0.1755642996	
703.75	0.4843620441	-0.07984417549	
704.375	0.161660505	-0.2835261197	
705.0	0.1915145559	0.06299889414	
705.625	0.3638884837	-0.06314028095	
706.25	0.1606253543	0.01385732777	
706.875	0.3437256945	0.21527012	
707.5	0.3263129925	0.2910679612	
708.125	0.2710243969	-0.004413790695	
708.75	0.3815099494	-0.1943030361	
709.375	-0.04207008016	-0.462829837	
710.0	-0.1205929685	0.2342970909	
710.625	-0.07583814002	0.1069224344	
711.25	0.2128947176	0.06824364271	
711.875	-0.03764878488	0.04143588164	
712.5	0.3539942062	0.06121456234	
713.125	0.2093663513	-0.2648150221	
713.75	0.08004361594	-0.10131876	
714.375	0.09174575983	-0.2822044311	
715.0	-0.1350628933	-0.1712793576	
715.625	0.08196669459	-0.09051146815	
716.25	0.1963222191	-0.2948057096	
716.875	0.1113991711	-0.238678744	
717.5	0.3476934437	-0.01087847535	
718.125	0.7177483535	-0.002751556269	
718.75	0.3751402074	-0.2739044471	
719.375	0.4796569759	-0.1612850287	
720.0	0.5340019355	-0.8467017071	
720.625	-0.1507984511	-0.5030651971	
721.25	0.250719027	-0.8927262798	
721.875	-0.3986863756	-1.031223095	
722.5	-0.5887860256	0.121742541	
723.125	-0.5815132075	-0.4578153855	
723.75	-0.3508628244	0.5382433028	
724.375	0.101915318	0.1946322853	
725.0	-0.003934864529	0.5041246785	
725.625	0.3902551936	0.3467831092	
726.25	-0.07509491433	0.3469550269	
726.875	-0.261414719	0.9673523768	
727.5	0.2714946634	1.306192804	
728.125	0.1620380746	0.9409126895	
728.75	-0.7226079478	2.675616209	
729.375	0.5351126317	3.438391516	
730.0	0.04868775502	1.929593462	
730.625	-1.418230005	4.13434835	
731.25	0.5726112469	3.596327054	
731.875	-1.92168261	0.9844962424	
732.5	-4.139142619	-0.1207573832	
733.125	-1.905625697	1.03076805	
733.75	-0.5933338205	0.2124623309	
734.375	0.9139951151	0.7429800675	
735.0	-0.3409580803	-0.4634361156	
735.625	-0.2514307816	-0.2500105029	
736.25	-0.138164331	0.752294851	
736.875	0.4568175306	0.06876428998	
737.5	0.6641997567	0.7546926555	
738.125	1.733982596	-0.7216949697	
738.75	0.5486699004	-1.280652395	
739.375	1.619973325	0.1743612996	
740.0	5.689467461	-1.835738296	
740.625	0.2251449805	-2.149596193	
741.25	-3.061011984	2.891281416	
741.875	-2.912836336	2.741242029	
742.5	0.5297032479	-0.447534164	
743.125	0.8113382569	-2.279653226	
743.75	-0.5728058186	-1.208818068	
744.375	-0.09302991189	0.1301526284	
745.0	-0.0910660405	0.2209921384	
745.625	-0.04017737156	-0.06450234466	
746.25	0.1149808444	-0.1925111488	
746.875	-0.24415757	0.0700392565	
747.5	-0.003607509585	0.2336581417	
748.125	-0.0498014457	0.4868500482	
748.75	0.3512332685	0.4112010021	
749.375	0.07856047096	0.2336607287	
750.0	-0.3892031667	0.1475553692	
