!Created with skrf (http://scikit-rf.org).
# GHz S RI R (50+0j) 
!freq	ReS11	ImS11	
500.0	0.1983720733	-0.7460471151	
500.625	0.1532228932	-0.7809924561	
501.25	-0.3443163595	-0.6039735954	
501.875	-0.194971797	-0.3341390999	
502.5	-0.03096968782	-0.1143711506	
503.125	-0.05995460778	0.004536851147	
503.75	0.01095048691	0.06358251611	
504.375	0.02199753353	-0.005223375327	
505.0	0.01725181701	-0.01706542859	
505.625	-0.0004745218737	-0.04103317482	
506.25	-0.04890397702	-0.04662139794	
506.875	-0.09564964935	0.00464200517	
507.5	-0.07629734032	-0.2619728657	
508.125	0.1296963109	-0.5528958267	
508.75	0.3914459001	-0.8281333119	
509.375	0.006821581387	-1.040707635	
510.0	-0.4555325705	-0.1997599565	
510.625	-0.07607915668	-0.1075245222	
511.25	-0.08989349044	-0.05892622019	
511.875	-0.1054930511	-0.03811084393	
512.5	-0.007680987877	0.03547224041	
513.125	-0.01072844407	-0.04158832149	
513.75	-0.03684048763	-0.03848388643	
514.375	-0.04482528812	-0.006443181086	
515.0	0.01129436213	-0.0474275802	
515.625	0.04773665742	-0.2524500204	
516.25	-0.250133932	-0.5608033231	
516.875	-0.1447943163	-0.3256283556	
517.5	-0.03510850859	-0.1359312305	
518.125	-0.02277120546	-0.02285110677	
518.75	-0.04467909318	-0.1098308062	
519.375	-0.04728896986	0.02772902638	
520.0	0.08639030825	0.04477780946	
520.625	0.1260691957	-0.0488064805	
521.25	-0.02028945416	-0.2112137296	
521.875	-0.1229011914	-0.01663495589	
522.5	-0.03871595575	0.02369954924	
523.125	-0.04806810824	0.02040235573	
523.75	-0.08948043996	-0.006769819035	
524.375	-0.1291471703	0.03087377152	
525.0	-0.03523460895	0.110410532	
525.625	0.02781645099	0.03958167942	
526.25	-0.01153933087	-0.0096413627	
526.875	-0.04158726621	0.04206320483	
527.5	-0.03516994999	0.1491503157	
528.125	0.0502344743	0.2059014086	
528.75	0.03678364011	0.1720049183	
529.375	0.03961273523	0.04352952184	
530.0	0.02615504427	0.1255806494	
530.625	0.09895737054	0.2294964895	
531.25	0.3302354636	0.0728020499	
531.875	0.1737957605	-0.148165247	
532.5	-0.04301179172	-0.08790698642	
533.125	0.04732960523	-0.04466500495	
533.75	0.07876811993	-0.1505163471	
534.375	-0.07578829535	-0.2251153936	
535.0	-0.2028749148	-0.07765179759	
535.625	-0.1352575181	0.09454889092	
536.25	0.001495934958	0.08163806507	
536.875	0.07957502974	0.01064480269	
537.5	0.05518353103	-0.03724252555	
538.125	0.09442735156	-0.05215623357	
538.75	0.1038919412	-0.1064815657	
539.375	-0.06622392539	-0.1390561691	
540.0	-0.1446143477	-0.1223967435	
540.625	-0.1406834386	-0.0181744817	
541.25	-0.07340351042	0.005955411521	
541.875	-0.03815004757	-0.01800041232	
542.5	-0.03946060462	-0.04328911025	
543.125	-0.0678602632	-0.03642837578	
543.75	-0.07117173652	-0.003450195529	
544.375	-0.03998170683	0.03661243181	
545.0	-0.002585613282	0.05043830739	
545.625	0.04655830554	0.05284436401	
546.25	0.0837347888	0.03019738383	
546.875	0.1016840651	-0.02525541378	
547.5	0.05552234765	-0.1081779423	
548.125	-0.04182899319	-0.1377008235	
548.75	-0.1091389618	-0.09683260712	
549.375	-0.09874227665	-0.05486167927	
550.0	-0.06682400429	0.008436590613	
550.625	-0.04483780862	0.01030613711	
551.25	-0.06541411143	0.02601360979	
551.875	-0.06121570373	0.06162745997	
552.5	-0.03483334493	0.06737427619	
553.125	-0.01081296603	0.05434848193	
553.75	0.04158893641	0.04006579453	
554.375	0.08331077093	-0.004403216789	
555.0	0.08537335188	-0.06690030183	
555.625	0.07243836548	-0.0971572988	
556.25	0.0532649976	-0.1241977885	
556.875	-0.03396766576	-0.1408630704	
557.5	-0.09407356761	-0.09129206721	
558.125	-0.1055473557	-0.02968358354	
558.75	-0.09902835536	0.00285761248	
559.375	-0.09820625946	0.02455785846	
560.0	-0.08457047224	0.07040054679	
560.625	-0.04455382292	0.1019840064	
561.25	0.009925626281	0.09050324552	
561.875	0.02895181366	0.03896835542	
562.5	0.0111144177	0.04681707775	
563.125	0.06553277974	0.06352779466	
563.75	0.1252336548	-0.00152268962	
564.375	0.1123511485	-0.09084228798	
565.0	0.0601650226	-0.1344085889	
565.625	-0.03378781174	-0.1391857538	
566.25	-0.105596491	-0.09183094012	
566.875	-0.1256180877	-0.06378566304	
567.5	-0.1258822313	-0.0897741526	
568.125	-0.1316501605	-0.1298075693	
568.75	-0.1996219674	-0.05827308413	
569.375	-0.2000237848	0.0959391291	
570.0	-0.09544664209	0.182698398	
570.625	-0.03904171305	0.155172748	
571.25	0.009545255412	0.1019761896	
571.875	0.05335576905	0.06176082815	
572.5	0.1095435879	-0.00599209911	
573.125	0.07344301695	-0.1008190372	
573.75	0.03276694962	-0.09999818508	
574.375	0.00714090215	-0.0617175616	
575.0	0.02375564351	-0.03463875848	
575.625	0.03236508223	-0.06429498985	
576.25	0.0365563137	-0.09814908934	
576.875	-0.009315025756	-0.1251940608	
577.5	-0.008311203008	-0.1399606696	
578.125	-0.04582816351	-0.1378491261	
578.75	-0.07981521746	-0.1034334485	
579.375	-0.07893117559	-0.05398317835	
580.0	-0.04776280316	-0.02471698424	
580.625	-0.06302866285	-0.02198529418	
581.25	-0.08687253675	0.07073724035	
581.875	0.01181590931	0.1365759312	
582.5	0.05463358205	0.1203018647	
583.125	0.07004553031	0.06486570109	
583.75	0.03641900153	0.01673603084	
584.375	0.03283747188	0.0493531229	
585.0	0.09824471331	0.04768151084	
585.625	0.1368047761	-0.005846315823	
586.25	0.130673983	-0.06170332745	
586.875	0.05919877806	-0.1217799	
587.5	-0.01696177278	-0.122508471	
588.125	-0.02011648875	-0.1212138257	
588.75	0.02261644003	-0.1282053209	
589.375	0.04736507876	-0.1391390327	
590.0	-0.05938586786	-0.1494720682	
590.625	-0.161380246	-0.02912529204	
591.25	-0.109314075	0.1022283487	
591.875	-0.02407865423	0.1067348026	
592.5	0.01126474219	0.04289249039	
593.125	-0.02306684811	0.04380280863	
593.75	0.05102855831	0.1026628688	
594.375	0.1352463702	0.08097029903	
595.0	0.1514029883	0.07819356554	
595.625	0.1505235669	0.0592228117	
596.25	0.1398689659	0.02953656709	
596.875	0.1392039271	0.02483809696	
597.5	0.1331126728	0.06162345774	
598.125	0.1343618372	0.08901971592	
598.75	0.1575984948	0.0637920053	
599.375	0.1834886779	-0.04088349148	
600.0	0.1379026446	-0.1354483939	
600.625	0.1086653398	-0.1634964697	
601.25	0.04363700892	-0.17012884	
601.875	-0.07664927728	-0.1201664293	
602.5	-0.1143992956	-0.007497374068	
603.125	-0.09413322097	0.04849148568	
603.75	-0.0890837297	0.0680447129	
604.375	-0.08173373458	0.0695907739	
605.0	-0.05758254723	0.07062246389	
605.625	-0.06138588354	0.05845107611	
606.25	-0.09519866541	0.06183954309	
606.875	-0.1451005511	0.0831337944	
607.5	-0.1341179178	0.1663315096	
608.125	-0.0101702786	0.2183550631	
608.75	0.1677677407	0.1389568513	
609.375	0.2053965472	-0.04025604148	
610.0	0.1418363445	-0.1153103336	
610.625	0.06750966251	-0.1459099768	
611.25	-0.003498504839	-0.1414502279	
611.875	-0.08234330986	-0.1041767573	
612.5	-0.1469042988	-0.05054453587	
613.125	-0.1681216095	0.03985961166	
613.75	-0.07509742975	0.1335281425	
614.375	0.04593080052	0.09577521077	
615.0	0.03724243914	0.03509442365	
615.625	-3.465136926e-05	0.07705543205	
616.25	-0.03245000129	0.1293463544	
616.875	-0.06305500086	0.1702653357	
617.5	-0.04905855461	0.1983146637	
618.125	-0.006140922403	0.1893278718	
618.75	0.03045444357	0.1663565068	
619.375	0.09113082676	0.1416394725	
620.0	0.173116579	0.03142990996	
620.625	0.08931348808	-0.1459057974	
621.25	-0.08826036177	-0.1579357724	
621.875	-0.1835648669	-0.06635590323	
622.5	-0.1889625223	0.06212241846	
623.125	-0.0275058903	0.1693985939	
623.75	0.1209749584	0.0327554215	
624.375	0.03323546669	-0.0517870202	
625.0	0.0329373289	-0.02413037959	
625.625	0.04201560311	-0.08011218073	
626.25	-0.04587033007	-0.1206893556	
626.875	-0.1261071555	-0.07294555095	
627.5	-0.1324295161	-0.03360628913	
628.125	-0.1032937926	-0.05605407061	
628.75	-0.07304373762	-0.1048420982	
629.375	-0.08902563462	-0.1297270657	
630.0	-0.1678209074	-0.07888744583	
630.625	-0.1950695695	0.06798386946	
631.25	-0.1197842581	0.1812353998	
631.875	-0.008381493895	0.2214048561	
632.5	0.1391535908	0.1684633552	
633.125	0.1895643728	0.03781814989	
633.75	0.1471728325	-0.06735198684	
634.375	0.05161884692	-0.1243264509	
635.0	-0.01842070961	-0.1337335776	
635.625	-0.1343587122	-0.07455358926	
636.25	-0.1370711085	0.07056591616	
636.875	-0.05271497837	0.1158341394	
637.5	-0.02910301925	0.08114088058	
638.125	-0.05474012635	0.08166469637	
638.75	-0.05565473671	0.1503569504	
639.375	0.009275041669	0.2217971092	
640.0	0.1339835029	0.2101230498	
640.625	0.218728995	0.1218102219	
641.25	0.2464943875	-0.01460520757	
641.875	0.1463793884	-0.1731116184	
642.5	-0.01578691367	-0.1914852754	
643.125	-0.1129910723	-0.1034919819	
643.75	-0.122096661	-0.0596603778	
644.375	-0.1592550884	0.006139847497	
645.0	-0.1267424168	0.1441738404	
645.625	0.05897766997	0.1906289006	
646.25	0.1517975254	0.06057035843	
646.875	0.08779344022	-0.02090548524	
647.5	0.05065604753	0.027577735	
648.125	0.1435138006	0.04103895757	
648.75	0.2298296844	-0.07000616975	
649.375	0.189139886	-0.2220543955	
650.0	0.1310069612	-0.2735728811	
650.625	0.1236322457	-0.2576135737	
651.25	0.1624131196	-0.2171165577	
651.875	0.2154872034	-0.1573853405	
652.5	0.2409676038	-0.09954768339	
653.125	0.2345194212	-0.1113024825	
653.75	0.1640057047	-0.2104411862	
654.375	-0.06133400656	-0.269604759	
655.0	-0.2581905923	-0.07762717667	
655.625	-0.1543089304	0.17117143	
656.25	0.03642659067	0.1555622916	
656.875	0.04892525385	0.05783553723	
657.5	0.03453811818	0.09080284997	
658.125	0.1336057966	0.1378132061	
658.75	0.2644334206	0.05748075603	
659.375	0.2801851437	-0.1416692517	
660.0	0.1833254545	-0.2681270055	
660.625	0.1092879732	-0.2941009403	
661.25	0.1302522348	-0.2676401834	
661.875	0.179025556	-0.2329034737	
662.5	0.2183926162	-0.1893540744	
663.125	0.2215941861	-0.182794464	
663.75	0.1331066798	-0.2558996458	
664.375	-0.04811857739	-0.2924278483	
665.0	-0.2452021363	-0.1752517791	
665.625	-0.2763755544	0.08821097926	
666.25	-0.08097917217	0.2432837266	
666.875	0.1119025655	0.1816696921	
667.5	0.1690223134	0.07466837523	
668.125	0.1926127646	-0.02163197762	
668.75	0.1647659537	-0.1322704334	
669.375	0.07789388776	-0.2012566739	
670.0	-0.003329724852	-0.1973543663	
670.625	-0.001593909313	-0.1684734613	
671.25	0.04612750067	-0.1577329608	
671.875	0.1143253206	-0.155616592	
672.5	0.171636421	-0.1401944903	
673.125	0.1760298867	-0.1593784206	
673.75	0.1328456601	-0.1997399455	
674.375	0.03683754012	-0.233672224	
675.0	-0.08836994445	-0.2084885698	
675.625	-0.171709665	-0.1050400031	
676.25	-0.1613861641	-0.01749753385	
676.875	-0.1317670307	0.01377076192	
677.5	-0.1348900249	0.03139929214	
678.125	-0.1164213143	0.131009007	
678.75	0.04052831473	0.1981443987	
679.375	0.1850082413	0.05953300639	
680.0	0.12926359	-0.08284675044	
680.625	0.06084581009	-0.07350054275	
681.25	0.08036679269	-0.01836905874	
681.875	0.1341606799	0.03455492886	
682.5	0.1811113358	0.07260026133	
683.125	0.2183346851	0.06230203795	
683.75	0.234608192	0.05602638532	
684.375	0.2485637802	0.03003798496	
685.0	0.2551228346	0.0243414707	
685.625	0.2593267755	-0.009699724918	
686.25	0.259549037	-0.04965604601	
686.875	0.259346921	-0.1422951607	
687.5	0.2080634823	-0.2712068168	
688.125	-0.04045473577	-0.3850451532	
688.75	-0.3744611209	-0.1516439669	
689.375	-0.2441117852	0.2916078321	
690.0	0.1056140567	0.309153294	
690.625	0.2179772579	0.2082948031	
691.25	0.2888648297	0.2236675812	
691.875	0.4098809032	0.254140674	
692.5	0.5386476703	0.1642231856	
693.125	0.5864435521	-0.04447004219	
693.75	0.5108575892	-0.2387688651	
694.375	0.368462674	-0.3620142878	
695.0	0.3801622623	-0.2684533383	
695.625	0.4333514367	-0.09142151785	
696.25	0.438940981	0.1254697927	
696.875	0.3682721376	0.3209069889	
697.5	0.3563644459	0.3709978298	
698.125	0.5036646116	0.1660344781	
698.75	0.3612655105	-0.3767705029	
699.375	-0.3518579892	-0.3214202464	
700.0	-0.2308271018	0.3073102124	
700.625	0.131711052	0.2539460403	
701.25	0.2037755305	0.1496896941	
701.875	0.2404466061	0.1918915869	
702.5	0.3107654412	0.1917061802	
703.125	0.369838649	0.08559925275	
703.75	0.3355423982	-0.09873738651	
704.375	0.2379580879	-0.1776846238	
705.0	0.2094166494	-0.1283507903	
705.625	0.2332482388	-0.008752819316	
706.25	0.2253355379	0.1420144596	
706.875	0.211448137	0.2417221981	
707.5	0.2499338056	0.2882912745	
708.125	0.3900045932	0.09097164929	
708.75	0.2409808427	-0.3080458439	
709.375	-0.2418175301	-0.2335891892	
710.0	-0.1528638478	0.185588203	
710.625	0.06248671582	0.1283333178	
711.25	0.08629876866	0.09808730367	
711.875	0.1861688062	0.08929536975	
712.5	0.2658172847	-0.03326888208	
713.125	0.2215076575	-0.1603324106	
713.75	0.1108967855	-0.2223703881	
714.375	0.003373723024	-0.2110294894	
715.0	-0.03023389348	-0.1770135425	
715.625	0.007089037567	-0.186239143	
716.25	0.1231217524	-0.2076588959	
716.875	0.2753459159	-0.1650982241	
717.5	0.4273250633	-0.05486424301	
718.125	0.5527931701	-0.001390072733	
718.75	0.621863012	-0.128103338	
719.375	0.5986487214	-0.3654720046	
720.0	0.3601546132	-0.6827820726	
720.625	0.1103877604	-0.7715915086	
721.25	-0.0922406614	-0.8193249934	
721.875	-0.2308095082	-0.7937212705	
722.5	-0.5670578121	-0.6133012763	
723.125	-0.6823853982	-0.06432872976	
723.75	-0.3223689854	0.3959151472	
724.375	0.04986347687	0.3905548812	
725.0	0.1565055114	0.3081368101	
725.625	0.1614201425	0.3784450345	
726.25	0.06607724579	0.564892188	
726.875	-0.01858973575	0.7770769456	
727.5	-0.0381025842	1.117092454	
728.125	0.06484749629	1.562136777	
728.75	-0.07234662899	2.119244188	
729.375	-0.4415236807	2.779342594	
730.0	0.08165477216	3.147800846	
730.625	0.3309238021	3.341348315	
731.25	-0.4800127309	2.763768738	
731.875	-1.865418556	2.265470062	
732.5	-2.586847086	0.8960428846	
733.125	-1.902216816	0.5506176673	
733.75	-0.6504487966	1.125131682	
734.375	0.7250934142	0.3430367208	
735.0	-0.03486482605	-0.5180700993	
735.625	-0.3944861564	0.1020848338	
736.25	-0.0384458301	0.4417155907	
736.875	0.3769036811	0.4465176955	
737.5	0.8580843081	0.1025081084	
738.125	1.15897767	-0.3993049161	
738.75	1.325930198	-1.050618697	
739.375	1.691513468	-1.382969869	
740.0	2.251894716	-1.111683104	
740.625	2.147594337	-0.2752182246	
741.25	0.3935083278	1.480775918	
741.875	-2.075148528	0.3926086917	
742.5	-0.7562658021	-1.96447706	
743.125	0.04016920747	-1.500186872	
743.75	-0.1056126038	-0.7857294169	
744.375	-0.3385516573	-0.07719963486	
745.0	0.03976788407	0.0944877173	
745.625	0.05841384833	-0.009260718093	
746.25	-0.01657439096	-0.1221595274	
746.875	-0.1922977538	0.02511459749	
747.5	-0.0641486796	0.2816817471	
748.125	0.1242554906	0.4192501813	
748.75	0.2328371722	0.3438855466	
749.375	0.1245482515	0.3955391118	
750.0	-0.2849372734	0.2182364167	
