!Created with skrf (http://scikit-rf.org).
# GHz S MA R 50.0 
!freq magS11 angS11
500.0 0.018005638353 148.166035907
500.625 0.00852438550549 82.5765601299
501.25 0.00926560500907 -64.2872666353
501.875 0.0355345617733 -170.609146412
502.5 0.0164625522502 136.099705545
503.125 0.0144700738337 21.0327190377
503.75 0.0186102617811 126.163685891
504.375 0.00455206474243 119.631170839
505.0 0.0118560796247 -76.519369067
505.625 0.0439578208306 -81.3540342099
506.25 0.0410761167645 -109.559451071
506.875 0.0533777633674 -105.627653351
507.5 0.0424957962944 -118.430497197
508.125 0.0655576450103 -81.5546895186
508.75 0.0586659384267 -143.370820851
509.375 0.0445355134844 -153.214630758
510.0 0.0360672160609 -114.900547274
510.625 0.0554205065289 -157.78028224
511.25 0.0426392274722 168.741636567
511.875 0.0495523850812 143.537628501
512.5 0.0367223474209 98.1031671663
513.125 0.0661042476963 55.6617199504
513.75 0.0493407531962 24.9754679724
514.375 0.0544336266499 31.0939747735
515.0 0.0594399994951 9.36987398413
515.625 0.086815769329 46.6226599344
516.25 0.0879415374381 27.6548721798
516.875 0.113021075452 70.9726133197
517.5 0.121355372979 21.1432169872
518.125 0.212731855871 72.3331715641
518.75 0.0801971764451 7.61417375659
519.375 0.0664284941701 17.1240049846
520.0 0.115928911256 -2.34525266772
520.625 0.102378024283 -6.38801380661
521.25 0.0866813730769 -23.5842130184
521.875 0.0694756654413 0.654668490375
522.5 0.0966832763748 -33.0423545558
523.125 0.189850096618 -32.892411384
523.75 0.204699113436 -60.5319365939
524.375 0.202672110237 -54.4004113014
525.0 0.0752711423983 -40.5880712075
525.625 0.033077775469 -64.4584213964
526.25 0.0388704723437 -16.7727357039
526.875 0.0473893035964 -26.8543783385
527.5 0.0571361049433 -25.2086125152
528.125 0.031777932923 -62.6923663874
528.75 0.0653069260658 -72.6051483147
529.375 0.0835516730729 -113.647677577
530.0 0.0595511751153 -127.433946921
530.625 0.0261219044933 -130.985259447
531.25 0.104071330209 -131.247453716
531.875 0.155878685338 -147.929599346
532.5 0.158943148397 -170.979602033
533.125 0.0859443659494 173.111072726
533.75 0.110303968924 169.300821222
534.375 0.106899774309 176.386896187
535.0 0.0938154386623 163.370732198
535.625 0.0613544999846 176.616952225
536.25 0.0523348131252 164.835154431
536.875 0.0792759769582 -159.768874183
537.5 0.107474939046 -145.904228524
538.125 0.0920378482038 -171.995561116
538.75 0.0947816567773 178.451274823
539.375 0.0687516497717 -164.395306359
540.0 0.104725226575 -158.395677407
540.625 0.103803148854 -152.473912261
541.25 0.115817865538 -140.013831626
541.875 0.10033460485 -142.876785385
542.5 0.117497041374 -144.564592074
543.125 0.117207735453 -165.334316246
543.75 0.119015652704 159.424581952
544.375 0.0932058426363 133.899961131
545.0 0.09398040094 90.8383177872
545.625 0.0964713577703 83.4664716818
546.25 0.0895821206965 68.1667752634
546.875 0.0922431176647 55.2417701
547.5 0.123287291474 56.6884777931
548.125 0.0946089103979 77.0566587811
548.75 0.0796935541843 91.1592319158
549.375 0.0899394044589 85.1447273966
550.0 0.0968422893934 125.771158132
550.625 0.0420013874733 155.22057343
551.25 0.0408872718703 -141.435100671
551.875 0.0622992392947 -159.022647366
552.5 0.120982811293 -169.039841204
553.125 0.0814582286658 -161.650857453
553.75 0.0877935668711 -167.96208619
554.375 0.107922749629 165.24668084
555.0 0.133402916371 161.674749791
555.625 0.1000546924 157.652002024
556.25 0.0962677224437 163.386118274
556.875 0.118630501616 166.638171705
557.5 0.1126374595 165.972019476
558.125 0.105056225943 163.442106046
558.75 0.0816253231729 177.652143066
559.375 0.0627739824933 -177.086977076
560.0 0.0510564442707 -153.114773799
560.625 0.0579435218174 -139.770827491
561.25 0.0884241529757 -151.397533917
561.875 0.107516780185 -164.839587825
562.5 0.0940558249214 172.89040737
563.125 0.100826374824 148.235006078
563.75 0.127249710702 132.238709544
564.375 0.0996239550957 119.659435414
565.0 0.0936959052079 117.607694025
565.625 0.0790619649756 118.444242879
566.25 0.0945970823381 152.402020234
566.875 0.0768188679917 178.828085029
567.5 0.0749160450946 -178.406890633
568.125 0.087385496067 -174.437757833
568.75 0.0557828587844 -138.304001556
569.375 0.0469001530238 -103.610903845
570.0 0.0594583712223 -108.089800701
570.625 0.0945035024065 -121.035126509
571.25 0.088281640848 -119.60408497
571.875 0.0871129070713 -123.94097891
572.5 0.114124254216 -157.060024834
573.125 0.146870927501 -177.63114906
573.75 0.0923444046355 167.32632916
574.375 0.0836398794744 148.116380818
575.0 0.106974626567 153.503584951
575.625 0.113798105802 151.686511464
576.25 0.0892303354861 146.10724771
576.875 0.0732248900387 126.182279838
577.5 0.0873524717536 133.422192082
578.125 0.0584519753727 159.607285664
578.75 0.0473145530973 164.181048072
579.375 0.0575528522019 159.812833346
580.0 0.0692314295942 -177.956845191
580.625 0.0790478407281 -156.659688213
581.25 0.0905079807087 -160.015723192
581.875 0.113384582834 -172.618691403
582.5 0.112953419687 -173.291593296
583.125 0.0982454977642 -175.082629092
583.75 0.0788899862221 -157.223871436
584.375 0.102649325959 -155.516307377
585.0 0.0969519743365 -146.358436268
585.625 0.0764101173282 -154.184691995
586.25 0.0674192973763 -125.319921317
586.875 0.0815383467908 -128.816687634
587.5 0.0717580964519 -143.307150817
588.125 0.0612381974453 176.063237794
588.75 0.0686251332982 -146.362530998
589.375 0.0820627750164 -148.421683205
590.0 0.0944364839329 -168.439506748
590.625 0.102178240095 160.545191118
591.25 0.116670819291 160.553993066
591.875 0.0969163338523 157.41531534
592.5 0.0666912980495 142.064725296
593.125 0.0596726753284 142.410454783
593.75 0.0671630618004 -170.370668514
594.375 0.0582927650873 -147.118863292
595.0 0.043493310465 -112.605056442
595.625 0.0553500023094 -109.012518176
596.25 0.073364464843 -81.228324085
596.875 0.0673921422361 -71.3498919989
597.5 0.0572395423086 -67.3348381834
598.125 0.0566341463517 -71.8594608803
598.75 0.0843052238337 -56.5921741554
599.375 0.0943808293799 -59.8965511474
600.0 0.103249038513 -62.0921927711
600.625 0.0976968757267 -75.7115492355
601.25 0.0840915368134 -63.3431170323
601.875 0.0692268480111 -84.0515849002
602.5 0.0613931624474 -89.4683156949
603.125 0.0441678571053 -71.1288960971
603.75 0.0280706495515 -54.1926810646
604.375 0.0457517148227 -17.1303949567
605.0 0.0651490464707 -14.9502190623
605.625 0.0550477416814 -0.288961178074
606.25 0.0198501639873 -24.9993505131
606.875 0.0551211922442 54.37031325
607.5 0.0671471938105 46.1459810794
608.125 0.0704737727334 27.4549532344
608.75 0.0564289552439 16.7182561879
609.375 0.067364521426 32.928362718
610.0 0.0750611025942 42.3252603878
610.625 0.0664990519332 38.5983260271
611.25 0.0434540266515 13.2950560182
611.875 0.0488178677539 71.2619748544
612.5 0.0280042884786 103.602086076
613.125 0.0243557368152 137.507578462
613.75 0.0280527839693 121.78788204
614.375 0.0385677429776 119.469686256
615.0 0.031963508256 114.821781722
615.625 0.0186816733771 138.857908052
616.25 0.0478710309196 135.63279983
616.875 0.0320551349968 126.115246129
617.5 0.0382267973284 119.841986491
618.125 0.0239367522486 132.878631467
618.75 0.0300133209113 144.342536249
619.375 0.0123891312937 142.348965135
620.0 0.00927461181116 139.475386782
620.625 0.020118153919 -116.132986242
621.25 0.0551507864619 -78.3904692052
621.875 0.0673777889561 -113.517183283
622.5 0.0731475546617 -166.132889244
623.125 0.0671108984145 172.442840944
623.75 0.0602432290735 165.80241132
624.375 0.0368552272138 -167.732111491
625.0 0.045548263726 -154.430131827
625.625 0.0396292172344 -157.715086233
626.25 0.0249200826841 173.257809869
626.875 0.0237390857286 -5.84626911879
627.5 0.0223930234282 -90.4894658319
628.125 0.032477722049 -36.3943655612
628.75 0.0359815998636 -33.7276177437
629.375 0.0658801094415 1.2396547007
630.0 0.0616632480776 -17.2561981344
630.625 0.0687312073316 -3.89104147057
631.25 0.0670328901479 2.34082389716
631.875 0.0762595799737 10.0432337621
632.5 0.0690162261417 -28.1025640757
633.125 0.0472994247347 -4.49040661386
633.75 0.0459927029522 7.00124932127
634.375 0.050250380104 30.2197201336
635.0 0.0401092236733 33.472100995
635.625 0.0348772139087 29.3343075044
636.25 0.0497750836587 43.388474263
636.875 0.0614769976792 35.6396241915
637.5 0.0583848100451 54.5805982053
638.125 0.023335200709 32.1709392017
638.75 0.0643310339095 70.4820014784
639.375 0.0934551802373 88.574508899
640.0 0.0809400776601 110.358665641
640.625 0.0497145910924 85.9342338336
641.25 0.0675107688673 121.779841443
641.875 0.0629142312553 143.271147489
642.5 0.0678097310128 163.180360987
643.125 0.0459870838505 147.671399688
643.75 0.0597537919115 164.441759346
644.375 0.0659699774721 -179.069168354
645.0 0.0923409226496 -179.525089517
645.625 0.0779790790771 157.573272361
646.25 0.086466187741 162.048380611
646.875 0.0818688838956 -177.489873539
647.5 0.0739694705052 -174.799114321
648.125 0.0822906043242 179.428004688
648.75 0.0756205447628 -165.71257657
649.375 0.0514539675311 -145.954508508
650.0 0.0481487780906 -118.797574569
650.625 0.0791786441508 -88.4277223523
651.25 0.0640289896515 -66.7558451318
651.875 0.063778166142 -42.2671709498
652.5 0.0872025515171 -24.344523078
653.125 0.136543069525 -2.08559819776
653.75 0.108996887081 5.16106247605
654.375 0.108543462472 4.10364325742
655.0 0.129078673934 12.8090647764
655.625 0.0998452074622 25.3932613193
656.25 0.0597837411016 21.5737002156
656.875 0.0700654419813 7.72965317835
657.5 0.0780362104025 21.1510375592
658.125 0.0844312044454 46.6096693958
658.75 0.0389619713447 69.819615797
659.375 0.0743800622105 42.470146474
660.0 0.112662785859 23.4532337518
660.625 0.123322161854 15.8163196395
661.25 0.0939492601308 4.93459356487
661.875 0.123002490429 -13.7687658609
662.5 0.116990458283 -23.5790895553
663.125 0.117322195203 -16.1610331692
663.75 0.0769133837494 0.261181785529
664.375 0.0872755402398 54.2618318584
665.0 0.0779273512286 90.8565301885
665.625 0.0617881255122 111.449383544
666.25 0.0814367419838 130.659355466
666.875 0.115038558699 165.919209
667.5 0.101087302042 -169.042157003
668.125 0.10678841479 179.099103177
668.75 0.128270860946 166.965333983
669.375 0.126641079647 177.828967889
670.0 0.0885879829732 -170.74564442
670.625 0.096091766298 -174.477980822
671.25 0.0941897297761 175.888172572
671.875 0.0938380043036 167.328393052
672.5 0.0690582465462 153.049380378
673.125 0.0915458047788 150.032075825
673.75 0.113088941125 158.736027076
674.375 0.120993027448 166.895553126
675.0 0.120436514572 -176.931795822
675.625 0.139028339453 -153.0523127
676.25 0.121202476446 -124.88178243
676.875 0.120593418183 -121.799941788
677.5 0.127447061515 -128.520386514
678.125 0.141146999276 -118.429366003
678.75 0.0524947914021 -91.9636051669
679.375 0.0468125268736 -70.1536654783
680.0 0.0770799664018 -79.8463453508
680.625 0.133465402651 -82.8857606854
681.25 0.100669955038 -72.2200368913
681.875 0.100806807525 -91.2873823244
682.5 0.143438117856 -122.566046429
683.125 0.168581739116 -123.098209278
683.75 0.148669659135 -107.435665338
684.375 0.102023843104 -74.5758279129
685.0 0.130687028425 -37.8409696885
685.625 0.130850567922 -2.42316276621
686.25 0.121772139084 17.7734118859
686.875 0.0675526011422 51.7696340951
687.5 0.0709011103263 89.6354679481
688.125 0.0796504594296 108.47523631
688.75 0.106329377333 106.086974147
689.375 0.125011377406 129.355269942
690.0 0.132691168594 133.463048837
690.625 0.117130691039 124.351922973
691.25 0.14720984401 93.7250404432
691.875 0.191625223189 65.5876671853
692.5 0.143334693958 38.3463239372
693.125 0.0911742237791 -15.9383411482
693.75 0.0927155505657 -39.9446817908
694.375 0.146616941152 -36.9822157654
695.0 0.113045429235 22.0902260719
695.625 0.100563844927 56.1427117321
696.25 0.109721325099 110.863355587
696.875 0.140293243545 171.440882638
697.5 0.149887276982 -149.900701393
698.125 0.136559767463 -133.395291661
698.75 0.137864353555 -135.65387001
699.375 0.117729568017 -130.970009717
700.0 0.0855231466249 -102.723149252
700.625 0.105759988891 -86.1359372941
701.25 0.0969947474653 -64.7621146049
701.875 0.0848699888803 -68.2197986885
702.5 0.0998336439206 -75.96166319
703.125 0.163645881358 -124.109190201
703.75 0.187666325879 -157.020114914
704.375 0.131559202835 170.179836594
705.0 0.114916685916 152.229087587
705.625 0.133933731744 -158.202956559
706.25 0.139759218402 -107.594367598
706.875 0.0864351443851 -59.3293448546
707.5 0.0807490136934 -47.4104891482
708.125 0.0916250071764 29.4562188015
708.75 0.112433813854 66.0887799256
709.375 0.102122470056 106.861371293
710.0 0.101972341825 124.785225865
710.625 0.108024611019 147.204972547
711.25 0.121265662036 173.706400189
711.875 0.144520050717 166.694114238
712.5 0.157195537584 135.671968878
713.125 0.115295359089 110.56508707
713.75 0.101600919978 48.3835056222
714.375 0.11472748876 12.710699057
715.0 0.118157187029 24.9520929744
715.625 0.0862428649969 39.5315495601
716.25 0.0909627018123 89.4804850058
716.875 0.124651272407 109.493259051
717.5 0.13888638286 151.173804163
718.125 0.117299210138 160.231621906
718.75 0.101477630527 176.527449296
719.375 0.114057372201 -172.523458724
720.0 0.135790475412 -127.115769386
720.625 0.115446283763 -76.3087766907
721.25 0.0987245158653 -21.0912941607
721.875 0.0848710400185 41.0033387888
722.5 0.0723113166915 82.386884774
723.125 0.0678949715668 50.0116864222
723.75 0.122269433786 51.4976068695
724.375 0.108318034986 -3.70056679139
725.0 0.0833865686587 -51.8260383967
725.625 0.101466325798 -67.1647639891
726.25 0.102588532964 -81.482592292
726.875 0.109128228943 -37.9529575998
727.5 0.0868070130415 -26.6230135468
728.125 0.0830601075505 6.47745877842
728.75 0.0655601471748 5.46275642287
729.375 0.0964487434634 29.0241910699
730.0 0.0673156347861 0.667414338091
730.625 0.0634054041685 17.4272567017
731.25 0.0690949523118 62.8663071037
731.875 0.0558204409042 100.745935473
732.5 0.0926153643368 157.783120748
733.125 0.0962366237197 -179.500129374
733.75 0.0742422766865 168.40816689
734.375 0.0546191964809 -171.310470623
735.0 0.0610868115666 151.123774945
735.625 0.031717357685 163.441406324
736.25 0.0423544125416 136.270361784
736.875 0.0398507935223 174.480271285
737.5 0.0747187890165 178.019317858
738.125 0.0987479974029 -177.905076332
738.75 0.0754446585648 -177.161941477
739.375 0.0272311530671 163.815308182
740.0 0.0854089948729 -142.272370405
740.625 0.0666262845696 -154.700136134
741.25 0.0585629766243 -150.798016311
741.875 0.0151776761421 -94.8127387904
742.5 0.0242643325868 -5.96722653204
743.125 0.0372567728736 49.1780315959
743.75 0.0451979470726 97.8045178253
744.375 0.0426414897524 176.130965868
745.0 0.0879388173281 104.311844652
745.625 0.0759378151705 105.201853186
746.25 0.0878736783961 88.0811293473
746.875 0.0604683368761 46.0158216672
747.5 0.0416135570811 12.4885173636
748.125 0.024849924088 2.22403774713
748.75 0.0313149351577 -24.0837418535
749.375 0.0407390663204 -44.0723482032
750.0 0.0438328127104 -47.1879802948
