!Created with skrf (http://scikit-rf.org).
# GHz S MA R 50.0 
!freq magS11 angS11
500.0 0.0131183362768 -175.02703017
500.625 0.0160450565731 40.8252029486
501.25 0.0293356271083 -173.950258531
501.875 0.0396499029996 -172.481909008
502.5 0.0224628135923 156.224961053
503.125 0.0117721899651 100.229166273
503.75 0.00509983110911 18.2684476084
504.375 0.0156196268682 -61.25893265
505.0 0.014195937391 -52.3551045857
505.625 0.040343766547 -75.497351767
506.25 0.031272400755 -122.559300525
506.875 0.0622884162337 -96.5492857015
507.5 0.0608801057245 -103.110411492
508.125 0.0392032742373 -125.075388787
508.75 0.0550344004339 -136.024146328
509.375 0.048675985848 -154.009592493
510.0 0.0579626035813 -104.529997146
510.625 0.032351259173 -165.969508147
511.25 0.0543768057232 -174.280152361
511.875 0.0561978410574 150.434577582
512.5 0.0399995250342 108.67091749
513.125 0.0555044857283 49.7571061382
513.75 0.0481417480365 32.1643685955
514.375 0.0389874965082 28.3812370741
515.0 0.069855518861 13.2507203357
515.625 0.0720204140402 45.4865674046
516.25 0.0742400829257 28.8788468006
516.875 0.103087434941 67.6414852555
517.5 0.144384896699 25.1446814595
518.125 0.172261934669 60.580767288
518.75 0.0841522717276 15.4427971159
519.375 0.0692530570726 23.2151367793
520.0 0.104813428716 1.55448500991
520.625 0.0950138541986 -8.09677826597
521.25 0.0776956635005 -22.6695388639
521.875 0.0642655191333 -1.32368434084
522.5 0.111105156334 -29.0074432014
523.125 0.162213049711 -42.9261488961
523.75 0.201186741633 -60.7820957711
524.375 0.200040039481 -56.7718376901
525.0 0.0742383060325 -33.7214862023
525.625 0.0376888357104 -31.0737393701
526.25 0.0503721577246 -2.10931981405
526.875 0.0593422010751 -12.9930669647
527.5 0.0552906948059 -20.6959593014
528.125 0.0395506843729 -53.3538566862
528.75 0.0539459954563 -70.4107271047
529.375 0.086968438411 -106.179608506
530.0 0.0343670942016 -140.26712669
530.625 0.0369123461951 -132.861869032
531.25 0.10849226725 -132.222383718
531.875 0.188419623581 -144.930385318
532.5 0.13380123868 -169.69597255
533.125 0.0993711834808 177.233568041
533.75 0.123446940549 170.964395676
534.375 0.110362988709 -177.095152015
535.0 0.095499022688 167.086699579
535.625 0.0599132588888 177.022482317
536.25 0.0665110210023 168.612041984
536.875 0.0942419675564 -158.836613635
537.5 0.0818179317093 -141.295898659
538.125 0.0991274057121 -169.936555298
538.75 0.109903087144 -177.183848925
539.375 0.0842495428403 -159.640080415
540.0 0.104276319228 -154.081162942
540.625 0.124844801292 -151.847042388
541.25 0.117028323251 -140.123999922
541.875 0.108700680534 -143.726057633
542.5 0.093242665274 -135.709149154
543.125 0.138602415705 -163.981743281
543.75 0.130532154981 160.811750038
544.375 0.0943604891097 137.979765843
545.0 0.0968447764967 93.9383910307
545.625 0.0904986982144 86.3217199427
546.25 0.0794535242848 71.1482962814
546.875 0.0834503696004 57.1575543228
547.5 0.121746606043 60.6638723685
548.125 0.108955591327 81.6370516519
548.75 0.0853414498628 90.232209842
549.375 0.0965388875021 90.9265017036
550.0 0.0959099131738 129.792988915
550.625 0.0433262595121 163.609627527
551.25 0.0378696033662 -123.329116427
551.875 0.0692634893415 -157.055038603
552.5 0.114447641543 -160.984874886
553.125 0.0938022492156 -165.366515207
553.75 0.0957212566023 -170.373275965
554.375 0.11087663236 170.104442711
555.0 0.133687162869 165.263687135
555.625 0.0868004452115 162.787157955
556.25 0.0952734433869 168.525149326
556.875 0.110000777909 168.983602542
557.5 0.121357026114 167.668085973
558.125 0.0843366612453 167.977624665
558.75 0.0721692283163 -176.89598565
559.375 0.063083958375 -168.15855154
560.0 0.0495528926195 -145.759174758
560.625 0.056223629255 -126.692337051
561.25 0.0877838983118 -142.957008168
561.875 0.10477943984 -158.875470685
562.5 0.0991441745749 171.969132503
563.125 0.103851116761 148.571794431
563.75 0.133021253329 133.613577743
564.375 0.103576026878 123.776958951
565.0 0.0877546500445 121.411963808
565.625 0.0762542974719 124.251750393
566.25 0.0889166732325 161.615535597
566.875 0.0703082540094 -174.966198623
567.5 0.079314494389 -179.66514057
568.125 0.0644550806434 -159.070056766
568.75 0.0682158139619 -142.570396948
569.375 0.0484006943202 -108.93047026
570.0 0.063212329876 -111.735435953
570.625 0.0833976265959 -102.573233791
571.25 0.0873871224246 -111.275848837
571.875 0.0843419488286 -122.710158521
572.5 0.116847080246 -159.302710198
573.125 0.12407541395 -164.94364841
573.75 0.101843016038 164.751489314
574.375 0.0752262676004 154.473675088
575.0 0.113497076905 150.4940616
575.625 0.0965634383418 165.383143903
576.25 0.0834856517402 149.814233906
576.875 0.0802553489958 132.667422547
577.5 0.0898982982933 134.730829447
578.125 0.0545160875712 169.71763489
578.75 0.0449792399875 176.155322037
579.375 0.0508345494824 171.919304489
580.0 0.0729688604875 176.744043745
580.625 0.0786444362357 -136.158893086
581.25 0.093598850639 -159.523750332
581.875 0.114664998129 -176.693468072
582.5 0.12088935404 -176.019603218
583.125 0.0952934462856 -169.484357132
583.75 0.0817977481863 -164.750063066
584.375 0.104279076281 -158.862746625
585.0 0.0938486211464 -139.848676502
585.625 0.0715933540427 -141.251746755
586.25 0.0698246187646 -133.603396625
586.875 0.0777226133842 -133.269993146
587.5 0.0745956068846 -146.664929665
588.125 0.0593070020056 -173.353410732
588.75 0.069031054652 -160.378195287
589.375 0.0825725023418 -156.247406125
590.0 0.0945728422618 -164.592434939
590.625 0.104706379869 161.821872947
591.25 0.119809009282 157.956651292
591.875 0.0875970948938 166.478635399
592.5 0.0619556420822 150.598117134
593.125 0.0638697435124 145.186538222
593.75 0.0697819986594 174.640284299
594.375 0.0589919140965 -152.764186983
595.0 0.0448603567586 -113.949719108
595.625 0.0560545727685 -108.074909564
596.25 0.0762106442377 -79.4388506361
596.875 0.0723366481089 -59.4053466236
597.5 0.060947810772 -55.7643269969
598.125 0.0663492490678 -61.583658454
598.75 0.083826892788 -56.0704426522
599.375 0.0842799976085 -66.1539275724
600.0 0.099327566403 -69.3097190562
600.625 0.100186138882 -58.7660142214
601.25 0.0822116778835 -73.0574606997
601.875 0.0682544524843 -89.2144276276
602.5 0.0622371801003 -78.8915052139
603.125 0.0442351754311 -70.530332943
603.75 0.0404803646733 -8.7861283734
604.375 0.0472373011574 -15.4159545072
605.0 0.0626043625756 -6.23289818045
605.625 0.0478203115234 -16.338043735
606.25 0.0318521044093 31.4620824638
606.875 0.0428494328205 52.4877134904
607.5 0.0566533509838 42.268974898
608.125 0.053177766746 21.2675932901
608.75 0.0758893019146 32.8067406057
609.375 0.0739685585362 36.9849388044
610.0 0.07793152256 51.4589542446
610.625 0.0561212577845 27.4995731326
611.25 0.0578343165087 51.3446719079
611.875 0.0402433540726 60.9471028734
612.5 0.0143513353788 70.1850239344
613.125 0.0308354342673 128.178400161
613.75 0.0300235411726 126.488394591
614.375 0.0664036819022 134.597930462
615.0 0.0486020035315 126.736009541
615.625 0.0356117835439 135.249410521
616.25 0.0238956384608 154.306567286
616.875 0.0780739888718 139.960397641
617.5 0.0432254415675 120.65945035
618.125 0.0296577954461 133.988040855
618.75 0.00881784213097 167.694027281
619.375 0.0415838423784 159.860676903
620.0 0.00621388932499 35.7454783179
620.625 0.0168626017048 -103.224441369
621.25 0.0461280484117 -92.1464788982
621.875 0.0660200996185 -115.461715547
622.5 0.072325313605 -173.036274923
623.125 0.0790964161675 168.44085365
623.75 0.044664071101 -176.962098005
624.375 0.0640130846631 -179.916502808
625.0 0.0531793715278 -153.652215614
625.625 0.0520451356913 -150.088496086
626.25 0.00574023396814 146.487772242
626.875 0.0112338729835 -168.758034674
627.5 0.0229880612931 -37.9121048443
628.125 0.04510384651 -8.01655809862
628.75 0.0392374559729 -4.47066912975
629.375 0.0467645946666 -9.33730390844
630.0 0.0654192351258 -3.93198895057
630.625 0.0768390786407 14.9633150281
631.25 0.0760712276039 16.9015758226
631.875 0.0716239198396 -15.9190001799
632.5 0.0609817712978 -10.6589758903
633.125 0.0452513319998 22.5700895675
633.75 0.037859920145 6.28895054386
634.375 0.0499063406221 35.3642261503
635.0 0.0354984813746 -9.57311357916
635.625 0.0302198066335 26.2428984729
636.25 0.0473365666403 30.0370106183
636.875 0.0739137107901 50.9172429738
637.5 0.047910446966 47.9684434638
638.125 0.0423571515742 69.5931848753
638.75 0.0874303969021 80.657052586
639.375 0.0891504760991 95.2033899149
640.0 0.0767757525615 112.135285032
640.625 0.0532894360989 105.848364229
641.25 0.0532493874684 118.684859801
641.875 0.0639572195358 152.917506632
642.5 0.04832945961 143.200194544
643.125 0.0531242116627 158.591701798
643.75 0.0785889407561 -179.188287861
644.375 0.0828073268173 -166.615661832
645.0 0.0731366208673 179.223028011
645.625 0.0899209417375 168.625072185
646.25 0.0939286491704 171.732859627
646.875 0.0679612223764 -177.547067347
647.5 0.0780502892985 -170.09584606
648.125 0.0782751830058 -177.279951981
648.75 0.0629126188557 -169.355145367
649.375 0.0440930178641 -150.891996828
650.0 0.0630705949224 -113.905755978
650.625 0.04337147504 -93.9187728116
651.25 0.060171761288 -61.0295544725
651.875 0.0578186934493 -41.2967032518
652.5 0.102996493136 -21.779340323
653.125 0.104299883398 -3.04565564533
653.75 0.0977166114245 6.17009420572
654.375 0.107671510778 9.16372503135
655.0 0.127327166074 17.0583948272
655.625 0.078245189155 21.7565072159
656.25 0.0503473100657 21.5069509744
656.875 0.0599262686695 4.36192638463
657.5 0.0946899600489 29.0250858754
658.125 0.0693425613299 53.6294967295
658.75 0.060216119628 67.8644029596
659.375 0.0925853034252 40.7087769276
660.0 0.115684965886 29.7649713236
660.625 0.122992352572 20.3395121932
661.25 0.105715996266 7.33593479525
661.875 0.110882710015 -9.4145702773
662.5 0.123103268245 -16.6709116049
663.125 0.0862405683124 -17.8530405186
663.75 0.100600091231 7.03577620978
664.375 0.103416925273 60.0811723244
665.0 0.0856850630414 93.7501545234
665.625 0.0564513002098 114.2499468
666.25 0.0811770621117 138.502354862
666.875 0.114060944373 175.800873155
667.5 0.108858426749 -169.306646495
668.125 0.0896278305583 -173.976140714
668.75 0.115900621306 171.714109166
669.375 0.115047228431 178.660598257
670.0 0.0964380481435 -168.421144167
670.625 0.0684571041426 -165.805096029
671.25 0.105922545609 178.41419151
671.875 0.0949942564044 168.481739647
672.5 0.0818440773807 158.562160381
673.125 0.0637970286442 165.302427717
673.75 0.103977014676 165.421414377
674.375 0.115792165888 172.550199527
675.0 0.124872775818 -174.51211282
675.625 0.102537697544 -142.93089776
676.25 0.123077448724 -121.139461285
676.875 0.110376061371 -117.210744687
677.5 0.135839571881 -127.86688443
678.125 0.0916473328196 -112.915183081
678.75 0.0644026978631 -87.5101145916
679.375 0.0478490319687 -75.5718286733
680.0 0.089076487118 -80.8983994018
680.625 0.122751181669 -73.6219149078
681.25 0.10248494265 -69.1874146288
681.875 0.10387175177 -89.2161769159
682.5 0.137603118486 -116.251591087
683.125 0.179622836287 -122.615289348
683.75 0.113755520062 -98.438023545
684.375 0.113087449389 -75.5333005655
685.0 0.139068802016 -37.7339691425
685.625 0.139726026595 -2.33774682506
686.25 0.103420729401 24.709862222
686.875 0.0879509150569 48.9670009632
687.5 0.0767530376362 79.9473069069
688.125 0.0884900652519 107.121924993
688.75 0.103803097903 115.044003002
689.375 0.144322026165 123.510080098
690.0 0.133988090043 137.981215129
690.625 0.121836484592 129.303189032
691.25 0.148626328956 97.4420109344
691.875 0.169207121434 76.9285883373
692.5 0.127189687088 46.6226437426
693.125 0.0776937559974 -10.4629185906
693.75 0.103411609732 -41.7344465722
694.375 0.119583359017 -17.5656023132
695.0 0.128894478825 15.7408947031
695.625 0.102635127492 59.3779309616
696.25 0.118648925439 116.130681022
696.875 0.146396716846 169.781902551
697.5 0.130866377746 -132.558636498
698.125 0.132795680828 -125.729102576
698.75 0.13279887316 -128.583251999
699.375 0.104968590055 -121.153616502
700.0 0.0964926806424 -109.663073827
700.625 0.116808487791 -89.7192999243
701.25 0.100741975016 -59.7430108168
701.875 0.0851157486689 -61.2271289671
702.5 0.102977090744 -81.0208311551
703.125 0.17354089054 -113.343833987
703.75 0.169138601554 -148.225798693
704.375 0.134708231232 168.328657412
705.0 0.104149096689 172.201883385
705.625 0.144422709245 -168.240323402
706.25 0.145469800768 -111.505483092
706.875 0.0952457929531 -64.3758937702
707.5 0.0800132660954 -39.6017651165
708.125 0.0926834214123 22.5418688669
708.75 0.114400455913 64.6913250178
709.375 0.107426316356 108.056018585
710.0 0.104937327589 127.357067888
710.625 0.106877026855 170.479572642
711.25 0.12317546404 174.332764551
711.875 0.14578743048 161.956030648
712.5 0.149536205068 146.54287312
713.125 0.123175453478 102.290112608
713.75 0.101863621699 50.3892674933
714.375 0.109104016907 30.2825141192
715.0 0.116546088357 19.9487122597
715.625 0.0882976976349 74.6034069013
716.25 0.0870761071703 82.876617199
716.875 0.112184911671 110.570349701
717.5 0.145687265332 147.893420796
718.125 0.11760536113 162.785834365
718.75 0.104819661086 175.258993562
719.375 0.126757248413 -159.354288686
720.0 0.128067363483 -119.937854178
720.625 0.113156737654 -84.8138476319
721.25 0.0890837243693 -15.6538578969
721.875 0.0862590126139 26.0507531917
722.5 0.0718484255344 66.3788107408
723.125 0.0905126842259 80.1718774739
723.75 0.111314920448 46.9199898026
724.375 0.122895274079 8.69445288574
725.0 0.0963825154656 -37.708184481
725.625 0.0867364897585 -76.616473085
726.25 0.124793310554 -50.6407212773
726.875 0.104682523372 -42.8165019924
727.5 0.0798674477867 -25.1270781843
728.125 0.0730248583222 -7.35749043737
728.75 0.076076635637 11.0974895587
729.375 0.0849121635267 24.5906909326
730.0 0.0824505542408 14.3361949566
730.625 0.077913285858 39.5264697871
731.25 0.0463884343656 49.0746144049
731.875 0.0986623804996 130.737820933
732.5 0.0805590477967 157.116473208
733.125 0.0739736868371 169.202297112
733.75 0.0531803378077 149.381155047
734.375 0.0702448329447 172.490096953
735.0 0.0651685901565 154.011935216
735.625 0.0554916640225 151.139722163
736.25 0.012166478589 147.450699057
736.875 0.0830244032141 169.789320966
737.5 0.102417457213 179.268338585
738.125 0.108887832351 -167.826264744
738.75 0.0448071039171 171.314170993
739.375 0.0927391651949 -147.007857715
740.0 0.0600192411025 -139.69795238
740.625 0.0310615495329 -139.693615042
741.25 0.0363888570478 -153.099750577
741.875 0.014861786693 -94.6877558295
742.5 0.0686672779671 -18.9342687616
743.125 0.0287394342899 65.8686729955
743.75 0.0281498835139 85.7230953855
744.375 0.040280383417 125.998551898
745.0 0.050965785759 137.871510344
745.625 0.0660790273844 134.451270138
746.25 0.075919790463 83.8588185128
746.875 0.0512252903323 61.6316642967
747.5 0.0580865394885 9.75062665951
748.125 0.036484427282 -10.8795537369
748.75 0.029082102278 2.83936888508
749.375 0.0261949202318 -12.6304943196
750.0 0.0344755427245 -82.6524033143
