!Created with skrf (http://scikit-rf.org).
# GHz S RI R (50+0j) 
!freq	ReS11	ImS11	
500.0	-0.1195204924	-2.268627571	
500.625	-0.288181589	-0.6560248498	
501.25	-0.4200349162	-1.520758912	
501.875	-0.7251316933	-0.3768685102	
502.5	-0.02646070557	-0.1497845303	
503.125	-0.1408347672	0.006623214768	
503.75	0.06871325512	-0.002060190468	
504.375	0.04223359409	0.03114181513	
505.0	0.007903635891	-0.06831451525	
505.625	0.04095068827	-0.0118506934	
506.25	-0.1997057901	-0.158079831	
506.875	0.1514002465	0.1129365873	
507.5	-0.1483701441	-0.9545289815	
508.125	-0.3253916591	-0.9467304136	
508.75	1.19766082	-0.9309896356	
509.375	0.3272467412	-2.218649167	
510.0	-0.4734974854	-0.242672058	
510.625	0.02877510842	-0.2879494062	
511.25	-0.1230168453	-0.006188134467	
511.875	-0.02680985402	-0.02434637673	
512.5	-0.05863901842	0.08323778215	
513.125	-0.07586468076	-0.1261199328	
513.75	0.02603028948	-0.02367502847	
514.375	-0.1468774891	-0.1400027719	
515.0	0.05587115113	0.4889046669	
515.625	-0.3888604077	-1.17062465	
516.25	-0.7995540646	-0.2509435913	
516.875	0.1757811458	-0.3870702813	
517.5	-0.1842940959	-0.3865743442	
518.125	0.01303771084	0.05051532069	
518.75	-0.01222439538	-0.332960331	
519.375	-0.06418655641	0.09604609475	
520.0	0.0728616001	0.03558649754	
520.625	0.2424524387	-0.05591220794	
521.25	-0.1755015366	-0.4431701454	
521.875	-0.06838801826	0.04874798776	
522.5	-0.08869590085	-0.03209670631	
523.125	0.03021770139	0.1581513515	
523.75	-0.07073183182	-0.1921163774	
524.375	-0.3258429213	0.2256709662	
525.0	0.07979439189	0.0180080812	
525.625	-0.0498468542	0.1538935749	
526.25	0.09136895213	-0.07844223288	
526.875	-0.1743489866	0.1030913208	
527.5	0.08454792532	0.2667931087	
528.125	-0.04058695128	0.3375151316	
528.75	-0.0584272059	0.4709782721	
529.375	0.1535258355	-0.0200360579	
530.0	-0.1773297796	0.3450350984	
530.625	0.0345228919	0.5546948328	
531.25	0.2934552091	0.06046901547	
531.875	0.47725147	-0.1870497939	
532.5	-0.2859274055	-0.1038779789	
533.125	0.1984041851	0.129854552	
533.75	-0.04790957621	-0.3526324778	
534.375	-0.003386976029	-0.2190037834	
535.0	-0.3815680689	-0.2358649854	
535.625	-0.1613250504	0.2607617221	
536.25	-0.02976849768	0.08280992269	
536.875	0.1711343249	0.04356828411	
537.5	0.03562894503	-0.0838449593	
538.125	0.170483485	-0.02541608982	
538.75	0.1644806862	-0.2590462149	
539.375	-0.07171084128	-0.129691595	
540.0	-0.1656834603	-0.2628591937	
540.625	-0.2545242976	-0.09189555442	
541.25	-0.02955657313	0.01960373114	
541.875	-0.04144769312	-0.1103282824	
542.5	-0.05313713156	0.02517367352	
543.125	0.06550110162	-0.09666943903	
543.75	-0.1797287991	0.04998554428	
544.375	-0.01092325179	-0.01730610346	
545.0	-0.04721052477	0.1377347651	
545.625	0.1243082059	-0.004961959819	
546.25	0.07234061696	0.1264130595	
546.875	0.1982027705	-0.1064744677	
547.5	0.02814568286	-0.1002808561	
548.125	0.04139125194	-0.2359849182	
548.75	-0.2381711869	-0.1476488934	
549.375	-0.08637247403	-0.03319915658	
550.0	-0.1364031591	-0.04276870313	
550.625	-0.04965611785	0.05979132548	
551.25	-0.1118731648	-0.01137521933	
551.875	-0.08280320692	0.1466911495	
552.5	-0.03862353755	0.05958856209	
553.125	-0.04758033316	0.09433133871	
553.75	0.06642573737	0.04233623514	
554.375	0.1234537612	0.006055354584	
555.0	0.1313334454	-0.1066543742	
555.625	0.09674292301	-0.1451423179	
556.25	0.08358995797	-0.1803620442	
556.875	-0.05055096573	-0.2138108651	
557.5	-0.1379286054	-0.1275802206	
558.125	-0.1466731892	-0.04593954245	
558.75	-0.1480720211	-0.005172806384	
559.375	-0.1430373596	0.04302897555	
560.0	-0.1108443871	0.08818633161	
560.625	-0.09250418269	0.1519972961	
561.25	0.04284399222	0.1334258365	
561.875	0.003578932304	0.04492853046	
562.5	0.05598816865	0.09739794453	
563.125	0.05395844078	0.05575137383	
563.75	0.2205628304	0.03188908894	
564.375	0.1213841981	-0.1768241578	
565.0	0.09896012103	-0.1278708799	
565.625	-0.01597307296	-0.2831318151	
566.25	-0.1670571969	-0.0665254657	
566.875	-0.1242187955	-0.1423510477	
567.5	-0.295708581	-0.1760547482	
568.125	-0.1544332324	-0.1080781676	
568.75	-0.3142334425	-0.2664866353	
569.375	-0.3224149303	0.2438624944	
570.0	-0.08704573058	0.1672480684	
570.625	-0.1819601077	0.2576632574	
571.25	0.1378095947	0.1566049674	
571.875	-0.03620394385	0.1113589217	
572.5	0.2880538301	-0.06954644635	
573.125	-0.007208059583	-0.1100334389	
573.75	0.214753157	-0.1106945284	
574.375	-0.05434028213	-0.2061166235	
575.0	0.03889452238	0.07860687949	
575.625	0.08452181464	-0.2125082991	
576.25	-0.05319120082	-0.08518337423	
576.875	0.113848834	-0.183882695	
577.5	-0.05297571639	-0.3417061638	
578.125	-0.1534189319	-0.07522964208	
578.75	0.04125305459	-0.1913262637	
579.375	-0.2297515863	-0.1662715288	
580.0	0.04666165972	0.1345802357	
580.625	-0.1649976307	-0.145523836	
581.25	0.05224852904	0.2134759648	
581.875	-0.06059128543	0.06656049656	
582.5	0.04590923137	0.324609892	
583.125	0.2081907742	-0.008573772037	
583.75	-0.09731141686	0.1218564949	
584.375	0.1904794035	0.04829658015	
585.0	0.01104725025	0.04126171132	
585.625	0.2924523807	0.08163280851	
586.25	0.1072653503	-0.2019612891	
586.875	0.06542129214	-0.05583740533	
587.5	0.02181377935	-0.2838965972	
588.125	-0.1467314098	-0.127227265	
588.75	0.1517816621	-0.08854956249	
589.375	0.08853415346	-0.3311363587	
590.0	-0.1060339465	-0.1005389319	
590.625	-0.1913701826	-0.1835621007	
591.25	-0.2214532637	0.3636095932	
591.875	0.05580690182	0.04551177269	
592.5	-0.1108020614	0.1091169177	
593.125	0.09342043687	-0.01918273312	
593.75	-0.04123704147	0.3026711148	
594.375	0.3532742054	0.105792379	
595.0	0.1327337137	0.02415872036	
595.625	0.2255658594	0.230205374	
596.25	0.2647373641	-0.05649391054	
596.875	0.07621921985	0.0608420521	
597.5	0.2489656229	0.2128262957	
598.125	0.258022976	0.03174545692	
598.75	0.2078968503	0.1335822128	
599.375	0.3731879979	-0.04286088159	
600.0	0.1084840826	-0.2633941226	
600.625	0.1740332868	-0.118302079	
601.25	0.1564885653	-0.334968108	
601.875	-0.20537389	-0.1094787775	
602.5	-0.06989929867	-0.09667864225	
603.125	-0.2497844539	0.1824015184	
603.75	0.0166711228	0.06928986263	
604.375	-0.3082964606	0.05637792076	
605.0	-0.08092990466	0.2489833556	
605.625	-0.009193880063	-0.04109165097	
606.25	-0.2918115961	0.1256715557	
606.875	-0.1288944222	0.009041550822	
607.5	-0.2450398502	0.1068651759	
608.125	-0.007714625309	0.3937096177	
608.75	0.2706847079	0.09357066622	
609.375	0.2917503016	-0.07047547399	
610.0	0.3045420293	-0.2455519468	
610.625	-0.02297212607	-0.2031643284	
611.25	0.152405421	-0.1608633326	
611.875	-0.2115300754	-0.295308277	
612.5	-0.08163969377	-0.002218085858	
613.125	-0.3372366704	-0.07466136679	
613.75	-0.05601503042	0.3489124064	
614.375	-0.006372495988	-0.04036752931	
615.0	0.09464292558	0.2089345844	
615.625	0.09003652672	-0.01925097034	
616.25	-0.1581334803	0.2252550237	
616.875	-0.0530060683	0.369213471	
617.5	0.06014892415	0.1566023081	
618.125	-0.1676197604	0.279432224	
618.75	0.01178592511	0.2298636907	
619.375	0.1386094393	0.1276351313	
620.0	0.2870370182	0.1604541283	
620.625	0.02881748467	-0.3261047492	
621.25	-0.06508623382	-0.1252277963	
621.875	-0.2238935103	-0.2098784265	
622.5	-0.298225604	0.2115209922	
623.125	0.004767995049	0.1177841081	
623.75	0.1460184678	0.1785858319	
624.375	-0.004089610473	-0.1850786866	
625.0	0.09566780521	0.07057201796	
625.625	0.02066773804	-0.2293411952	
626.25	-0.03950048884	-0.05102939188	
626.875	-0.1663986678	-0.2224271234	
627.5	-0.2240636187	-0.02806571524	
628.125	-0.05262155631	-0.03307205868	
628.75	-0.07112784523	-0.2787068581	
629.375	-0.2247356362	-0.1077621185	
630.0	-0.2002459399	-0.04240749303	
630.625	-0.3519148331	0.09705115318	
631.25	-0.1446575761	0.3752893821	
631.875	-0.07623786559	0.2201955418	
632.5	0.1146635595	0.4675109318	
633.125	0.2869580907	-0.05408845205	
633.75	0.1705049725	-0.01081886582	
634.375	0.1468606661	-0.2864340573	
635.0	-0.15002665	-0.09704682262	
635.625	-0.06707426192	-0.2137431578	
636.25	-0.2769381538	0.1945233627	
636.875	0.04164108249	0.1194434739	
637.5	-0.1673102038	0.08062284382	
638.125	0.03014851711	0.2469017538	
638.75	-0.1266962503	0.08453923416	
639.375	-0.003391824059	0.4574354493	
640.0	0.3168824378	0.2170856698	
640.625	0.2118326008	0.1000614376	
641.25	0.4965351998	0.0280954867	
641.875	0.06346180673	-0.3602485972	
642.5	0.06602990186	-0.1422009657	
643.125	-0.1244267255	-0.4483156467	
643.75	-0.1955721082	0.1042603571	
644.375	-0.2445857058	-0.1608920255	
645.0	-0.1868070918	0.3764685491	
645.625	0.2287293162	-0.005602547125	
646.25	0.08082409585	0.2501018092	
646.875	0.294494096	-0.1769042517	
647.5	-0.1764697544	0.1228205227	
648.125	0.4466347636	0.07427014465	
648.75	0.1555148905	-0.2345652051	
649.375	0.3348457261	-0.09740501922	
650.0	0.3332825701	-0.6803704697	
650.625	-0.04304915421	-0.3199670425	
651.25	0.3990752779	-0.1163683233	
651.875	0.4251971827	-0.4207021439	
652.5	0.1079600339	-0.1995660517	
653.125	0.4442448053	-0.01321044154	
653.75	0.2256463717	-0.5795445634	
654.375	-0.1446729367	-0.1710271883	
655.0	-0.288650282	-0.3120526058	
655.625	-0.2632753596	0.5351918572	
656.25	0.1670260744	-0.0780288818	
656.875	-0.05307109569	0.2411952333	
657.5	0.2190018651	-0.05900275917	
658.125	-0.01342858501	0.2735969141	
658.75	0.721812546	0.05818268013	
659.375	0.2208481534	-0.3396220625	
660.0	0.2978928607	-0.2272568007	
660.625	0.2868887362	-0.5869244013	
661.25	-0.1127084926	-0.4118333227	
661.875	0.3586470581	-0.1610203952	
662.5	0.38507087	-0.4290490386	
663.125	0.148865709	-0.2885338766	
663.75	0.317294605	-0.2771017716	
664.375	-0.2054939731	-0.5491340032	
665.0	-0.3026607743	-0.06868400838	
665.625	-0.412067656	-0.01551028542	
666.25	-0.09460471537	0.5004020035	
666.875	0.1676640111	0.09526992666	
667.5	0.1947700836	0.3356048091	
668.125	0.3523640507	-0.213386379	
668.75	0.1221340139	-0.0697138171	
669.375	0.2972369226	-0.3267196423	
670.0	-0.2764783473	-0.2804415666	
670.625	0.09030402399	-0.09805139894	
671.25	0.06271042372	-0.4319047954	
671.875	0.005269289256	-0.270925798	
672.5	0.2422034622	-0.04172849375	
673.125	0.3687953703	-0.3677416787	
673.75	0.00281620964	-0.2698833213	
674.375	0.1459765951	-0.2616439534	
675.0	-0.2375474443	-0.4395744783	
675.625	-0.2455479335	0.05379046832	
676.25	-0.1774441528	-0.187005906	
676.875	-0.3216188717	0.1417798976	
677.5	-0.0190012424	0.07939314022	
678.125	-0.327860732	0.1450987886	
678.75	0.3641549963	0.4199870129	
679.375	0.0813629424	-0.04748377917	
680.0	0.3494913674	0.02144572963	
680.625	0.04121586909	-0.3449521335	
681.25	-0.06604693134	0.3362757342	
681.875	0.4781148772	0.05747376833	
682.5	0.1487896134	-0.1291059814	
683.125	0.2396630739	0.3386375439	
683.75	0.6059055546	0.1418427698	
684.375	-0.008175324967	-0.01219571492	
685.0	0.3488426855	0.3283826865	
685.625	0.5187360923	-0.1945204806	
686.25	0.1529346046	-0.1724860194	
686.875	0.6152288978	-0.1742974572	
687.5	0.1330055627	-0.7318219336	
688.125	-0.06143476609	-0.3006982601	
688.75	-0.5879183624	-0.3678440586	
689.375	-0.3312173696	0.680530347	
690.0	0.1442618028	0.1507010266	
690.625	0.3291373003	0.59906726	
691.25	0.5867168767	0.05530537334	
691.875	0.280189365	0.4093633136	
692.5	1.044865772	0.3977351764	
693.125	0.7532876419	-0.4207934026	
693.75	0.6584566342	-0.06704493304	
694.375	0.7581184955	-0.6022231912	
695.0	0.2818449285	-0.3106084386	
695.625	0.4495146661	0.120959028	
696.25	1.001512386	0.2419248921	
696.875	0.4845552489	0.4226637033	
697.5	0.3772045994	0.5709259534	
698.125	0.7382740961	0.2287384066	
698.75	0.1041189783	-0.7245944191	
699.375	-0.3091410131	-0.514058111	
700.0	-0.4769952849	0.5610431145	
700.625	0.3261611869	0.183054425	
701.25	0.1149796843	0.3661232715	
701.875	0.6301938268	0.3176204564	
702.5	0.2525484301	0.09244889554	
703.125	0.5357077808	0.3355887408	
703.75	0.648870664	-0.303309809	
704.375	0.1716740906	-0.1365867128	
705.0	0.4574492673	-0.003370222243	
705.625	0.2604877138	-0.08870189433	
706.25	0.1402962935	0.1695926329	
706.875	0.3413326373	0.5861613715	
707.5	0.5298534977	0.276837852	
708.125	0.6143113411	-0.07088804018	
708.75	0.4206674003	-0.6142813975	
709.375	-0.610273382	-0.1643943279	
710.0	0.03402821627	0.2515543962	
710.625	0.05589927751	0.4241992598	
711.25	0.1318007784	-0.07507379955	
711.875	0.2031544746	0.2739186288	
712.5	0.562010061	-0.1542793582	
713.125	0.1168298828	-0.293449078	
713.75	0.2999097024	-0.2192176776	
714.375	-0.05699949644	-0.4617051881	
715.0	-0.1174253857	-0.1365463458	
715.625	0.2081635395	-0.3113636007	
716.25	0.1467708494	-0.4113343987	
716.875	0.2435760437	-0.08263267178	
717.5	0.8752753985	0.1151799133	
718.125	1.028106418	-0.2302304918	
718.75	0.7235557472	-0.4090583428	
719.375	1.45625657	-0.3073784083	
720.0	0.03529727041	-1.349366079	
720.625	-0.03936960846	-0.4452854886	
721.25	0.3198172853	-1.818703223	
721.875	-0.9988610711	-0.9138175311	
722.5	-0.4443571523	-1.075808211	
723.125	-1.361892488	-0.02494373221	
723.75	-0.102837979	0.8129416999	
724.375	-0.1656859123	0.394764323	
725.0	0.3980195438	0.744708578	
725.625	0.370207012	0.2341844797	
726.25	-0.2352823473	0.8830920491	
726.875	-0.05131317009	1.682885004	
727.5	0.5287896386	1.37269643	
728.125	-0.7673684641	2.402587315	
728.75	0.4474257444	4.820503178	
729.375	1.426754867	4.476746703	
730.0	-1.715838452	4.351566372	
730.625	2.424392153	7.419632952	
731.25	2.274382207	3.197308032	
731.875	-4.502891984	3.326374866	
732.5	-6.336140826	4.324982925	
733.125	-1.325309985	1.505767402	
733.75	-2.162484799	1.646771083	
734.375	1.938812807	-0.1837800929	
735.0	-0.2034796068	-0.374428214	
735.625	-0.8249207797	-0.07315457611	
736.25	0.601775269	1.017449397	
736.875	-0.004518787561	0.3609821053	
737.5	1.980645557	0.6019455276	
738.125	1.843988452	-1.610269627	
738.75	0.6709306913	-1.008425975	
739.375	5.275776247	-0.9933461091	
740.0	3.488090468	-7.602929355	
740.625	-0.818830365	0.9331995221	
741.25	1.468268848	9.393414237	
741.875	1.350388623	3.566259147	
742.5	1.108903327	-4.497152375	
743.125	-1.170888213	-3.709976007	
743.75	-0.6563204258	-0.5567330108	
744.375	-0.3866969067	-0.4635290165	
745.0	0.4507299818	0.430738143	
745.625	-0.05861567718	0.09779096465	
746.25	-0.07494452128	-0.2528065038	
746.875	-0.2150385086	0.2252416318	
747.5	-0.1751082286	0.3110887948	
748.125	0.2919187813	0.9770032282	
748.75	0.5494562545	0.459783298	
749.375	-0.01039143669	0.5554854858	
750.0	-0.625655568	0.4164338758	
