!Created with skrf (http://scikit-rf.org).
# GHz S RI R (50+0j) 
!freq	ReS11	ImS11	
500.0	0.5303703541	-0.8968859664	
500.625	-0.1018649882	-1.031895465	
501.25	0.03374953735	-0.3081135369	
501.875	-0.3631867975	-0.6156370973	
502.5	-0.0737481096	-0.06542999566	
503.125	-0.06041634254	-0.03537456636	
503.75	0.03598041258	0.1067767968	
504.375	-0.005120366279	0.01422634556	
505.0	0.0438724243	-0.03422172101	
505.625	-0.03436865729	-0.0121916075	
506.25	0.0168419851	-0.1104747219	
506.875	-0.0131220206	0.2441891694	
507.5	0.2122734009	-0.2526404583	
508.125	-0.009279142085	-0.8195429293	
508.75	0.05548044112	-0.6691419205	
509.375	0.2905657172	-0.9016484159	
510.0	-0.6535249852	-0.2687078528	
510.625	-0.07047409963	0.004729005357	
511.25	-0.07475550891	-0.06908671806	
511.875	-0.1258367675	0.01748703604	
512.5	-0.01408988472	0.01605632517	
513.125	-0.004597723579	-0.09603071896	
513.75	-0.07564177872	0.01693445014	
514.375	0.01430611823	-0.0605342316	
515.0	-0.1887775255	-0.08711547486	
515.625	0.4385910753	-0.1667386628	
516.25	-0.5523469649	-0.859521453	
516.875	-0.2570201101	-0.1001526293	
517.5	0.08777426024	-0.1027672151	
518.125	-0.08086977265	0.01275279846	
518.75	0.001022235244	-0.1756112147	
519.375	-0.0679084886	0.04443495287	
520.0	0.09942993061	0.0170510972	
520.625	0.08482660281	-0.01290242848	
521.25	0.01390647933	-0.2251524996	
521.875	-0.1753611484	0.05670138418	
522.5	0.008060331159	-0.03142400731	
523.125	-0.1353765347	0.07851316007	
523.75	0.01569270998	0.0425904959	
524.375	-0.2336550489	-0.102976943	
525.0	0.05166346427	0.2184447138	
525.625	-0.008094081625	-0.03503513781	
526.25	0.06175045504	0.0108941174	
526.875	-0.06689944914	-0.01746572083	
527.5	-0.07088873261	0.2551511116	
528.125	0.1642135665	0.1466893017	
528.75	-0.008775242956	0.2141451409	
529.375	0.06391451852	0.1003062774	
530.0	0.04921886025	0.1357784216	
530.625	0.03318149009	0.3155047979	
531.25	0.4465565114	0.04823111536	
531.875	0.1226064309	-0.0532124848	
532.5	0.05165549685	-0.1743834635	
533.125	-0.02432241566	0.0850823803	
533.75	0.2676406833	-0.1760651176	
534.375	-0.1542521226	-0.1913282998	
535.0	-0.1124063605	-0.1368060007	
535.625	-0.2056111905	0.1113228918	
536.25	0.03616475937	0.07107620905	
536.875	0.05960990312	0.04767830542	
537.5	0.07469595952	-0.06201580189	
538.125	0.04893685913	-0.04185604454	
538.75	0.1272300242	-0.09779605343	
539.375	-0.1191199254	-0.1408508746	
540.0	-0.08935490221	-0.09085777455	
540.625	-0.1621124836	-0.07282873324	
541.25	-0.1102545098	0.03419372255	
541.875	0.013131387	-0.03833512232	
542.5	-0.07501291979	-0.1274296412	
543.125	-0.02006942297	-0.0003806817193	
543.75	-0.07237669033	-0.1123808983	
544.375	-0.01802750704	0.08534202618	
545.0	-0.04529356608	0.02435422374	
545.625	0.09385271012	0.08643927539	
546.25	0.0495586305	-0.02074281782	
546.875	0.1369917195	0.02695959089	
547.5	0.02819675751	-0.1531092067	
548.125	-0.01596722077	-0.0925028057	
548.75	-0.09421442724	-0.1622786275	
549.375	-0.1407272699	-0.03726819562	
550.0	-0.02740255697	-0.01352024422	
550.625	-0.08714410579	0.01920044782	
551.25	-0.03920441524	0.02887515786	
551.875	-0.09418264198	0.04640283697	
552.5	-0.02596274851	0.08751457905	
553.125	-0.02505437855	0.04157023387	
553.75	0.05045442562	0.06105716204	
554.375	0.07667827835	-0.004240576299	
555.0	0.09639238846	-0.05818284718	
555.625	0.08076265624	-0.1020352783	
556.25	0.05801469707	-0.1236283	
556.875	-0.02639056599	-0.1453188597	
557.5	-0.09207106029	-0.1002262911	
558.125	-0.1077043532	-0.03483781017	
558.75	-0.09410586513	-0.00487498871	
559.375	-0.1096223914	0.01307286291	
560.0	-0.08410621755	0.07801760488	
560.625	-0.04979568016	0.08390491221	
561.25	-0.003736387873	0.114444312	
561.875	0.04192952624	0.01824846393	
562.5	-0.01367631907	0.07221175795	
563.125	0.08915850218	0.04278810714	
563.75	0.08645779183	0.02025686709	
564.375	0.1599877485	-0.09438494794	
565.0	0.02540121362	-0.1456232199	
565.625	0.01836781342	-0.1207600756	
566.25	-0.1544862521	-0.1657690725	
566.875	-0.09887698047	-0.02050498867	
567.5	-0.09396720215	-0.1541560299	
568.125	-0.2302918925	-0.1285264743	
568.75	-0.1328324539	-0.05288863727	
569.375	-0.3142805067	0.04900336858	
570.0	-0.05343659687	0.2365801314	
570.625	-0.05871166377	0.06552689905	
571.25	-0.03211085621	0.1865828945	
571.875	0.05808850212	-0.02396699947	
572.5	0.1286344765	0.08686975593	
573.125	0.07056632909	-0.2050475186	
573.75	-0.01759038689	-0.0348146011	
574.375	0.1006728443	-0.07881303204	
575.0	-0.06279199264	-0.05359775746	
575.625	0.107298435	-0.02344559085	
576.25	0.02957637793	-0.1891113277	
576.875	-0.04242268024	-0.05559113494	
577.5	0.08491930828	-0.1506879562	
578.125	-0.1146649186	-0.2128705282	
578.75	-0.08490567821	0.009086932261	
579.375	-0.005884108866	-0.1286533926	
580.0	-0.1572628681	-0.008441816819	
580.625	0.09658071751	-0.0916386715	
581.25	-0.1956616637	0.1376390043	
581.875	0.1192014935	0.06535149017	
582.5	-0.04721800548	0.07329023099	
583.125	0.1030206	0.1721680934	
583.75	0.03054882408	-0.08780131131	
584.375	0.0496895984	0.175741772	
585.0	0.1421927489	-0.03120290184	
585.625	0.06090955158	0.05648047968	
586.25	0.2289527043	-0.03418898797	
586.875	-0.008476377638	-0.1327714417	
587.5	0.05385089451	-0.07059259047	
588.125	-0.01576927569	-0.209125017	
588.75	-0.05173189469	-0.08921343459	
589.375	0.1836711357	-0.07050485797	
590.0	-0.1324308677	-0.2148772708	
590.625	-0.09108909106	0.002163834183	
591.25	-0.1844055842	0.032577855	
591.875	0.04294984386	0.239142019	
592.5	-0.01791334645	-0.06909029856	
593.125	-0.00926950814	0.1301127748	
593.75	0.02804360321	0.02362223144	
594.375	0.174482538	0.1940961342	
595.0	0.2460957398	0.04691445681	
595.625	0.06713219293	0.0206945393	
596.25	0.1748754917	0.1136798175	
596.875	0.1489871807	-0.039445196	
597.5	0.05070925094	0.07640168501	
598.125	0.1820136229	0.168232116	
598.75	0.1510257373	0.0105264312	
599.375	0.1862175734	0.005711294718	
600.0	0.2094901745	-0.161319082	
600.625	0.04957434033	-0.2021855047	
601.25	0.09864852091	-0.09358326282	
601.875	-0.1182424383	-0.2365572067	
602.5	-0.0822177566	0.06769813678	
603.125	-0.1067176553	-0.04948267994	
603.75	-0.114370929	0.1819826378	
604.375	-0.01265252404	-0.002952273905	
605.0	-0.1580046922	0.07242438181	
605.625	0.004922480111	0.121184424	
606.25	-0.1598030209	-0.005735747021	
606.875	-0.2391144565	0.136334106	
607.5	-0.1679342161	0.0827847081	
608.125	-0.1018123963	0.1845171194	
608.75	0.2054002985	0.203744114	
609.375	0.1868020206	-0.07148149736	
610.0	0.1652506623	-0.0269995676	
610.625	0.1042940965	-0.2243493883	
611.25	-0.06016979117	-0.1030205604	
611.875	-0.006521744089	-0.1832133527	
612.5	-0.289234533	-0.02178415379	
613.125	-0.0661537869	0.0008832169831	
613.75	-0.1931806919	0.1281152191	
614.375	0.1558471154	0.1060740192	
615.0	-0.09498941622	0.04986984928	
615.625	0.07434111296	0.1675151214	
616.25	0.00802454993	0.04420680794	
616.875	-0.1283244993	0.1932148548	
617.5	-0.01003559234	0.160998548	
618.125	0.009839960628	0.1184502141	
618.75	-0.07790851312	0.21434556	
619.375	0.1096551873	0.1730701675	
620.0	0.211536849	-0.0560576197	
620.625	0.1748358303	-0.1195704451	
621.25	-0.1583733562	-0.1812130489	
621.875	-0.09309092234	-0.05900968809	
622.5	-0.2446154387	-0.0486795954	
623.125	0.01426184583	0.2214362891	
623.75	0.03873044249	0.008439537119	
624.375	0.131294367	-0.03391544837	
625.0	-0.04519259398	-0.01774647504	
625.625	0.1220279719	-0.07161258642	
626.25	-0.1113184816	-0.1551570798	
626.875	-0.07486760503	-0.03823590822	
627.5	-0.148812871	-0.1142871164	
628.125	-0.1134831789	-0.0801736287	
628.75	-0.01861438536	-0.08007271788	
629.375	-0.0662760559	-0.1885220115	
630.0	-0.1902591439	-0.02256309882	
630.625	-0.08546278411	0.07882738173	
631.25	-0.1920226741	0.1946306502	
631.875	0.03458524482	0.2941001409	
632.5	0.05919299794	0.1351966852	
633.125	0.249690663	0.2285795617	
633.75	0.1259894955	-0.1345016786	
634.375	0.1037771331	-0.05848330341	
635.0	-0.01458061696	-0.2278188295	
635.625	-0.1189091867	0.003607226802	
636.25	-0.1750205032	-0.04161325988	
636.875	-0.07216991768	0.2054990816	
637.5	0.01848928485	0.01001539008	
638.125	-0.148469391	0.1018396839	
638.75	0.01810358154	0.2051332467	
639.375	-0.06360740842	0.1431187764	
640.0	0.1223333238	0.3270921548	
640.625	0.269613171	0.0689684245	
641.25	0.1492937135	-0.02367202335	
641.875	0.2793674762	-0.1459916791	
642.5	-0.1290844233	-0.2732367956	
643.125	0.009939707636	-0.07626308149	
643.75	-0.2628739265	-0.2742146423	
644.375	-0.07795665687	0.1247201246	
645.0	-0.2627150165	-0.03642238945	
645.625	0.1320568728	0.2959573596	
646.25	0.05630379485	-0.1180206459	
646.875	0.07634351092	0.133163569	
647.5	0.1054964521	-0.1119638122	
648.125	0.04674322943	0.1965871808	
648.75	0.3967047377	-0.1302175989	
649.375	0.06796353066	-0.2268954513	
650.0	0.2249654108	-0.139196094	
650.625	0.2510031216	-0.4381894273	
651.25	0.002792279922	-0.2002370996	
651.875	0.29578154	0.005670451748	
652.5	0.3681309258	-0.1606823544	
653.125	0.1089079207	-0.1735753049	
653.75	0.2950606503	-0.0384976466	
654.375	-0.1027409249	-0.4195279682	
655.0	-0.1624477467	-0.002246005601	
655.625	-0.2667397406	-0.0220861382	
656.25	0.1159935942	0.366991723	
656.875	-0.04103104873	-0.09012380096	
657.5	0.05899531606	0.2560024151	
658.125	0.1724329155	0.01111275716	
658.75	0.1376054067	0.1710025459	
659.375	0.5249100991	-0.2199756571	
660.0	0.04580769994	-0.2919779966	
660.625	0.1962633764	-0.1849892627	
661.25	0.2308825998	-0.3507348739	
661.875	0.03771548244	-0.2813661437	
662.5	0.2776667046	-0.02065562079	
663.125	0.3243598361	-0.2820076238	
663.75	0.0614858443	-0.2204758581	
664.375	0.08646971894	-0.2829908928	
665.0	-0.3412803553	-0.2621708569	
665.625	-0.1855836989	0.1164172788	
666.25	-0.2209329953	0.152081486	
666.875	0.1737676687	0.2758297338	
667.5	0.09108701353	0.006220351839	
668.125	0.2787392592	0.1480899849	
668.75	0.137592755	-0.2742596704	
669.375	0.06809038822	-0.08210528547	
670.0	0.122218889	-0.2593496174	
670.625	-0.1762648239	-0.1796515777	
671.25	0.1200217495	-0.03561045427	
671.875	0.153588782	-0.2717009522	
672.5	0.1020925719	-0.1664859194	
673.125	0.2077970581	-0.02780936084	
673.75	0.2396706401	-0.3147325567	
674.375	-0.05482315546	-0.182764077	
675.0	0.04548938545	-0.2064558317	
675.625	-0.2475753391	-0.1933685563	
676.25	-0.1358504055	0.07129651777	
676.875	-0.09294534575	-0.1382616594	
677.5	-0.2276078462	0.108610585	
678.125	-0.001806199079	0.04770498364	
678.75	-0.1262512665	0.244961764	
679.375	0.421057588	0.01267449008	
680.0	-0.04530694067	-0.02565606287	
680.625	0.2282968204	-0.01945816741	
681.25	0.02421092517	-0.1715267273	
681.875	0.007713922397	0.2920205998	
682.5	0.3938242823	0.1369219975	
683.125	0.1130834977	-0.08567911568	
683.75	0.2488372688	0.2131973933	
684.375	0.4049899904	0.09926278104	
685.0	0.06901709705	-0.03426459357	
685.625	0.251493467	0.2413174793	
686.25	0.3722148448	-0.145910911	
686.875	0.134626446	-0.1012712593	
687.5	0.364738121	-0.2198419519	
688.125	-0.1105616362	-0.5510070477	
688.75	-0.2047942865	-0.08704719627	
689.375	-0.4453168843	0.163399276	
690.0	0.1980788591	0.4557693467	
690.625	0.06070355115	0.07143612028	
691.25	0.3209997687	0.4756174729	
691.875	0.4726276499	0.04611568745	
692.5	0.3305559632	0.3612206607	
693.125	0.8002895167	0.05210377428	
693.75	0.4208788474	-0.4108075589	
694.375	0.5368289168	-0.1301921224	
695.0	0.5814173917	-0.2958527992	
695.625	0.3439483833	-0.03851961491	
696.25	0.2920668915	0.2418362943	
696.875	0.4598769771	0.5702553114	
697.5	0.2896140422	0.4360055362	
698.125	0.3969378681	0.294208533	
698.75	0.5743715437	-0.339190845	
699.375	-0.4226336421	-0.3057388812	
700.0	-0.2685758461	0.04201871906	
700.625	0.02661114864	0.5162941004	
701.25	0.1791490739	0.02783769222	
701.875	0.1124779666	0.313261543	
702.5	0.4746639754	0.2539109579	
703.125	0.2147414186	0.02951049012	
703.75	0.4094337795	0.04738935027	
704.375	0.3094047773	-0.2821235721	
705.0	0.1401958464	-0.02873398548	
705.625	0.3031448682	0.1542193227	
706.25	0.1112521815	0.2047394517	
706.875	0.112233988	0.2334396604	
707.5	0.1621743665	0.4512930782	
708.125	0.4974452422	0.06762964376	
708.75	0.1757520804	-0.4073366019	
709.375	-0.1270738627	-0.3747816527	
710.0	-0.1768910375	0.2736711699	
710.625	0.06271348407	-0.0242949207	
711.25	0.05398049825	0.33942404	
711.875	0.1496487945	-0.02059484817	
712.5	0.2584513218	0.1262764127	
713.125	0.3188152162	-0.2135373333	
713.75	0.02250391781	-0.2151602165	
714.375	0.1176089251	-0.1463947802	
715.0	-0.07077504753	-0.2899656462	
715.625	-0.0327739474	-0.1290894665	
716.25	0.2649388237	-0.1728424804	
716.875	0.3300122348	-0.2001868134	
717.5	0.2890113225	0.001270685154	
718.125	0.6737690078	0.2870759037	
718.75	0.8352945854	-0.2061829581	
719.375	0.4067584216	-0.4251777671	
720.0	0.986535739	-0.3205378442	
720.625	-0.06019476187	-0.9872916819	
721.25	0.1609457121	-0.4122685066	
721.875	0.2290783504	-1.382493814	
722.5	-0.7765923616	-0.6015381556	
723.125	-0.3144450543	-0.2755336585	
723.75	-0.5847190543	0.4363159231	
724.375	0.2316489688	0.3452148529	
725.0	-0.0221225507	0.27225656	
725.625	0.2257024188	0.5823632345	
726.25	0.2655403544	0.4291632794	
726.875	-0.3461622213	0.6810603943	
727.5	-0.2610417231	1.532060593	
728.125	0.4062082042	1.422224711	
728.75	-0.8676092154	1.567267696	
729.375	-1.046693871	4.010995861	
730.0	1.014205621	3.198265296	
730.625	-1.684228885	2.13501673	
731.25	-1.669923768	4.699645453	
731.875	0.2352500017	2.898730263	
732.5	-3.158533405	-0.6963241008	
733.125	-3.454509883	0.8159517426	
733.75	-0.2525465401	0.9693936551	
734.375	0.2366018929	0.9371288304	
735.0	-0.1726941822	-1.02229609	
735.625	-0.1072115518	0.0668688992	
736.25	-0.3383239724	0.5224635573	
736.875	0.6564558844	0.5019846422	
737.5	0.3135217216	-0.02678946276	
738.125	1.763598717	0.2691111884	
738.75	1.474530698	-1.822764751	
739.375	0.3297777284	-0.9994809047	
740.0	3.735396601	0.8041715672	
740.625	5.66119871	-3.08333432	
741.25	-1.530544288	-1.049043144	
741.875	-4.441336591	1.261058795	
742.5	-2.587458264	0.02228396971	
743.125	1.499457775	-0.183631529	
743.75	0.2855987706	-1.57823135	
744.375	-0.4073556269	0.1565347428	
745.0	-0.09915189595	0.04934318038	
745.625	0.1313614382	-0.1842392072	
746.25	0.07950178112	-0.04011652727	
746.875	-0.2764701319	-0.03814303994	
747.5	0.000693572657	0.2961578368	
748.125	0.03288156437	0.3339614178	
748.75	0.2019161275	0.5513275267	
749.375	0.2284652149	0.3717170143	
750.0	-0.2919585873	0.08877256166	
