!Created with skrf (http://scikit-rf.org).
# GHz S MA R 50.0 
!freq magS11 angS11
500.0 0.017473420522 -173.444111191
500.625 0.00908850783437 108.599486413
501.25 0.0115154298 -45.9964082892
501.875 0.0528428815743 -174.934344228
502.5 0.0178802268808 145.066833394
503.125 0.0123786087134 47.7040158999
503.75 0.0143189629331 131.919375916
504.375 0.00201412996977 -89.3206973832
505.0 0.0205221448616 -61.8562615908
505.625 0.0342570377353 -76.4747868757
506.25 0.0523125048667 -101.58236708
506.875 0.058058247636 -105.330393196
507.5 0.0438638138485 -137.186308822
508.125 0.0718870524996 -81.1798339289
508.75 0.0545289935712 -161.544677521
509.375 0.0439310661786 -162.982901418
510.0 0.0314896205804 -127.523346085
510.625 0.0563428102978 -155.301199101
511.25 0.0429887089107 167.008632913
511.875 0.0518404573091 143.297020656
512.5 0.0431428155792 101.6549774
513.125 0.0614765541671 55.0722983453
513.75 0.0497744035386 10.7185293709
514.375 0.0412203577163 27.4812238954
515.0 0.052086251576 8.47178049828
515.625 0.104357686578 56.5781941566
516.25 0.0775955282233 29.3680868077
516.875 0.0999190074386 70.1739287317
517.5 0.109602674192 19.8213393894
518.125 0.212913350194 75.8639999
518.75 0.0846465755975 12.5866832794
519.375 0.0741918953268 22.8888610102
520.0 0.103968105901 1.01716170254
520.625 0.112047633688 1.14001199074
521.25 0.0812618198611 -22.1351468216
521.875 0.0624787733491 1.01738226145
522.5 0.0969466201387 -30.5958581944
523.125 0.189728105664 -31.0608104497
523.75 0.195104860933 -67.3018687728
524.375 0.19129156714 -58.8178574663
525.0 0.0683750259127 -44.0346137016
525.625 0.0354298939345 -52.2229536512
526.25 0.0417168895724 -12.9033847686
526.875 0.0521445326661 -25.4217756216
527.5 0.0516522413839 -24.9498033544
528.125 0.0405842494267 -59.3013317087
528.75 0.0606632276763 -70.8246519323
529.375 0.093337538809 -109.10004345
530.0 0.0602531936985 -125.89069871
530.625 0.0194189155569 -119.042863186
531.25 0.0999708921708 -127.658340542
531.875 0.165723735954 -148.595983624
532.5 0.157006466854 -169.623515285
533.125 0.0980151471627 175.654031509
533.75 0.116485048199 168.348601264
534.375 0.114598489212 -179.752462356
535.0 0.0867420029565 163.447735433
535.625 0.0699510226548 178.928763226
536.25 0.0565804709461 166.086802217
536.875 0.0691170371487 -158.124811265
537.5 0.108866372417 -146.073887109
538.125 0.0825056782846 -173.61274119
538.75 0.0994510769003 179.835353224
539.375 0.0717068606286 -166.235775665
540.0 0.100845813828 -154.851449404
540.625 0.0999235525171 -152.511628128
541.25 0.112479206156 -140.431451545
541.875 0.0931335191389 -142.522343626
542.5 0.119348162572 -145.648470568
543.125 0.118179454082 -165.954229539
543.75 0.124520682436 158.796963146
544.375 0.0974034091551 134.783112777
545.0 0.0887633076291 91.7854836717
545.625 0.106822495834 83.6193995749
546.25 0.0855764065446 67.7906986456
546.875 0.0846065761843 56.2629236205
547.5 0.116980760482 58.6930196145
548.125 0.0907686103447 76.9258106464
548.75 0.080859342441 91.4647879806
549.375 0.0945521378158 84.9135559192
550.0 0.0866579463214 127.674443841
550.625 0.0515208301297 157.693497735
551.25 0.039724907067 -136.144358731
551.875 0.0707420663315 -163.320095622
552.5 0.117372091074 -164.638258376
553.125 0.0862766059849 -164.071355314
553.75 0.0901637692914 -166.022580067
554.375 0.113948542642 166.306358676
555.0 0.129459859462 164.42755185
555.625 0.102535452552 157.256615912
556.25 0.0897618958383 167.299182506
556.875 0.111679882095 169.133364786
557.5 0.106794742881 166.691509789
558.125 0.104600079646 163.567232067
558.75 0.0775571013563 178.605633632
559.375 0.0703356438689 -171.762531754
560.0 0.0478138424076 -147.939285789
560.625 0.0617632013337 -142.768612606
561.25 0.0889547681045 -148.366412668
561.875 0.106956282018 -162.625516547
562.5 0.0942674421016 173.846982919
563.125 0.106742874933 146.429984707
563.75 0.12961248736 131.531553939
564.375 0.105185247915 120.409802467
565.0 0.0892897310572 119.810318024
565.625 0.0869330951203 117.374877327
566.25 0.0934539264095 156.073095878
566.875 0.0721558688109 -178.000984631
567.5 0.0697534310544 -176.043468381
568.125 0.0881942717674 -174.184214992
568.75 0.0552320136469 -136.265133009
569.375 0.0483087390601 -106.182283686
570.0 0.0591163121291 -104.343645037
570.625 0.0952140429673 -120.272936166
571.25 0.0870537889926 -116.369236722
571.875 0.0867354432356 -122.064673168
572.5 0.110277139589 -153.48162497
573.125 0.148091678118 -177.275879272
573.75 0.0916336934319 168.051282646
574.375 0.0786637699249 153.732977643
575.0 0.107529187365 154.642669244
575.625 0.114346079161 152.888815795
576.25 0.0879826970358 148.007524561
576.875 0.0825317649504 125.822055585
577.5 0.0827740989825 137.628834161
578.125 0.0631330612276 157.411695084
578.75 0.0451778624688 171.729983545
579.375 0.0535381577049 169.017764479
580.0 0.0655364944652 -170.035719566
580.625 0.0791768688219 -156.808486741
581.25 0.0916788261154 -154.89964431
581.875 0.114504521533 -174.484639534
582.5 0.112394006647 -172.77372478
583.125 0.0945941683016 -171.142696868
583.75 0.0795975934524 -162.751236894
584.375 0.102224975063 -154.56038096
585.0 0.0949197562756 -144.476027898
585.625 0.0745339792614 -152.0384113
586.25 0.0669069466813 -123.244989697
586.875 0.0806381428751 -129.921365755
587.5 0.069776928494 -138.426085233
588.125 0.0599711080642 -178.283341388
588.75 0.0670797014562 -153.159796215
589.375 0.0833267504185 -149.482955832
590.0 0.0936454149765 -170.481036348
590.625 0.10463123453 163.669161052
591.25 0.121276833177 154.925720951
591.875 0.0938611056008 159.570260663
592.5 0.0641242859822 146.521078961
593.125 0.061572452842 150.566123425
593.75 0.0625499486963 176.47914817
594.375 0.05784264665 -147.415185185
595.0 0.040197187771 -117.111999877
595.625 0.0604130804843 -99.6773081724
596.25 0.0723709161652 -88.7777989416
596.875 0.0694707480966 -68.3126211143
597.5 0.0608092058975 -61.1542118493
598.125 0.0609613986826 -63.9929676702
598.75 0.0917534582623 -49.8109625919
599.375 0.0897477826659 -61.5576576676
600.0 0.102099004348 -61.7151130111
600.625 0.0970022705804 -74.816884445
601.25 0.0821111462536 -70.7915169577
601.875 0.0696638752456 -83.8792660873
602.5 0.060682239651 -89.0510235847
603.125 0.0441274148973 -54.8831795509
603.75 0.0276101672077 -52.2029185663
604.375 0.055246026627 -7.7667086761
605.0 0.0712068782089 -8.33572873901
605.625 0.0547176282315 0.806470532664
606.25 0.0186631648836 -21.3709930782
606.875 0.0579034227199 56.6249283191
607.5 0.0670823646097 45.1759143816
608.125 0.0750460539511 36.2941416524
608.75 0.0531693674177 14.5941749165
609.375 0.082237043794 39.6046621531
610.0 0.0824693073926 49.9733997206
610.625 0.0707563488505 44.4296856455
611.25 0.0413953358624 13.4957430897
611.875 0.0529476345375 79.564992984
612.5 0.0271119277196 98.4993312948
613.125 0.0162987900355 126.742804309
613.75 0.0397503742253 126.307456754
614.375 0.0317561897058 116.534691561
615.0 0.0376408908612 124.157387277
615.625 0.0328185622947 132.260974927
616.25 0.0494425415386 136.547642959
616.875 0.0312374819108 124.233680845
617.5 0.0356666261793 121.966747512
618.125 0.0153804410984 123.35588015
618.75 0.0314544659545 144.799976001
619.375 0.00657192145328 115.104477593
620.0 0.00519794752609 123.135339799
620.625 0.0246077254572 -91.0916128918
621.25 0.0475079847839 -86.9736201934
621.875 0.0629165754603 -100.845040211
622.5 0.0741061539063 -165.453843792
623.125 0.0775154910763 167.417097596
623.75 0.0600411876756 165.804043741
624.375 0.0319618714256 -162.086917074
625.0 0.0651916989452 -156.756025527
625.625 0.0525589218897 -159.559758304
626.25 0.0323439299902 -178.31905381
626.875 0.025628990497 -7.86125667533
627.5 0.0277065238692 -101.818801757
628.125 0.0328791717807 -30.3477526194
628.75 0.0414292870361 -24.5195526544
629.375 0.0627269615451 1.96017426744
630.0 0.0640008192765 1.57095234881
630.625 0.0701257120436 3.76480247538
631.25 0.0646499837736 0.793273382239
631.875 0.0771306373564 11.757947923
632.5 0.0739608708769 -30.0709842047
633.125 0.0445609665395 -1.20424621019
633.75 0.0431186425809 22.342413936
634.375 0.0419659639695 24.2483545241
635.0 0.0442371850898 40.4492065707
635.625 0.0251669924434 3.1814149522
636.25 0.0420578424738 30.5325495416
636.875 0.0610085958277 28.6361790225
637.5 0.0515380177647 52.2940435461
638.125 0.0297382029564 51.0377567836
638.75 0.0698820353381 76.5119476279
639.375 0.102416737708 98.6384612069
640.0 0.0743203794202 108.140332177
640.625 0.0559601526085 99.5903878362
641.25 0.0623282856104 119.996362209
641.875 0.0696766459815 150.246263272
642.5 0.0692713130116 164.364484053
643.125 0.0440022937532 136.427279707
643.75 0.0633738434413 172.941941657
644.375 0.0740718480132 -178.932461658
645.0 0.0909897905298 -178.517051776
645.625 0.0896267581877 164.237698163
646.25 0.0906512801911 165.783674004
646.875 0.0708623314562 -177.20763324
647.5 0.0663362629248 -174.245316077
648.125 0.0929822680668 -173.033421067
648.75 0.0727535056217 -168.597089397
649.375 0.0425667468681 -147.443385234
650.0 0.0479424477888 -116.363691758
650.625 0.0819326183703 -87.7361489038
651.25 0.0512653236319 -69.5240758215
651.875 0.0564145409967 -40.5942987883
652.5 0.0816423428367 -24.942970312
653.125 0.137496247544 -1.13069980519
653.75 0.103908467375 6.16462101014
654.375 0.117752403901 8.19541747154
655.0 0.120511590903 15.1396638714
655.625 0.104421859052 31.0209857274
656.25 0.0486414208776 14.7910997637
656.875 0.0575997382755 5.91097059263
657.5 0.0685831101783 18.6869606582
658.125 0.079092274915 49.2772615974
658.75 0.0462956392889 70.8884971228
659.375 0.0803042222175 42.2151806754
660.0 0.127829926901 25.3415254609
660.625 0.11900011018 19.184260702
661.25 0.105749681014 5.71682741969
661.875 0.11717925294 -12.1566170809
662.5 0.124763662084 -21.2088820668
663.125 0.117800561722 -15.4221569659
663.75 0.0816651081651 0.552796299408
664.375 0.0919463920314 56.093743004
665.0 0.0718065653023 94.2811345972
665.625 0.0722515522352 112.702806971
666.25 0.0860989178285 134.442361142
666.875 0.124178650737 171.488755765
667.5 0.100179068869 -167.95784139
668.125 0.110578316059 179.662715469
668.75 0.1255677357 168.818434804
669.375 0.114642241536 178.995837246
670.0 0.0857379859109 -169.407809722
670.625 0.096201354972 -173.422787374
671.25 0.0870012431359 175.84890563
671.875 0.091655025688 170.032761087
672.5 0.0712462785731 152.528459783
673.125 0.0932413434075 150.615615215
673.75 0.109454588988 160.785536508
674.375 0.119040833801 169.136067564
675.0 0.11535376426 -173.499353664
675.625 0.13885767106 -151.229388152
676.25 0.123494105208 -123.634444278
676.875 0.114485786245 -118.646425885
677.5 0.12564824462 -127.631193672
678.125 0.141770986175 -116.753014308
678.75 0.0496117825191 -90.9527035734
679.375 0.0485310897259 -67.9729305002
680.0 0.0710533679302 -75.9674296256
680.625 0.132605106653 -78.1000609129
681.25 0.108597811517 -73.3849131172
681.875 0.100628803522 -91.7837060691
682.5 0.138157428803 -118.69270269
683.125 0.161498701707 -120.370492086
683.75 0.148638254503 -106.670219695
684.375 0.0991348142653 -73.497153826
685.0 0.130538005646 -37.5331047693
685.625 0.1207506543 -0.649720816843
686.25 0.119136636642 19.8453724675
686.875 0.0694082248741 52.2829430328
687.5 0.0711337056226 84.8235761349
688.125 0.0759636857179 113.945274899
688.75 0.107135708315 109.998774111
689.375 0.128935974578 125.027840664
690.0 0.134604299126 134.098370344
690.625 0.125934445112 123.835566134
691.25 0.14511139059 97.1170082274
691.875 0.200231816823 66.0535499962
692.5 0.137073549067 41.9258062125
693.125 0.0812371459108 -10.7883949597
693.75 0.0863265552575 -33.5348555824
694.375 0.147875429364 -35.7639311158
695.0 0.118406353025 19.3816115398
695.625 0.102312029416 55.9600465795
696.25 0.120338691868 108.059619722
696.875 0.139292316388 173.361693333
697.5 0.150053656952 -149.442980128
698.125 0.1298154078 -125.292494108
698.75 0.134315945897 -132.836510072
699.375 0.11524476836 -128.287491032
700.0 0.0867400047274 -104.399979031
700.625 0.11081355529 -86.9049380972
701.25 0.106417951709 -69.0735293221
701.875 0.0844131823535 -62.5326714299
702.5 0.106515676339 -81.2370177186
703.125 0.171281257124 -119.765043984
703.75 0.17790592843 -150.462210339
704.375 0.129997620599 171.364524004
705.0 0.115200725123 152.634425464
705.625 0.138923713704 -159.256069191
706.25 0.14229408299 -108.422112735
706.875 0.0847167446903 -59.9125541577
707.5 0.0780961032108 -40.1227792801
708.125 0.0891885308953 21.3520790585
708.75 0.111987616217 66.6046097865
709.375 0.104008356219 104.477029777
710.0 0.102972744729 131.610483635
710.625 0.108473566957 148.362486704
711.25 0.118824730222 172.309934476
711.875 0.146200213846 173.700812741
712.5 0.157341089562 139.007047138
713.125 0.115053914391 107.321632542
713.75 0.0994566139443 47.4703887187
714.375 0.114617717109 24.3761139617
715.0 0.115227654444 29.7112475465
715.625 0.0851063681387 39.8362236633
716.25 0.0913853648635 93.261319059
716.875 0.124592985761 110.539968482
717.5 0.132654077701 146.892185398
718.125 0.11822037547 167.156628238
718.75 0.101732497258 169.568788869
719.375 0.11560066956 -166.673344201
720.0 0.13320145401 -120.048790244
720.625 0.113131844816 -73.7151748869
721.25 0.097794361555 -28.3482294939
721.875 0.0839182122651 37.9362229971
722.5 0.068920154522 77.8465403161
723.125 0.0694634512406 55.0462069094
723.75 0.111040550957 43.5885109613
724.375 0.114465404383 1.12717734509
725.0 0.0937071579696 -41.6361935229
725.625 0.102596622878 -65.5208651564
726.25 0.0999023780171 -82.2262759286
726.875 0.110630783799 -30.4406545472
727.5 0.0876765207664 -21.4503806656
728.125 0.0803520501141 3.91362992464
728.75 0.0855456422173 13.252869426
729.375 0.078436474773 21.3788721277
730.0 0.0654761717657 9.48492617138
730.625 0.0787759515141 31.7284215053
731.25 0.0727983324516 64.5392351333
731.875 0.0546395888565 100.571364911
732.5 0.101565850122 164.160941568
733.125 0.0883414692149 178.597875727
733.75 0.0806778971247 174.925725988
734.375 0.0511807790662 158.904681932
735.0 0.0564594482251 151.70717317
735.625 0.0384730827814 132.601705277
736.25 0.0412412375082 146.349734834
736.875 0.0315553889732 -177.938262749
737.5 0.0813469638133 176.58349957
738.125 0.114159755591 -173.428178405
738.75 0.0779952252969 -174.647619455
739.375 0.02643185564 162.435332617
740.0 0.100118511952 -136.062624175
740.625 0.0601643085474 -155.69778193
741.25 0.0476615111934 -146.330352673
741.875 0.0303591075949 -116.178099837
742.5 0.0152832505983 20.8633321869
743.125 0.0324555777929 61.1679518385
743.75 0.046839176493 125.74000787
744.375 0.0373742442574 175.583349371
745.0 0.0778835070068 108.441172804
745.625 0.0678274185019 111.074715908
746.25 0.0714274226118 92.8275756081
746.875 0.0630709496474 38.5976327563
747.5 0.0267035179341 29.0558263479
748.125 0.0361475321874 -11.0630898866
748.75 0.0325260310283 -19.4583775552
749.375 0.0361642444183 -32.187795488
750.0 0.0395317182895 -48.2902486494
