!Created with skrf (http://scikit-rf.org).
# GHz S RI R (50+0j) 
!freq	ReS11	ImS11	
500.0	0.5931837099	-0.8064083674	
500.625	0.001121829392	-1.230285237	
501.25	0.06083150388	-0.3056594845	
501.875	-0.2561307312	-0.5684149562	
502.5	-0.06224197654	-0.06208773348	
503.125	-0.05010530617	-0.03164188767	
503.75	0.06736737426	0.1166519779	
504.375	-0.004427999526	0.0008074414151	
505.0	0.04446354853	-0.0289920387	
505.625	-0.04038992191	-0.02124602661	
506.25	0.01586683854	-0.1319219712	
506.875	-0.1455913594	0.2094804854	
507.5	0.2487729461	-0.3357340297	
508.125	0.1120989056	-0.8159152403	
508.75	0.07308921302	-0.7238927385	
509.375	0.5015618045	-1.005094734	
510.0	-0.4467263301	-0.1823066278	
510.625	-0.1047172237	-0.01227501703	
511.25	-0.05493837218	-0.1119653135	
511.875	-0.1407214543	-0.005332776834	
512.5	-0.02447824623	0.01057123855	
513.125	0.03839454659	-0.08220358857	
513.75	-0.07998394933	-0.002762772625	
514.375	0.04027784059	-0.03651567432	
515.0	-0.2640300105	-0.08187901069	
515.625	0.5533429407	-0.3474655242	
516.25	-0.2965221445	-0.8622041075	
516.875	-0.2640926363	-0.06404522762	
517.5	0.05839872965	-0.2112788922	
518.125	-0.0673527651	0.0208700855	
518.75	0.05500758528	-0.0906092345	
519.375	-0.07115067248	0.03729162275	
520.0	0.1142210712	0.01532378834	
520.625	0.1277384828	-0.03306900684	
521.25	0.05891363171	-0.2666388654	
521.875	-0.1816847788	0.03923728288	
522.5	0.008256014451	0.005971696934	
523.125	-0.1469067567	0.04429623998	
523.75	0.01130645063	0.05072456047	
524.375	-0.202838252	-0.1195815307	
525.0	0.05022570822	0.2382011376	
525.625	-0.04773783575	-0.02155133776	
526.25	0.03330327266	0.06003474295	
526.875	-0.08027780989	-0.01772068549	
527.5	-0.1000222403	0.2597523299	
528.125	0.0134711038	0.1278754454	
528.75	-0.08329837923	0.1417392883	
529.375	0.06850057879	0.09475366799	
530.0	-0.005028565897	0.06969283316	
530.625	0.04599323582	0.2427123173	
531.25	0.3871481413	0.02433987577	
531.875	0.09385112399	-0.1324557315	
532.5	-0.005682551749	-0.2019738377	
533.125	-0.1581571779	-0.05327954795	
533.75	0.2027313852	-0.1924585821	
534.375	-0.1595712355	-0.1950772338	
535.0	-0.1134026646	-0.1031916466	
535.625	-0.2159613852	0.08055914708	
536.25	0.03360532535	0.07338582759	
536.875	0.05529613969	0.04682075025	
537.5	0.08057318296	-0.06592837064	
538.125	0.05018300127	-0.04064431131	
538.75	0.1770473847	-0.09576598553	
539.375	-0.097468714	-0.1412295272	
540.0	-0.07739464164	-0.09621913003	
540.625	-0.111386016	-0.0586566676	
541.25	-0.09130713408	0.03166158893	
541.875	0.003932824078	0.0326110358	
542.5	-0.06760974604	-0.09339230828	
543.125	-0.07004536354	0.08231760122	
543.75	-0.06396133388	-0.07295137139	
544.375	-0.01801547415	0.09322055328	
545.0	-0.04473507603	0.00634562038	
545.625	0.0972218767	0.1113141276	
546.25	0.04522583213	-0.009023054531	
546.875	0.1362970588	0.02968637401	
547.5	0.0346025382	-0.1533493597	
548.125	-0.02553633342	-0.07437905647	
548.75	-0.08661076004	-0.1597123285	
549.375	-0.1441881891	-0.04082620518	
550.0	-0.02078243803	-0.009911209991	
550.625	-0.08247880078	0.005201114241	
551.25	-0.03347979792	0.0178349815	
551.875	-0.09646949009	0.05134605181	
552.5	-0.02176592052	0.08059931311	
553.125	-0.01272497149	0.03148577446	
553.75	0.04617738486	0.0514811073	
554.375	0.07770461782	-0.001024694943	
555.0	0.09501359647	-0.05622499126	
555.625	0.08406184678	-0.1012591317	
556.25	0.05713596611	-0.1231644507	
556.875	-0.02515534597	-0.14136068	
557.5	-0.08741824816	-0.1005877005	
558.125	-0.1089493822	-0.03497776736	
558.75	-0.09528424269	-0.005888627482	
559.375	-0.1091925305	0.01556928963	
560.0	-0.08354431129	0.07724593355	
560.625	-0.04926217402	0.08150073985	
561.25	-0.006441405942	0.1131198812	
561.875	0.04252672992	0.01900247178	
562.5	-0.01918057673	0.07014119742	
563.125	0.09524693285	0.05124096848	
563.75	0.09498530426	0.01827981517	
564.375	0.1556324343	-0.09515959424	
565.0	0.03179412728	-0.1404411677	
565.625	0.01749042657	-0.1010395019	
566.25	-0.1380289892	-0.1456609868	
566.875	-0.1059918838	-0.02200447455	
567.5	-0.06580686182	-0.1737757839	
568.125	-0.2148958071	-0.1421211647	
568.75	-0.08660368572	-0.0369606774	
569.375	-0.2924687707	0.02658089244	
570.0	-0.0466548498	0.2454821286	
570.625	-0.05158667016	0.06219684173	
571.25	-0.03210962273	0.1726559703	
571.875	0.06943244462	-0.01713867402	
572.5	0.1332673822	0.1087343942	
573.125	0.08046069926	-0.194632141	
573.75	-0.02724850632	0.0009675107233	
574.375	0.1047960175	-0.08439856299	
575.0	-0.0608562808	-0.05296188448	
575.625	0.1027353655	-0.01400821392	
576.25	0.04143701394	-0.1766457528	
576.875	-0.03805514161	-0.06536880202	
577.5	0.09147073839	-0.1264590644	
578.125	-0.1116494094	-0.2491358349	
578.75	-0.09327079371	-0.01765316719	
579.375	0.01373194903	-0.1141609971	
580.0	-0.2036194188	-0.01063019875	
580.625	0.08373629017	-0.04514810212	
581.25	-0.2074128848	0.1417081206	
581.875	0.1199697025	0.09464212692	
582.5	-0.06745905855	0.09252728512	
583.125	0.1002091471	0.1673539709	
583.75	-0.004373282258	-0.1130981771	
584.375	0.01491856627	0.1604737391	
585.0	0.1544660495	-0.0180312235	
585.625	0.05020111761	0.03108011041	
586.25	0.242987208	-0.05971301491	
586.875	-0.0111641855	-0.1505457879	
587.5	0.0531127168	-0.08395152455	
588.125	-0.01586865223	-0.1985563098	
588.75	-0.05626699217	-0.09484601836	
589.375	0.150323625	-0.08165555549	
590.0	-0.1132571275	-0.2093390322	
590.625	-0.09834136889	0.02187396694	
591.25	-0.2187059906	-0.00797568318	
591.875	-0.01166217785	0.2225984854	
592.5	0.0237960727	-0.0731423773	
593.125	-0.01298951834	0.1615382187	
593.75	-0.05197529579	-0.007304227351	
594.375	0.136228128	0.1942922291	
595.0	0.241595684	0.03682287855	
595.625	0.05948579031	0.05363895203	
596.25	0.2132429261	0.08695104571	
596.875	0.1684397343	-0.04162493794	
597.5	0.04909238273	0.06496202656	
598.125	0.167827935	0.1834944605	
598.75	0.1569472257	0.0204843586	
599.375	0.1601565219	0.02656917893	
600.0	0.1927438357	-0.145119738	
600.625	0.05765228962	-0.1938066524	
601.25	0.09085378956	-0.07968885996	
601.875	-0.09678052395	-0.2142939988	
602.5	-0.09082542359	0.06222255085	
603.125	-0.1070236033	-0.06835936879	
603.75	-0.1229921945	0.2120458957	
604.375	0.001039983874	-0.01279429695	
605.0	-0.1688313275	0.04376028705	
605.625	0.03127423692	0.09923770214	
606.25	-0.08832822015	-0.04301266683	
606.875	-0.1151862714	0.15921484	
607.5	-0.06748112086	0.1264631105	
608.125	-0.05818646165	0.2622996786	
608.75	0.1810564389	0.1502784113	
609.375	0.1875241654	-0.06471289371	
610.0	0.174550723	-0.02610605055	
610.625	0.1185837741	-0.1634543892	
611.25	-0.05332617594	-0.08544692524	
611.875	0.02673393502	-0.1320123752	
612.5	-0.2550150341	-0.03312271869	
613.125	-0.0586922292	0.02335125603	
613.75	-0.1954429911	0.1109788223	
614.375	0.1624815726	0.1033741476	
615.0	-0.09012878578	-0.01722220628	
615.625	0.07597637019	0.1983808816	
616.25	-0.09281162089	0.04077610996	
616.875	-0.1488236886	0.1990548218	
617.5	0.005497075583	0.2763452538	
618.125	0.03601665446	0.08812019422	
618.75	0.0166771966	0.1857182614	
619.375	0.04641729495	0.1794664945	
620.0	0.1532040775	0.03459964076	
620.625	0.1717923591	-0.1217202189	
621.25	-0.1555303294	-0.1770598349	
621.875	-0.1310151815	0.0184991173	
622.5	-0.2345412219	-0.0179165441	
623.125	0.005499889286	0.2337037285	
623.75	0.03802730304	-0.02211717122	
624.375	0.1326912864	-0.02391072506	
625.0	-0.04417405332	-0.01747936699	
625.625	0.126594135	-0.06626059776	
626.25	-0.1064489889	-0.1598061555	
626.875	-0.05607681345	-0.01170703844	
627.5	-0.1365005362	-0.08913311703	
628.125	-0.1381407783	-0.01459267726	
628.75	-0.02147400265	-0.08199795799	
629.375	-0.09307611971	-0.2091587543	
630.0	-0.2276505631	-0.1078192407	
630.625	-0.1774142494	0.04339571247	
631.25	-0.2199672476	0.1201970015	
631.875	0.0174086516	0.2338204224	
632.5	0.07707135773	0.05454039962	
633.125	0.2144903801	0.1488649895	
633.75	0.1240653049	-0.1240198273	
634.375	0.08205390408	-0.03103817486	
635.0	-0.007873825441	-0.2465264915	
635.625	-0.1289774005	0.0003110023195	
636.25	-0.1461147708	-0.03704673595	
636.875	-0.09379456151	0.2117519663	
637.5	0.02357327203	0.01627958058	
638.125	-0.1664435424	0.0839831377	
638.75	0.03261391506	0.179567342	
639.375	-0.09041253592	0.1474416552	
640.0	0.141055074	0.3304108358	
640.625	0.2863664838	0.1033480737	
641.25	0.1686763513	0.01817974384	
641.875	0.2650582037	-0.1603143449	
642.5	-0.07314231563	-0.2336386357	
643.125	0.01896477048	0.0008510903925	
643.75	-0.1820193325	-0.2105758623	
644.375	-0.07727983022	0.1348616985	
645.0	-0.2194770541	0.02875681449	
645.625	0.1761548356	0.3853486876	
646.25	0.09695704599	-0.1156066661	
646.875	0.08716319333	0.1483195456	
647.5	0.1276629157	-0.1235052411	
648.125	-0.008460650122	0.1937751356	
648.75	0.3893618467	-0.1024030889	
649.375	0.06527869204	-0.2539336501	
650.0	0.2000010599	-0.1045299031	
650.625	0.2478381987	-0.4141058527	
651.25	-0.009465407913	-0.1953792484	
651.875	0.3104858264	0.004820337131	
652.5	0.3567993729	-0.1782819354	
653.125	0.1245959074	-0.1081312736	
653.75	0.2988823408	-0.09598699179	
654.375	-0.08933700866	-0.3801696584	
655.0	-0.2202318018	0.02335628521	
655.625	-0.2232899319	-0.07420900019	
656.25	0.08957701895	0.3487128503	
656.875	0.007563416289	-0.1187119752	
657.5	0.06140590558	0.2971066038	
658.125	0.2008770658	0.01026269052	
658.75	0.0835417004	0.2589269731	
659.375	0.5026783859	-0.162530635	
660.0	0.06117566329	-0.3032815061	
660.625	0.1982173969	-0.1769960998	
661.25	0.2402382089	-0.3543897685	
661.875	0.06918226361	-0.2847850054	
662.5	0.269341469	-0.02999951162	
663.125	0.3266072594	-0.2700844196	
663.75	0.04185754268	-0.1896782007	
664.375	0.08461246702	-0.2900716693	
665.0	-0.3307678201	-0.2788995409	
665.625	-0.1911551071	0.1483104299	
666.25	-0.1781045792	0.1509978666	
666.875	0.151524393	0.2663354332	
667.5	0.09653021885	-0.05282193532	
668.125	0.2764641777	0.1650587311	
668.75	0.1679160577	-0.2419695476	
669.375	0.04580629741	-0.07025965739	
670.0	0.164707286	-0.3118426176	
670.625	-0.1725100381	-0.2197327421	
671.25	0.1832991578	-0.003222339973	
671.875	0.1950664692	-0.2637263377	
672.5	0.104367453	-0.1691473907	
673.125	0.1863200344	-0.04825846055	
673.75	0.2446239436	-0.2851335242	
674.375	-0.05459643991	-0.1868552736	
675.0	0.05042420661	-0.2278801232	
675.625	-0.2537786229	-0.1824572456	
676.25	-0.1303076091	0.07376707386	
676.875	-0.09201750729	-0.1186390836	
677.5	-0.2438212173	0.07978615721	
678.125	-0.008048508218	0.08690669511	
678.75	-0.1840273078	0.2038939376	
679.375	0.3853083719	0.08603066989	
680.0	-0.0897530893	-0.04554997997	
680.625	0.2206814325	0.01355839074	
681.25	-0.04227402462	-0.2310800609	
681.875	-0.03339251198	0.2358555541	
682.5	0.4337913946	0.1436410269	
683.125	-0.04102840495	-0.06649683561	
683.75	0.1998189972	0.223755462	
684.375	0.3910066368	-0.0272963382	
685.0	0.1738260589	-0.1306233675	
685.625	0.3017285327	0.2134543435	
686.25	0.4091204547	-0.132546379	
686.875	0.2010153434	-0.07036054987	
687.5	0.3985349219	-0.1519007173	
688.125	-0.09837786761	-0.4854724187	
688.75	-0.2078415747	-0.09315746468	
689.375	-0.351453651	0.1543406676	
690.0	0.168472474	0.4437211641	
690.625	0.1279121674	0.06348394311	
691.25	0.2659861258	0.5131731078	
691.875	0.5224521781	0.001295763822	
692.5	0.3219462622	0.2331084999	
693.125	0.8108330825	0.1157309127	
693.75	0.3221647219	-0.4159720017	
694.375	0.3578826739	-0.06983081392	
695.0	0.3816431858	-0.5127322745	
695.625	0.3342588311	-0.1560270321	
696.25	0.2652581821	0.2249861115	
696.875	0.4282971723	0.3510597387	
697.5	0.3010876459	0.3220402795	
698.125	0.4392443987	0.2400222627	
698.75	0.5672796224	-0.331056529	
699.375	-0.4371380488	-0.2859362868	
700.0	-0.1179760192	0.221850406	
700.625	0.1058260943	0.4197812112	
701.25	0.1881232249	0.03000875322	
701.875	0.09563956762	0.2867954007	
702.5	0.5089136256	0.24613287	
703.125	0.2642761031	-0.05558830142	
703.75	0.3759901165	0.0927990347	
704.375	0.2280442842	-0.2993764047	
705.0	0.04174228859	-0.1146489732	
705.625	0.3232066149	-0.107290292	
706.25	0.2516477863	0.02050410621	
706.875	0.1286733525	0.2514259136	
707.5	0.2259276817	0.4164620466	
708.125	0.4230529536	0.273793876	
708.75	0.2562450955	-0.2599108334	
709.375	-0.1585196054	-0.3857545786	
710.0	-0.2924604384	0.2489028626	
710.625	0.09590552579	-0.003665452363	
711.25	0.05476746289	0.2617289795	
711.875	0.2153575484	-0.07849073041	
712.5	0.2489666588	0.1152324419	
713.125	0.3503737732	-0.2302455901	
713.75	0.004243706744	-0.2322432155	
714.375	0.1222397614	-0.1365714442	
715.0	-0.04278825464	-0.2692717916	
715.625	-0.04648335937	-0.1078043725	
716.25	0.1813294462	-0.1423672361	
716.875	0.2872112519	-0.2989445217	
717.5	0.2199535564	0.003280153808	
718.125	0.6107910351	0.1930752941	
718.75	0.8540534714	0.01059231739	
719.375	0.4337441307	-0.1797675839	
720.0	0.6555233237	-0.451845952	
720.625	0.07306490391	-1.560864623	
721.25	-0.02209957169	-0.2057764149	
721.875	0.1835761213	-1.05661602	
722.5	-0.8497371509	-0.6653472011	
723.125	-0.3507173797	-0.158664571	
723.75	-0.7302824738	0.4114666534	
724.375	0.2073116659	0.3788806385	
725.0	-0.03560493721	0.244361477	
725.625	0.2234647948	0.5812649357	
726.25	0.223053387	0.3798193828	
726.875	-0.342617972	0.5883084562	
727.5	-0.2363240763	1.471312558	
728.125	0.5378218511	1.457249663	
728.75	-0.8606462441	1.47254034	
729.375	-1.536112245	3.757448395	
730.0	0.6878334471	2.807438031	
730.625	-0.9418362163	2.151695343	
731.25	-2.693725669	4.718831026	
731.875	-0.3369667192	2.525435352	
732.5	-2.61919478	-1.719633135	
733.125	-3.06702559	0.3542011113	
733.75	0.1058739585	1.197955319	
734.375	-0.06030841128	0.8391678867	
735.0	-0.01324683485	-1.01105776	
735.625	-0.1106370122	0.1326755612	
736.25	-0.4154076538	0.5838207131	
736.875	0.6927567781	0.4952850988	
737.5	0.3409932862	0.03702151688	
738.125	1.704931486	0.2991185697	
738.75	1.524109118	-2.006611082	
739.375	0.4979649276	-1.13382303	
740.0	3.13184266	1.886263674	
740.625	4.523450802	-2.038862119	
741.25	-1.430766946	-1.058991126	
741.875	-4.573806288	-0.1953502704	
742.5	-2.522151866	-0.8535328034	
743.125	0.9358940456	-0.489131806	
743.75	0.1015314063	-1.343606515	
744.375	-0.4699793552	0.09487181579	
745.0	-0.1540238793	-0.04991201285	
745.625	0.140046395	-0.1204986426	
746.25	0.04720256009	-0.03396334154	
746.875	-0.3049099434	-0.05561795612	
747.5	0.02802659967	0.3133992692	
748.125	0.02051706821	0.3020200462	
748.75	0.1922763856	0.5063976984	
749.375	0.2221114054	0.3471967482	
750.0	-0.2405974405	0.05954161328	
