!Created with skrf (http://scikit-rf.org).
# GHz S RI R (50+0j) 
!freq	ReS11	ImS11	
500.0	0.1059981316	-0.7866542557	
500.625	0.249999738	-0.8236794458	
501.25	-0.3279158372	-0.5253155577	
501.875	-0.1958813916	-0.3522031284	
502.5	-0.03514915506	-0.1060614038	
503.125	-0.06128033235	0.003710697358	
503.75	0.007500765114	0.06810034856	
504.375	0.02377311025	-0.003787528299	
505.0	0.01740705765	-0.01701135904	
505.625	-0.0007074203658	-0.04289348039	
506.25	-0.05036413105	-0.04319462912	
506.875	-0.09572383272	-2.28448573e-05	
507.5	-0.0755764232	-0.287651332	
508.125	0.1325702854	-0.523922133	
508.75	0.4824985771	-0.8734638607	
509.375	0.04481777158	-0.9727973287	
510.0	-0.4605927686	-0.2231374681	
510.625	-0.09592146214	-0.08391201801	
511.25	-0.1022789842	-0.03237578116	
511.875	-0.1140518804	-0.0336737964	
512.5	-0.0007602922784	0.03418227672	
513.125	0.00287812225	-0.05323825477	
513.75	-0.04542110219	-0.03747146982	
514.375	-0.0399264653	-0.01746991427	
515.0	0.001512050818	-0.03034017011	
515.625	0.01980162992	-0.3030140386	
516.25	-0.18303371	-0.4932601146	
516.875	-0.1552215614	-0.334558215	
517.5	-0.03544139004	-0.1292288687	
518.125	-0.01665332944	-0.02491494827	
518.75	-0.03464790438	-0.1096882276	
519.375	-0.04638203485	0.03300553988	
520.0	0.08967824966	0.0494590456	
520.625	0.1285146345	-0.04604924984	
521.25	-0.01398585915	-0.2169571191	
521.875	-0.1238986546	-0.02101854602	
522.5	-0.03949223889	0.02107861073	
523.125	-0.05352287353	0.0195887845	
523.75	-0.09070405383	-0.009963619277	
524.375	-0.1338037483	0.0232265458	
525.0	-0.03785075768	0.1167761647	
525.625	0.03189444645	0.04034816132	
526.25	-0.01168065631	-0.01185775842	
526.875	-0.04252324094	0.04508376905	
527.5	-0.03629109811	0.152368929	
528.125	0.04895923096	0.210205664	
528.75	0.02848447906	0.1781706276	
529.375	0.03078278207	0.06012686214	
530.0	0.01384328869	0.1271938405	
530.625	0.08575082032	0.241021997	
531.25	0.3327148571	0.1090236895	
531.875	0.1944916709	-0.1457781583	
532.5	-0.04249509998	-0.09502978961	
533.125	0.04845278814	-0.0442282405	
533.75	0.09065578422	-0.1471042041	
534.375	-0.05978795844	-0.2341918258	
535.0	-0.19679782	-0.0969404276	
535.625	-0.1426972916	0.08820845487	
536.25	-0.002188085294	0.0827959515	
536.875	0.08178027619	0.01336392165	
537.5	0.05745971056	-0.03751921437	
538.125	0.09669290413	-0.05343933715	
538.75	0.10918029	-0.1069454307	
539.375	-0.06588022336	-0.1432883611	
540.0	-0.142113806	-0.1282593055	
540.625	-0.1421633525	-0.02218172195	
541.25	-0.07512000862	0.003194731784	
541.875	-0.03781923831	-0.0201065733	
542.5	-0.0397709366	-0.04664971024	
543.125	-0.06988501881	-0.04200614991	
543.75	-0.07564576814	-0.005576348973	
544.375	-0.04132223977	0.03569948942	
545.0	-0.004743571107	0.05155699128	
545.625	0.04523085493	0.05640977566	
546.25	0.08435318171	0.03440118709	
546.875	0.1049884343	-0.02161862471	
547.5	0.0600290819	-0.1089115001	
548.125	-0.03751298356	-0.142341025	
548.75	-0.1070020761	-0.1024111752	
549.375	-0.09735875241	-0.06073740677	
550.0	-0.06809366404	0.00478866873	
550.625	-0.04677973102	0.006190664838	
551.25	-0.06751749515	0.0238655312	
551.875	-0.06567628301	0.0587949351	
552.5	-0.03994764762	0.06636092016	
553.125	-0.01500192694	0.05510569643	
553.75	0.04035882546	0.0439537992	
554.375	0.0842854349	0.0006265627945	
555.0	0.08965097585	-0.06286497507	
555.625	0.07915091521	-0.09725481056	
556.25	0.05933792427	-0.1250997686	
556.875	-0.02978898329	-0.1447481692	
557.5	-0.09036050297	-0.09356956886	
558.125	-0.1057790854	-0.03749024549	
558.75	-0.1009885137	-0.003909827431	
559.375	-0.1029492201	0.01857646597	
560.0	-0.08936259412	0.06818812017	
560.625	-0.04818130189	0.1013227644	
561.25	0.006204187429	0.09100077429	
561.875	0.02626691338	0.04189943097	
562.5	0.008996110568	0.04932317238	
563.125	0.06276220864	0.06809704445	
563.75	0.1280188176	0.005070571677	
564.375	0.1183887434	-0.08550392004	
565.0	0.06821102256	-0.1340207942	
565.625	-0.02748789743	-0.1426695203	
566.25	-0.1033998075	-0.09961515511	
566.875	-0.1243423573	-0.07180848083	
567.5	-0.124804203	-0.09680441387	
568.125	-0.1283696474	-0.1380764072	
568.75	-0.199875962	-0.07051247081	
569.375	-0.2085601686	0.08440014032	
570.0	-0.1089165599	0.1775244675	
570.625	-0.04795580081	0.1555016335	
571.25	0.0036724787	0.1034021513	
571.875	0.05153724995	0.06698044485	
572.5	0.1123758389	5.630473949e-05	
573.125	0.07969039584	-0.09882819141	
573.75	0.03844075412	-0.09999696693	
574.375	0.01059794841	-0.06192855742	
575.0	0.02523303027	-0.03386465376	
575.625	0.03513892065	-0.0658972197	
576.25	0.04000622139	-0.09830786298	
576.875	-0.002469032034	-0.128519993	
577.5	-0.002068106493	-0.1426662431	
578.125	-0.04019416833	-0.1420241651	
578.75	-0.07664566112	-0.109749182	
579.375	-0.07737458875	-0.05946664346	
580.0	-0.04689261899	-0.02844540319	
580.625	-0.06326706813	-0.02649222319	
581.25	-0.09358742143	0.06558305558	
581.875	0.00325723183	0.140658377	
582.5	0.05022992646	0.1251829761	
583.125	0.06819546458	0.06816812824	
583.75	0.03568375944	0.01946902876	
584.375	0.03079135992	0.05259611044	
585.0	0.09823971519	0.05466941073	
585.625	0.1388072937	0.001848539759	
586.25	0.1363667549	-0.05406760233	
586.875	0.06878254537	-0.1192215218	
587.5	-0.007746478847	-0.1261572962	
588.125	-0.01464745652	-0.1246583613	
588.75	0.02772442145	-0.1296450394	
589.375	0.05569248079	-0.1380832371	
590.0	-0.04888355894	-0.1561200112	
590.625	-0.1629274358	-0.04340552024	
591.25	-0.1183648028	0.09673904206	
591.875	-0.03097085541	0.10598202	
592.5	0.007575675135	0.04340692711	
593.125	-0.02682709923	0.04468196053	
593.75	0.04654819573	0.1071485412	
594.375	0.133025359	0.08882757941	
595.0	0.1502261935	0.08595089372	
595.625	0.1516232274	0.0670851688	
596.25	0.1415864236	0.03594479873	
596.875	0.1400779246	0.0316521778	
597.5	0.1310056928	0.07199815686	
598.125	0.1316477319	0.1007138256	
598.75	0.1576324572	0.07732479593	
599.375	0.1898877976	-0.02854854302	
600.0	0.148958114	-0.1282116575	
600.625	0.1217892008	-0.1588422289	
601.25	0.05425325461	-0.1704125285	
601.875	-0.06919442095	-0.1271975833	
602.5	-0.1151486984	-0.01726467204	
603.125	-0.09883804827	0.04040525927	
603.75	-0.09611205977	0.06229706373	
604.375	-0.08792886592	0.06628533125	
605.0	-0.06165149802	0.06845392304	
605.625	-0.06461223444	0.05592234013	
606.25	-0.1006575962	0.05690746998	
606.875	-0.1511045776	0.07616070344	
607.5	-0.1480748309	0.1580828881	
608.125	-0.0284188489	0.2208947632	
608.75	0.1602724055	0.1573211259	
609.375	0.2123082819	-0.02520439012	
610.0	0.1519055933	-0.1058975288	
610.625	0.07775516062	-0.1429362076	
611.25	0.005981055953	-0.1438298504	
611.875	-0.07729197339	-0.1129020355	
612.5	-0.1459459768	-0.06031772875	
613.125	-0.1729155442	0.03020153182	
613.75	-0.08245255165	0.1307677023	
614.375	0.04143057422	0.09914123837	
615.0	0.03559989379	0.04006788595	
615.625	-0.00213498341	0.07621919927	
616.25	-0.03746480516	0.1306360708	
616.875	-0.07181007463	0.1694894191	
617.5	-0.0601456011	0.1996107488	
618.125	-0.01894994084	0.1924409387	
618.75	0.01889037579	0.1739368193	
619.375	0.08274887539	0.1488438932	
620.0	0.1697766938	0.04982037749	
620.625	0.1070016785	-0.1378622998	
621.25	-0.07423429918	-0.170782287	
621.875	-0.1831977355	-0.08250938421	
622.5	-0.1962513447	0.04971500632	
623.125	-0.0394913075	0.1686924603	
623.75	0.118796142	0.04249716327	
624.375	0.03710234603	-0.04732560181	
625.0	0.03751327932	-0.02266289386	
625.625	0.04817568138	-0.08091151669	
626.25	-0.0415618785	-0.1254107202	
626.875	-0.1249267124	-0.07830762804	
627.5	-0.1318905501	-0.03867425041	
628.125	-0.1016604842	-0.06331343693	
628.75	-0.06743353154	-0.1111594256	
629.375	-0.08172284775	-0.1384336191	
630.0	-0.1683672939	-0.09435784251	
630.625	-0.2048339128	0.05275915934	
631.25	-0.136325385	0.1745233415	
631.875	-0.02800757453	0.2251406911	
632.5	0.127550109	0.1826361018	
633.125	0.1902014471	0.05447720622	
633.75	0.1562043027	-0.05572090182	
634.375	0.06451113384	-0.1225854872	
635.0	-0.005926904909	-0.1376255587	
635.625	-0.1281620718	-0.08882612088	
636.25	-0.1454713669	0.0596428717	
636.875	-0.06347165798	0.114182285	
637.5	-0.03494814823	0.08073685664	
638.125	-0.06229438189	0.07833674094	
638.75	-0.06914207537	0.1488310468	
639.375	-0.00737148575	0.2268818685	
640.0	0.1205354327	0.2257911452	
640.625	0.2133171283	0.1412031272	
641.25	0.2514789214	0.007149608378	
641.875	0.1657978163	-0.1599849614	
642.5	0.002926514218	-0.1957317111	
643.125	-0.1053144346	-0.1159930558	
643.75	-0.1190817277	-0.07254694025	
644.375	-0.1621049808	-0.00766002701	
645.0	-0.1398213435	0.1369945659	
645.625	0.04481953168	0.196886398	
646.25	0.1481776645	0.07369528409	
646.875	0.09124280058	-0.01284876723	
647.5	0.04908620599	0.03099696912	
648.125	0.1432779687	0.05229691189	
648.75	0.2397851658	-0.05669984494	
649.375	0.205190236	-0.214851226	
650.0	0.1490687301	-0.2705310341	
650.625	0.1407257247	-0.2541372791	
651.25	0.1804231583	-0.2093766053	
651.875	0.2278415443	-0.1450051924	
652.5	0.2522826927	-0.07965765058	
653.125	0.2486276839	-0.08560586691	
653.75	0.1915940031	-0.193778581	
654.375	-0.02759141915	-0.2834711312	
655.0	-0.2526309161	-0.108195339	
655.625	-0.1754412754	0.154352947	
656.25	0.01772771553	0.1589693852	
656.875	0.04217156614	0.06508113863	
657.5	0.02718356693	0.09587283201	
658.125	0.1235515516	0.1518994639	
658.75	0.2630092012	0.0821098624	
659.375	0.2980852443	-0.1169227978	
660.0	0.2115217559	-0.257949099	
660.625	0.1312347734	-0.2912634662	
661.25	0.1493982887	-0.2623247121	
661.875	0.1976376196	-0.2218686003	
662.5	0.2382019869	-0.1737870144	
663.125	0.2418743189	-0.1657160256	
663.75	0.1601360583	-0.2476902651	
664.375	-0.01707978876	-0.3004157837	
665.0	-0.2309425439	-0.2040544604	
665.625	-0.2899458949	0.06046074529	
666.25	-0.106562731	0.2394042034	
666.875	0.09325238328	0.1950809654	
667.5	0.1619979177	0.09455663043	
668.125	0.1986309646	-0.001704223611	
668.75	0.1797711143	-0.1195710749	
669.375	0.09573911733	-0.1975806027	
670.0	0.01301459491	-0.2000097249	
670.625	0.009033362175	-0.1725443491	
671.25	0.05608369204	-0.1581870728	
671.875	0.125808952	-0.1502820022	
672.5	0.1862182065	-0.1303927488	
673.125	0.1940486808	-0.1487305851	
673.75	0.1544038969	-0.1901297085	
674.375	0.0613643409	-0.2323465423	
675.0	-0.06572699559	-0.2217070243	
675.625	-0.1624828755	-0.1275598245	
676.25	-0.162903737	-0.0321689121	
676.875	-0.1333248125	-0.001949224883	
677.5	-0.1417842099	0.01427146943	
678.125	-0.1380493725	0.1162412621	
678.75	0.01129007663	0.2056355332	
679.375	0.1832394178	0.08363917342	
680.0	0.1383098456	-0.07432021116	
680.625	0.06427128315	-0.06964042241	
681.25	0.08250395105	-0.01047590254	
681.875	0.1360124524	0.0452916591	
682.5	0.1810582528	0.08372105305	
683.125	0.2192475113	0.07790652585	
683.75	0.2356357193	0.06852536188	
684.375	0.2477482327	0.04588456509	
685.0	0.2542339582	0.04652334623	
685.625	0.2633106774	0.01785990694	
686.25	0.2701073508	-0.02107888682	
686.875	0.2814181041	-0.1139934827	
687.5	0.2513261432	-0.2428138633	
688.125	0.01542286507	-0.3957966827	
688.75	-0.3541575142	-0.2094815042	
689.375	-0.2868451278	0.2567979089	
690.0	0.06341818673	0.3260201905	
690.625	0.199637099	0.2382845539	
691.25	0.2769138987	0.2536213675	
691.875	0.4000087587	0.2846266613	
692.5	0.5374437356	0.1986385381	
693.125	0.5952927955	-0.009191242114	
693.75	0.5308420255	-0.2092508012	
694.375	0.3956839526	-0.3453465115	
695.0	0.4066193998	-0.2490554603	
695.625	0.4522103563	-0.06502702849	
696.25	0.4373115084	0.1633682015	
696.875	0.3359174062	0.3603696444	
697.5	0.3141125217	0.4240479977	
698.125	0.4844278316	0.2481611899	
698.75	0.4357965477	-0.3127688186	
699.375	-0.2901641902	-0.3968322293	
700.0	-0.2859603233	0.2697184822	
700.625	0.1028003354	0.2748901447	
701.25	0.1908505521	0.1695296754	
701.875	0.2278922102	0.2118060785	
702.5	0.305932129	0.2161412705	
703.125	0.3714946922	0.1100846635	
703.75	0.3456303382	-0.08490441711	
704.375	0.2479600519	-0.1682804001	
705.0	0.2117291115	-0.1212097741	
705.625	0.2337386797	0.0004809188445	
706.25	0.2219691023	0.1576675176	
706.875	0.1980813757	0.2655885526	
707.5	0.2187058424	0.3149142012	
708.125	0.3761363097	0.1516163332	
708.75	0.2936470208	-0.2680916077	
709.375	-0.196166661	-0.2792889718	
710.0	-0.1895620498	0.1596356318	
710.625	0.04204488195	0.1405122877	
711.25	0.0716832056	0.1087109228	
711.875	0.1779202604	0.1139733467	
712.5	0.2754066338	-0.007763365191	
713.125	0.2380798462	-0.1465691495	
713.75	0.1257937596	-0.2181107995	
714.375	0.01590805517	-0.2109702401	
715.0	-0.01937270428	-0.1803921315	
715.625	0.01688871422	-0.1914495541	
716.25	0.1328322693	-0.2089130457	
716.875	0.2865577811	-0.1533456008	
717.5	0.436798277	-0.0171982587	
718.125	0.5625155087	0.06916280732	
718.75	0.657441258	-0.04973634833	
719.375	0.6577585233	-0.3014755595	
720.0	0.4657536861	-0.6571260343	
720.625	0.2617401476	-0.774019822	
721.25	0.01756684736	-0.8303925818	
721.875	-0.1317742543	-0.8551998807	
722.5	-0.4676698345	-0.687224842	
723.125	-0.667896425	-0.1734439066	
723.75	-0.3781165407	0.3573612206	
724.375	0.01052197474	0.3981538506	
725.0	0.1434130905	0.3184851937	
725.625	0.150365367	0.3921133866	
726.25	0.04353518701	0.5758387939	
726.875	-0.07166575086	0.788736207	
727.5	-0.1306769958	1.1347967	
728.125	-0.05214587579	1.60744101	
728.75	-0.1900008302	2.069834312	
729.375	-0.7306326085	2.899004396	
730.0	-0.3740069215	3.260920108	
730.625	-0.1588279493	3.131778268	
731.25	-0.9997261541	2.912615181	
731.875	-2.217089355	2.104428468	
732.5	-2.818166851	0.6056861008	
733.125	-2.075193938	0.2344870192	
733.75	-0.8302325096	1.01724002	
734.375	0.6481649727	0.4736792271	
735.0	0.0598532497	-0.5275728506	
735.625	-0.4178106031	0.05703737563	
736.25	-0.08564876654	0.4466173552	
736.875	0.3355202315	0.4850437035	
737.5	0.8665368244	0.1923783021	
738.125	1.209062112	-0.2985844226	
738.75	1.416251325	-0.9070827817	
739.375	1.799153712	-1.21958534	
740.0	2.321332349	-1.015216591	
740.625	2.132377129	0.02284368793	
741.25	0.569123718	1.845760717	
741.875	-2.547167434	-0.1092544802	
742.5	-1.081380802	-1.80418339	
743.125	0.2911898843	-1.599356362	
743.75	-0.031494711	-0.9060234095	
744.375	-0.364377875	-0.1433018986	
745.0	0.04110732261	0.09165594411	
745.625	0.03813094264	0.004672944342	
746.25	-0.007947825846	-0.121961948	
746.875	-0.1931257923	-0.01192711735	
747.5	-0.09661947104	0.2919608867	
748.125	0.0867021918	0.4098186795	
748.75	0.209863731	0.3780279367	
749.375	0.08811744635	0.421644064	
750.0	-0.3166540564	0.2249372399	
