!Created with skrf (http://scikit-rf.org).
# GHz S RI R (50+0j) 
!freq	ReS11	ImS11	
500.0	-0.5157436191	-1.06556445	
500.625	0.4812924439	-0.5046209642	
501.25	-0.5047405282	-0.9269480418	
501.875	-0.291202931	-0.1086910843	
502.5	0.02507506873	-0.1307334458	
503.125	-0.08628816711	0.04650473736	
503.75	-0.008835460736	0.01601320504	
504.375	0.05171942994	-0.00219825589	
505.0	-0.01732003937	-0.01282728354	
505.625	0.04441435383	-0.0722659827	
506.25	-0.1340453713	-0.0278198573	
506.875	0.02433475711	-0.1931113193	
507.5	-0.2677577563	-0.5281587861	
508.125	-0.02032362298	-0.1966589865	
508.75	0.7749494027	-0.8206292377	
509.375	-0.394446602	-1.21239848	
510.0	-0.1924705213	-0.05207749803	
510.625	-0.1270203352	-0.2235610753	
511.25	-0.07465186267	0.01513929627	
511.875	-0.04787993569	-0.0520862316	
512.5	-0.03251851478	0.04584530466	
513.125	-0.03154225957	-0.03470503579	
513.75	0.0129303667	-0.05984979174	
514.375	-0.1283188236	-0.004666542483	
515.0	0.2012821072	0.107829386	
515.625	-0.2230083459	-0.4803417427	
516.25	0.1850656513	-0.08246093952	
516.875	0.03615959465	-0.5445298502	
517.5	-0.165992552	-0.1901771282	
518.125	0.04949586009	-0.001357728392	
518.75	-0.1192960534	-0.0558631745	
519.375	-0.01876695156	0.0289174255	
520.0	0.08290016942	0.06716468042	
520.625	0.1871467815	-0.06519482841	
521.25	0.006582906923	-0.2194377617	
521.875	-0.0505246422	-0.05866847297	
522.5	-0.116608084	0.04638938881	
523.125	0.0655390979	-0.02550081211	
523.75	-0.1484577618	-0.08951607703	
524.375	-0.09883151193	0.1552539405	
525.0	-0.06403644979	-0.006785437298	
525.625	0.02761493407	0.1304586699	
526.25	-0.05371568924	-0.0824478628	
526.875	-0.03627642443	0.1164102071	
527.5	0.0006099079807	0.06602992871	
528.125	-0.07250088115	0.2125241079	
528.75	0.08614881556	0.1026082721	
529.375	-0.00196253341	-0.004635209093	
530.0	0.03848083505	0.124728412	
530.625	0.114682904	0.2330644131	
531.25	0.2372886177	0.2161987519	
531.875	0.2658862164	-0.2288078141	
532.5	-0.1585545958	-0.0961115416	
533.125	0.1377286145	-0.1515100925	
533.75	-0.06839867261	-0.194440717	
534.375	0.02960979801	-0.2339183934	
535.0	-0.2820414855	-0.08515863047	
535.625	-0.07231528381	0.08559542233	
536.25	-0.03144801584	0.08002929066	
536.875	0.1121711429	-0.007038672114	
537.5	0.02145247038	-0.01663284461	
538.125	0.1563213678	-0.05936466934	
538.75	0.0572458896	-0.1228851824	
539.375	-0.01265150929	-0.1344997077	
540.0	-0.1686832986	-0.1627781677	
540.625	-0.152561173	0.01693340617	
541.25	-0.04327727656	-0.04430492707	
541.875	-0.09863850078	-0.002789836012	
542.5	-0.01233406478	0.001241737989	
543.125	-0.0727937025	-0.1024082023	
543.75	-0.0836602957	0.07528373244	
544.375	-0.0447183773	-0.01388368733	
545.0	0.02580937492	0.08828580196	
545.625	0.002901207202	0.02224108879	
546.25	0.1171827558	0.107804807	
546.875	0.08708183769	-0.07938197708	
547.5	0.07039873636	-0.05179933108	
548.125	-0.03342403911	-0.1973256438	
548.75	-0.1329339187	-0.04612615927	
549.375	-0.04738046622	-0.07285356256	
550.0	-0.1097799055	0.01485161826	
550.625	-0.006610197095	0.002096849756	
551.25	-0.0984853833	0.01612861721	
551.875	-0.03642907845	0.07310504214	
552.5	-0.04182035768	0.04319748021	
553.125	-0.003928756608	0.07149687551	
553.75	0.03354367175	0.02838077347	
554.375	0.08923907085	0.005050953128	
555.0	0.08309751514	-0.07299613908	
555.625	0.07589015644	-0.09199675873	
556.25	0.06167649874	-0.1268602559	
556.875	-0.03618454324	-0.1438916102	
557.5	-0.09270029655	-0.08951887853	
558.125	-0.1031029054	-0.03738708848	
558.75	-0.1062556891	-0.0004176437097	
559.375	-0.09378566955	0.02558498706	
560.0	-0.09186375501	0.05740115616	
560.625	-0.04758807267	0.1168185628	
561.25	0.02716027636	0.06351686066	
561.875	0.006548209	0.06381250213	
562.5	0.03147960901	0.02586713884	
563.125	0.03757438823	0.08644702464	
563.75	0.1661144679	-0.007803756747	
564.375	0.07632082016	-0.09021655966	
565.0	0.1080259163	-0.1008666748	
565.625	-0.06827717853	-0.161057566	
566.25	-0.06677361644	-0.03264151787	
566.875	-0.1296472425	-0.1221763285	
567.5	-0.1556528518	-0.04666585531	
568.125	-0.0384000165	-0.1385500806	
568.75	-0.2784615639	-0.08589001174	
569.375	-0.1332332366	0.1287082996	
570.0	-0.1434457212	0.1076297089	
570.625	-0.06181519405	0.2384092562	
571.25	0.05323940703	0.01960686916	
571.875	0.02476864661	0.1342819459	
572.5	0.1168706139	-0.08095635106	
573.125	0.07162985765	0.00384590149	
573.75	0.09831383305	-0.1787447838	
574.375	-0.07679969817	-0.03904068474	
575.0	0.1051108114	-0.0159597585	
575.625	-0.03740846719	-0.1097363169	
576.25	0.0394898176	-0.009312705861	
576.875	0.04664007528	-0.1903569077	
577.5	-0.07762233616	-0.149352549	
578.125	0.0008922714605	-0.07376341902	
578.75	-0.02888045855	-0.2224451334	
579.375	-0.1747118218	0.0008988144708	
580.0	0.04907847723	-0.04542391011	
580.625	-0.1931132516	0.01630612042	
581.25	0.03767533552	0.003770900998	
581.875	-0.1177445675	0.1871308261	
582.5	0.1535280958	0.1850894108	
583.125	0.01513433649	-0.0423188659	
583.75	0.02359892934	0.1199050323	
584.375	0.04202801098	-0.06554837705	
585.0	0.03654215215	0.1432882895	
585.625	0.2198655434	-0.07159412987	
586.25	0.04242588501	-0.05977338139	
586.875	0.1507298131	-0.08865205888	
587.5	-0.07491974249	-0.1821482981	
588.125	0.0008402527494	-0.04244796843	
588.75	0.09845605104	-0.1691203906	
589.375	-0.02313973844	-0.1862541549	
590.0	0.01347299206	-0.08160431696	
590.625	-0.2463418115	-0.1095710306	
591.25	-0.04597801668	0.1582020735	
591.875	-0.09130261109	-0.01083086905	
592.5	0.01273734083	0.1554532402	
593.125	-0.0469083441	-0.0551208281	
593.75	0.06277974462	0.2100534168	
594.375	0.08050622459	-0.03653000272	
595.0	0.06328128365	0.1316135302	
595.625	0.225814605	0.1140513399	
596.25	0.1187344559	-0.05519661262	
596.875	0.150729867	0.1201266125	
597.5	0.2082256066	0.04266195331	
598.125	0.07182092554	0.06681597248	
598.75	0.1697982174	0.1357794088	
599.375	0.2064205805	-0.08079370016	
600.0	0.08510242285	-0.08790472641	
600.625	0.1722702009	-0.1341854211	
601.25	0.02469821108	-0.239772892	
601.875	-0.07074735875	-0.01607823915	
602.5	-0.1513717009	-0.1144396349	
603.125	-0.06994408846	0.1287783807	
603.75	-0.06820930115	-0.02644052146	
604.375	-0.1873393511	0.1369087659	
605.0	0.04441862502	0.09435399852	
605.625	-0.1600534496	-0.01869849298	
606.25	-0.01302488528	0.1336763443	
606.875	-0.1150885581	-0.00288212482	
607.5	-0.1518090712	0.2397974913	
608.125	0.06411735822	0.272839948	
608.75	0.07678289625	0.1051008155	
609.375	0.2437658348	-0.02260723204	
610.0	0.1193031229	-0.184975681	
610.625	0.0652815803	-0.0528949126	
611.25	0.05117014819	-0.1601340371	
611.875	-0.1404939467	-0.06190812133	
612.5	-0.03930729937	-0.09163495759	
613.125	-0.2696115417	0.0454866264	
613.75	0.03780905262	0.1469274398	
614.375	-0.07371638414	0.08505529729	
615.0	0.1542014757	0.02005903308	
615.625	-0.07549940547	-0.01469955497	
616.25	-0.09744468155	0.2278106177	
616.875	0.04817763308	0.1433718835	
617.5	-0.1099966161	0.2606052626	
618.125	-0.009674109769	0.2816347208	
618.75	0.1215252191	0.1262287378	
619.375	-0.007528186094	0.1428787433	
620.0	0.09326212725	0.1590969228	
620.625	0.05422646039	-0.1336434436	
621.25	-0.02529880255	-0.1098530257	
621.875	-0.2647729144	-0.08238860672	
622.5	-0.1570351341	0.2032113244	
623.125	-0.1000461586	0.1249701945	
623.75	0.198899393	0.0394170039	
624.375	-0.04290042397	-0.03893350166	
625.0	0.1247726031	-0.02210876443	
625.625	-0.03921224302	-0.08215048683	
626.25	0.03502256896	-0.1119344508	
626.875	-0.1779567182	-0.1119284211	
627.5	-0.1164198683	0.02754086457	
628.125	-0.06778099645	-0.09686369919	
628.75	-0.1408506444	-0.1140660117	
629.375	-0.08442774607	-0.1101841398	
630.0	-0.1687226749	-0.1571110701	
630.625	-0.2621611739	0.07585181936	
631.25	-0.07219679436	0.1249621135	
631.875	-0.09756624412	0.1363196955	
632.5	0.2115981716	0.2306673947	
633.125	0.1313701518	-0.06325729517	
633.75	0.1712071978	0.01414539953	
634.375	-0.0007299729206	-0.2080226002	
635.0	0.04303205938	-0.06144081562	
635.625	-0.1828576299	-0.1834155694	
636.25	-0.1043153631	0.1351605304	
636.875	-0.05470407898	0.02572026708	
637.5	-0.1077921945	0.1619194371	
638.125	0.02315487244	0.0304826575	
638.75	-0.172183504	0.1322447669	
639.375	0.06522179441	0.2942426361	
640.0	0.1086180399	0.1177449978	
640.625	0.1950137112	0.2370023412	
641.25	0.3442165965	-0.0266841052	
641.875	0.08061971014	-0.1294845369	
642.5	0.1205215373	-0.1428596573	
643.125	-0.2470786264	-0.1603748713	
643.75	0.05802913334	0.02886759055	
644.375	-0.2382163296	-0.1011608751	
645.0	-0.02383483802	0.318396233	
645.625	-0.03586381784	0.09759464292	
646.25	0.3184103813	0.3181229354	
646.875	0.04190645037	-0.1843797136	
647.5	0.05758667421	0.1588996163	
648.125	0.1898873313	-0.07365922015	
648.75	0.07692754842	0.04519415657	
649.375	0.37520123	-0.2415677111	
650.0	0.01739685517	-0.3554643702	
650.625	0.1075573247	-0.07888254099	
651.25	0.3372008343	-0.2409718586	
651.875	0.1314706403	-0.2861728011	
652.5	0.1682377729	0.04164838843	
653.125	0.3982014772	-0.09991808935	
653.75	0.05317978854	-0.2855232993	
654.375	0.06296872413	-0.1803595119	
655.0	-0.3818272724	-0.1798859115	
655.625	-0.05919957291	0.2265557316	
656.25	-0.08501022442	-0.0005127825072	
656.875	0.1134406999	0.2010334907	
657.5	-0.02598895305	-0.07522554285	
658.125	0.152644446	0.3864944238	
658.75	0.3287832715	-0.05143959458	
659.375	0.1568655394	-0.001707485847	
660.0	0.3710508842	-0.240732032	
660.625	-0.003706016592	-0.4126527244	
661.25	0.1056174779	-0.1220683253	
661.875	0.3231186067	-0.2874933606	
662.5	0.1695892973	-0.2842944457	
663.125	0.1635687637	-0.03723117467	
663.75	0.252579941	-0.332290293	
664.375	-0.144474792	-0.2313691165	
665.0	-0.1343324139	-0.2080620068	
665.625	-0.3829901709	0.06707269642	
666.25	0.02813538308	0.3005594064	
666.875	-0.005475487325	0.1371878659	
667.5	0.2434272802	0.1328555536	
668.125	0.1320349847	-0.1002722091	
668.75	0.2425707601	0.04093818993	
669.375	0.08264514361	-0.3313290779	
670.0	-0.04030201419	-0.09980716758	
670.625	0.122674624	-0.2168337793	
671.25	-0.05000825916	-0.251345697	
671.875	0.079316785	-0.02067779709	
672.5	0.3337154699	-0.1610477455	
673.125	0.0829582095	-0.2265650484	
673.75	0.1366122302	-0.1053984582	
674.375	0.1486095658	-0.2780805793	
675.0	-0.2016608417	-0.2168674929	
675.625	-0.02864694094	-0.1143944685	
676.25	-0.2731454869	-0.04476397852	
676.875	-0.08883113021	0.1082229684	
677.5	-0.1054423787	-0.09802339985	
678.125	-0.1942916404	0.2408504575	
678.75	0.1151838452	0.1008840701	
679.375	0.06680850192	0.1733572839	
680.0	0.2989752017	-0.1243288546	
680.625	-0.1933592331	-0.08949786633	
681.25	0.188610821	0.1375427375	
681.875	0.09889027237	-0.253094586	
682.5	-0.008459931791	0.09328069388	
683.125	0.3378160607	0.2381148299	
683.75	0.1672564541	-0.2113864543	
684.375	0.1284749419	0.2309169462	
685.0	0.3644999264	-0.07241008057	
685.625	0.2254382599	-0.1450442237	
686.25	0.218772047	0.1547986473	
686.875	0.4647893051	-0.2452744806	
687.5	0.1212270824	-0.2239095386	
688.125	0.1313316321	-0.3529614099	
688.75	-0.4808500233	-0.239506917	
689.375	-0.07960532414	0.3178853424	
690.0	-0.07070852968	0.2836652335	
690.625	0.381266604	0.2557652531	
691.25	0.1688029985	0.09504479498	
691.875	0.3725422167	0.496610542	
692.5	0.7053004682	-0.101867664	
693.125	0.3780199356	0.001741488886	
693.75	0.6801631777	-0.1116924001	
694.375	0.1766127852	-0.5252579034	
695.0	0.1775229565	-0.1452677958	
695.625	0.6115376169	-0.2877382399	
696.25	0.4130339919	-0.03747564323	
696.875	0.2018139989	0.2755934787	
697.5	0.3450057459	0.4412672139	
698.125	0.5162126212	0.1588281223	
698.75	0.3803610419	-0.19882432	
699.375	-0.2508200503	-0.4165313059	
700.0	-0.2010058103	0.4040173225	
700.625	0.1108858836	0.1010956822	
701.25	0.2865174418	0.3018425146	
701.875	0.2596870416	0.0350162616	
702.5	0.1808091725	0.2806868205	
703.125	0.5359510843	0.1351676854	
703.75	0.2555765145	-0.2335247298	
704.375	0.2343066774	-0.002476253873	
705.0	0.2195122497	-0.2460998505	
705.625	0.1171083286	-0.08465850299	
706.25	0.2941717208	0.1595915055	
706.875	0.3457770132	0.2063080174	
707.5	0.1642874747	0.2295283279	
708.125	0.4026574924	0.2528186202	
708.75	0.471419175	-0.166321917	
709.375	-0.2122524936	-0.1877588317	
710.0	-0.3046433726	0.0706921029	
710.625	0.1412875325	0.2399949164	
711.25	-0.04839921108	-0.1193105365	
711.875	0.2366973048	0.2029717876	
712.5	0.2859027067	-0.1856389925	
713.125	0.2081520866	-0.02689733689	
713.75	0.2100829794	-0.3079022692	
714.375	-0.08992517946	-0.2015733935	
715.0	0.07533168793	-0.1225949298	
715.625	-0.005854722966	-0.2956455236	
716.25	0.01745012359	-0.1514241384	
716.875	0.3136482391	-0.0296379297	
717.5	0.5716955258	-0.1434156046	
718.125	0.3214478833	-0.09651354443	
718.75	0.7556994092	0.2180672315	
719.375	0.9241078634	-0.3066351579	
720.0	0.1728653978	-0.5039348583	
720.625	0.5583541112	-0.8931458117	
721.25	-0.4082664377	-0.8442985291	
721.875	-0.06424477821	-0.0859757558	
722.5	-0.4001268064	-0.8915577336	
723.125	-0.9147296442	0.08491177235	
723.75	-0.2100400169	0.2344506354	
724.375	-0.2381178713	0.5674540817	
725.0	0.368257107	0.2591566552	
725.625	0.001649832575	0.3074991119	
726.25	-0.01819777978	0.7803448244	
726.875	0.2319061576	0.8033764291	
727.5	-0.3467820489	0.7515405839	
728.125	-0.1773286846	2.140773356	
728.75	0.7488854998	2.053137508	
729.375	-1.279269229	1.579068649	
730.0	-1.145420328	4.48052306	
730.625	1.325831572	2.604571348	
731.25	-1.754633764	1.918775085	
731.875	-3.383998232	2.722645683	
732.5	-2.001042596	2.263647567	
733.125	-1.107390207	-1.174053618	
733.75	-0.9240213277	1.5225597	
734.375	0.6926848856	0.1294831051	
735.0	0.4419416913	-0.1781169561	
735.625	-0.8108692826	0.2127801455	
736.25	0.06026719107	0.1723774639	
736.875	0.1772714415	0.7763559861	
737.5	1.227415768	-0.1445323136	
738.125	0.5859679601	-0.5302885435	
738.75	1.894124247	-0.01858451502	
739.375	2.532606144	-2.977867391	
740.0	-0.07918378896	-1.528503389	
740.625	1.856527874	3.58622261	
741.25	3.420433012	2.231610757	
741.875	-0.4817247154	-2.230892908	
742.5	-1.439714985	-3.110362731	
743.125	-1.38703938	-1.532248481	
743.75	0.2463181361	-0.2698558266	
744.375	-0.6150510234	-0.4449419814	
745.0	0.1530560466	0.03936536334	
745.625	0.06986200554	0.1210037301	
746.25	-0.1011934865	-0.1399878514	
746.875	-0.1188472771	-0.006347754705	
747.5	-0.1793387094	0.3367203312	
748.125	0.2513008022	0.4121025727	
748.75	0.1575554946	0.2757710054	
749.375	0.001602721698	0.4968589166	
750.0	-0.2123126375	0.3387651386	
