!Created with skrf (http://scikit-rf.org).
# GHz S RI R (50+0j) 
!freq	ReS11	ImS11	
500.0	1.747212598	-3.668824813	
500.625	-0.6471330741	-2.626263423	
501.25	-1.63352627	-2.867964844	
501.875	-1.26817531	-0.2642845603	
502.5	-0.1461871475	-0.3645105827	
503.125	-0.2954608395	0.03908827684	
503.75	0.3206940429	0.1491416306	
504.375	0.01073554377	0.08768177464	
505.0	0.09341332211	-0.1798149737	
505.625	-0.05142749044	0.0567223199	
506.25	-0.2036708759	-0.4976367438	
506.875	0.5176657227	0.1839268885	
507.5	-0.8256958691	-2.167143996	
508.125	-0.9727227176	-0.2881720568	
508.75	3.179028207	-2.041489679	
509.375	-2.415060948	-5.532269332	
510.0	-1.092461175	0.1463287872	
510.625	-0.428145891	-0.5976778605	
511.25	-0.4788399915	-0.1839847886	
511.875	-0.4351189301	0.05391959812	
512.5	-0.05024347202	0.1097769335	
513.125	-0.12307255	-0.2779487792	
513.75	-0.140615035	-0.08665130242	
514.375	-0.2818795466	-0.1367257605	
515.0	-0.4091600302	0.7650333798	
515.625	0.2101044127	-3.818891534	
516.25	-2.658526337	0.2159913979	
516.875	0.9094911067	-1.084739887	
517.5	-0.587114647	-1.089542084	
518.125	0.2334038657	0.1902648675	
518.75	-0.6219829448	-0.7557182997	
519.375	0.003744102075	0.1217339068	
520.0	0.2397631448	0.3561185707	
520.625	0.5458002607	-0.3953030119	
521.25	-0.2298204267	-0.3840080545	
521.875	-0.4077583378	-0.2921207777	
522.5	0.01258388053	0.1876141504	
523.125	-0.3664042408	0.006568574123	
523.75	-0.05438575071	0.1567481111	
524.375	-0.536478685	-0.1644063429	
525.0	0.3014677975	0.4578391537	
525.625	-0.1332481473	0.05537058602	
526.25	0.1985367201	-0.06892831125	
526.875	-0.3579415242	0.2218023839	
527.5	0.2489408877	0.4744576201	
528.125	-0.2209161185	0.521108359	
528.75	0.2823421713	1.011561282	
529.375	0.04003212731	-0.1025253376	
530.0	0.3619632281	0.7531119899	
530.625	0.2355931509	0.3953910815	
531.25	1.464252691	0.4263183054	
531.875	-0.0412129483	-0.5103316203	
532.5	0.1815975235	-0.675337459	
533.125	-0.4025430395	0.540338903	
533.75	0.5293669584	-1.130189835	
534.375	-0.6094242628	-0.117145324	
535.0	-0.4310815386	-0.6133548631	
535.625	-0.3490469457	0.7340571057	
536.25	-0.07104002672	0.06521109229	
536.875	0.3784339697	0.1122645764	
537.5	0.04643083515	-0.1902616753	
538.125	0.2680073175	0.06840426848	
538.75	0.3708544519	-0.4827738829	
539.375	-0.1701211657	-0.2580128529	
540.0	-0.3336076022	-0.3523394091	
540.625	-0.4382385879	-0.009382422424	
541.25	-0.1275426275	0.0283156334	
541.875	-0.173382429	-0.075732086	
542.5	-0.08032763997	-0.03966110492	
543.125	-0.1545856838	-0.142668122	
543.75	-0.3195872785	0.02632425309	
544.375	0.09139924198	0.09371379724	
545.0	-0.2094701528	0.2284207441	
545.625	0.3490822165	-0.03935708298	
546.25	-0.05757657339	0.214403398	
546.875	0.4998314265	-0.2501695593	
547.5	-0.005132017852	-0.07898440094	
548.125	0.06208605701	-0.5468226154	
548.75	-0.5006742875	-0.1285675874	
549.375	-0.05968062707	-0.101534912	
550.0	-0.3175432969	-0.05796082401	
550.625	-0.01958589983	0.1293077839	
551.25	-0.2327182879	-0.04626723665	
551.875	-0.1350922605	0.2793260439	
552.5	-0.06847556994	0.1061837133	
553.125	-0.03367947456	0.2035921421	
553.75	0.1003407142	0.07747091392	
554.375	0.229795514	0.007768495939	
555.0	0.215713984	-0.1898308275	
555.625	0.1726923524	-0.2442723893	
556.25	0.1454249084	-0.3272608325	
556.875	-0.1055581817	-0.3834585995	
557.5	-0.2478012751	-0.2242284858	
558.125	-0.2489040441	-0.07014767283	
558.75	-0.2617155742	-0.01536063135	
559.375	-0.2352575099	0.09292368026	
560.0	-0.2152622893	0.1224527631	
560.625	-0.1251956962	0.3209974669	
561.25	0.09341731748	0.1492156204	
561.875	-0.0135672739	0.1552600465	
562.5	0.1389702511	0.08500356256	
563.125	0.03225116537	0.1530471477	
563.75	0.4391495502	0.01780675531	
564.375	0.1325260691	-0.2835079539	
565.0	0.2708867015	-0.2513894616	
565.625	-0.2089165585	-0.414495223	
566.25	-0.144494325	-0.1404382093	
566.875	-0.3692273113	-0.2821940953	
567.5	-0.424606174	-0.1051777903	
568.125	-0.1372124168	-0.303452934	
568.75	-0.6642874592	-0.3084381119	
569.375	-0.435029255	0.4903802111	
570.0	-0.2001784813	0.1569118842	
570.625	-0.3779494149	0.6874533861	
571.25	0.295255022	0.03642694018	
571.875	-0.0374847597	0.4671180139	
572.5	0.3114556448	-0.4125950895	
573.125	0.222063154	0.1524797111	
573.75	0.2738027476	-0.588702557	
574.375	-0.2686397374	-0.07947437702	
575.0	0.3451209529	0.03327334837	
575.625	-0.1398459278	-0.3964295298	
576.25	0.1522673195	0.09478793508	
576.875	0.04866461102	-0.5976659627	
577.5	-0.2751539108	-0.2855863389	
578.125	0.1409423459	-0.2187687194	
578.75	-0.2488541002	-0.5116425221	
579.375	-0.3432271309	0.05296272855	
580.0	0.1089052283	-0.08985259932	
580.625	-0.426488833	-0.08839040551	
581.25	0.08754229735	0.1579057298	
581.875	-0.3370468889	0.3029810788	
582.5	0.4367838435	0.5472355473	
583.125	0.0378580242	-0.2168806153	
583.75	0.1309640531	0.4913742466	
584.375	0.005364412326	-0.3773979774	
585.0	0.2466602295	0.5871757357	
585.625	0.5386915293	-0.3107562889	
586.25	0.01435303183	-0.124499052	
586.875	0.4209105101	-0.2222980887	
587.5	-0.2980002787	-0.4540593937	
588.125	0.1277152897	-0.06449549283	
588.75	0.1609314999	-0.5883140773	
589.375	-0.1225553738	-0.2012871811	
590.0	0.1797092137	-0.5502800669	
590.625	-0.5953817734	0.1332773127	
591.25	-0.1145625687	0.1520151858	
591.875	-0.1791890127	0.1774288307	
592.5	-0.04750661141	0.3190465104	
593.125	0.03910780501	-0.1923548047	
593.75	0.1062552969	0.6516051086	
594.375	0.4158835299	-0.1229091675	
595.0	0.07748747943	0.410871434	
595.625	0.8184563058	0.2033728864	
596.25	-0.04754469776	-0.009045527631	
596.875	0.6132840872	0.3692480298	
597.5	0.4922101039	-0.2090400376	
598.125	-0.050189814	0.3433872966	
598.75	0.5672712531	0.3271258075	
599.375	0.4032586459	-0.2908535509	
600.0	0.3388279719	-0.1278440381	
600.625	0.4213197038	-0.565956554	
601.25	-0.03397190854	-0.2976001724	
601.875	-0.03265246181	-0.4636393688	
602.5	-0.3617250184	0.133238947	
603.125	-0.1875369203	-0.06994536074	
603.75	-0.2913721823	0.2488743829	
604.375	-0.2179316932	0.132915046	
605.0	0.01180627834	0.2799868938	
605.625	-0.3753609373	-0.1292036574	
606.25	-0.1477871969	0.526608423	
606.875	-0.1193081089	-0.1860115886	
607.5	-0.7761052747	0.7874544606	
608.125	0.2734212915	0.1988416515	
608.75	0.1441845158	0.6813384259	
609.375	0.7284186811	-0.528895872	
610.0	0.1442356049	0.1298543221	
610.625	0.4161788052	-0.6528103733	
611.25	-0.2186881863	-0.1461489786	
611.875	0.002907371346	-0.5187583259	
612.5	-0.4407130161	0.1743453663	
613.125	-0.3710857118	-0.189888498	
613.75	-0.2328039597	0.5938588333	
614.375	0.06050211786	-0.1201568651	
615.0	0.2684729912	0.4292077991	
615.625	-0.0576500029	-0.1660126308	
616.25	-0.348821167	0.5533036709	
616.875	0.246929845	0.4511499437	
617.5	-0.4694307655	0.2737674858	
618.125	0.1368492016	0.7353256394	
618.75	0.08831204688	0.1689202627	
619.375	0.2019872292	0.5858196832	
620.0	0.3855843193	-0.09543859425	
620.625	0.3327308177	-0.2610569445	
621.25	-0.3449287576	-0.3635660367	
621.875	-0.2914099654	-0.2407377354	
622.5	-0.6638905437	0.310379392	
623.125	0.03877685329	0.121687273	
623.75	0.3849690847	0.3755432653	
624.375	-0.1758530402	-0.3074510643	
625.0	0.465298537	0.05675549312	
625.625	-0.3479493369	-0.1603709964	
626.25	0.2627316919	-0.3434621743	
626.875	-0.6801049817	-0.2234805327	
627.5	-0.07274048624	0.1881696502	
628.125	-0.1408141662	-0.4649100966	
628.75	-0.4136367206	-0.2482687263	
629.375	-0.0999120197	-0.189033756	
630.0	-0.4205713829	-0.3673626238	
630.625	-0.4693077412	0.378442589	
631.25	-0.3526738711	0.2131836	
631.875	0.02077097173	0.7298314504	
632.5	0.3605909133	0.221968865	
633.125	0.3848347561	0.2340997851	
633.75	0.4652246427	-0.2550788158	
634.375	-0.03463074236	-0.3902702068	
635.0	0.07724384368	-0.1107164929	
635.625	-0.4621489798	-0.4592315002	
636.25	-0.22226664	0.5288718272	
636.875	-0.1705839895	-0.2320722483	
637.5	-0.07572203994	0.708882581	
638.125	-0.02274612365	-0.2466511455	
638.75	-0.3614610722	0.778494735	
639.375	0.4948183404	0.1677387158	
640.0	-0.1555523135	0.7654370048	
640.625	0.9983755833	0.3675976119	
641.25	0.2995247853	-0.3356564772	
641.875	0.2564347477	-0.0822010407	
642.5	0.2047982646	-0.816945996	
643.125	-0.4897931024	0.1283937951	
643.75	-0.09470165092	-0.3723403385	
644.375	-0.5771718285	0.2590285149	
645.0	-0.0704314494	0.01845701011	
645.625	0.07235104126	0.8694449661	
646.25	0.4495427262	-0.150546093	
646.875	0.01963467148	0.06847545198	
647.5	0.4227867104	0.2837184864	
648.125	0.1080985083	-0.4304763119	
648.75	0.5458976643	0.5481592941	
649.375	0.837483662	-1.154904924	
650.0	-0.3927185408	-0.4981407795	
650.625	0.9276850972	-0.2234745256	
651.25	0.2412968026	-1.376216313	
651.875	0.08115631235	0.1934280584	
652.5	1.287228264	-0.2113302962	
653.125	0.09587604168	-0.777475543	
653.75	0.4281456811	0.01886230519	
654.375	-0.1904625045	-1.168777928	
655.0	-0.8000078672	0.2682566714	
655.625	-0.113689788	0.0193344488	
656.25	-0.1441204035	0.7563898627	
656.875	0.4223927066	-0.2477907956	
657.5	-0.1125836373	0.5610017063	
658.125	0.5933947069	0.2041630359	
658.75	0.4196911165	-0.02487877761	
659.375	0.8437947136	0.03895602659	
660.0	0.4500644426	-1.192055028	
660.625	-0.0754950574	-0.3830391007	
661.25	0.7059284154	-0.5219070037	
661.875	0.4303281661	-1.137225576	
662.5	0.02367631604	-0.04870989612	
663.125	1.130877205	-0.5861360173	
663.75	-0.222238882	-0.7835690117	
664.375	0.211955595	-0.3697192401	
665.0	-0.8934575746	-0.7490753001	
665.625	-0.4809394251	0.6161930039	
666.25	-0.2991290943	0.3116085209	
666.875	0.3740982894	0.7128321492	
667.5	0.3874229741	-0.1676094822	
668.125	0.5701697983	0.3272492897	
668.75	0.2993046713	-0.6539677158	
669.375	0.0672134148	-0.2488423895	
670.0	0.2607096914	-0.5881526305	
670.625	-0.2066810212	-0.6132181667	
671.25	-0.05359300862	-0.125432218	
671.875	0.5693717809	-0.2766894729	
672.5	0.4332782507	-0.7009888333	
673.125	0.05540762408	-0.2752011765	
673.75	0.8009973101	-0.502933074	
674.375	-0.4710006818	-0.5953133855	
675.0	0.19188119	-0.3682783307	
675.625	-0.7939386348	-0.5597665397	
676.25	-0.2691342829	0.6058957834	
676.875	-0.2408920948	-0.6159726455	
677.5	-0.6407931645	0.5714200172	
678.125	0.02412916723	0.1494761056	
678.75	-0.1966548611	0.5051401174	
679.375	0.9115392407	0.07759363069	
680.0	-0.1147363969	-0.1070680165	
680.625	0.4753867536	-0.1774901568	
681.25	-0.008240371854	-0.3719749027	
681.875	0.2014421173	0.6047346215	
682.5	0.8527962985	-0.1324840669	
683.125	0.2597795527	0.04313952856	
683.75	0.4680210139	0.1245751624	
684.375	0.7904070547	0.4405582114	
685.0	0.9134540811	-0.6847478963	
685.625	-0.09678234373	0.5680700078	
686.25	1.506345872	-0.4846775819	
686.875	-0.2540772793	-0.4278428838	
687.5	1.405348142	-0.4564803197	
688.125	-1.313990605	-1.098057028	
688.75	-0.008854115638	-0.5626588869	
689.375	-1.232016315	1.258005957	
690.0	0.8969658786	0.2937062167	
690.625	-0.01521984431	0.7574245018	
691.25	1.198127157	0.5529645901	
691.875	0.8306972532	0.3731650298	
692.5	1.33800755	0.5927282593	
693.125	1.550267456	-0.342708217	
693.75	1.083077376	-0.4295015725	
694.375	0.932862037	-1.10243168	
695.0	0.8268885129	-0.5744407344	
695.625	1.341628038	-0.4452350547	
696.25	0.7770411033	0.0513092241	
696.875	1.199656901	1.417193664	
697.5	1.425978525	-0.03965503837	
698.125	0.84852024	0.9483475082	
698.75	1.019146932	-1.927667639	
699.375	-0.5705773174	0.1773750578	
700.0	-1.359880498	0.9074250132	
700.625	0.9632207069	0.3110313136	
701.25	-0.0967793523	0.6425988048	
701.875	1.319175926	0.3544484604	
702.5	0.2622736677	0.3424007588	
703.125	1.272527077	0.5175016345	
703.75	0.5346165536	-0.7607908288	
704.375	0.8383152132	0.1495844708	
705.0	0.5499079006	-0.9211250856	
705.625	0.04548271543	0.189121619	
706.25	1.275402605	0.7693100186	
706.875	0.3307482982	-0.1550592874	
707.5	0.5650026498	1.269975125	
708.125	1.471547154	-0.5616759793	
708.75	0.3626001659	-0.347271788	
709.375	-0.919821016	-0.898413262	
710.0	-0.06193968337	0.759636402	
710.625	0.04212331562	0.328227865	
711.25	0.3490203751	0.1683698112	
711.875	0.4592342229	0.2105707902	
712.5	0.7372482863	-0.1000347875	
713.125	0.4826445482	-0.4123755814	
713.75	0.3207132166	-0.7386429949	
714.375	-0.1663851548	-0.2578955724	
715.0	0.2963277592	-0.7771752156	
715.625	-0.575753408	-0.4489505409	
716.25	0.5973976125	0.1246431207	
716.875	1.602126455	-1.044627716	
717.5	-0.246994744	-0.858118886	
718.125	2.50803348	1.187372514	
718.75	2.02586973	-2.088543329	
719.375	0.3230090164	0.4693620473	
720.0	2.142427219	-4.5628422	
720.625	-1.289591755	-0.8539953381	
721.25	0.4711096041	-2.561744455	
721.875	-1.06567368	-3.053912697	
722.5	-2.466306323	-0.8092632175	
723.125	-1.226144848	-0.4868324122	
723.75	-1.053058378	1.549587749	
724.375	0.4344398784	0.7901023747	
725.0	0.2354375965	0.7552938996	
725.625	0.6097651033	1.50705634	
726.25	0.6271552604	1.000584738	
726.875	-0.8471767286	1.872282112	
727.5	-0.2271000075	4.751533523	
728.125	3.730456977	3.660260128	
728.75	-4.000913097	2.821954547	
729.375	-0.1840580691	15.3108091	
730.0	5.105827675	1.554157075	
730.625	-7.279919444	10.25905378	
731.25	10.65959738	14.90897613	
731.875	-6.160280999	-2.093334666	
732.5	-11.57727777	6.367499403	
733.125	-3.948695283	5.327063731	
733.75	-0.8610734616	1.275707473	
734.375	2.829489	2.042215495	
735.0	-1.500016248	-1.359151766	
735.625	-0.5445648505	-0.07829186659	
736.25	-0.4405155523	1.754674904	
736.875	1.97076495	0.377493384	
737.5	1.857596734	1.768609037	
738.125	4.526857487	-2.395326763	
738.75	2.187889467	-4.969226602	
739.375	1.419854131	1.188767364	
740.0	22.39699905	-2.762729932	
740.625	3.217131938	-23.41382372	
741.25	-11.24377964	5.558166033	
741.875	-20.17519253	-2.662669113	
742.5	4.983183475	8.458713637	
743.125	4.036208625	-8.492303255	
743.75	-3.787552829	-1.512508072	
744.375	0.1997296497	-0.4828310334	
745.0	0.4145907599	1.03938039	
745.625	-0.2831482104	0.09848339528	
746.25	-0.006113200142	-0.5399186218	
746.875	-0.2879359342	0.4056090913	
747.5	0.1545343011	0.6703011698	
748.125	-0.1013708891	1.39612707	
748.75	0.9775549918	1.385360526	
749.375	0.004316854809	0.7332624965	
750.0	-0.2804548827	3.682814586	
