!Created with skrf (http://scikit-rf.org).
# GHz S RI R (50+0j) 
!freq	ReS11	ImS11	
500.0	-1.504784353	-2.588716856	
500.625	1.434293414	-1.834087755	
501.25	-1.958740813	-1.85010518	
501.875	-0.4894466553	-1.050334305	
502.5	-0.3799502065	-0.3584781579	
503.125	-0.1079208026	0.1116655149	
503.75	-0.1520874124	0.1615891448	
504.375	0.1666017478	-0.09596151067	
505.0	-0.0521528792	0.04979723726	
505.625	0.1162630718	-0.2591000465	
506.25	-0.3679459546	0.1233825564	
506.875	-0.6773705039	-0.7150720055	
507.5	-0.5051620125	0.7323275188	
508.125	1.570670657	-2.399118056	
508.75	0.1423163956	-4.281076201	
509.375	-1.652498928	-1.371283183	
510.0	-1.123794705	-1.573195999	
510.625	-0.8370140381	-0.38515707	
511.25	-0.3485693324	-0.1431973291	
511.875	-0.3259920944	-0.1481951632	
512.5	-0.08065780631	0.1598451457	
513.125	-0.0009686383812	-0.1796289972	
513.75	-0.2152707967	-0.2498264199	
514.375	-0.276165519	0.1446536865	
515.0	0.6957159487	-0.927080792	
515.625	-1.568871455	0.4441094515	
516.25	1.972783366	-2.24019494	
516.875	-2.361934297	-1.904629274	
517.5	-0.1442720768	0.4059927838	
518.125	-0.2331446576	-0.4268938052	
518.75	0.02449112252	0.2871717851	
519.375	-0.3019331988	0.1030820436	
520.0	0.5055979986	-0.00691182419	
520.625	0.2098324766	-0.1446939823	
521.25	0.1895642469	-0.904708067	
521.875	-0.3470874275	0.184390747	
522.5	-0.1519516862	-0.07166115723	
523.125	0.05221798165	0.2339285196	
523.75	-0.346569996	-0.2616876323	
524.375	-0.2400604851	0.458939218	
525.0	-0.2216388868	0.07039397442	
525.625	0.2609288394	0.3095000078	
526.25	-0.2957345174	-0.05762336921	
526.875	0.08348744936	0.1502681527	
527.5	-0.4096106702	0.3008994041	
528.125	0.4716230042	0.9965967013	
528.75	0.1332633941	0.1638449834	
529.375	0.1788212936	0.4099667412	
530.0	0.1328444953	0.004168870832	
530.625	0.2436065367	1.202075026	
531.25	0.7801343833	-0.2388401598	
531.875	0.8053789453	-0.3068878834	
532.5	-0.6590886112	0.0397670825	
533.125	0.7253401952	-0.549036626	
533.75	-0.4431252342	-0.2209425406	
534.375	0.2490223004	-1.03656859	
535.0	-0.9623719766	0.1791569456	
535.625	-0.2527273219	0.05141309695	
536.25	-0.03415667011	0.3924216629	
536.875	0.09298097148	-0.1569201533	
537.5	0.3075292024	0.004669473719	
538.125	0.2458933471	-0.3249013639	
538.75	0.1598030878	-0.1475186532	
539.375	-0.1081078346	-0.4843016881	
540.0	-0.453972726	-0.2870335078	
540.625	-0.3620124907	0.008928543236	
541.25	-0.1896987067	-0.03063221405	
541.875	-0.08715438642	0.02661460598	
542.5	-0.1068986621	-0.1690469568	
543.125	-0.2525550602	-0.0186593728	
543.75	-0.08163531528	0.01048639013	
544.375	-0.2440160805	0.09256232443	
545.0	0.1991034744	0.1110920783	
545.625	-0.1642082151	0.2425453952	
546.25	0.5176248986	-0.02607067835	
546.875	0.01932478154	-0.02584111598	
547.5	0.3891624697	-0.3316762378	
548.125	-0.3537633627	-0.2551277676	
548.75	-0.06477878822	-0.2914670967	
549.375	-0.4099288861	-0.2450421859	
550.0	-0.08018562574	0.149708692	
550.625	-0.1830121883	-0.125291124	
551.25	-0.1182276259	0.2140440311	
551.875	-0.1531792737	0.05842217182	
552.5	-0.1231960735	0.2636949614	
553.125	0.001625583684	0.1083363402	
553.75	0.1215267427	0.1368874205	
554.375	0.2146846852	-0.03756009741	
555.0	0.2072461802	-0.1531458674	
555.625	0.1938958553	-0.260085149	
556.25	0.1234802194	-0.3474276748	
556.875	-0.10527607	-0.3559699877	
557.5	-0.2245025257	-0.2313028748	
558.125	-0.2820155093	-0.0818207336	
558.75	-0.2336496432	0.02713041579	
559.375	-0.2482149232	0.02307778701	
560.0	-0.2201139963	0.2318256043	
560.625	-0.06390647301	0.1888095224	
561.25	-0.04723775	0.2797442589	
561.875	0.1649678005	0.0686386941	
562.5	-0.0801661096	0.08958605432	
563.125	0.2765034611	0.2184235687	
563.75	0.1884493223	-0.08455409713	
564.375	0.3812531437	-0.1478310546	
565.0	0.04014945606	-0.4377630407	
565.625	0.02521176744	-0.2331032494	
566.25	-0.3815029843	-0.3381053243	
566.875	-0.2418263322	-0.01531284051	
567.5	-0.2349281931	-0.3503002534	
568.125	-0.4949081255	-0.4224349451	
568.75	-0.4469964893	0.04580694009	
569.375	-0.466890751	-0.05530208329	
570.0	-0.3942378313	0.7910489215	
570.625	0.1794344998	0.2387168959	
571.25	-0.3591175769	0.3460987106	
571.875	0.3951975535	-0.1402520466	
572.5	0.276894869	0.3836328951	
573.125	0.184027254	-0.6228513945	
573.75	-0.1643443659	0.05788491772	
574.375	0.3666584292	-0.1845815667	
575.0	-0.2035965912	-0.30285084	
575.625	0.2440332795	0.1007641786	
576.25	0.1903758639	-0.5067507728	
576.875	-0.213148867	-0.1024602122	
577.5	0.2845179585	-0.34525303	
578.125	-0.3555547943	-0.496557408	
578.75	-0.1292361428	-0.02978044333	
579.375	-0.06944760948	-0.3322079449	
580.0	-0.345125072	-0.0207376239	
580.625	0.1209042504	-0.04542429024	
581.25	-0.5347683574	0.143920134	
581.875	0.3421328895	0.452236799	
582.5	-0.044807415	-0.05907437923	
583.125	0.101089216	0.6481227008	
583.75	0.1214970938	-0.4579728499	
584.375	0.06185955537	0.5537761662	
585.0	0.3756635349	-0.3103232361	
585.625	0.05488216275	0.3111175533	
586.25	0.664261925	-0.2242778521	
586.875	-0.1360494698	-0.3414948196	
587.5	0.1847162586	-0.163560912	
588.125	-0.1306835324	-0.5775701218	
588.75	-0.1301775848	-0.05577214528	
589.375	0.4642598476	-0.443766125	
590.0	-0.3769154247	-0.3199791144	
590.625	-0.1691750533	-0.1984247675	
591.25	-0.4558208538	0.2937825022	
591.875	0.06709991499	0.3804135522	
592.5	0.02453829215	-0.09375728321	
593.125	-0.1358507038	0.3525842818	
593.75	0.1732293321	-0.05753158074	
594.375	0.1584909868	0.5631828146	
595.0	0.7556748585	0.0279116166	
595.625	-0.01050919876	0.1629855259	
596.25	0.6503597655	0.3295402066	
596.875	0.1669146896	-0.3627124951	
597.5	0.165256085	0.6234096312	
598.125	0.7001988477	0.1740655044	
598.75	0.2369726737	0.001282429658	
599.375	0.5227758219	0.130358248	
600.0	0.3803904964	-0.5298115865	
600.625	0.1782288927	-0.2258627254	
601.25	0.3258543398	-0.4911244658	
601.875	-0.3413559416	-0.1932453813	
602.5	-0.2031493437	-0.2255977463	
603.125	-0.2914009873	0.2709436937	
603.75	-0.1608903631	0.07702822287	
604.375	-0.1781782337	0.1981437234	
605.0	-0.3180910388	0.0621280633	
605.625	-0.003137098554	0.4070998559	
606.25	-0.2414917092	-0.3109918869	
606.875	-0.5910378758	0.6727503056	
607.5	-0.02266419688	0.09572816078	
608.125	-0.4755878007	0.7875794616	
608.75	0.6904789311	-0.06849885517	
609.375	0.356827565	0.3210678526	
610.0	0.5887816025	-0.5684089469	
610.625	-0.1577260981	-0.1116253867	
611.25	0.2902678838	-0.6053694103	
611.875	-0.3032692819	-0.01739359782	
612.5	-0.2629835818	-0.358123282	
613.125	-0.5459938117	0.4018150387	
613.75	-0.1927333677	-0.02773844202	
614.375	0.1844876493	0.5389374239	
615.0	-0.003136379138	-0.2253283887	
615.625	0.01216228098	0.6164594892	
616.25	0.1528356638	0.003550428204	
616.875	-0.5469486982	0.4207926233	
617.5	0.1188786739	0.7284654106	
618.125	-0.1199932539	0.1614816054	
618.75	0.1149354891	0.6777043191	
619.375	0.2402552753	0.1439990004	
620.0	0.4380351819	0.2580634967	
620.625	0.1101639986	-0.4387864132	
621.25	-0.08578483124	-0.3866494771	
621.875	-0.5662465673	-0.08768662089	
622.5	-0.3145085735	0.04512382582	
623.125	-0.2085051432	0.6365101475	
623.75	0.2405056331	-0.2639991917	
624.375	0.4351300595	0.1500362103	
625.0	-0.309416101	-0.07646403259	
625.625	0.4489820094	-0.1624021111	
626.25	-0.5361304544	-0.3493692249	
626.875	0.1807031195	-0.1371212848	
627.5	-0.6646764375	-0.2922694361	
628.125	-0.2447813782	0.1398762746	
628.75	0.05196140503	-0.3065955451	
629.375	-0.3212932757	-0.5234540854	
630.0	-0.3444185873	0.0244935458	
630.625	-0.523004019	0.005027439526	
631.25	-0.2721395127	0.6112523756	
631.875	0.03446893189	0.3497075528	
632.5	0.3190843515	0.6453267863	
633.125	0.4799810022	-0.1016752863	
633.75	0.2907566666	-0.09612301237	
634.375	0.1870025746	-0.2602184611	
635.0	-0.1514712104	-0.5379202963	
635.625	-0.1244211594	0.1726959386	
636.25	-0.6093915723	-0.1781299771	
636.875	0.02544310054	0.6635706306	
637.5	-0.01144479199	-0.2499934356	
638.125	-0.2898126566	0.6890209571	
638.75	0.04638882924	-0.1204036854	
639.375	-0.3095175677	0.9008214323	
640.0	0.803938422	0.3229805775	
640.625	0.0164466578	0.1945811975	
641.25	1.013379368	0.2146350297	
641.875	0.2341639956	-0.7704544977	
642.5	-0.2093565929	-0.1227707208	
643.125	-0.1230565567	-0.5587494773	
643.75	-0.5771780277	0.08875539701	
644.375	-0.1725382669	-0.3232555932	
645.0	-0.3798449731	0.640674594	
645.625	0.2420962651	0.1980074072	
646.25	0.1639375474	0.4149304221	
646.875	0.5240551244	-0.2763045184	
647.5	-0.243336815	0.05599982232	
648.125	0.6393666492	0.415564195	
648.75	0.5517094245	-0.7316134271	
649.375	0.04088631213	0.0590594381	
650.0	1.11990153	-1.009367423	
650.625	-0.4337197749	-0.8632447175	
651.25	0.6432572744	0.1593667502	
651.875	0.9538614062	-1.064733533	
652.5	-0.1841081608	-0.2152303874	
653.125	1.033319814	0.0439848068	
653.75	0.1760713668	-1.040816985	
654.375	-0.3012985811	-0.1648853385	
655.0	-0.4610651695	-0.6322460417	
655.625	-0.4188104068	0.9844630784	
656.25	0.1737593167	-0.03548604929	
656.875	-0.02644100661	0.4789937434	
657.5	0.3096978774	-0.09665707533	
658.125	-0.02536175932	0.5553870035	
658.75	1.02227402	0.05559307453	
659.375	0.4465359994	-0.5294196737	
660.0	0.3607535136	-0.3308643067	
660.625	0.7476214471	-0.992993524	
661.25	-0.3561947396	-0.8560346007	
661.875	0.6732843991	-0.04092700263	
662.5	0.7403520634	-0.9465652803	
663.125	-0.01709200295	-0.4190952974	
663.75	0.9198624798	-0.5736972907	
664.375	-0.7409661985	-0.7891223453	
665.0	-0.2129491391	-0.1611437664	
665.625	-0.8746213604	-0.01343986686	
666.25	-0.09136702015	0.9213861503	
666.875	0.1754501803	0.06060403024	
667.5	0.5422506364	0.4452334537	
668.125	0.4046813393	-0.3651653915	
668.75	0.4223469138	0.01776537116	
669.375	0.1679316941	-0.9179245187	
670.0	-0.1304104273	-0.1683670296	
670.625	0.2033085598	-0.4294001107	
671.25	0.1249245324	-0.580081175	
671.875	-0.02904205533	-0.5247348346	
672.5	0.3645849337	0.1109180876	
673.125	0.7554330814	-0.7952488704	
673.75	-0.1138082405	-0.3829459533	
674.375	0.470834695	-0.4969422206	
675.0	-0.8191924039	-0.6680417914	
675.625	0.1358647921	-0.05760733034	
676.25	-0.8809896749	-0.3279497399	
676.875	-0.1826108745	0.574981053	
677.5	-0.1405274036	-0.4174512558	
678.125	-0.5605037372	0.7221195799	
678.75	0.4615265837	0.2686567099	
679.375	0.1549610386	0.2098227576	
680.0	0.6904323996	-0.2686162517	
680.625	-0.3434667558	-0.256586242	
681.25	0.6193920172	0.1461391689	
681.875	0.2619858777	-0.2340053313	
682.5	0.134565106	0.3202535143	
683.125	0.9069322919	0.2492966997	
683.75	0.576456346	-0.2041397038	
684.375	0.3453092451	0.0001471532216	
685.0	0.6855645199	0.5142711463	
685.625	1.12331189	-0.6396193337	
686.25	-0.2870054048	0.1748463305	
686.875	1.718512202	-0.7453065067	
687.5	-0.543892349	-0.5062438679	
688.125	0.6184720109	-1.106798482	
688.75	-1.930859271	0.0040580264	
689.375	0.1478135267	-0.0005197059063	
690.0	0.01030764627	1.592740355	
690.625	0.8188328969	-0.01056879572	
691.25	0.3444017688	0.6258268452	
691.875	1.329707076	0.8421705301	
692.5	1.188390035	0.08728570052	
693.125	1.499088884	0.03474458595	
693.75	1.273432564	-0.7548083429	
694.375	0.8215138045	-0.7692845766	
695.0	0.9941391341	-0.8601374888	
695.625	0.8484040677	-0.1239225768	
696.25	1.698426094	0.203034226	
696.875	0.6354026606	0.1892887337	
697.5	0.934113213	1.696806209	
698.125	1.695320235	-0.7594225374	
698.75	0.9304888121	-0.2078647485	
699.375	-1.730183263	-1.064498213	
700.0	0.2983436027	0.7477491586	
700.625	-0.1432347457	1.309212707	
701.25	0.7858610197	-0.2194644104	
701.875	0.1314316069	0.7085859762	
702.5	1.40128251	0.5168368602	
703.125	0.3571443039	0.03033805904	
703.75	1.294827339	-0.0632238403	
704.375	0.2664964812	-0.8684928572	
705.0	0.5734063288	0.3656019899	
705.625	0.9565450454	-0.6598701183	
706.25	0.001311580457	0.3047521008	
706.875	1.058281456	1.238085696	
707.5	0.65636639	-0.2252497527	
708.125	1.187461769	0.7740674438	
708.75	0.3200395692	-1.514802765	
709.375	-0.4872823974	-0.202015885	
710.0	-0.5322559862	0.5561763747	
710.625	0.4023184961	0.278210751	
711.25	0.1810255199	0.3080360809	
711.875	0.592909948	0.1045617998	
712.5	0.7358015031	-0.03518167755	
713.125	0.5113107131	-0.4526486765	
713.75	0.2587487031	-0.5166937997	
714.375	-0.02929555277	-0.7273792681	
715.0	-0.2725972841	-0.1101402264	
715.625	0.6377965419	-0.7080605923	
716.25	-0.3940115691	-1.093301319	
716.875	0.5178978201	0.4820411887	
717.5	2.253868286	-0.1674817798	
718.125	0.614727428	-1.625083435	
718.75	2.613602585	1.357193367	
719.375	1.095614954	-3.316197282	
720.0	0.5643090114	-0.6303445067	
720.625	1.337788608	-4.174716675	
721.25	-1.966261063	-1.453951425	
721.875	0.1136968074	-1.838523241	
722.5	-1.972746183	-2.079079358	
723.125	-2.140493444	0.5138728196	
723.75	-0.4953852538	0.8321695279	
724.375	-0.1644768416	1.304644757	
725.0	0.7638411072	0.5812388808	
725.625	0.1746342945	0.8477327506	
726.25	-0.1095074779	1.947619552	
726.875	1.265497896	2.449415457	
727.5	-1.264060849	1.478134896	
728.125	0.04544670311	7.632369035	
728.75	7.662023778	4.953701006	
729.375	-4.135946924	1.176244649	
730.0	2.771397248	22.31670176	
730.625	7.139666045	0.9868748315	
731.25	-7.512850803	8.167276329	
731.875	-1.551163626	16.06098319	
732.5	-1.249006419	-1.749899958	
733.125	-9.788475323	2.757642568	
733.75	0.1198556879	4.082624664	
734.375	1.632155777	-0.3680032084	
735.0	0.8113418687	-1.378574438	
735.625	-1.506954366	1.40863575	
736.25	-0.2860687045	0.2613055868	
736.875	1.285466186	1.85016797	
737.5	3.096829942	-0.8972133588	
738.125	1.566659093	0.314566875	
738.75	7.239447473	-4.350228389	
739.375	2.3289876	-8.096286307	
740.0	-2.706197415	0.9056933584	
740.625	18.4727393	9.670997851	
741.25	28.96557239	-0.9395249593	
741.875	-6.022867025	-13.1215694	
742.5	-9.88369446	-8.384744788	
743.125	-2.698607096	1.12433455	
743.75	1.936756676	-4.435733924	
744.375	-1.505667379	1.752116075	
745.0	-0.2909360641	-0.05990693744	
745.625	0.3237423371	-0.3066547552	
746.25	-0.1249551661	0.00172182127	
746.875	-0.5716576876	-0.05216604644	
747.5	0.05534152956	1.097061898	
748.125	0.6438792463	0.734897394	
748.75	0.5104562493	1.2194601	
749.375	0.4592220765	2.1584175	
750.0	-0.2983698904	0.137391614	
