!Created with skrf (http://scikit-rf.org).
# GHz S RI R (50+0j) 
!freq	ReS11	ImS11	
500.0	0.4161196715	-2.143972338	
500.625	-0.2477100303	-1.0209203	
501.25	-0.2955319229	-1.231354066	
501.875	-0.819027451	-0.5071766786	
502.5	-0.03681505118	-0.08824480185	
503.125	-0.1584751226	-0.02151007613	
503.75	0.09524178544	0.07703523494	
504.375	0.03536004878	0.0359451627	
505.0	0.01957307307	-0.07662362872	
505.625	0.04700056082	0.01002994039	
506.25	-0.110191697	-0.2027617827	
506.875	0.1874129131	0.1297845049	
507.5	0.2077464546	-0.7918906958	
508.125	-0.3472051483	-1.076612429	
508.75	0.7208139946	-0.5368638009	
509.375	0.2047435495	-1.890667126	
510.0	-1.071671048	-0.1532631346	
510.625	-0.02314444504	-0.2030274208	
511.25	-0.260284098	-0.1145171488	
511.875	-0.1450248239	0.04308879661	
512.5	-0.0256608228	0.06087257616	
513.125	-0.04325318773	-0.1309242735	
513.75	-0.04685245087	0.02433336404	
514.375	-0.07050762633	-0.1424881335	
515.0	-0.1871811647	0.2174183129	
515.625	0.3031309598	-0.9652288971	
516.25	-0.9776991229	-0.2093158051	
516.875	0.08627072159	-0.2373735404	
517.5	0.02527864449	-0.4175040393	
518.125	-0.05517595418	0.08176506386	
518.75	-0.1682717222	-0.323349207	
519.375	-0.07784515209	0.09754644539	
520.0	0.1131944086	0.06807699175	
520.625	0.2346112663	0.01736907754	
521.25	-0.04532387086	-0.2948407893	
521.875	-0.1041070922	0.07673295917	
522.5	-0.1052210103	-0.06629120295	
523.125	0.001599343777	0.1937025746	
523.75	-0.02900566145	-0.0945276205	
524.375	-0.3783566727	0.1469850681	
525.0	0.1255540265	0.09633181875	
525.625	-0.07428645351	0.05363092907	
526.25	0.09667016288	-0.06021463316	
526.875	-0.1764671693	0.05199692595	
527.5	0.08337845832	0.3191551135	
528.125	0.05539609349	0.1391172041	
528.75	0.1172215249	0.4052950046	
529.375	0.1640486702	0.01338478692	
530.0	0.01486038866	0.2541324277	
530.625	0.2289344433	0.4022524833	
531.25	0.2883333719	-0.04671649861	
531.875	0.4096124942	-0.1363320378	
532.5	-0.08437945286	-0.2877496	
533.125	0.2618652001	0.06072291847	
533.75	0.1801231123	-0.5479391663	
534.375	-0.09894754619	-0.1918599292	
535.0	-0.3477384518	-0.2429470655	
535.625	-0.1716185572	0.2646242886	
536.25	0.001607223881	0.0675197772	
536.875	0.155631453	0.0671006982	
537.5	0.06648466916	-0.1029307874	
538.125	0.1281313259	0.01950565579	
538.75	0.2053099943	-0.2341105796	
539.375	-0.1024706185	-0.1234810709	
540.0	-0.1457748002	-0.242059513	
540.625	-0.2693119324	-0.03159718938	
541.25	-0.03608016074	0.05579169049	
541.875	-0.08551540441	-0.1205296836	
542.5	-0.1300351514	-0.02707141528	
543.125	-0.01690906145	-0.07618174367	
543.75	-0.2138355069	-0.02026051064	
544.375	0.0122154356	0.0361888424	
545.0	-0.05184029342	0.1226125363	
545.625	0.1119385481	0.01105927931	
546.25	0.003748039971	0.08137836777	
546.875	0.2262784889	-0.06900024917	
547.5	0.002998645273	-0.1336504607	
548.125	0.02614514083	-0.2001549621	
548.75	-0.2247788196	-0.1863132353	
549.375	-0.1297759614	-0.009957222634	
550.0	-0.1084317748	-0.05771791649	
550.625	-0.05812573198	0.06998810492	
551.25	-0.08720583207	-0.01257322943	
551.875	-0.1087421792	0.136184737	
552.5	-0.02028881218	0.0843801605	
553.125	-0.03891757607	0.09900237215	
553.75	0.08181749368	0.04539518158	
554.375	0.1141020261	0.002749077312	
555.0	0.1329284294	-0.09870002382	
555.625	0.09882448777	-0.1423210805	
556.25	0.08419936438	-0.1789448672	
556.875	-0.04865090271	-0.2084948517	
557.5	-0.1369017404	-0.1314173283	
558.125	-0.148129792	-0.04292351201	
558.75	-0.1429321667	-0.01261278955	
559.375	-0.1512097992	0.03664518832	
560.0	-0.1085203806	0.09317143266	
560.625	-0.08768471559	0.1374319448	
561.25	0.03752469988	0.1582732785	
561.875	0.01402606438	0.02536046585	
562.5	0.04327020549	0.1049472654	
563.125	0.05976943827	0.0505949598	
563.75	0.2043242359	0.05535757022	
564.375	0.1522860505	-0.1852202255	
565.0	0.05458760959	-0.1373401895	
565.625	-0.01273748737	-0.2586745146	
566.25	-0.2394095175	-0.09044828135	
566.875	-0.1087718803	-0.1063157798	
567.5	-0.2428192159	-0.1854605417	
568.125	-0.2223951626	-0.0816700141	
568.75	-0.240535751	-0.2023045969	
569.375	-0.3564587573	0.2454124491	
570.0	-0.05243885608	0.2060331887	
570.625	-0.1951408423	0.2021568622	
571.25	0.1274666029	0.2431936341	
571.875	-0.02892823143	0.05841839762	
572.5	0.2719350492	0.006647006851	
573.125	-0.02848277702	-0.1747573902	
573.75	0.1351722375	-0.02874052843	
574.375	0.0006616684755	-0.2290029979	
575.0	0.002871132992	0.06361334872	
575.625	0.1174209944	-0.1955297847	
576.25	-0.0624753676	-0.1176173091	
576.875	0.08714529328	-0.1135761254	
577.5	-0.0006340911799	-0.3203571255	
578.125	-0.1546756755	-0.1401589542	
578.75	0.0379443185	-0.081808406	
579.375	-0.1659162187	-0.2080972065	
580.0	-0.06766008487	0.1052313041	
580.625	-0.1184651176	-0.2360036495	
581.25	-0.0628417595	0.2815038268	
581.875	-0.04963250395	0.01929562536	
582.5	-0.03238746091	0.2985261008	
583.125	0.2702635327	0.0324093212	
583.75	-0.08667787278	0.004143690733	
584.375	0.2160746514	0.07946132275	
585.0	0.04096907862	-0.02650936139	
585.625	0.2635019807	0.1325020011	
586.25	0.2062522791	-0.2175193735	
586.875	0.04454002992	-0.05664769062	
587.5	0.06176353274	-0.2618106029	
588.125	-0.1402329322	-0.1553384097	
588.75	0.101589435	-0.06679949988	
589.375	0.146716884	-0.2980067739	
590.0	-0.1674394229	-0.1401750688	
590.625	-0.1363078385	-0.1270257374	
591.25	-0.2650553028	0.218591263	
591.875	0.1490070856	0.09161964899	
592.5	-0.1334695788	0.04123611146	
593.125	0.09630989563	0.05850671183	
593.75	-0.05857869894	0.1484679993	
594.375	0.4338340863	0.08201889229	
595.0	0.1685031803	-0.021420216	
595.625	0.1345321165	0.2053886646	
596.25	0.3242471714	0.04363339374	
596.875	0.08918821174	0.01830451906	
597.5	0.1790620142	0.2261694765	
598.125	0.2619323847	0.06315013371	
598.75	0.1302729291	0.1132255538	
599.375	0.3389742971	-0.05115504097	
600.0	0.1487084065	-0.2839637173	
600.625	0.1394538201	-0.1569333225	
601.25	0.1911007807	-0.2764500229	
601.875	-0.2054578882	-0.1964557457	
602.5	-0.04186533811	-0.01733321018	
603.125	-0.2736797698	0.06533186599	
603.75	-0.002317253969	0.1652515466	
604.375	-0.1734381787	-0.04883910305	
605.0	-0.154129332	0.2144117805	
605.625	0.05445934931	0.001965475031	
606.25	-0.2971387583	0.1965902503	
606.875	-0.1019565772	0.2010220835	
607.5	-0.3641713375	0.1902975891	
608.125	-0.1021419103	0.4190688411	
608.75	0.332789167	0.1082051376	
609.375	0.2648971361	-0.010537543	
610.0	0.3284251918	-0.184581784	
610.625	-0.01667896418	-0.2475895902	
611.25	0.0003514108059	-0.1317014313	
611.875	-0.1619327004	-0.2439809539	
612.5	-0.2390293052	0.08015943579	
613.125	-0.2612622256	-0.08900574103	
613.75	-0.1484786441	0.3288868702	
614.375	0.1194358427	-0.01451746516	
615.0	0.001529663479	0.2392091134	
615.625	0.1497987646	0.0470145925	
616.25	-0.147472142	0.06405575537	
616.875	-0.1422576183	0.3916679696	
617.5	-0.1006068421	0.1466897218	
618.125	-0.1619881102	0.2310657846	
618.75	0.1042474541	0.3698563283	
619.375	0.1546342941	0.0847997639	
620.0	0.1558608946	-0.1114005969	
620.625	0.1210507964	-0.3116414282	
621.25	-0.1858408044	-0.178584638	
621.875	-0.2434316779	-0.2067982551	
622.5	-0.4542176451	0.07134587738	
623.125	0.04923308593	0.1652250284	
623.75	0.1369720395	0.1729689843	
624.375	0.0408585194	-0.1996736916	
625.0	0.03341399593	0.08140383588	
625.625	0.08028876567	-0.2195780167	
626.25	-0.1207170896	-0.06788930141	
626.875	-0.09119197655	-0.172715069	
627.5	-0.2864835054	-0.05566976901	
628.125	-0.1238858179	-0.01442343818	
628.75	-0.02044805237	-0.2407266177	
629.375	-0.1856863023	-0.1831872722	
630.0	-0.1340296972	-0.09782973545	
630.625	-0.2784481525	0.04503684735	
631.25	-0.1066575266	0.3461720507	
631.875	0.1011219692	0.2636671933	
632.5	0.1030514525	0.3150563731	
633.125	0.454885857	-0.0198466956	
633.75	0.1202578603	-0.07897045593	
634.375	0.1694513699	-0.2116815809	
635.0	-0.1683262562	-0.1651062058	
635.625	-0.01547427377	-0.1339532843	
636.25	-0.2998486016	0.1594150723	
636.875	0.05151945726	0.1669073338	
637.5	-0.1288425114	0.0276083769	
638.125	-0.02619378898	0.2493324597	
638.75	-0.01382061024	0.05252473314	
639.375	-0.09193199578	0.3988464926	
640.0	0.3446166305	0.2954039399	
640.625	0.1937953598	0.06809481566	
641.25	0.366854972	0.110141588	
641.875	0.1382719149	-0.3854716064	
642.5	-0.1025296536	-0.1285118974	
643.125	-0.09246956423	-0.2897073897	
643.75	-0.3873412105	0.1034946919	
644.375	-0.1092818554	-0.1114697762	
645.0	-0.4042778818	0.3168099835	
645.625	0.2136139025	0.1657504016	
646.25	-0.1435635685	0.1421687976	
646.875	0.3669185191	0.01196592472	
647.5	-0.1276612941	0.007791696872	
648.125	0.3644226782	0.1514082889	
648.75	0.1749631036	-0.3109646441	
649.375	0.2350166937	-0.1003502112	
650.0	0.3711967203	-0.5442754305	
650.625	-0.08049861978	-0.469400057	
651.25	0.240747303	-0.04966613703	
651.875	0.4987126845	-0.3301066261	
652.5	0.1793028649	-0.3263162823	
653.125	0.2875040022	0.04789636628	
653.75	0.3202462308	-0.4989928764	
654.375	-0.2481718071	-0.2204978594	
655.0	-0.2454506069	-0.219703401	
655.625	-0.3197239217	0.4305428567	
656.25	0.2795367454	0.06356140938	
656.875	-0.08431922145	0.159286819	
657.5	0.2635999708	0.1145484696	
658.125	-0.09142766377	0.07783846282	
658.75	0.5290965498	0.2240413765	
659.375	0.2117291929	-0.474691303	
660.0	0.1971443501	-0.1868602067	
660.625	0.3219542707	-0.5188283485	
661.25	0.005690266405	-0.5051497196	
661.875	0.2748271866	-0.07033267049	
662.5	0.4692442797	-0.3728318898	
663.125	0.1465835601	-0.3765958446	
663.75	0.199248808	-0.2236037212	
664.375	-0.1259462292	-0.6012143851	
665.0	-0.3746002998	-0.06590488398	
665.625	-0.3552308688	0.003846135744	
666.25	-0.1604801113	0.4864528593	
666.875	0.2492384763	0.1265016773	
667.5	0.1682201441	0.2225209486	
668.125	0.3969304331	-0.1261128578	
668.75	0.02348721311	-0.1713053698	
669.375	0.2415381459	-0.2236992811	
670.0	-0.1025527947	-0.4219569136	
670.625	-0.01616871039	-0.01436003921	
671.25	0.21442886	-0.3367330567	
671.875	0.02760824196	-0.3287577759	
672.5	0.154633303	-0.03540650348	
673.125	0.4278685789	-0.3782885061	
673.75	-0.03431422293	-0.2897339672	
674.375	0.1107162346	-0.215619054	
675.0	-0.1262831625	-0.4251357335	
675.625	-0.3567475392	0.01688602428	
676.25	-0.1127595432	-0.1866352632	
676.875	-0.3661258478	0.05916805592	
677.5	-0.04638734863	0.1347325962	
678.125	-0.2669295498	0.08990485367	
678.75	0.2021516232	0.4369593054	
679.375	0.150339242	-0.1136805544	
680.0	0.2258040787	0.06378555306	
680.625	0.1715286399	-0.3707869028	
681.25	-0.1230870686	0.03028160739	
681.875	0.6480116399	0.2478993378	
682.5	0.3069441872	-0.1879750872	
683.125	0.09503126806	0.1445867176	
683.75	0.6367018151	0.1869081307	
684.375	0.2966242696	-0.3095670384	
685.0	0.5148300243	0.4491575803	
685.625	0.6075823938	-0.1173204594	
686.25	0.2231093214	-0.1325673551	
686.875	0.3747804267	0.01837862381	
687.5	0.2240782038	-0.6285173608	
688.125	-0.2347753308	-0.2835259091	
688.75	-0.5154306951	-0.3200720304	
689.375	-0.3924911472	0.6565311191	
690.0	0.2691804423	0.2886897946	
690.625	0.180081925	0.5405791452	
691.25	0.6533421953	0.1936762555	
691.875	0.3586138493	0.245407688	
692.5	0.9098209436	0.6091378272	
693.125	0.9798478852	-0.3465285225	
693.75	0.4414684312	-0.1750773564	
694.375	0.8439965102	-0.6718579702	
695.0	0.5553844933	-0.6406070828	
695.625	0.67280693	0.241069066	
696.25	0.9246144659	0.3855484649	
696.875	0.7486760598	0.106012016	
697.5	0.574197193	0.5773746647	
698.125	0.7987034786	0.1296597917	
698.75	0.2173082838	-0.8082390296	
699.375	-0.4944959292	-0.3235110012	
700.0	-0.5008208125	0.6225832202	
700.625	0.4432857968	0.4801996005	
701.25	0.09299409112	0.1995521867	
701.875	0.4897363095	0.4882822702	
702.5	0.4384114431	0.02200330417	
703.125	0.3881773167	0.3240593318	
703.75	0.6724181975	-0.1927760038	
704.375	0.1585051589	-0.3612089599	
705.0	0.4452999502	-0.02064250762	
705.625	0.5097911353	-0.1542669691	
706.25	0.2326553156	0.2346915655	
706.875	0.2606404479	0.542362204	
707.5	0.6025282856	0.3380481448	
708.125	0.3365430921	-0.04769377116	
708.75	-0.02011126969	-0.361261001	
709.375	-0.5486043094	-0.2484532718	
710.0	0.01572073012	0.227298701	
710.625	-0.06596589543	0.2445456807	
711.25	0.5911334221	0.1706225098	
711.875	0.1645130116	0.2051617483	
712.5	0.5956921342	-0.0001424428824	
713.125	0.2008772718	-0.3671381217	
713.75	0.1850021763	-0.08682102974	
714.375	0.05597609308	-0.4625228567	
715.0	-0.1728156851	-0.1730936514	
715.625	0.1545057595	-0.1862628713	
716.25	0.2399541323	-0.510832044	
716.875	0.2055265124	-0.2831165119	
717.5	0.7280732304	0.1620984652	
718.125	1.185910881	-0.2911291965	
718.75	0.4089398486	-0.342257342	
719.375	0.9047667858	-0.4016084583	
720.0	0.02413272872	-1.696828771	
720.625	0.1411498014	-0.743291982	
721.25	0.02947171601	-1.74609133	
721.875	-1.218400516	-1.974051096	
722.5	-0.6369434568	-0.514201502	
723.125	-1.338259151	-0.570652908	
723.75	-0.2825524052	0.8233421043	
724.375	0.09321756724	0.1678675825	
725.0	0.1119553165	0.7723424681	
725.625	0.4850114288	0.3610166901	
726.25	-0.282661576	0.6220877551	
726.875	-0.1665854181	1.599255732	
727.5	0.6052630811	1.720463459	
728.125	-0.4149336169	1.728972489	
728.75	-0.0327448834	4.919594143	
729.375	1.922501614	4.642230448	
730.0	-0.8178038878	2.711444538	
730.625	0.786406161	8.284323228	
731.25	2.35865179	2.919327759	
731.875	-3.046840165	2.145933734	
732.5	-5.827809437	2.272901854	
733.125	-1.614784652	3.451348775	
733.75	-1.255629655	1.280691249	
734.375	1.713125169	0.1056536314	
735.0	-0.6419881244	-0.1356305011	
735.625	-0.5524872983	-0.1906120074	
736.25	0.2262374877	1.060257444	
736.875	0.333039399	0.003095974609	
737.5	1.642773329	1.225534534	
738.125	2.39394089	-1.537229729	
738.75	0.7630053909	-1.750909328	
739.375	3.368411638	0.5889302366	
740.0	5.679872273	-5.040274991	
740.625	-2.788262036	-2.530054653	
741.25	-2.998926849	5.64895476	
741.875	-0.7378799747	4.78277945	
742.5	1.468341096	-2.345277391	
743.125	0.5309777356	-3.968170774	
743.75	-0.9489210271	-0.9834633236	
744.375	-0.05380687148	-0.04157061934	
745.0	0.1355500587	0.3399165731	
745.625	-0.165389028	-0.0106098049	
746.25	0.006998122429	-0.262877249	
746.875	-0.2811107074	0.1555603321	
747.5	-0.0653528008	0.2815619556	
748.125	0.02710831145	0.9181614444	
748.75	0.5912904676	0.4992112436	
749.375	0.07865152636	0.4760228184	
750.0	-0.7509263831	0.4232159443	
