!Created with skrf (http://scikit-rf.org).
# GHz S RI R (50+0j) 
!freq	ReS11	ImS11	
500.0	-0.1644200821	-1.666529354	
500.625	0.7862192773	-0.7648204906	
501.25	-0.8821956314	-1.340322983	
501.875	-0.4533962332	-0.09986796561	
502.5	0.001248106627	-0.216945721	
503.125	-0.123731703	0.05919223677	
503.75	-0.03638668301	0.01155612955	
504.375	0.07364539293	0.003837986253	
505.0	-0.01736857081	-0.02702671339	
505.625	0.06700487885	-0.1020207048	
506.25	-0.2035148796	-0.0146549578	
506.875	0.05157876877	-0.1882757309	
507.5	-0.4813663945	-0.8134122442	
508.125	-0.10156557	-0.3836351569	
508.75	1.381946831	-1.678565679	
509.375	-0.7718150413	-2.174949491	
510.0	-0.356582928	-0.2177645202	
510.625	-0.1192380316	-0.4797955531	
511.25	-0.1459934502	0.002749934801	
511.875	-0.09485577864	-0.0949185108	
512.5	-0.01592884971	0.08413924274	
513.125	-0.07500652901	-0.04296402375	
513.75	0.02390846016	-0.1131082105	
514.375	-0.2379650687	0.01101422102	
515.0	0.5756750014	0.02276076188	
515.625	-0.5317499709	-0.7347155784	
516.25	0.5556243114	-0.1966243729	
516.875	0.0490740705	-1.022958537	
517.5	-0.2687186642	-0.2881797312	
518.125	0.07213064657	-0.01686417237	
518.75	-0.1859667128	-0.321804651	
519.375	-0.02015699652	0.05336300999	
520.0	0.1190709267	0.1266910714	
520.625	0.2653355037	-0.1159884324	
521.25	-0.1345717408	-0.2991345167	
521.875	-0.07391313974	-0.1004099601	
522.5	-0.128491401	0.02951416037	
523.125	0.08491887417	-0.04910064203	
523.75	-0.1975558669	-0.1700652253	
524.375	-0.1244034584	0.2229076198	
525.0	-0.1042583564	-0.007204402933	
525.625	0.05800354358	0.2024594737	
526.25	-0.04173113316	-0.1433540345	
526.875	-0.06606134259	0.1736570256	
527.5	-0.01854669565	0.1022853557	
528.125	-0.05153733568	0.4479355607	
528.75	0.1218161397	0.320677718	
529.375	0.005552035689	-0.05976431961	
530.0	0.1003690903	0.4624261518	
530.625	0.1433948316	0.6455532644	
531.25	0.4283579195	0.2954480747	
531.875	0.4149899934	-0.464574137	
532.5	-0.1507050695	0.03106302617	
533.125	0.2688008763	-0.1231146647	
533.75	-0.0514345275	-0.1313210002	
534.375	0.02773599596	-0.4343538833	
535.0	-0.4803786944	-0.1296838827	
535.625	-0.0991733207	0.1395190941	
536.25	-0.04748299469	0.130576029	
536.875	0.1667165887	-0.01716883275	
537.5	0.04133613137	-0.0147940126	
538.125	0.2264207918	-0.07997760475	
538.75	0.07417257641	-0.1881148735	
539.375	-0.00165716654	-0.1958738404	
540.0	-0.2542464433	-0.2418336268	
540.625	-0.2437616728	-0.008220255491	
541.25	-0.07742955615	-0.06356538841	
541.875	-0.140429561	0.003455328187	
542.5	0.02918727397	-0.04570252615	
543.125	-0.08028266012	-0.1648549626	
543.75	-0.08797430294	0.07810344948	
544.375	-0.1053806132	-0.007642013367	
545.0	0.03541830895	0.1711296941	
545.625	-0.00176789764	0.005262291997	
546.25	0.1929354257	0.1520783221	
546.875	0.1137291866	-0.1101698162	
547.5	0.1045698773	-0.07697545059	
548.125	-0.0414255116	-0.298738372	
548.75	-0.187797364	-0.07306796797	
549.375	-0.08298448886	-0.1229230407	
550.0	-0.166520452	0.02492202046	
550.625	-0.01085552138	-0.0003622935975	
551.25	-0.1467228257	0.03361470132	
551.875	-0.03776316558	0.1010552294	
552.5	-0.0765091463	0.07402631763	
553.125	-0.0125372618	0.1102751448	
553.75	0.04862244986	0.05146794035	
554.375	0.134340304	-7.055312621e-05	
555.0	0.1197808386	-0.1087083805	
555.625	0.1065738533	-0.1392876857	
556.25	0.09198802143	-0.1889380542	
556.875	-0.05442808396	-0.2100630013	
557.5	-0.129656817	-0.1302378179	
558.125	-0.1490999118	-0.05153481524	
558.75	-0.1526602969	-0.001355834352	
559.375	-0.1347326958	0.03564031919	
560.0	-0.1338912029	0.07890390713	
560.625	-0.06816171164	0.1664272985	
561.25	0.02952810147	0.09891100588	
561.875	0.01459268945	0.09113151285	
562.5	0.05186941003	0.03073293389	
563.125	0.05260665434	0.1256962816	
563.75	0.2239098797	-0.03230693477	
564.375	0.1018472474	-0.1101820791	
565.0	0.1534587359	-0.1699663906	
565.625	-0.1061317288	-0.2363524307	
566.25	-0.08886700345	-0.09086387366	
566.875	-0.1980630919	-0.1675185335	
567.5	-0.223066086	-0.06268799351	
568.125	-0.09742775167	-0.2219927062	
568.75	-0.4375266544	-0.1366534332	
569.375	-0.203880744	0.1943633586	
570.0	-0.2164889449	0.1886699656	
570.625	-0.07644964646	0.3347154239	
571.25	0.04933373176	0.01253195192	
571.875	0.04986725004	0.2067286303	
572.5	0.1504756151	-0.1203980086	
573.125	0.1106556099	-0.02291441752	
573.75	0.1404250069	-0.2877848157	
574.375	-0.1127153559	-0.05687437091	
575.0	0.1782586406	-0.03481206461	
575.625	-0.05749975487	-0.1526573286	
576.25	0.09406371085	-0.02064703071	
576.875	0.03027030239	-0.2956646841	
577.5	-0.1407671242	-0.2201663094	
578.125	0.02250780444	-0.1000564782	
578.75	-0.05716368051	-0.3386395201	
579.375	-0.2347121846	0.0104234431	
580.0	0.06090783271	-0.07964759454	
580.625	-0.2106198344	0.006297442891	
581.25	0.07289888323	-0.04547357166	
581.875	-0.1477434638	0.2436307241	
582.5	0.1988010818	0.2354374095	
583.125	0.003907672515	-0.04048001118	
583.75	0.09965047833	0.1921285577	
584.375	0.06520013583	-0.0662761132	
585.0	0.07432323592	0.1963463979	
585.625	0.3043027573	-0.0901579154	
586.25	0.04664524525	-0.06137003523	
586.875	0.2043946974	-0.129156184	
587.5	-0.1253555128	-0.2488626776	
588.125	0.01715727942	-0.06349250002	
588.75	0.1263658415	-0.2585903116	
589.375	-0.03060732001	-0.2389597506	
590.0	0.02891582159	-0.1463708101	
590.625	-0.3875092537	-0.1402601785	
591.25	-0.02173622249	0.2287702233	
591.875	-0.1353888597	-0.001701269668	
592.5	0.01128093232	0.2087752194	
593.125	-0.1163321323	-0.1425861691	
593.75	0.2006245264	0.3281276781	
594.375	0.2012291103	-0.01211141725	
595.0	0.09981230105	0.1796813308	
595.625	0.3574741757	0.08741739662	
596.25	0.1330657844	-0.04587378668	
596.875	0.2519924177	0.1648475155	
597.5	0.3011970079	0.06415589879	
598.125	0.1056686783	0.0826402675	
598.75	0.2937401444	0.1576220534	
599.375	0.3053939462	-0.1646932989	
600.0	0.1239985026	-0.1142025829	
600.625	0.2711011762	-0.2102078847	
601.25	0.04738699891	-0.3290715541	
601.875	-0.06501428503	-0.06717476577	
602.5	-0.2331912121	-0.1346808281	
603.125	-0.04717693522	0.202499645	
603.75	-0.09135791869	-0.02324936949	
604.375	-0.2760694875	0.2599041792	
605.0	0.0754047023	0.1274955818	
605.625	-0.1983260786	-0.0252852565	
606.25	-0.124609342	0.2173016148	
606.875	-0.2568864834	-0.03774444799	
607.5	-0.3479335426	0.2436343517	
608.125	0.1158900412	0.3775385513	
608.75	0.120504761	0.1422799195	
609.375	0.2457271654	-0.1089882915	
610.0	0.1538918541	-0.264982546	
610.625	0.09021136304	-0.05820305233	
611.25	0.05037995379	-0.356305124	
611.875	-0.2235518453	-0.132364953	
612.5	-0.118556417	-0.1872071685	
613.125	-0.3807363487	0.1020356725	
613.75	0.06954594291	0.1998317554	
614.375	-0.09805456818	0.1492536737	
615.0	0.2153756844	0.02231987823	
615.625	-0.1025538605	-0.02213156311	
616.25	-0.09644839401	0.3347711338	
616.875	0.08417465815	0.250745662	
617.5	-0.1422221924	0.2188036523	
618.125	-0.01838411441	0.4173669904	
618.75	0.03538916451	0.2215633673	
619.375	0.0006042251217	0.2262816644	
620.0	0.3841012322	0.01088420614	
620.625	0.02249028753	-0.1600454387	
621.25	-0.04824213737	-0.1990229198	
621.875	-0.3578659722	-0.1475542438	
622.5	-0.1438138393	0.1939845378	
623.125	-0.1423084868	0.1910446821	
623.75	0.3053633268	0.08224931036	
624.375	-0.05854033506	-0.03476795671	
625.0	0.1837706274	-0.06369755572	
625.625	-0.05521234542	-0.09553767381	
626.25	0.04582412246	-0.1873620402	
626.875	-0.276709272	-0.1481211739	
627.5	-0.1649746048	0.03011662581	
628.125	-0.06123924142	-0.1788416377	
628.75	-0.2169804575	-0.1815504238	
629.375	-0.08858463917	-0.1192360981	
630.0	-0.2191876585	-0.1617593535	
630.625	-0.299420776	0.1855387323	
631.25	-0.08493970344	0.20594764	
631.875	-0.09373700692	0.3747900639	
632.5	0.336332117	0.3331612267	
633.125	0.1881349352	0.01065390036	
633.75	0.2783101409	-0.03156878077	
634.375	-0.02950069427	-0.3673971708	
635.0	0.0525105318	-0.1031558592	
635.625	-0.3153261644	-0.254269664	
636.25	-0.1258382722	0.2024181353	
636.875	-0.1057409845	0.04521463342	
637.5	-0.1036000216	0.2490236541	
638.125	0.05208733827	0.02646769363	
638.75	-0.2029362173	0.2421830398	
639.375	0.1436665979	0.3860270001	
640.0	0.1506299252	0.1466469431	
640.625	0.2940110723	0.297857574	
641.25	0.4614240996	-0.1285362263	
641.875	0.0901402631	-0.1455074108	
642.5	0.109519863	-0.360337031	
643.125	-0.4307193144	-0.2205543481	
643.75	-0.02157765524	-0.07697811537	
644.375	-0.3860245951	-0.002165951989	
645.0	-0.003166274816	0.3240173864	
645.625	-0.1157492625	0.06977165155	
646.25	0.3830477653	0.2132751016	
646.875	0.02603309222	-0.2169201513	
647.5	0.1357585209	0.3333623378	
648.125	0.2373576461	-0.1528674636	
648.75	0.1102299467	0.09505886912	
649.375	0.5058664754	-0.3862992721	
650.0	-0.04041756827	-0.5181521525	
650.625	0.1934257972	-0.1649807119	
651.25	0.4876321295	-0.411359431	
651.875	0.1237901344	-0.4119302369	
652.5	0.2947499407	0.05712033474	
653.125	0.5009774609	-0.2871658408	
653.75	-0.01141991757	-0.3957198035	
654.375	0.06508526523	-0.3338116793	
655.0	-0.6340399827	-0.1840078254	
655.625	-0.01758823051	0.2944537636	
656.25	-0.1776129247	-0.000651262913	
656.875	0.2085034963	0.2632565587	
657.5	-0.08882640624	-0.01726989137	
658.125	0.294817653	0.4549080422	
658.75	0.4213747657	-0.2098816377	
659.375	0.2474388805	-0.08164138488	
660.0	0.4823655773	-0.4054161868	
660.625	-0.1221207911	-0.5638637815	
661.25	0.2157242596	-0.1464193814	
661.875	0.3987440361	-0.4611853859	
662.5	0.1967115894	-0.398835144	
663.125	0.2542331687	-0.1155654089	
663.75	0.2792588879	-0.5588355544	
664.375	-0.2305984067	-0.3113436338	
665.0	-0.2164804667	-0.281419468	
665.625	-0.5297687659	0.1690064356	
666.25	0.05999455036	0.3454213452	
666.875	0.02370826267	0.2483536618	
667.5	0.4080752663	0.1576573795	
668.125	0.1599481556	-0.1138692483	
668.75	0.3788263271	0.01200782885	
669.375	0.06986242944	-0.4848714923	
670.0	-0.05346897095	-0.1084965608	
670.625	0.1225460567	-0.2823021188	
671.25	-0.145931494	-0.3505992143	
671.875	0.1004601075	-0.01461071617	
672.5	0.4091254247	-0.2527417225	
673.125	0.1218382977	-0.3371792535	
673.75	0.2026267155	-0.1713685462	
674.375	0.1336086646	-0.4376412546	
675.0	-0.3373378839	-0.1665544094	
675.625	-0.07534862579	-0.1486463963	
676.25	-0.384854817	-0.03844572533	
676.875	-0.1027347601	0.1744611704	
677.5	-0.1935770465	-0.1090798889	
678.125	-0.1852008049	0.3921883318	
678.75	0.1743519347	0.09890658883	
679.375	0.159654043	0.2255610507	
680.0	0.3291732	-0.2661692498	
680.625	-0.2169969739	-0.03085469196	
681.25	0.3838720929	0.1268574907	
681.875	0.1980424378	-0.2362859507	
682.5	-0.007865220509	0.1526839063	
683.125	0.5217746787	0.2773118542	
683.75	0.3846940038	-0.2438578777	
684.375	0.3614036239	0.37718784	
685.0	0.5753427321	0.05563802786	
685.625	0.2977972456	-0.2542628567	
686.25	0.3270485302	0.1703081954	
686.875	0.3776453248	-0.4822945006	
687.5	0.04751442438	-0.2873899183	
688.125	0.08466081529	-0.5679920607	
688.75	-0.7637183415	-0.1502623984	
689.375	-0.0900121647	0.4089549796	
690.0	-0.06570643415	0.479818621	
690.625	0.5665746619	0.2898484256	
691.25	0.2078216069	0.08529860129	
691.875	0.5665837366	0.6686422838	
692.5	0.9635473443	-0.1979824462	
693.125	0.5365551245	0.02105087577	
693.75	0.9094785233	-0.2009868237	
694.375	0.4690610979	-0.782553125	
695.0	0.5247831092	-0.01440357484	
695.625	0.8952898478	-0.2405937924	
696.25	0.6296559081	-0.1263259007	
696.875	0.5623949572	0.5141899553	
697.5	0.6589891826	0.7483731009	
698.125	0.7864268268	0.2558872365	
698.75	0.4519682018	-0.3940808058	
699.375	-0.6204718676	-0.4971139473	
700.0	-0.2470570739	0.6704882879	
700.625	0.02981132362	0.1948013251	
701.25	0.5018439903	0.3984725154	
701.875	0.4023661873	0.02351008879	
702.5	0.2631810069	0.416743666	
703.125	0.7687397101	0.1428544886	
703.75	0.3244453249	-0.3167797588	
704.375	0.4231656074	-0.04052920632	
705.0	0.448554898	-0.330399788	
705.625	0.1757757535	0.006888272012	
706.25	0.268681121	0.4331811845	
706.875	0.6093169816	0.3084684851	
707.5	0.4038130912	0.439832951	
708.125	0.580230237	0.04949969762	
708.75	0.1963002114	-0.6953221163	
709.375	-0.301527362	-0.08317048086	
710.0	-0.1616542309	0.09268523253	
710.625	0.3191591533	0.1199647672	
711.25	-0.04774495049	0.09404185799	
711.875	0.4477636567	0.2101867531	
712.5	0.3214120658	-0.3087901391	
713.125	0.2648531127	-0.01758205776	
713.75	0.2469170647	-0.4703055921	
714.375	-0.143321092	-0.2765082854	
715.0	0.1134448056	-0.1911809029	
715.625	-0.03239468165	-0.4699551669	
716.25	0.05707835267	-0.2493956202	
716.875	0.5593687729	-0.06983348876	
717.5	0.8778717944	-0.355529525	
718.125	0.6848250658	-0.1366367804	
718.75	1.149262744	-0.01591431887	
719.375	1.365513557	-0.8584319428	
720.0	0.2446552109	-0.853090571	
720.625	0.6573439191	-1.482679538	
721.25	-0.8303876275	-1.443438093	
721.875	-0.112371877	-0.9449858043	
722.5	-1.090014138	-1.18749384	
723.125	-1.214187894	0.3406161185	
723.75	-0.1396244211	0.2470536999	
724.375	-0.1560270021	1.038799516	
725.0	0.4802568637	0.2768669688	
725.625	-0.07240629207	0.5192601978	
726.25	0.05690932098	1.188713646	
726.875	0.3990929258	1.169669396	
727.5	-0.5144085663	1.313786867	
728.125	0.2175716289	3.317377543	
728.75	1.910226686	3.462108081	
729.375	-1.389545826	2.900031926	
730.0	0.08641607146	7.183340078	
730.625	2.50979575	3.697350402	
731.25	-1.733294259	3.375773719	
731.875	-2.580110454	6.189086051	
732.5	-1.439744522	4.423057626	
733.125	-3.435485324	0.1292836515	
733.75	-0.4661329825	2.631667307	
734.375	1.021091606	-0.2938558905	
735.0	0.409567929	-0.6239859111	
735.625	-0.990524194	0.5839761298	
736.25	0.1781163026	0.01366393154	
736.875	0.4351166601	1.086271633	
737.5	1.807844146	-0.5387004607	
738.125	0.7132095736	-0.7578148543	
738.75	3.617102231	-0.412037939	
739.375	3.303340597	-4.996762495	
740.0	-0.3137170102	-1.137860784	
740.625	5.049596608	3.950385019	
741.25	6.200603315	2.123949998	
741.875	0.4006175499	-5.104265467	
742.5	-3.129030651	-4.263904131	
743.125	-2.230060879	-1.760440235	
743.75	0.4085642683	-0.8730750115	
744.375	-1.172755307	-0.1032826957	
745.0	0.2710512891	-0.1008048161	
745.625	0.1527190475	0.07430817625	
746.25	-0.1806059695	-0.1587616676	
746.875	-0.1549552287	-0.07623203837	
747.5	-0.1628742032	0.5418043005	
748.125	0.5036151452	0.5600272742	
748.75	0.2330565211	0.459259247	
749.375	0.06505141887	0.7312008845	
750.0	-0.3934670537	0.5191794742	
