!Created with skrf (http://scikit-rf.org).
# GHz S RI R (50+0j) 
!freq	ReS11	ImS11	
500.0	0.9770509145	-5.279172737	
500.625	0.4669113163	-1.237683109	
501.25	-3.350530036	-2.350317321	
501.875	-0.5935805821	-0.893000018	
502.5	-0.2449809684	-0.5386666541	
503.125	-0.1783857593	0.1827114938	
503.75	-0.09439652342	0.02525128241	
504.375	0.2030061138	-0.01762324991	
505.0	-0.1061804011	-0.04014093306	
505.625	0.1888921992	-0.2231915217	
506.25	-0.482133037	0.05252800925	
506.875	-0.1962194386	-0.8279745189	
507.5	-1.578235212	0.1526040078	
508.125	1.621223644	-1.230216	
508.75	1.722815138	-4.876177957	
509.375	-2.838725469	-1.7782448	
510.0	-0.2456211372	-1.444647169	
510.625	-1.244453756	-0.3871988362	
511.25	-0.2748768949	0.06364690616	
511.875	-0.5619714366	-0.2073208334	
512.5	-0.07852292277	0.1265037161	
513.125	-0.06644142941	-0.2002426777	
513.75	-0.1978494413	-0.2683614931	
514.375	-0.4886332418	0.1564642197	
515.0	1.494509981	-0.3856185067	
515.625	-2.379661465	-0.9197136925	
516.25	1.650871317	-0.459206563	
516.875	-1.473606944	-2.874701598	
517.5	-0.7077281809	0.3184399864	
518.125	-0.03244913179	-0.5163645548	
518.75	-0.5833525876	0.2901369204	
519.375	-0.2636299119	-0.01222043817	
520.0	0.5572868611	0.164764465	
520.625	0.2880398523	-0.2781073497	
521.25	0.254433794	-0.6483724101	
521.875	-0.5024527212	0.1063312724	
522.5	-0.07611638199	-0.07207045073	
523.125	-0.1071913386	0.3081909421	
523.75	-0.1133073522	-0.2465029885	
524.375	-0.5887952635	0.4083631405	
525.0	-0.05859825754	0.02309627511	
525.625	0.09792621437	0.3589491549	
526.25	-0.2213975248	-0.2473742555	
526.875	0.04318874077	0.2865906616	
527.5	-0.2117021074	0.1815996866	
528.125	0.1687173531	1.17702448	
528.75	0.4369705543	0.3478482276	
529.375	-0.006020805614	0.3754985134	
530.0	0.36477439	0.1825435182	
530.625	-0.1108459799	1.000985242	
531.25	1.215882611	-0.2747660403	
531.875	0.644131783	-0.1023318183	
532.5	-0.710396473	-0.4382582651	
533.125	0.896257806	-0.001877345643	
533.75	-0.3982317393	-0.6945630998	
534.375	0.3562460084	-0.5312421507	
535.0	-1.163059531	-0.2182091125	
535.625	-0.105678886	0.1497248987	
536.25	-0.1289325874	0.3318312515	
536.875	0.2889308685	-0.1676926344	
537.5	0.1687033775	0.07772349023	
538.125	0.4086647553	-0.3062820918	
538.75	0.1101815189	-0.2624685278	
539.375	-0.04717272898	-0.4301901557	
540.0	-0.4978018033	-0.3713285895	
540.625	-0.3302789593	0.003533837415	
541.25	-0.2043911933	-0.03960681167	
541.875	-0.132500627	0.03303977197	
542.5	-0.05500041673	-0.1549373135	
543.125	-0.2815455982	-0.1254028814	
543.75	-0.1311794284	0.1384876381	
544.375	-0.2093354126	-0.07763399779	
545.0	0.1586867956	0.2925031203	
545.625	-0.163513841	-0.0117826079	
546.25	0.5227970347	0.2331776418	
546.875	0.01471305421	-0.1777470071	
547.5	0.4115432442	-0.1966332633	
548.125	-0.3962478205	-0.476032406	
548.75	-0.05804472545	-0.1360164857	
549.375	-0.2962852104	-0.3476722162	
550.0	-0.227989302	0.1688061601	
550.625	-0.03682912798	-0.1203170741	
551.25	-0.2718818737	0.1797143011	
551.875	-0.07601389897	0.107358167	
552.5	-0.1837482937	0.2167130808	
553.125	0.01910747706	0.1360281783	
553.75	0.09783717452	0.1526622499	
554.375	0.2363205581	-0.02721907969	
555.0	0.2207243243	-0.1549918718	
555.625	0.2142776738	-0.2532999148	
556.25	0.1539790852	-0.3533172274	
556.875	-0.1059982901	-0.3867634809	
557.5	-0.2255153739	-0.2375713829	
558.125	-0.2791690838	-0.1098003406	
558.75	-0.264623577	0.01690446667	
559.375	-0.2319557937	0.0221881091	
560.0	-0.2683277369	0.2080088747	
560.625	-0.03992503374	0.2446835069	
561.25	-0.08086055003	0.2171612599	
561.875	0.1663039746	0.1408612134	
562.5	-0.04945573104	0.03258107297	
563.125	0.2073357577	0.2936506331	
563.75	0.2851017901	-0.1386192429	
564.375	0.3155891063	-0.07516046417	
565.0	0.1624030344	-0.4905942009	
565.625	-0.08408971164	-0.1969895874	
566.25	-0.2535573078	-0.4070986796	
566.875	-0.3999860331	-0.02991711114	
567.5	-0.1683997622	-0.2597405048	
568.125	-0.3968731689	-0.5482174318	
568.75	-0.6264198096	0.01110710142	
569.375	-0.3170734185	0.04463930909	
570.0	-0.6228859112	0.6291325816	
570.625	0.2244177929	0.442512914	
571.25	-0.3246483295	0.1123912869	
571.875	0.547520598	0.1720723579	
572.5	-0.05354758424	0.2592315454	
573.125	0.4969120928	-0.5152888641	
573.75	-0.2611414638	-0.2927224714	
574.375	0.2451561826	0.1033670467	
575.0	0.05452989369	-0.4425407136	
575.625	0.04294410198	0.1673920131	
576.25	0.3276994926	-0.4522472551	
576.875	-0.3121300915	-0.2557713538	
577.5	0.2510520555	-0.174110311	
578.125	-0.1905689863	-0.6808199622	
578.75	-0.3224436402	-0.06097574016	
579.375	0.01668364863	-0.1153047315	
580.0	-0.2564247004	-0.2849127488	
580.625	-0.04966032848	0.204018499	
581.25	-0.403556379	-0.1597269858	
581.875	0.1807056539	0.6772403576	
582.5	0.1978570304	-0.07183607761	
583.125	-0.132822557	0.4987420685	
583.75	0.4242637774	-0.3185674208	
584.375	-0.2103149672	0.486402494	
585.0	0.6305347303	-0.07918281153	
585.625	-0.07316108894	-0.03492195439	
586.25	0.5534466968	0.09820826078	
586.875	0.09778880871	-0.6134682712	
587.5	-0.01148088441	-0.03328237348	
588.125	0.1300785852	-0.5562326866	
588.75	-0.2444848649	-0.2938635796	
589.375	0.506624856	-0.1929504134	
590.0	-0.3741060231	-0.5010351742	
590.625	-0.138932757	-0.04143278139	
591.25	-0.5079808086	0.1635599378	
591.875	-0.06972325421	0.4441329255	
592.5	0.2105942597	-0.0168317208	
593.125	-0.356480844	0.2520729107	
593.75	0.4146077065	0.1001283251	
594.375	-0.03183181515	0.3296104146	
595.0	0.8125956905	0.413682799	
595.625	0.09486371158	-0.1485803462	
596.25	0.4625289456	0.4668881117	
596.875	0.5690840355	-0.3144527681	
597.5	-0.1346466613	0.3746311315	
598.125	0.6942848644	0.4967015664	
598.75	0.4046205709	-0.04468495684	
599.375	0.3710818296	0.1273319522	
600.0	0.5557116207	-0.4575651051	
600.625	0.1006537633	-0.3853246597	
601.25	0.3331109466	-0.3606124763	
601.875	-0.3528119975	-0.4015639413	
602.5	-0.08496903759	-0.0811680072	
603.125	-0.3993923996	0.1515184346	
603.75	-0.1475778964	0.1429597713	
604.375	-0.2199906463	0.2204216333	
605.0	-0.210730287	-0.02709820268	
605.625	-0.2156231599	0.436536263	
606.25	0.01586742021	-0.1434929413	
606.875	-0.8990758499	0.3332511998	
607.5	0.09803867096	0.3931415601	
608.125	-0.5059223551	0.4216174854	
608.75	0.9407079951	0.408274633	
609.375	0.07350784837	0.06487251716	
610.0	0.7734244587	-0.2885869772	
610.625	-0.1429567132	-0.4623507107	
611.25	0.4181438318	-0.2712827028	
611.875	-0.4812617211	-0.2019975529	
612.5	-0.1344313599	-0.2682273117	
613.125	-0.7043163329	0.1567474633	
613.75	0.07403870544	0.1115932297	
614.375	-0.04799677252	0.5541078979	
615.0	0.2281881939	-0.2016901803	
615.625	-0.3001681365	0.4394629687	
616.25	0.3266478694	0.3161599882	
616.875	-0.4540586224	0.1629310611	
617.5	-0.1523678666	0.8270360902	
618.125	0.1381662963	0.2306541827	
618.75	-0.1663474262	0.6397423481	
619.375	0.40907466	0.2364567628	
620.0	0.2656202307	0.2437392198	
620.625	0.3038037957	-0.5053525085	
621.25	-0.1248597801	-0.3125349653	
621.875	-0.6283774051	-0.2305501652	
622.5	-0.2546256511	0.1361440099	
623.125	-0.3899962784	0.4721514767	
623.75	0.5277966043	-0.1604443617	
624.375	0.04384121955	0.345377767	
625.0	-0.1811459013	-0.4275292102	
625.625	0.3496547644	0.05621328152	
626.25	-0.3437068888	-0.6170018989	
626.875	-0.03031007872	0.2089749823	
627.5	-0.4192960149	-0.5553843913	
628.125	-0.465231663	0.07901914043	
628.75	0.01963228985	-0.1481371106	
629.375	-0.1163714596	-0.5259523207	
630.0	-0.6052087386	-0.07576944877	
630.625	-0.3791934568	-0.009300754322	
631.25	-0.4391518208	0.5629293455	
631.875	0.1056195828	0.4752861782	
632.5	0.1017915436	0.5491836367	
633.125	0.6772377674	0.009517408972	
633.75	0.2441398241	-0.1211912418	
634.375	0.1985807258	-0.2412170054	
635.0	0.06412295661	-0.517076719	
635.625	-0.4963455934	0.1065765464	
636.25	-0.177271446	-0.3246927636	
636.875	-0.3478779551	0.6954935403	
637.5	0.3006914915	-0.04512687203	
638.125	-0.6248856452	0.3430880675	
638.75	0.3942475767	0.2591438587	
639.375	-0.5251928231	0.5031903711	
640.0	0.7451979962	0.8219622152	
640.625	0.3283176401	-0.09937337108	
641.25	0.5415763681	0.4790622179	
641.875	0.6669462299	-0.7771045221	
642.5	-0.349114753	-0.3376029389	
643.125	0.1148298749	-0.3828023435	
643.75	-0.6554930616	-0.1769531838	
644.375	0.05041573997	-0.009165493203	
645.0	-0.6690870445	0.4827303698	
645.625	0.386706604	0.399313574	
646.25	0.107173124	0.1210366581	
646.875	0.4934444728	0.2503949204	
647.5	-0.06128229068	-0.3750619595	
648.125	0.3142088621	0.6208679557	
648.75	0.9795775219	-0.560836967	
649.375	-0.1698007075	-0.41332723	
650.0	1.158490666	-0.3194030482	
650.625	-0.06925550597	-1.405086365	
651.25	0.09097542101	0.1449552311	
651.875	1.375464407	-0.4354136473	
652.5	0.2326026311	-0.8617542405	
653.125	0.4241569491	0.3640882518	
653.75	0.8254195484	-0.8267693245	
654.375	-0.5937439794	-0.5625181028	
655.0	-0.1360654897	-0.3710576227	
655.625	-0.9436034855	0.6746036362	
656.25	0.4453791573	0.07663889623	
656.875	-0.2540974466	0.3389037472	
657.5	0.4657230432	0.151182958	
658.125	-0.0592979857	0.2156068632	
658.75	0.8734917265	0.5788046683	
659.375	0.8092274451	-0.7218850805	
660.0	0.1552155957	-0.4708310506	
660.625	0.702521412	-0.4730006278	
661.25	0.2921843614	-1.344019078	
661.875	0.093308663	0.002405628655	
662.5	1.115711851	-0.6332403873	
663.125	0.1984791699	-0.735425257	
663.75	0.6225390452	-0.08409118849	
664.375	-0.3347549983	-1.348476867	
665.0	-0.5775190974	0.02190859134	
665.625	-0.5630593342	-0.1305007563	
666.25	-0.4800825522	0.8156593558	
666.875	0.5465858169	0.2290407169	
667.5	0.2054387875	0.5449412578	
668.125	0.6531231763	-0.2781895239	
668.75	0.1926185015	-0.08996172285	
669.375	0.5925017873	-0.7044140006	
670.0	-0.3897456995	-0.4168582863	
670.625	0.2147045557	-0.2502339278	
671.25	0.2630156509	-0.5159924947	
671.875	0.243046493	-0.6674273396	
672.5	0.04114693064	-0.1905027329	
673.125	1.010100078	-0.2118897429	
673.75	-0.03690215681	-0.7804883558	
674.375	0.3391414444	-0.2281951735	
675.0	-0.3095211227	-1.077539416	
675.625	-0.3411746887	0.364816016	
676.25	-0.320701167	-0.7498342322	
676.875	-0.6888966834	0.474572551	
677.5	0.1482601046	-0.02545169966	
678.125	-0.7739280976	0.2035259562	
678.75	0.4475950932	0.7269114096	
679.375	0.1506861303	-0.006017162685	
680.0	0.614017725	0.02914290176	
680.625	-0.05395826154	-0.5900460407	
681.25	0.2470314917	0.5252923922	
681.875	0.5671142727	-0.233936708	
682.5	0.1948533376	0.09861067549	
683.125	0.5256939082	0.4497797739	
683.75	0.9054494858	0.1853695671	
684.375	0.5222422123	-0.3594540287	
685.0	0.2291851146	0.557425676	
685.625	1.4222826	-0.01382237253	
686.25	-0.02733052894	-0.6310984194	
686.875	1.501860013	0.447695286	
687.5	-0.1837349703	-1.497025723	
688.125	0.6273865241	-0.3800950646	
688.75	-1.588252649	-1.063922878	
689.375	0.2263206101	1.08027316	
690.0	-0.6723809433	0.770350588	
690.625	1.156318729	0.5970406304	
691.25	0.4586951908	0.3631480023	
691.875	1.013413746	1.023135237	
692.5	1.557890163	0.166879989	
693.125	1.339772117	0.1430968882	
693.75	1.438229345	-0.6576014303	
694.375	0.8192097815	-0.8952350274	
695.0	1.167638422	-0.7069665669	
695.625	0.9348220138	-0.302509706	
696.25	1.465694171	0.8171491376	
696.875	1.255376651	0.165832411	
697.5	0.1409079218	1.338993114	
698.125	2.402172284	0.4561603143	
698.75	0.1401380481	-0.5066128477	
699.375	-0.8227934091	-1.794806147	
700.0	-0.259634241	1.344925575	
700.625	-0.513669439	0.3961771963	
701.25	1.269569697	0.4048378639	
701.875	0.1232218432	0.3063274114	
702.5	1.01416425	1.021773602	
703.125	0.8158632174	-0.3461716389	
703.75	0.9830766827	0.3213049856	
704.375	0.7165650507	-0.9623488224	
705.0	0.06034764475	0.04370312031	
705.625	1.405323078	-0.00221087547	
706.25	0.1883761301	-0.1191303115	
706.875	0.3113391228	1.314544135	
707.5	1.439131016	0.3727038613	
708.125	0.3803768908	0.663253993	
708.75	1.125752172	-1.246797727	
709.375	-0.8821862224	-0.3569365172	
710.0	-0.5391251102	0.287836264	
710.625	0.2386549166	0.4964238349	
711.25	0.1134268512	0.2229291592	
711.875	0.5959284522	0.3550980345	
712.5	0.6223181486	-0.03869250857	
713.125	0.6301051073	-0.4817499628	
713.75	0.2645269304	-0.4993230873	
714.375	0.1970417987	-0.6924688901	
715.0	-0.4446031111	-0.4139335355	
715.625	0.5129403583	-0.1034901047	
716.25	0.5609324539	-1.478226879	
716.875	-0.3091879975	-0.1192966342	
717.5	2.015039449	0.7239589534	
718.125	2.432319683	-1.345446822	
718.75	0.2312616208	1.378099286	
719.375	3.866391233	-2.838460449	
720.0	-0.3257602426	-0.9665895396	
720.625	2.260176421	-2.014683818	
721.25	-1.080287793	-3.814695181	
721.875	-1.136677028	-1.174956143	
722.5	-0.7313712741	-2.442397535	
723.125	-2.451141488	-0.1797915207	
723.75	-0.4907513745	1.046486023	
724.375	-0.3002564005	0.9349860015	
725.0	0.9280045905	0.9006212182	
725.625	0.2233206747	0.7720029075	
726.25	-0.2426237499	1.736036031	
726.875	0.1731151735	3.211359576	
727.5	1.270547002	1.621659497	
728.125	-5.056230015	4.915827518	
728.75	0.5457736236	10.39735233	
729.375	3.06256446	2.591417859	
730.0	-13.69729572	14.68318425	
730.625	12.61264798	11.86790313	
731.25	-8.602780196	1.484395904	
731.875	-11.00634626	12.54435505	
732.5	-0.1990398739	6.317265495	
733.125	-8.02519101	-3.657471739	
733.75	-2.156145969	5.531064878	
734.375	2.162682307	0.2086293709	
735.0	0.1613663404	-0.6218346471	
735.625	-2.022390144	-0.07653470365	
736.25	0.9361447866	0.8080032456	
736.875	0.3854538408	2.07726634	
737.5	3.576917972	0.0512791296	
738.125	1.594197349	-2.011018554	
738.75	6.871517437	0.07796079013	
739.375	7.4331187	-8.570993996	
740.0	-3.092507993	-9.176823417	
740.625	1.753077429	23.88663702	
741.25	15.20667612	17.4100641	
741.875	15.94180612	-6.916929265	
742.5	-0.9659594079	-17.32677832	
743.125	-8.130908467	-4.120073129	
743.75	2.821672264	0.009314696273	
744.375	-2.710575933	-0.2038194987	
745.0	0.1593161181	-0.4848183573	
745.625	0.4352247302	0.1144893011	
746.25	-0.2876327717	-0.1675701704	
746.875	-0.4128658971	-0.01099188906	
747.5	-0.7219478434	1.215826298	
748.125	0.6911340396	1.370714758	
748.75	0.4959146511	1.094359217	
749.375	-1.424617997	1.393251018	
750.0	-1.237848961	1.397946734	
