!Created with skrf (http://scikit-rf.org).
# GHz S RI R (50+0j) 
!freq	ReS11	ImS11	
500.0	0.431695336	-4.828066318	
500.625	0.6202402084	-1.555387029	
501.25	-2.583795506	-2.326611429	
501.875	-0.410953701	-0.615085619	
502.5	-0.1264758468	-0.427702465	
503.125	-0.3200822156	0.09995091595	
503.75	0.2173048543	-0.004976696576	
504.375	0.08168791676	0.09182318696	
505.0	0.0142516337	-0.1791155913	
505.625	0.1443915122	0.02017399829	
506.25	-0.5080152222	-0.2623753573	
506.875	0.3036745017	-0.6951826648	
507.5	-2.071507851	-1.252934333	
508.125	0.8132993869	0.04276905954	
508.75	2.899602785	-3.332111571	
509.375	-1.919058807	-4.535884296	
510.0	-0.9124627579	-0.03691659424	
510.625	-0.3531641408	-0.4938058705	
511.25	-0.5092852899	-0.03562900092	
511.875	-0.450679863	-0.09420340789	
512.5	-0.08881926334	0.14686712	
513.125	-0.1087143035	-0.1991324714	
513.75	-0.1530314486	-0.2433518962	
514.375	-0.3909943269	-0.1064624912	
515.0	0.7443455424	0.9255441369	
515.625	-1.435016923	-2.747906595	
516.25	-1.015397741	1.005462525	
516.875	0.589509152	-2.297040359	
517.5	-0.9458142504	-0.6496636963	
518.125	0.336710489	-0.1780411888	
518.75	-0.7617211687	-0.3418243329	
519.375	-0.0555841991	-0.01430431787	
520.0	0.4275858414	0.3240568876	
520.625	0.3631368064	-0.3907236467	
521.25	0.01267688277	-0.3975385707	
521.875	-0.5853130913	-0.1454399966	
522.5	0.02517566628	0.06177000055	
523.125	-0.3134630788	0.1933682242	
523.75	-0.07327667866	0.01127869785	
524.375	-0.7101929674	0.0474872697	
525.0	0.2034207613	0.1769485398	
525.625	-0.08189247183	0.2214210041	
526.25	0.09886513241	-0.2731352437	
526.875	-0.20614305	0.3585663752	
527.5	0.1091339363	0.2529130857	
528.125	-0.2497104296	0.883535856	
528.75	0.4973631665	0.8662121892	
529.375	-0.1779590753	0.04366166802	
530.0	0.4791439579	0.6089804807	
530.625	-0.01498896829	0.5862939307	
531.25	1.628152719	-0.06165262895	
531.875	0.2336685529	-0.1406568004	
532.5	-0.2627929929	-0.7843305446	
533.125	0.3933819212	0.6407701177	
533.75	-0.04135911588	-1.147915177	
534.375	-0.1714891208	-0.1474458561	
535.0	-0.8801185545	-0.6542015362	
535.625	-0.01401890224	0.5097280244	
536.25	-0.1639538441	0.1986140605	
536.875	0.4010064222	0.0116569785	
537.5	0.01411995697	-0.08110927742	
538.125	0.4406087165	0.000480623995	
538.75	0.2191916446	-0.4369242991	
539.375	-0.1013440576	-0.3160429523	
540.0	-0.3687351683	-0.4117095017	
540.625	-0.3816012205	0.05939067173	
541.25	-0.1621152059	-0.06326225589	
541.875	-0.1940910935	0.03539042047	
542.5	-0.01355779166	-0.1310589694	
543.125	-0.2253476018	-0.1458161366	
543.75	-0.2741086552	0.1313170469	
544.375	0.02077668839	-0.05777088774	
545.0	-0.07204685636	0.3410713487	
545.625	0.1459891994	-0.1533561233	
546.25	0.1567403613	0.3954831839	
546.875	0.2637649287	-0.3514544896	
547.5	0.2064406843	-0.03384228438	
548.125	-0.1046310087	-0.6374724904	
548.75	-0.2988197612	-0.00224971088	
549.375	-0.09702992491	-0.2843442283	
550.0	-0.3261393058	0.06030015018	
550.625	0.03058649326	0.02236676034	
551.25	-0.3086740646	0.03359809665	
551.875	-0.05781488046	0.2207513064	
552.5	-0.1702061473	0.1225678692	
553.125	0.004121938259	0.1882700661	
553.75	0.07619072802	0.1073087221	
554.375	0.2430052037	-0.003492405665	
555.0	0.2103893772	-0.1757970561	
555.625	0.1870808995	-0.2418169746	
556.25	0.1588998511	-0.340869783	
556.875	-0.09138408764	-0.3846509765	
557.5	-0.2295437835	-0.2238373885	
558.125	-0.2530688977	-0.101924635	
558.75	-0.2732969276	-0.004552535449	
559.375	-0.2139091751	0.05327096882	
560.0	-0.2641513322	0.1409577437	
560.625	-0.06982177892	0.3115566063	
561.25	0.003591617738	0.1272025538	
561.875	0.047854318	0.1968496754	
562.5	0.08789357426	0.0204653362	
563.125	0.06577859385	0.2493285866	
563.75	0.4139624481	-0.09278016396	
564.375	0.1546740552	-0.1164009679	
565.0	0.2864779399	-0.4307863482	
565.625	-0.206455199	-0.2551579581	
566.25	-0.1085823149	-0.3147719606	
566.875	-0.4546439692	-0.191052148	
567.5	-0.2615712693	-0.08664163883	
568.125	-0.1466723989	-0.4872470807	
568.75	-0.7317560738	-0.2219434365	
569.375	-0.2957158672	0.3522716815	
570.0	-0.5006283652	0.1848326516	
570.625	-0.04871093115	0.7542574299	
571.25	-0.02184629642	-0.06298884909	
571.875	0.2787020018	0.5094119664	
572.5	-0.07893753706	-0.2222918967	
573.125	0.5753491079	-0.07632993567	
573.75	-0.05027718176	-0.5688121827	
574.375	-0.1329164639	0.107633655	
575.0	0.3612552632	-0.1927444849	
575.625	-0.2443758471	-0.1225726266	
576.25	0.4001044385	-0.1100627007	
576.875	-0.1666875464	-0.5358765308	
577.5	-0.09030225043	-0.07249632373	
578.125	0.175602616	-0.5152122583	
578.75	-0.4600286768	-0.3402443992	
579.375	-0.1021451148	0.03838083796	
580.0	0.01237033092	-0.2743794231	
580.625	-0.3310650841	0.1389839193	
581.25	-0.04278931897	-0.1033126551	
581.875	-0.2341545783	0.634928522	
582.5	0.4665950691	0.2224809194	
583.125	-0.2179987409	0.02139227018	
583.75	0.5045443222	0.2876241191	
584.375	-0.3876408245	-0.07658914798	
585.0	0.577085951	0.3809370754	
585.625	0.2588611383	-0.3483147614	
586.25	0.1805796697	0.1592030834	
586.875	0.3864055794	-0.484553358	
587.5	-0.257130074	-0.1269834135	
588.125	0.2385551462	-0.319156169	
588.75	-0.08821775708	-0.5398717369	
589.375	0.1292499261	0.01671419637	
590.0	-0.06493318929	-0.7345273965	
590.625	-0.3864512321	0.1382460927	
591.25	-0.2420972791	0.07330484952	
591.875	-0.2523182578	0.2427129372	
592.5	0.1343522509	0.3316753395	
593.125	-0.2911669739	-0.1582528832	
593.75	0.3910180122	0.4128153021	
594.375	0.09872161861	0.02110920644	
595.0	0.3881274303	0.6117752861	
595.625	0.5466448168	-0.1392478336	
596.25	0.06796388437	0.3796371704	
596.875	0.7191364818	0.1427013807	
597.5	0.09886247105	-0.206416102	
598.125	0.1476823657	0.5789066532	
598.75	0.6124255657	0.2023574936	
599.375	0.2681266561	-0.1055534245	
600.0	0.5540221298	-0.1900524664	
600.625	0.2300792046	-0.5544682993	
601.25	0.2430070549	-0.1913181525	
601.875	-0.1817796585	-0.5117382647	
602.5	-0.1825174742	0.1229848829	
603.125	-0.3330567275	-0.04088481989	
603.75	-0.2324600312	0.2232886748	
604.375	-0.2725608637	0.194787454	
605.0	0.07638370169	0.03984245424	
605.625	-0.5111824996	0.1606130023	
606.25	0.06981393836	0.2829747426	
606.875	-0.5825815086	-0.2650696845	
607.5	-0.2221167101	0.8948559773	
608.125	-0.1611423392	0.1595794005	
608.75	0.4968652853	0.8119383566	
609.375	0.2725405266	-0.47870499	
610.0	0.5749027284	0.1220906106	
610.625	0.157902113	-0.6595529426	
611.25	0.009898486012	-0.05200686044	
611.875	-0.2852647911	-0.5415910236	
612.5	-0.1328676434	0.02773440643	
613.125	-0.5670609053	-0.1250103605	
613.75	-0.03812648101	0.5075500419	
614.375	-0.2441226182	0.1473190361	
615.0	0.3717912742	0.1435690574	
615.625	-0.3055134435	0.01900635897	
616.25	-0.05810117478	0.6733823327	
616.875	0.01348889716	0.08049304787	
617.5	-0.4660984277	0.6290508863	
618.125	0.2447037021	0.5399514228	
618.75	-0.1753446689	0.2488051981	
619.375	0.3914416451	0.4949777768	
620.0	0.2505351881	0.01842473549	
620.625	0.4047453083	-0.3461590022	
621.25	-0.2685399892	-0.2991600657	
621.875	-0.4313310478	-0.3687748139	
622.5	-0.4304729894	0.332968141	
623.125	-0.2477520647	0.1906128878	
623.75	0.5563867015	0.1765839545	
624.375	-0.22601428	-0.006763786464	
625.0	0.3673065207	-0.3560319408	
625.625	-0.02561890671	0.1664537268	
626.25	0.07985534531	-0.589708796	
626.875	-0.5746673686	0.04801208533	
627.5	0.08956580258	-0.1445815756	
628.125	-0.4620547854	-0.3864713261	
628.75	-0.2467908915	-0.08155203378	
629.375	-0.0192279241	-0.3433576589	
630.0	-0.571287762	-0.3248582695	
630.625	-0.2538735885	0.2045695479	
631.25	-0.5121723139	0.4304322821	
631.875	0.1146242014	0.6149838889	
632.5	0.1777785016	0.2896926164	
633.125	0.5671533129	0.2869813256	
633.75	0.3669653789	-0.2850026732	
634.375	-0.0248638154	-0.2447631649	
635.0	0.1964860098	-0.2779846382	
635.625	-0.6135266905	-0.2770174657	
636.25	0.09202816651	0.2962927138	
636.875	-0.6457971207	0.1911323373	
637.5	0.3117544534	0.3834038232	
638.125	-0.4718786359	-0.09957583621	
638.75	0.1496342894	0.8145553697	
639.375	-0.1657278754	0.004316890517	
640.0	0.2371489258	1.016333673	
640.625	0.8744366166	-0.01164183518	
641.25	0.254361858	-0.04419169002	
641.875	0.6104520349	-0.07908834542	
642.5	-0.2782231807	-0.8446969292	
643.125	-0.06709445037	0.03073009852	
643.75	-0.4556692036	-0.4619458738	
644.375	-0.2007829633	0.3605270567	
645.0	-0.6875458796	0.03375252404	
645.625	0.4369978732	0.6318794174	
646.25	0.1961084314	-0.05798014333	
646.875	0.09074367044	0.1942132735	
647.5	0.5876495651	-0.0791139754	
648.125	-0.2907980845	0.06365125129	
648.75	1.110880081	0.1860794175	
649.375	0.1778749274	-1.130423173	
650.0	0.1697420132	0.04511740117	
650.625	1.009342537	-1.101258453	
651.25	-0.3910806306	-0.6019447354	
651.875	0.8724553276	0.2691559411	
652.5	0.9891311589	-0.8860954435	
653.125	-0.08809976913	-0.1912047815	
653.75	0.9023395465	-0.3262747368	
654.375	-0.5132199348	-0.9606672118	
655.0	-0.3906038216	0.2352004956	
655.625	-0.6581655892	0.01503898782	
656.25	0.4003897174	0.8002956209	
656.875	-0.210268762	-0.1672760343	
657.5	0.2737086369	0.5034758786	
658.125	0.3713042305	0.02769174243	
658.75	0.3302059473	0.3447450983	
659.375	1.163752156	-0.3795207275	
660.0	0.05840414598	-0.8724759067	
660.625	0.3310314052	-0.3281325516	
661.25	0.752114786	-0.8945709518	
661.875	-0.1743000579	-0.8154194923	
662.5	0.8505467312	0.04298464294	
663.125	0.6430807673	-0.9912076563	
663.75	-0.08133760873	-0.3387758466	
664.375	0.3734169363	-0.9075591636	
665.0	-1.069102176	-0.3563400433	
665.625	-0.2916009055	0.2317489979	
666.25	-0.4910205439	0.5442797053	
666.875	0.580829192	0.5050105257	
667.5	0.0336382537	0.1162519981	
668.125	0.8061561541	-0.1146022562	
668.75	0.1405549328	-0.4094345079	
669.375	0.376451111	-0.2315827865	
670.0	0.004731322212	-0.8330625807	
670.625	-0.3051509773	-0.3107874117	
671.25	0.2523020878	-0.1660499463	
671.875	0.5227748156	-0.5493480831	
672.5	0.177825278	-0.6032307903	
673.125	0.3814522227	0.04139731909	
673.75	0.3466688245	-0.9897372693	
674.375	-0.06480576392	-0.2081997859	
675.0	0.05859784449	-0.7865736321	
675.625	-0.9641494242	-0.08297009926	
676.25	0.2903144531	0.1033054322	
676.875	-0.8763625935	-0.2725431255	
677.5	-0.1208326662	0.5165740504	
678.125	-0.2113123517	0.01598651297	
678.75	-0.03331672028	0.8319425476	
679.375	0.5558445968	-0.31033658	
680.0	0.3035958352	0.1172489642	
680.625	0.337206802	-0.4858583989	
681.25	-0.272090297	0.1391375885	
681.875	0.8533318531	0.2486134111	
682.5	0.3256472809	-0.1731219714	
683.125	0.3597150987	0.2451455061	
683.75	0.4926466502	0.3478100998	
684.375	1.132295339	0.02850453274	
685.0	0.007519400186	-0.4667828893	
685.625	0.9679431952	0.7294424058	
686.25	0.7813604359	-0.9336934133	
686.875	0.1718389413	0.3889500247	
687.5	1.077239201	-1.652124995	
688.125	-0.6107854437	-0.05065488661	
688.75	-0.7918684294	-1.126348806	
689.375	-0.5923861459	1.593823494	
690.0	0.2126524823	-0.016778919	
690.625	0.6073312721	1.191638182	
691.25	0.8921779464	0.1949934364	
691.875	0.7608710983	0.7112276215	
692.5	1.536090411	0.5472291605	
693.125	1.202958911	-0.3119683197	
693.75	1.379425739	-0.4635972752	
694.375	0.8639463305	-0.985985728	
695.0	1.033422158	-0.5742484095	
695.625	1.049159161	-0.4854874046	
696.25	0.8056512075	0.5489073276	
696.875	1.766844843	0.8558449612	
697.5	0.5496522892	0.2201462893	
698.125	1.706203068	1.015724886	
698.75	0.1415168374	-1.785065257	
699.375	-0.1117021407	-0.8591716209	
700.0	-0.7850713736	1.549890049	
700.625	0.4223433971	-0.02865154634	
701.25	0.5314669369	1.146385714	
701.875	0.7301436033	-0.08410495758	
702.5	0.4452854537	0.8604483377	
703.125	1.374954288	0.1173055714	
703.75	0.2277702075	-0.08043361132	
704.375	1.152262873	-0.4623670489	
705.0	0.1531962564	-0.6067403508	
705.625	0.5918834646	0.636112177	
706.25	1.128198972	-0.2151197858	
706.875	-0.004344783892	0.5950837908	
707.5	1.216649451	1.217798405	
708.125	0.6165578714	-0.5236129343	
708.75	0.9300033126	-0.6464490512	
709.375	-1.164913809	-0.6157251477	
710.0	-0.1210900928	0.4374036481	
710.625	0.1769893143	0.4976365964	
711.25	0.2840336874	0.1240543394	
711.875	0.4322141603	0.3675129976	
712.5	0.7946714269	-0.2360785893	
713.125	0.5923146617	-0.358750416	
713.75	0.1708725881	-0.6199606174	
714.375	0.2035388709	-0.3412616757	
715.0	-0.2359047857	-0.8712136001	
715.625	-0.2498554192	-0.01891790692	
716.25	1.098589096	-0.392455241	
716.875	0.5223793569	-1.601296631	
717.5	0.318672431	0.8507716079	
718.125	2.881175029	-0.1783929259	
718.75	0.2319179586	-1.75623474	
719.375	3.711630681	0.3898262522	
720.0	-1.412374961	-3.734019229	
720.625	1.126240165	-1.05228771	
721.25	0.2194303338	-3.248146794	
721.875	-2.073480093	-2.904549487	
722.5	-1.179587116	-0.7132070179	
723.125	-2.270759437	-0.6306381652	
723.75	-0.5831086114	1.505453839	
724.375	0.1384194535	0.7550502366	
725.0	0.2226688532	1.185595366	
725.625	0.8533279222	0.7265324538	
726.25	-0.1205322235	1.20322957	
726.875	-0.6366949923	2.628945698	
727.5	1.366848286	4.221626711	
728.125	0.1711477221	0.8279862213	
728.75	-3.270679753	10.66299005	
729.375	6.305830815	10.7369663	
730.0	-3.3594248	1.365913044	
730.625	2.473661389	25.17117118	
731.25	5.775402027	0.0262445776	
731.875	-11.22829656	6.377716256	
732.5	-9.913020762	9.440696666	
733.125	-1.208279331	2.032778319	
733.75	-4.02511572	2.73930104	
734.375	3.711028212	0.1463251278	
735.0	-0.549635499	-0.7151030347	
735.625	-1.077861012	-0.3618356797	
736.25	0.6020017968	2.094459884	
736.875	-0.06750583466	0.5119953842	
737.5	3.811387668	0.736074844	
738.125	3.608600103	-2.806762413	
738.75	0.7760073765	-2.539926735	
739.375	9.721776022	1.221600199	
740.0	11.03207001	-13.57401506	
740.625	-10.4645228	-6.990849544	
741.25	-10.00682612	23.13016329	
741.875	8.19000068	19.30631316	
742.5	10.42739437	-7.263785699	
743.125	-2.439503167	-7.517181994	
743.75	-1.076862411	0.5382747878	
744.375	-1.31087571	-1.619677139	
745.0	0.9922437528	0.1394296313	
745.625	0.1514294846	0.3573269679	
746.25	-0.3011065277	-0.3294622766	
746.875	-0.5252789225	0.2140164302	
747.5	-0.2041969008	0.8283212969	
748.125	0.3048891738	1.396634404	
748.75	0.7834480446	1.142873586	
749.375	0.6498726277	0.5924163468	
750.0	-1.113074094	0.09169586671	
