!Created with skrf (http://scikit-rf.org).
# GHz S RI R (50+0j) 
!freq	ReS11	ImS11	
500.0	-0.1344494486	-1.388124066	
500.625	-0.1716386583	-0.5881120561	
501.25	-0.2604698508	-0.8534979596	
501.875	-0.5906163196	-0.355056756	
502.5	-0.009927784232	-0.07988533777	
503.125	-0.1166598505	0.004420659313	
503.75	0.07080082341	0.01336001514	
504.375	0.03402130529	0.02628609132	
505.0	-0.0004169096712	-0.05934343095	
505.625	0.06444983283	-0.002148269734	
506.25	-0.1360014279	-0.1405077286	
506.875	0.1019146594	0.1198282417	
507.5	0.05244860532	-0.6528901789	
508.125	-0.2807275789	-0.7328909854	
508.75	1.027751174	-0.533651539	
509.375	-0.1804756905	-1.847622303	
510.0	-0.4254096628	-0.07772878277	
510.625	0.005296649836	-0.2101441614	
511.25	-0.1635647496	-0.02111910217	
511.875	-0.07467342959	0.03755306774	
512.5	-0.03961793421	0.0292096805	
513.125	-0.04767651782	-0.07695668453	
513.75	9.021406142e-05	0.001195044452	
514.375	-0.1017183323	-0.08419198588	
515.0	-0.01543259925	0.3809408633	
515.625	0.1511814285	-0.9333493472	
516.25	-0.6481693911	0.2403439921	
516.875	0.1851178664	-0.2378882324	
517.5	-0.006414987938	-0.3115758614	
518.125	-0.03269682249	0.06337182313	
518.75	-0.0109092733	-0.2528585993	
519.375	-0.03071378158	0.06746334308	
520.0	0.08891162208	0.07803069135	
520.625	0.205404674	-0.05315000837	
521.25	-0.09742340346	-0.2401595846	
521.875	-0.06548888153	0.002655553792	
522.5	-0.05945092539	-0.006084744494	
523.125	0.007189678483	0.1369572815	
523.75	0.01527092191	-0.03997649675	
524.375	-0.2941438998	0.08741830869	
525.0	0.1085793887	0.07506383604	
525.625	-0.0496663237	0.07617306328	
526.25	0.05767208272	-0.06715451156	
526.875	-0.1235814877	0.09375383296	
527.5	0.08423069938	0.158323108	
528.125	-0.04581229581	0.1565121348	
528.75	0.07492700415	0.3117100662	
529.375	0.1176578581	-0.002008691621	
530.0	-0.1211862141	0.1979450326	
530.625	0.0776140205	0.264090478	
531.25	0.3100927142	0.1032981354	
531.875	0.370132983	-0.1827415894	
532.5	-0.1223436011	-0.1165867963	
533.125	0.09493665852	0.02563894699	
533.75	-0.01084105731	-0.2586712402	
534.375	-0.04341482718	-0.1719510839	
535.0	-0.2039793341	-0.1980936538	
535.625	-0.1534428106	0.19680736	
536.25	-0.002238762901	0.05741211228	
536.875	0.1261870178	0.03955368582	
537.5	0.03347690801	-0.06890033649	
538.125	0.1258899151	0.01651327124	
538.75	0.1227826373	-0.2094957085	
539.375	-0.06037463827	-0.09450698135	
540.0	-0.1448950723	-0.1874283246	
540.625	-0.1981228439	-0.01001784689	
541.25	-0.04496567118	0.01980461331	
541.875	-0.08820871206	-0.08077223649	
542.5	-0.04532546254	0.01301050858	
543.125	-0.002133329886	-0.04138006793	
543.75	-0.1309713217	0.01573552572	
544.375	-0.008713069048	0.01155563063	
545.0	-0.07735553336	0.1016497736	
545.625	0.09793097477	0.007050052999	
546.25	-0.01228997157	0.09821502747	
546.875	0.1882770524	-0.06263294941	
547.5	-0.01455723761	-0.1030246922	
548.125	0.02312039355	-0.1676277421	
548.75	-0.1920809172	-0.1289850231	
549.375	-0.07944576566	-0.01667597348	
550.0	-0.1119346049	-0.0483955107	
550.625	-0.02367555667	0.055503993	
551.25	-0.08801088536	-0.01575284148	
551.875	-0.07289478522	0.1165561684	
552.5	-0.01503522165	0.06670317592	
553.125	-0.02989680757	0.06569827423	
553.75	0.05704474101	0.03451372016	
554.375	0.09181795306	-0.001306170317	
555.0	0.1044962074	-0.08570551456	
555.625	0.07668074891	-0.1163947536	
556.25	0.06304499714	-0.1436258766	
556.875	-0.04539602469	-0.1654455868	
557.5	-0.1109825682	-0.09817483512	
558.125	-0.1197544167	-0.03384839865	
558.75	-0.1176342465	-0.008009565772	
559.375	-0.1215503416	0.03488840412	
560.0	-0.08069630221	0.0755390793	
560.625	-0.06969334412	0.1178385423	
561.25	0.04262333164	0.1123205215	
561.875	-0.001780265979	0.03269150365	
562.5	0.05761344106	0.07148907517	
563.125	0.02894529693	0.05552409939	
563.75	0.1825285214	0.02234635786	
564.375	0.1055216319	-0.1505505653	
565.0	0.04181180208	-0.1088511588	
565.625	-0.007597829128	-0.2037319668	
566.25	-0.1716647738	-0.05507781473	
566.875	-0.0835089298	-0.08503606718	
567.5	-0.2000950434	-0.1268060681	
568.125	-0.1319739432	-0.08926333727	
568.75	-0.2335985004	-0.1929924801	
569.375	-0.2538939991	0.2006841354	
570.0	-0.06477340766	0.1467213825	
570.625	-0.150384678	0.1785821263	
571.25	0.140468818	0.1525500156	
571.875	-0.04513976028	0.06231913608	
572.5	0.2210641342	-0.01420085292	
573.125	-0.01652596717	-0.1146259296	
573.75	0.1620352637	-0.05225557799	
574.375	-0.06036539469	-0.1750314753	
575.0	0.05081063131	0.07012897761	
575.625	0.05967925667	-0.1765177199	
576.25	-0.04858974317	-0.05711797405	
576.875	0.08087613365	-0.1229484288	
577.5	-0.02307406222	-0.2605752921	
578.125	-0.1206775792	-0.08933004388	
578.75	0.04217020504	-0.1157039005	
579.375	-0.1796182854	-0.144881905	
580.0	-0.005578465892	0.06974106278	
580.625	-0.1291098184	-0.1232259516	
581.25	0.02326020236	0.2191792623	
581.875	-0.03974500747	0.02734395472	
582.5	0.005080252391	0.2533288894	
583.125	0.2156865658	-0.05323798067	
583.75	-0.09171748333	0.06933591561	
584.375	0.1609020628	0.05012843208	
585.0	-0.00177002939	0.02836767958	
585.625	0.2664032908	0.05120934195	
586.25	0.08054543641	-0.1808621536	
586.875	0.0682217454	-0.03428453848	
587.5	0.01670637043	-0.2338961812	
588.125	-0.1094333953	-0.08384231149	
588.75	0.09162158363	-0.08109337737	
589.375	0.08577587104	-0.2525647397	
590.0	-0.1293050624	-0.09430356286	
590.625	-0.1185280556	-0.1278776597	
591.25	-0.1813538097	0.2389844958	
591.875	0.06563973148	0.01687168443	
592.5	-0.0967073228	0.1040905507	
593.125	0.09913001087	-0.0479446233	
593.75	-0.06664164394	0.2097039241	
594.375	0.3013801321	0.09277553824	
595.0	0.1138099176	-0.02232968406	
595.625	0.1896999308	0.2005574039	
596.25	0.2444032229	-0.0312912461	
596.875	0.06510927495	0.06584630515	
597.5	0.2180358563	0.1503704115	
598.125	0.1417740829	0.007209537968	
598.75	0.1626986294	0.1497227835	
599.375	0.2970573725	-0.07129647561	
600.0	0.07387244525	-0.208318273	
600.625	0.1210969026	-0.119478492	
601.25	0.1056326701	-0.2353072481	
601.875	-0.174396089	-0.114122535	
602.5	-0.03091813499	-0.02487526214	
603.125	-0.24525994	0.1093889186	
603.75	0.004038216418	0.1006074636	
604.375	-0.2088353276	-0.009054939685	
605.0	-0.04915034803	0.2198402867	
605.625	0.003386332272	-0.0503743088	
606.25	-0.2136581098	0.170142673	
606.875	-0.01750465957	0.07732125775	
607.5	-0.1893047469	0.07674349457	
608.125	-0.04943072273	0.3645715657	
608.75	0.2479446908	0.05336650299	
609.375	0.2985901098	-0.06611649105	
610.0	0.2018149312	-0.1925802947	
610.625	-0.02933952759	-0.1468742086	
611.25	0.06810211429	-0.1507402716	
611.875	-0.1048082471	-0.1665074501	
612.5	-0.07838114111	-0.01258363769	
613.125	-0.2333020264	-0.02770383627	
613.75	-0.1101144119	0.27163544	
614.375	0.05769520135	-0.01410625541	
615.0	0.05589038803	0.2043310176	
615.625	0.1052227928	-0.01202166597	
616.25	-0.1479796951	0.1034305866	
616.875	-0.07250841277	0.3464805757	
617.5	-0.02618822483	0.1460341058	
618.125	-0.1145945163	0.2636807106	
618.75	0.1094264108	0.1951130664	
619.375	0.07093201779	0.05295457237	
620.0	0.1955326207	0.09743632937	
620.625	0.05796917254	-0.2306970946	
621.25	-0.1824470323	-0.1439709572	
621.875	-0.2144230937	-0.118863296	
622.5	-0.3212015822	0.1364789433	
623.125	0.03627524908	0.1424070487	
623.75	0.1044361539	0.1417388097	
624.375	0.004642282835	-0.1360530422	
625.0	0.05414726639	0.08759840532	
625.625	0.06063650685	-0.188427944	
626.25	-0.08039886817	-0.04390242664	
626.875	-0.1028908169	-0.1555948729	
627.5	-0.228303841	-0.005383415158	
628.125	-0.04808337258	-0.00808325082	
628.75	-0.07164991385	-0.2227466107	
629.375	-0.1581316794	-0.08746207422	
630.0	-0.1439824891	-0.1061416951	
630.625	-0.2791536162	0.08962561734	
631.25	-0.08242460365	0.2568598679	
631.875	0.01853895019	0.1963886673	
632.5	0.04921555221	0.256368176	
633.125	0.2515007934	-0.02669783689	
633.75	0.08987004006	-0.07189803577	
634.375	0.2010947233	-0.1858348732	
635.0	-0.1016414426	-0.0985232762	
635.625	-0.00572762314	-0.2132429625	
636.25	-0.2516556457	0.1621564437	
636.875	0.03100520349	0.1019219427	
637.5	-0.1404990154	0.05180299433	
638.125	-0.003111997136	0.2155056911	
638.75	-0.04991096315	0.06021665074	
639.375	-0.05947216612	0.342854947	
640.0	0.2951000015	0.2193093289	
640.625	0.1386833922	0.07909022536	
641.25	0.3786800628	0.06142984643	
641.875	0.05449383178	-0.2801029032	
642.5	0.05188512158	-0.1211952936	
643.125	-0.1287577818	-0.2535193296	
643.75	-0.1455244866	0.06855193861	
644.375	-0.1542488052	-0.1003182284	
645.0	-0.268466562	0.2848329136	
645.625	0.2399557442	0.09841956748	
646.25	0.003489678676	0.1335921269	
646.875	0.3458682679	-0.05712670661	
647.5	-0.212791856	0.06910361056	
648.125	0.3581766725	0.09232621382	
648.75	0.02550585381	-0.1922257742	
649.375	0.2854246556	-0.05167141177	
650.0	0.2432657857	-0.5290597778	
650.625	-0.05827954725	-0.2877324455	
651.25	0.2724629579	-0.03769426305	
651.875	0.3955286686	-0.3221838309	
652.5	0.09559437902	-0.2134439971	
653.125	0.3252662217	0.02896788104	
653.75	0.190617485	-0.4479982602	
654.375	-0.1356728635	-0.1523839946	
655.0	-0.1901998163	-0.2213761342	
655.625	-0.2051061715	0.3553814776	
656.25	0.1885614583	-0.006584282115	
656.875	-0.09510213224	0.1478092198	
657.5	0.1855860766	0.04787293072	
658.125	-0.1319861571	0.138455929	
658.75	0.5760611245	0.1609842211	
659.375	0.1972654705	-0.3032775088	
660.0	0.220973746	-0.1179917024	
660.625	0.2357592234	-0.5568546703	
661.25	-0.09217499966	-0.336221404	
661.875	0.3189716036	-0.08454266268	
662.5	0.3476706611	-0.3470970957	
663.125	0.1182428266	-0.2641318151	
663.75	0.2381979362	-0.1739348744	
664.375	-0.1482879795	-0.4710386352	
665.0	-0.2395519219	-0.05726966324	
665.625	-0.354268414	-0.003665186264	
666.25	-0.05518579025	0.4038100317	
666.875	0.1513428099	0.08034642916	
667.5	0.1502968029	0.2002752592	
668.125	0.3010739578	-0.1109421754	
668.75	0.008580562231	-0.09698490701	
669.375	0.250623522	-0.1947756362	
670.0	-0.1352405635	-0.3255481454	
670.625	0.03029431242	-0.04845098458	
671.25	0.1288827657	-0.3530175096	
671.875	-0.03830190073	-0.2319885829	
672.5	0.2072231529	0.01101377155	
673.125	0.3171502918	-0.330285359	
673.75	-0.01483637625	-0.1520701294	
674.375	0.1303863275	-0.2124437016	
675.0	-0.1390637981	-0.355178236	
675.625	-0.2596121776	0.02347895892	
676.25	-0.1340582623	-0.1694575637	
676.875	-0.2656943523	0.1150631353	
677.5	-0.01705949471	0.02563324281	
678.125	-0.2754544844	0.1211351708	
678.75	0.1944735177	0.2581642988	
679.375	0.09412628655	-0.01141918641	
680.0	0.2301412725	0.01134722967	
680.625	0.08033504228	-0.3316076477	
681.25	-0.1196607349	0.1249049635	
681.875	0.4590091759	0.103126153	
682.5	0.1537953791	-0.1855571266	
683.125	0.08237753921	0.1662520175	
683.75	0.5073057853	0.1627545361	
684.375	-0.0600478348	-0.2025108998	
685.0	0.2964167622	0.337917437	
685.625	0.4677749603	-0.1647322439	
686.25	0.1493101258	-0.01614000971	
686.875	0.4528339101	-0.07937915956	
687.5	0.1498788845	-0.5719698704	
688.125	-0.07268247386	-0.2197995223	
688.75	-0.4785648542	-0.2380763671	
689.375	-0.2397872681	0.478627473	
690.0	0.1495900649	0.2215934161	
690.625	0.2546471207	0.4290132181	
691.25	0.4907945026	0.1457033057	
691.875	0.2936574094	0.254722883	
692.5	0.8484390467	0.4448579196	
693.125	0.6802280446	-0.3643798808	
693.75	0.4217313489	-0.09557222697	
694.375	0.6394770511	-0.5066162176	
695.0	0.1743939004	-0.4667009219	
695.625	0.5476657472	0.1607766209	
696.25	0.8480418424	0.1036935073	
696.875	0.2902673828	0.1799199681	
697.5	0.2961208222	0.5102968953	
698.125	0.4810589981	0.01288368197	
698.75	0.2390829269	-0.489098081	
699.375	-0.4615584819	-0.2968702051	
700.0	-0.2921241518	0.3565657152	
700.625	0.2698168021	0.1983543628	
701.25	0.1047017301	0.2114428363	
701.875	0.3725190365	0.3842774139	
702.5	0.3122225287	0.0371503027	
703.125	0.3580880437	0.2977783834	
703.75	0.5241220505	-0.1974131752	
704.375	0.09422270001	-0.2370207026	
705.0	0.3470469578	0.004816424152	
705.625	0.2792277026	-0.1762425861	
706.25	0.1154884709	0.08630204673	
706.875	0.2383990257	0.4669906043	
707.5	0.2405901783	0.2589552397	
708.125	0.4009783058	0.1245669045	
708.75	0.2762958603	-0.4457186419	
709.375	-0.3614852672	-0.1584824826	
710.0	-0.0577318246	0.3420731811	
710.625	0.08552799427	0.2834219634	
711.25	0.2614407188	-6.555716388e-05	
711.875	0.172663362	0.1814419774	
712.5	0.5162343092	0.01693509436	
713.125	0.1338888147	-0.3302557532	
713.75	0.2114107556	-0.09008207078	
714.375	0.01685860131	-0.3913698756	
715.0	-0.119171817	-0.1077842555	
715.625	0.156218994	-0.2041644715	
716.25	0.09928730081	-0.3882107567	
716.875	0.1568825156	-0.09173176004	
717.5	0.6452722076	0.108054714	
718.125	0.8282638621	-0.1862383587	
718.75	0.3954078801	-0.05541249625	
719.375	0.744899045	-0.1748000659	
720.0	0.2108505042	-0.9598767161	
720.625	0.2976515117	-0.6522313592	
721.25	-0.0371901693	-1.284945318	
721.875	-0.633254796	-0.8403683764	
722.5	-0.4197537173	-0.5946509589	
723.125	-1.076555879	-0.3613964416	
723.75	-0.241885115	0.7039330655	
724.375	-0.07772339741	0.04146923278	
725.0	0.1623343584	0.7295833023	
725.625	0.339245286	0.2217729443	
726.25	-0.2395622129	0.5897899385	
726.875	-0.0210705773	1.32430035	
727.5	0.4321822693	1.091736133	
728.125	-0.6210239547	1.530790461	
728.75	0.1393802476	3.649247597	
729.375	1.02534198	3.256986256	
730.0	-1.744133211	2.318669121	
730.625	1.68057052	5.545575761	
731.25	0.7885777928	2.039924607	
731.875	-3.30514446	2.317296475	
732.5	-4.551209072	1.725571636	
733.125	-1.258233457	1.199759148	
733.75	-1.081149372	1.31828137	
734.375	1.310166593	0.1963743334	
735.0	-0.3026753821	-0.163409135	
735.625	-0.5145559268	-0.261058394	
736.25	0.2631193575	0.9608551077	
736.875	0.1607609803	0.08249114477	
737.5	1.667175794	0.9306384408	
738.125	1.646815863	-1.403310854	
738.75	0.4196693968	-0.7799178684	
739.375	4.240493281	-0.1020697624	
740.0	3.464569034	-5.532951774	
740.625	-1.166497049	0.7443448309	
741.25	0.451999939	5.309821128	
741.875	0.8372876544	4.186479524	
742.5	1.168576005	-2.966185966	
743.125	-0.4658355632	-3.32234412	
743.75	-0.7020792056	-0.630556552	
744.375	-0.04378570543	-0.2279561011	
745.0	0.1557314344	0.3297667375	
745.625	-0.03974976216	0.04458314988	
746.25	0.01068695895	-0.2279806201	
746.875	-0.2150357812	0.1563092641	
747.5	-0.09007639943	0.2153886844	
748.125	0.05867389461	0.76871902	
748.75	0.4186213545	0.3612779045	
749.375	-0.006121799344	0.3616551025	
750.0	-0.5556009625	0.3155219576	
