!Created with skrf (http://scikit-rf.org).
# GHz S RI R (50+0j) 
!freq	ReS11	ImS11	
500.0	-0.09241703147	-0.8775163177	
500.625	0.6002243847	-0.3896288506	
501.25	-0.494665139	-0.7977034439	
501.875	-0.06503079176	-0.0661231466	
502.5	-0.003978231074	-0.1383764382	
503.125	-0.06738745102	0.03335633644	
503.75	-0.02832200254	0.03774047778	
504.375	0.04517093281	-0.008281375286	
505.0	-0.01200397524	-0.01394214417	
505.625	0.03799427803	-0.06350614499	
506.25	-0.1313796825	-0.023647308	
506.875	0.02493122046	-0.1473561415	
507.5	-0.2135640763	-0.569856119	
508.125	0.08961862988	-0.254339912	
508.75	0.9457027123	-0.444426506	
509.375	0.1880559729	-1.370415751	
510.0	-0.1327043293	-0.1440186734	
510.625	0.01634633981	-0.2609512546	
511.25	-0.1066965491	0.04938317167	
511.875	-0.05493807816	-0.1112061571	
512.5	-0.04266402282	0.06706171973	
513.125	-0.009902278353	-0.02136729906	
513.75	-0.02008311787	-0.1152623063	
514.375	-0.125969033	-0.02784934569	
515.0	0.2027600243	0.006608936829	
515.625	-0.1843681632	-0.3975998992	
516.25	0.1570047113	-0.3838770854	
516.875	0.1699309216	-0.5397321147	
517.5	-0.07951943521	-0.243139576	
518.125	0.03958502389	0.002822556538	
518.75	-0.05672807972	-0.2210296068	
519.375	-0.02368963936	0.02319567322	
520.0	0.03888852809	0.0956957292	
520.625	0.1930473578	-0.00772594669	
521.25	-0.06327590703	-0.2074301776	
521.875	-0.01694640059	-0.0851892296	
522.5	-0.1244498505	0.02615349523	
523.125	0.06513629557	-0.0436116938	
523.75	-0.2277665319	-0.009560419126	
524.375	-0.0655417228	0.09395217174	
525.0	-0.1245461533	-0.0156188601	
525.625	0.08656786317	0.05520719224	
526.25	-0.02898649897	-0.04364061009	
526.875	-0.08722851874	0.08145877703	
527.5	-0.07243629761	0.09757538813	
528.125	-0.009460216136	0.1781447359	
528.75	-0.06506365459	0.3259090305	
529.375	0.008749845589	-0.02043769985	
530.0	-0.09923645468	0.2757500427	
530.625	0.2312896267	0.3426798752	
531.25	0.09425228434	0.2902775147	
531.875	0.3761776294	-0.1520716141	
532.5	-0.09326799144	-0.01506437052	
533.125	0.2010125638	-0.0646506986	
533.75	0.003387681331	-0.1006669694	
534.375	0.1400408133	-0.2573765002	
535.0	-0.2526694849	-0.1524045318	
535.625	-0.1149171907	0.03043161677	
536.25	-0.05744926473	0.07371939812	
536.875	0.09870591225	0.0343686877	
537.5	0.03744995085	0.00965318984	
538.125	0.07866380635	0.0390285825	
538.75	0.1603415864	-0.07928060981	
539.375	0.05612112	-0.1224774208	
540.0	-0.05752332561	-0.2208796385	
540.625	-0.2417548368	-0.02985955472	
541.25	0.004366765178	-0.0413757912	
541.875	-0.09295540832	-0.03593459421	
542.5	0.02538919476	-0.01884491127	
543.125	-0.08225804544	-0.1558422972	
543.75	-0.07464163675	0.05063811983	
544.375	-0.07099081333	-0.03086499799	
545.0	-0.00140081755	0.09214414821	
545.625	-0.008457907193	0.01392761311	
546.25	0.07977123063	0.1221717112	
546.875	0.08570566001	-0.03097082666	
547.5	0.1012092407	-0.02064147999	
548.125	0.045654121	-0.1800198186	
548.75	-0.08300633715	-0.1063915019	
549.375	-0.01608044841	-0.1042289526	
550.0	-0.09448130779	-0.03693365484	
550.625	-0.01722027635	0.02212071927	
551.25	-0.09711819457	-0.02538834567	
551.875	-0.05326778843	0.04821110733	
552.5	-0.06377994066	0.0139636763	
553.125	-0.03878250372	0.08056895334	
553.75	0.01012626512	0.03669291298	
554.375	0.08179650274	0.03940866224	
555.0	0.1022474698	-0.02842997558	
555.625	0.1062391209	-0.04510175361	
556.25	0.1167679907	-0.0798282331	
556.875	0.04370530613	-0.1411584313	
557.5	-0.03242808523	-0.1175154245	
558.125	-0.07058745978	-0.08222764886	
558.75	-0.09097922987	-0.04944501053	
559.375	-0.09050435845	-0.0243323705	
560.0	-0.1087586283	0.008573142318	
560.625	-0.09089053555	0.0803651792	
561.25	-0.01919467544	0.06837704111	
561.875	-0.0140836425	0.06316427169	
562.5	0.01857206851	0.04319798694	
563.125	-0.01975228552	0.08268321175	
563.75	0.1594629839	0.05343294496	
564.375	0.09576000775	-0.03207467993	
565.0	0.1595198139	-0.05692514499	
565.625	-0.02595059269	-0.1826379745	
566.25	-0.01502623207	-0.08332852459	
566.875	-0.09112130675	-0.1615958039	
567.5	-0.1072704079	-0.09146229138	
568.125	0.02745328681	-0.1688960285	
568.75	-0.2026405752	-0.1939256882	
569.375	-0.1698482434	0.02930432424	
570.0	-0.1899665647	0.03914379461	
570.625	-0.1416031932	0.1810710464	
571.25	0.002662791158	0.03580607476	
571.875	-0.01761168212	0.1442765262	
572.5	0.1102013576	-0.01853879824	
573.125	0.08666213389	0.02281988041	
573.75	0.1676020258	-0.1051872212	
574.375	-0.03772473151	-0.05382307173	
575.0	0.09821620738	0.04813804493	
575.625	0.02345224236	-0.1273802306	
576.25	0.05069277044	0.02979421144	
576.875	0.1043908764	-0.1653978402	
577.5	-0.03478956569	-0.1524972802	
578.125	0.09323152517	-0.03128642805	
578.75	0.01256243565	-0.2330411063	
579.375	-0.1148378547	-0.03522148237	
580.0	0.0662012776	-0.056642762	
580.625	-0.1325571429	-0.04148312541	
581.25	-0.0135846413	-0.008157975556	
581.875	-0.1633356822	0.1358530118	
582.5	0.05632527087	0.1944035081	
583.125	0.022539824	-0.002005017325	
583.75	0.02628633595	0.1310677214	
584.375	0.04389381844	-0.02264356029	
585.0	-0.001609771879	0.1477422461	
585.625	0.200962051	0.04397866418	
586.25	0.07069459454	-0.0390063592	
586.875	0.1642355477	-0.008175030168	
587.5	0.00241432503	-0.1906910934	
588.125	0.0261642483	-0.01298947738	
588.75	0.2083101376	-0.1759255708	
589.375	0.00302685073	-0.1528659817	
590.0	0.07524858104	-0.0892549363	
590.625	-0.2243116736	-0.1663896748	
591.25	-0.02604992799	0.05977105348	
591.875	-0.09206694878	-2.359538803e-05	
592.5	-0.03666162356	0.1172551677	
593.125	-0.04204356931	-0.05985090648	
593.75	0.05702226555	0.1740082084	
594.375	0.07313157624	0.07268455088	
595.0	0.002009794669	0.147966557	
595.625	0.1301766827	0.1966259801	
596.25	0.07427753097	0.03988480003	
596.875	0.04664938512	0.1606530005	
597.5	0.1474897564	0.1358454364	
598.125	0.05242850713	0.07524558734	
598.75	0.05492207687	0.2069086223	
599.375	0.2363828571	-0.03590799544	
600.0	0.1094295329	-0.02196401219	
600.625	0.2406863313	-0.06140561486	
601.25	0.001089972775	-0.2267779552	
601.875	0.0705858557	-0.05087516463	
602.5	-0.1219645976	-0.1386092645	
603.125	-0.06237586533	0.06569307558	
603.75	-0.1269464614	-0.05690205912	
604.375	-0.1337594135	0.05828440883	
605.0	-0.01114838036	0.08643351714	
605.625	-0.1123864216	-0.05463888541	
606.25	-0.1404118006	0.06930003097	
606.875	-0.1570398356	0.01551498939	
607.5	-0.2411335332	0.01999162155	
608.125	-0.06712429782	0.2401526107	
608.75	0.05054435569	0.1310689987	
609.375	0.235743839	0.1386761557	
610.0	0.1684470237	-0.1205872297	
610.625	0.08016097223	-0.00392951355	
611.25	0.1367001908	-0.2086111379	
611.875	-0.05106630188	-0.03009206356	
612.5	-0.04262381254	-0.1955442201	
613.125	-0.2686798559	-0.04116238283	
613.75	-0.02989956713	0.05601901455	
614.375	-0.0162508125	0.1646946998	
615.0	0.09088714894	0.06629903278	
615.625	-0.07659372634	-0.02847412786	
616.25	-0.1084234527	0.131207493	
616.875	-0.1314405438	0.1448414968	
617.5	-0.1045240739	0.1099438224	
618.125	-0.164260991	0.2312420466	
618.75	0.0176622782	0.1849329002	
619.375	-0.05549303032	0.05847809192	
620.0	0.2166866209	0.1796307599	
620.625	0.06281316764	-0.08368761522	
621.25	0.06470001549	-0.1783614746	
621.875	-0.2182639972	-0.1512100325	
622.5	-0.1263776463	0.02855171561	
623.125	-0.1691337847	0.1037177247	
623.75	0.1653630195	0.08862582731	
624.375	-0.002817192448	-0.02239653171	
625.0	0.105754451	-0.0260231237	
625.625	-0.008256122807	-0.05417436293	
626.25	0.06298406641	-0.1166899886	
626.875	-0.1196106957	-0.1575956533	
627.5	-0.1516076	-0.05814233244	
628.125	0.007765334341	-0.06871061517	
628.75	-0.04360641273	-0.1688162342	
629.375	-0.007863850459	-0.09979195119	
630.0	0.03310668059	-0.2199565958	
630.625	-0.2712427711	-0.01008203896	
631.25	-0.1018721816	0.07668612175	
631.875	-0.1898768115	0.187143799	
632.5	0.1290107301	0.2253802191	
633.125	0.09097976065	0.0722110072	
633.75	0.2040917618	0.06986902275	
634.375	0.06027890691	-0.1647340438	
635.0	0.06609383584	-0.03848821867	
635.625	-0.1130798838	-0.1909476508	
636.25	-0.1311015246	0.06479204205	
636.875	-0.08788337715	0.003570658165	
637.5	-0.1159640841	0.1138932134	
638.125	0.0004538278899	0.07037921743	
638.75	-0.1943722751	0.0579634763	
639.375	-0.0547706073	0.2583512879	
640.0	0.04814380891	0.1580209022	
640.625	-0.0523356493	0.3229276684	
641.25	0.3510837111	0.07195398774	
641.875	0.1003868599	-0.0703117833	
642.5	0.1972529551	-0.157279831	
643.125	-0.2405234555	-0.1451672457	
643.75	0.06831523989	-0.08333464224	
644.375	-0.2536234549	-0.1248121725	
645.0	-0.08432781934	0.1560624894	
645.625	-0.1323994684	0.04569863891	
646.25	0.1944906601	0.2734910957	
646.875	0.04614500954	-0.08261277226	
647.5	-0.004880885234	0.1608996313	
648.125	0.2038220443	0.04638959807	
648.75	0.08112906563	0.1121470128	
649.375	0.4258966385	-0.0571995141	
650.0	0.1947832635	-0.2682794995	
650.625	0.1622175238	-0.05839400435	
651.25	0.3638865147	-0.08364111665	
651.875	0.1749196221	-0.1798883073	
652.5	0.1330488949	0.1218625319	
653.125	0.4094211206	-0.02392736127	
653.75	0.08947234869	-0.2296620098	
654.375	0.1612929846	-0.2012156894	
655.0	-0.3858529453	-0.2401201044	
655.625	0.0007852015872	0.1647473404	
656.25	-0.1335965451	0.05856878467	
656.875	0.0827734173	0.1857987664	
657.5	-0.07762982944	-0.06805725335	
658.125	0.01409563416	0.3281548188	
658.75	0.2366760185	0.1201572758	
659.375	0.1894407245	0.08427898368	
660.0	0.4233458948	-0.03830400227	
660.625	0.1845965579	-0.3116354896	
661.25	0.2064782636	-0.005698669915	
661.875	0.3693076192	-0.1030317352	
662.5	0.2562962843	-0.1516905025	
663.125	0.1711232768	0.018991715	
663.75	0.3951133103	-0.238655318	
664.375	-0.03971388359	-0.2520481855	
665.0	-0.01901974444	-0.23626134	
665.625	-0.4889428529	-0.07273426146	
666.25	0.009501010521	0.2069831426	
666.875	-0.0799075711	0.1815523677	
667.5	0.2230285247	0.1928584799	
668.125	0.05314033799	0.004317349529	
668.75	0.2701637033	0.09393433809	
669.375	0.1809681216	-0.2262303208	
670.0	0.06743338213	-0.07914203096	
670.625	0.1739569769	-0.140659825	
671.25	0.09236080964	-0.2015181667	
671.875	0.09932762125	0.01198208531	
672.5	0.3267313857	-0.002652115432	
673.125	0.1969077114	-0.1186532749	
673.75	0.162436931	-0.0406509705	
674.375	0.2248117947	-0.2230271737	
675.0	-0.1419279369	-0.2268957994	
675.625	0.02813829625	-0.1219720145	
676.25	-0.2530742435	-0.1628266874	
676.875	-0.110861748	0.06604164262	
677.5	-0.06751098747	-0.1897569789	
678.125	-0.2429628273	0.2386978238	
678.75	0.006444701186	0.04189003094	
679.375	0.01328458835	0.215011016	
680.0	0.2929233725	-0.0850510576	
680.625	-0.07673997963	-0.04494168956	
681.25	0.2270195698	-0.007303963219	
681.875	0.104280234	0.0202750114	
682.5	-0.03408888285	0.109376599	
683.125	0.1847680183	0.333850167	
683.75	0.1989631167	0.0413890316	
684.375	0.08520485008	0.1887136075	
685.0	0.3217104842	0.197760302	
685.625	0.237400108	-0.1103357472	
686.25	0.1484575121	0.1932412536	
686.875	0.4647823745	-0.179715882	
687.5	0.1156137778	-0.1709887805	
688.125	0.2691390456	-0.3069502489	
688.75	-0.4372649865	-0.3850089512	
689.375	-0.03186191683	0.03399237675	
690.0	-0.2828507731	0.4337560539	
690.625	0.2317265248	0.3454608455	
691.25	-0.006106983675	0.2034794189	
691.875	0.4481978872	0.543438409	
692.5	0.2917682156	0.3258620924	
693.125	0.3101137692	0.304683168	
693.75	0.5847741445	0.2025865623	
694.375	0.516656659	-0.2023621027	
695.0	0.4202053985	-0.1021283102	
695.625	0.4639683474	0.1603638599	
696.25	0.4508661908	0.09479321552	
696.875	0.1513545491	0.2870712302	
697.5	0.2375628549	0.614082523	
698.125	0.5171141168	0.07075623661	
698.75	0.4179742818	-0.06015678441	
699.375	-0.2220439756	-0.568828404	
700.0	-0.212775823	0.294914382	
700.625	-0.09575149576	0.1155400354	
701.25	0.1532477097	0.41781799	
701.875	0.09936703073	0.1371147819	
702.5	0.165407662	0.4666467091	
703.125	0.2083627931	0.290492627	
703.75	0.2801060114	0.01033117632	
704.375	0.3010159508	0.05300724471	
705.0	0.2647331049	0.00790858218	
705.625	0.2529349467	-0.05552639297	
706.25	0.1092072033	0.3140378751	
706.875	0.2440681917	0.3186618464	
707.5	0.1240941239	0.2134195773	
708.125	0.2727961769	0.3933640995	
708.75	0.3248436331	-0.3906344764	
709.375	-0.1487932815	-0.121867946	
710.0	-0.3259345097	0.01814393068	
710.625	0.1376152361	0.1833705734	
711.25	-0.07060135452	0.09257676339	
711.875	0.1572856212	0.2636805519	
712.5	0.2088423099	0.02334153002	
713.125	0.2058095653	0.09662328751	
713.75	0.2920086654	-0.09608883507	
714.375	0.05143896968	-0.1690187001	
715.0	0.1080636025	-0.1139923284	
715.625	0.202509148	-0.1515843871	
716.25	0.1033674666	-0.1359511663	
716.875	0.3568767471	0.07562698036	
717.5	0.5416669202	0.07444058088	
718.125	0.371159322	-0.0277121097	
718.75	0.5490830201	0.7502148934	
719.375	0.8802727174	-0.6774442655	
720.0	0.2809801443	-0.277663515	
720.625	0.8826376614	-0.7063805946	
721.25	-0.3569597452	-0.9926580208	
721.875	0.4403040379	-0.5548601336	
722.5	0.1227006247	-1.06955473	
723.125	-0.5084782025	-0.5010992524	
723.75	-0.3237454576	-0.003773267286	
724.375	-0.4537904192	0.3104289221	
725.0	0.08160587279	0.2853384159	
725.625	-0.1695063394	0.3014293695	
726.25	-0.3440748947	0.5769111647	
726.875	-0.1898633833	0.6917496948	
727.5	-0.6823780651	0.6538229931	
728.125	-0.6571407421	1.682994732	
728.75	0.4532375749	1.803145167	
729.375	-0.889077451	0.5197645116	
730.0	-1.015660717	4.841303182	
730.625	0.8683036691	2.244306436	
731.25	-2.437241023	1.222330098	
731.875	-4.308856336	3.188701264	
732.5	-1.635265191	0.8316960442	
733.125	-1.72407167	-1.670964381	
733.75	-1.663630228	0.7523906141	
734.375	0.2844080727	0.5633773307	
735.0	0.5301813896	-0.04237958434	
735.625	-0.6152768633	-0.2057951219	
736.25	-0.1407547795	0.06680424104	
736.875	-0.3065692146	0.662012493	
737.5	0.8094756242	0.7577246416	
738.125	0.6197264461	0.1133250275	
738.75	1.58993984	0.7514971653	
739.375	2.88332384	-1.799727682	
740.0	0.1640188362	-0.9846430297	
740.625	2.40009821	2.257504099	
741.25	4.602006036	2.73773066	
741.875	0.1738573232	-2.807571676	
742.5	-3.427230839	-5.59198506	
743.125	-0.5974094943	-1.201328708	
743.75	0.8973445536	-0.09877913855	
744.375	-0.4776472612	-0.5548109967	
745.0	0.1238642901	0.06846607248	
745.625	0.01118367117	0.1053209	
746.25	0.0197951305	-0.1214011586	
746.875	-0.05975375298	-0.1171293362	
747.5	-0.3406144839	0.1375991517	
748.125	-0.05941698886	0.4170469455	
748.75	0.003366454549	0.3123265824	
749.375	-0.01697190224	0.4050097213	
750.0	-0.2130716596	0.2628079603	
