!Created with skrf (http://scikit-rf.org).
# GHz S RI R (50+0j) 
!freq	ReS11	ImS11	
500.0	-0.1974838173	-1.13542853	
500.625	0.1120206136	-0.3260403025	
501.25	-0.2231961094	-1.014621057	
501.875	-0.4130720016	-0.1861501511	
502.5	0.01735548723	-0.08575218365	
503.125	-0.09873719493	0.01596723633	
503.75	0.03191019517	-0.001627618619	
504.375	0.04007582865	0.01908753113	
505.0	-0.02943011544	-0.02971131409	
505.625	0.05623324861	-0.02967374794	
506.25	-0.1394911484	-0.08531832781	
506.875	0.1060115391	-0.02470658149	
507.5	-0.1772239603	-0.5658399497	
508.125	-0.2262035565	-0.3280214943	
508.75	0.9133137843	-0.6425231189	
509.375	-0.3765333545	-1.565974911	
510.0	-0.4171395851	0.002340429144	
510.625	-0.06078360965	-0.1772608186	
511.25	-0.09609361106	-0.01293116492	
511.875	-0.02898864857	-0.01590328872	
512.5	-0.04297291074	0.0472029921	
513.125	-0.0438601051	-0.03579508621	
513.75	0.008667726428	-0.02618186704	
514.375	-0.1225091898	-0.05284643777	
515.0	0.1286322012	0.2437626923	
515.625	-0.1380008043	-0.7287729713	
516.25	-0.2393655787	0.09472873483	
516.875	0.08281585234	-0.5676494933	
517.5	-0.1531137344	-0.2116195566	
518.125	0.03013135652	0.02864336229	
518.75	-0.06198244862	-0.1870688484	
519.375	-0.02273792551	0.01302919285	
520.0	0.06980326169	0.06114467385	
520.625	0.1757791624	-0.04989003022	
521.25	-0.1174616146	-0.2126563383	
521.875	-0.1121407385	-0.01418452655	
522.5	-0.07864572088	0.01009064506	
523.125	0.04742074692	0.04792460046	
523.75	-0.05314086726	-0.0821101893	
524.375	-0.2069695719	0.1316181616	
525.0	0.02235694458	0.01995394901	
525.625	-0.02638774503	0.1013437373	
526.25	0.03195424854	-0.07938384196	
526.875	-0.05219761335	0.1141598718	
527.5	0.06077065472	0.1020960268	
528.125	-0.04996762385	0.1664760957	
528.75	0.06487102884	0.2689901243	
529.375	-0.01885146234	0.07331878214	
530.0	0.04332645015	0.2068198607	
530.625	0.007351553904	0.2579797691	
531.25	0.3329419936	0.04662133198	
531.875	0.1440729135	-0.01950829345	
532.5	-0.09469876646	-0.1222666956	
533.125	0.1362455198	-0.02195531262	
533.75	-0.007567441466	-0.1825238901	
534.375	-0.03948691719	-0.06851394461	
535.0	-0.2320110945	-0.1479488212	
535.625	-0.0878838409	0.1360250527	
536.25	-0.01829617153	0.06212820672	
536.875	0.1147806162	0.01816951639	
537.5	0.01763357153	-0.04780212475	
538.125	0.1373018156	-0.00976381192	
538.75	0.07400549693	-0.1647203202	
539.375	-0.04958353075	-0.1129409606	
540.0	-0.1460419575	-0.1648334413	
540.625	-0.1617963037	-0.01250322135	
541.25	-0.04829653417	0.01453853112	
541.875	-0.06424475767	-0.04076311959	
542.5	-0.04632230019	-0.01434284378	
543.125	-0.007615581268	-0.07193092224	
543.75	-0.116292873	0.02678953464	
544.375	0.0515101507	-0.02848623857	
545.0	-0.03484930693	0.1012428244	
545.625	0.05507949334	0.002983762538	
546.25	0.047471977	0.09721148057	
546.875	0.1369637647	-0.09629370864	
547.5	0.0143778586	-0.05806108	
548.125	0.008247337294	-0.1763207212	
548.75	-0.1677347355	-0.08177478073	
549.375	-0.03746532627	-0.01999783783	
550.0	-0.1097932822	-0.01782119326	
550.625	-0.01158294608	0.03266140611	
551.25	-0.08821353163	0.001177132019	
551.875	-0.05724822773	0.09406552356	
552.5	-0.02415566574	0.04841490072	
553.125	-0.01788612114	0.0665781294	
553.75	0.0432891437	0.02708364306	
554.375	0.07847441328	0.004378219616	
555.0	0.08615247664	-0.07533516068	
555.625	0.06364424552	-0.09830083498	
556.25	0.05452858253	-0.1241949831	
556.875	-0.04157258093	-0.1433269423	
557.5	-0.09689402862	-0.08214569803	
558.125	-0.1037263789	-0.02814969917	
558.75	-0.103209506	0.0006281180292	
559.375	-0.0967148209	0.03645160198	
560.0	-0.07736992562	0.0593006614	
560.625	-0.05578630183	0.1107924748	
561.25	0.03594398536	0.08639973758	
561.875	-0.007936256893	0.04174947545	
562.5	0.05022981759	0.04922259168	
563.125	0.02939785625	0.05737760404	
563.75	0.1642858566	0.004567272303	
564.375	0.07438627027	-0.1215640133	
565.0	0.06874256821	-0.09127765784	
565.625	-0.04846903447	-0.180805815	
566.25	-0.1133763964	-0.04056026178	
566.875	-0.08333291461	-0.111456111	
567.5	-0.1956536088	-0.0884546238	
568.125	-0.08290263555	-0.05432202276	
568.75	-0.2452185037	-0.1547942875	
569.375	-0.1868031601	0.1907516758	
570.0	-0.08032413812	0.06991101139	
570.625	-0.1214332973	0.2128065696	
571.25	0.1072111004	0.06150972891	
571.875	-0.0214444716	0.118893244	
572.5	0.1695881325	-0.081594994	
573.125	-0.004014874781	-0.03108431621	
573.75	0.1524146284	-0.1195429129	
574.375	-0.09338702272	-0.1074429935	
575.0	0.07369700145	0.04552824402	
575.625	0.01036199145	-0.1557984706	
576.25	-0.01527545936	-0.0258013041	
576.875	0.07270988837	-0.1529503443	
577.5	-0.06901811012	-0.2028418966	
578.125	-0.06040526053	-0.05207442236	
578.75	0.01033783518	-0.1623429642	
579.375	-0.2120879177	-0.08112062057	
580.0	0.06323478888	0.04982921595	
580.625	-0.1775628833	-0.09243150535	
581.25	0.07727729605	0.119802035	
581.875	-0.09831653135	0.05957491553	
582.5	0.1314545844	0.2681758706	
583.125	0.1038206205	-0.07743055715	
583.75	-0.03417811638	0.1180264518	
584.375	0.1172328197	-0.0312464012	
585.0	-0.003357716923	0.101212046	
585.625	0.2487505369	-0.01157045962	
586.25	0.03908397919	-0.1232430821	
586.875	0.1014091591	-0.03980571205	
587.5	-0.05945326368	-0.2027903196	
588.125	-0.06417813735	-0.03949929391	
588.75	0.1030784416	-0.1186821447	
589.375	0.01237629465	-0.2176227436	
590.0	-0.05679989171	-0.05572256692	
590.625	-0.1745079156	-0.1326961135	
591.25	-0.09117566784	0.2191860675	
591.875	0.009328433207	-0.003790718046	
592.5	-0.06249072819	0.1586066714	
593.125	0.04528406424	-0.07236219559	
593.75	-0.009540575078	0.221517621	
594.375	0.2348297534	-0.008569771958	
595.0	0.01356581201	0.1117718768	
595.625	0.2304432897	0.1443084566	
596.25	0.1644280662	-0.06641652737	
596.875	0.0777900461	0.09429112432	
597.5	0.2154312083	0.05893971621	
598.125	0.104417801	0.01360832106	
598.75	0.1643103864	0.1233582502	
599.375	0.242750019	-0.09218429752	
600.0	0.0964469674	-0.1227774124	
600.625	0.1454069563	-0.1205438777	
601.25	0.05576847041	-0.2355161331	
601.875	-0.1162407316	-0.05591328055	
602.5	-0.05632223071	-0.09978936788	
603.125	-0.1325953582	0.1542509837	
603.75	0.001335233583	0.02210712801	
604.375	-0.2161235094	0.05952482139	
605.0	0.05940715194	0.1682862091	
605.625	-0.1794309771	-0.06931544073	
606.25	-0.1113480925	0.1910968284	
606.875	-0.05139068114	-0.01565087565	
607.5	-0.2349016197	0.1310339553	
608.125	0.077124649	0.2455518724	
608.75	0.1245557196	0.05867800874	
609.375	0.2419121618	-0.08565235491	
610.0	0.122353322	-0.1302791472	
610.625	0.04900492826	-0.1676545801	
611.25	0.03072171513	-0.1525583005	
611.875	-0.1146844725	-0.1488334949	
612.5	-0.07218567424	-0.05201582425	
613.125	-0.2218293503	-0.04653274054	
613.75	-0.0272459845	0.2194364474	
614.375	-0.01780975848	0.01070566365	
615.0	0.10862958	0.1335112083	
615.625	-0.02536321451	-0.03742273129	
616.25	-0.1339791606	0.1677113587	
616.875	0.04079219431	0.2567463434	
617.5	-0.05451268713	0.07484476843	
618.125	0.05927811382	0.2391922983	
618.75	0.09585151607	0.1307910388	
619.375	0.02944424065	0.1177557758	
620.0	0.2289829	0.03513518114	
620.625	0.1836916662	-0.2218192569	
621.25	-0.1191412303	-0.1167538361	
621.875	-0.2137445708	-0.08896951978	
622.5	-0.2003802524	0.1258917449	
623.125	0.03357534669	0.06018495256	
623.75	0.140476453	0.09973433982	
624.375	-0.01673110487	-0.09912964102	
625.0	0.1051858978	0.04753821114	
625.625	-0.01360414767	-0.1531674987	
626.25	-0.01337883154	-0.04872256553	
626.875	-0.1419524508	-0.143237454	
627.5	-0.1669439578	0.02335737704	
628.125	-0.02741060667	-0.05092657554	
628.75	-0.08549716479	-0.1374094507	
629.375	-0.09798961509	-0.08740047833	
630.0	-0.145339485	-0.1135819781	
630.625	-0.2181124519	0.09676103871	
631.25	-0.07338426707	0.2047042921	
631.875	0.01217106032	0.1578188901	
632.5	0.1297121138	0.2798580306	
633.125	0.2029539975	-0.02328584467	
633.75	0.06089567682	0.02856262592	
634.375	0.1268744862	-0.2252944556	
635.0	-0.08525690461	-0.05361270489	
635.625	-0.08995010117	-0.2081557892	
636.25	-0.1732291478	0.1901159287	
636.875	0.01191451262	0.04397960079	
637.5	-0.1304946208	0.08705003125	
638.125	0.05511273685	0.1257869767	
638.75	-0.1126734623	0.07520539782	
639.375	0.02436614781	0.3397780923	
640.0	0.2122529517	0.1121253969	
640.625	0.128993655	0.1559265846	
641.25	0.3394778395	-0.03159456607	
641.875	0.05439952824	-0.2583213357	
642.5	0.02020952827	-0.1083648491	
643.125	-0.1625519806	-0.2539367718	
643.75	-0.1039474583	0.06340056939	
644.375	-0.1513361097	-0.2012504403	
645.0	-0.1702465665	0.3298733659	
645.625	0.1183694463	0.03891039384	
646.25	0.07065152174	0.2164667378	
646.875	0.1964058678	-0.2652321288	
647.5	-0.106834997	0.1728280088	
648.125	0.3110368078	-0.01940929274	
648.75	0.04265166114	-0.09059609364	
649.375	0.3303644943	-0.09137312367	
650.0	0.1009323018	-0.4757056025	
650.625	-0.04326572798	-0.1525805239	
651.25	0.3200765952	-0.1281804446	
651.875	0.2394992003	-0.3603556725	
652.5	0.04795073401	-0.05630856749	
653.125	0.3601570161	-0.04882738183	
653.75	0.06115535358	-0.3637384965	
654.375	-0.07089855651	-0.1019158546	
655.0	-0.2728899231	-0.2222623197	
655.625	-0.103462831	0.3279050319	
656.25	0.0649681442	-0.04829458723	
656.875	-0.0267232141	0.2423112828	
657.5	0.1632366691	-0.1266549495	
658.125	-0.05769690903	0.2916253208	
658.75	0.474222449	-0.03567173416	
659.375	0.09669323728	-0.1962302305	
660.0	0.334811203	-0.1570031713	
660.625	0.07748770474	-0.5075407236	
661.25	-0.04893677825	-0.1626580849	
661.875	0.3270434411	-0.188215473	
662.5	0.1847339511	-0.3355079321	
663.125	0.08339107183	-0.1517456323	
663.75	0.2556904033	-0.2505709207	
664.375	-0.2070608749	-0.3333178592	
665.0	-0.1528296318	-0.08967560697	
665.625	-0.347013781	0.03972821761	
666.25	0.003239198125	0.3363693859	
666.875	0.06890591676	0.06011270416	
667.5	0.2084159569	0.166801812	
668.125	0.1950455334	-0.1489242309	
668.75	0.09271782774	-0.007839047747	
669.375	0.1924178574	-0.3237567707	
670.0	-0.1827137117	-0.1511891735	
670.625	0.1273555926	-0.09253789471	
671.25	0.01616435849	-0.3212304216	
671.875	-0.05148802806	-0.10281087	
672.5	0.3539399001	-0.06024293141	
673.125	0.1309663272	-0.3373626102	
673.75	0.05150010951	-0.1025484571	
674.375	0.1043700491	-0.259031189	
675.0	-0.2195086617	-0.2624754822	
675.625	-0.07310499678	0.02139546901	
676.25	-0.2144711425	-0.1242595419	
676.875	-0.1355960993	0.1380756507	
677.5	-0.03650300807	-0.0275503925	
678.125	-0.2230125361	0.1888952902	
678.75	0.1900318953	0.1697943705	
679.375	0.05226403089	0.03764231137	
680.0	0.3024238216	-0.03198435194	
680.625	-0.09088161879	-0.2509641477	
681.25	0.05600050203	0.2047194499	
681.875	0.3311325565	-0.09680225222	
682.5	-0.05459584414	-0.0275206098	
683.125	0.2303221352	0.2976523008	
683.75	0.4633310267	-0.1694663903	
684.375	-0.07032554912	0.1252327087	
685.0	0.4309929828	0.1711974258	
685.625	0.2062812918	-0.1526429312	
686.25	0.1388780506	0.02437610252	
686.875	0.4392164359	-0.1963888763	
687.5	-0.01678264731	-0.3540046065	
688.125	0.01314319638	-0.3714868179	
688.75	-0.4796869847	-0.166992874	
689.375	-0.09137364513	0.414850378	
690.0	-0.007146907605	0.1987500705	
690.625	0.2924490254	0.3220709098	
691.25	0.3230906844	0.04107316246	
691.875	0.2578211462	0.3229155471	
692.5	0.826995339	0.1729779447	
693.125	0.3071860578	-0.2553913436	
693.75	0.669467617	-0.02265234653	
694.375	0.4210817554	-0.618272196	
695.0	0.1033560279	-0.2632513299	
695.625	0.5784629506	0.1221604624	
696.25	0.3672704396	-0.1802787457	
696.875	0.2127246208	0.2490442908	
697.5	0.4661820521	0.4108150668	
698.125	0.4053012382	0.08323291925	
698.75	0.3163253121	-0.4495758032	
699.375	-0.4049040837	-0.264636592	
700.0	-0.2210588071	0.3787510558	
700.625	0.1795905875	0.1380550664	
701.25	0.06870399353	0.1884743036	
701.875	0.3776809952	0.1674660201	
702.5	0.196383779	0.1330752651	
703.125	0.4223917232	0.190573957	
703.75	0.3533722062	-0.2781696844	
704.375	0.1076986305	-0.08037075995	
705.0	0.3706974365	-0.1639565971	
705.625	0.1579869085	-0.1321710214	
706.25	0.1033915734	0.2096963861	
706.875	0.2502844818	0.08460750581	
707.5	0.1942047537	0.1976157238	
708.125	0.3932290773	0.1418877703	
708.75	0.1637998946	-0.4208250427	
709.375	-0.4045677843	-0.3473184777	
710.0	-0.03269580532	0.2125358195	
710.625	0.06234253455	0.1753374101	
711.25	0.1009988225	0.02863128143	
711.875	0.1118192679	0.2695806111	
712.5	0.4089938067	-0.1186798189	
713.125	0.06232288839	-0.1673970718	
713.75	0.2045682634	-0.1869686093	
714.375	-0.09664818903	-0.2916469862	
715.0	-0.04809526567	-0.06181077484	
715.625	0.1009294821	-0.2669003333	
716.25	0.02105130601	-0.2770264641	
716.875	0.2199721136	-0.04372140846	
717.5	0.5144124413	0.008741700253	
718.125	0.4870718494	-0.2169183827	
718.75	0.5494637915	0.06414589719	
719.375	0.7052557228	-0.4569293407	
720.0	0.1711477639	-0.8612257106	
720.625	0.09361741727	-0.5885261821	
721.25	-0.1940912454	-0.9664701453	
721.875	-0.6015939334	-0.6377969481	
722.5	0.088062953	-0.7019458596	
723.125	-1.033541011	-0.0429970965	
723.75	-0.09186379549	0.5133828082	
724.375	-0.2146864548	0.223889961	
725.0	0.4876381422	0.4673732462	
725.625	0.1252617105	0.1140216329	
726.25	-0.1450513197	0.7081079354	
726.875	0.2851099365	0.9816241262	
727.5	0.2075157643	0.6902718383	
728.125	-0.5356960569	1.670284512	
728.75	0.7006363665	2.796725061	
729.375	0.4611908945	1.726987392	
730.0	-1.180269508	3.459447757	
730.625	2.007421351	4.433659436	
731.25	0.09362489241	1.694858951	
731.875	-2.486681549	2.244331075	
732.5	-3.192526892	2.946664092	
733.125	-0.906641634	0.6343426175	
733.75	-1.155403854	1.395373749	
734.375	1.037856675	-0.05437718115	
735.0	-0.09689436035	-0.1375823272	
735.625	-0.8079108073	-0.1025515648	
736.25	0.5077214521	0.4808087065	
736.875	-0.1034345176	0.4056924358	
737.5	1.497986123	0.1049741328	
738.125	0.6412047454	-1.098648333	
738.75	0.8051575592	-0.03337039964	
739.375	3.628128988	-1.907257322	
740.0	-0.2607602638	-3.403652277	
740.625	0.1995438499	2.221867171	
741.25	3.663943897	4.999704717	
741.875	1.761353607	0.6156629853	
742.5	-0.3953384849	-3.911720089	
743.125	-1.128599832	-2.219791686	
743.75	-0.4957730003	-0.1739761483	
744.375	-0.2607074061	-0.3764476336	
745.0	0.2217023865	0.1344252846	
745.625	-0.008687378135	0.07629586813	
746.25	-0.08820820239	-0.205089475	
746.875	-0.0901987314	0.0992589492	
747.5	-0.1870489999	0.2463873951	
748.125	0.3081695699	0.5527997296	
748.75	0.3020046653	0.1913171843	
749.375	-0.006071609795	0.4543810727	
750.0	-0.3353159741	0.3737787457	
