!Created with skrf (http://scikit-rf.org).
# GHz S MA R 50.0 
!freq magS11 angS11
600.0 0.102065288185 -84.1025170958
600.125 0.0554796483721 -174.556446556
600.25 0.057222338058 59.0692834703
600.375 0.0679792260614 -3.85977038978
600.5 0.1268474289 -73.0113246097
600.625 0.104157920634 -94.3262290147
600.75 0.0630384452629 -159.292218755
600.875 0.0439529682395 50.5897800178
601.0 0.0613924339573 -21.101655425
601.125 0.114745329266 -93.2759562977
601.25 0.0929415424112 -107.675181657
601.375 0.0853985732772 -160.351044068
601.5 0.0484828796647 40.2536461392
601.625 0.0608570355329 -44.9979243133
601.75 0.0714746771254 -95.1182193439
601.875 0.0988881195241 -163.388573162
602.0 0.0770130770273 164.36400725
602.125 0.0631633200349 28.5606997588
602.25 0.0464463639026 -49.9039806708
602.375 0.0667836115517 -124.69185843
602.5 0.0852572466209 -175.954587055
602.625 0.0731991648009 160.810693647
602.75 0.0557269460902 24.0394377746
602.875 0.0579640100154 -73.6622002971
603.0 0.0404084398557 -117.035402114
603.125 0.0795586171286 155.632437031
603.25 0.0684467556668 95.1443990658
603.375 0.0596409165081 -3.73843414142
603.5 0.0641657680227 -91.0739135632
603.625 0.0234052243989 -71.584678893
603.75 0.093421669659 117.881342366
603.875 0.0555440803179 81.4777554587
604.0 0.0570841233455 -26.5630675544
604.125 0.0461855967108 -103.019988979
604.25 0.0157183334774 -113.130833646
604.375 0.087233869092 106.646671826
604.5 0.0718035616417 27.3498444673
604.625 0.0551033198099 -64.2065790226
604.75 0.0510084680029 -123.090939077
604.875 0.0275531622709 -59.5874605271
605.0 0.0270033380088 123.490829747
605.125 0.0745664758263 5.69044189529
605.25 0.0455917271726 -85.4260246783
605.375 0.0686082417814 -148.817595805
605.5 0.0301343086481 -70.9526078304
605.625 0.0284845539328 99.4365567966
605.75 0.0750029637868 -7.56213374922
605.875 0.0822488186606 -98.2513211617
606.0 0.096161614969 -167.523572309
606.125 0.0157489229625 -110.802257689
606.25 0.0151149525192 173.148580706
606.375 0.0401931429039 -24.8864659027
606.5 0.0414635838808 -136.782392305
606.625 0.0818362133542 173.280994356
606.75 0.0696122257111 122.932256326
606.875 0.0188563998769 142.694039673
607.0 0.03544230959 -53.5754644299
607.125 0.0372977108506 174.641315261
607.25 0.0955649562007 156.514675907
607.375 0.0619104567456 88.5651158669
607.5 0.0289183161969 23.1565947953
607.625 0.0568564938411 -86.1889468208
607.75 0.0460359803591 169.059196781
607.875 0.0718335422423 106.144367937
608.0 0.117740093264 59.3554152305
608.125 0.105520180807 -14.5979791773
608.25 0.0389557342319 -104.044089057
608.375 0.0342296810888 118.437357892
608.5 0.0742378393772 83.9799536538
608.625 0.109496761762 32.0035859021
608.75 0.0957634642413 -33.6087347664
608.875 0.0396868650627 -113.476022237
609.0 0.0543584042365 143.068027339
609.125 0.1167446306 77.9978622211
609.25 0.0860496789626 13.7828405096
609.375 0.091133769003 -42.1288661391
609.5 0.0642400723558 -121.348792264
609.625 0.054331483133 144.123927872
609.75 0.124605404279 85.1788727505
609.875 0.128185802261 19.8517521941
610.0 0.0819085646714 -47.4086937304
610.125 0.0763287128853 -129.298501458
610.25 0.0665663568635 136.624323403
610.375 0.114209916733 66.66674645
610.5 0.1199906224 8.71818369769
610.625 0.110733161151 -56.4622147191
610.75 0.0859207724925 -139.687243752
610.875 0.0643423342039 135.119080802
611.0 0.108213030422 57.1853870682
611.125 0.110719009616 -7.13004897309
611.25 0.0950728324867 -63.1243004439
611.375 0.104195852145 -132.044759723
611.5 0.0953561513239 135.506520183
611.625 0.108967315442 50.6751693233
611.75 0.12857404666 -16.9372630939
611.875 0.098946089346 -70.5664224613
612.0 0.0966849793021 -133.824925426
612.125 0.0850413145727 153.437512927
612.25 0.105892637432 62.9377110514
612.375 0.127882363695 -9.52911853188
612.5 0.116067244876 -75.614921183
612.625 0.112523157267 -148.626220341
612.75 0.0784622539239 144.872771247
612.875 0.0838927340944 65.3714005311
613.0 0.10608975247 -14.3478185579
613.125 0.117125879169 -83.8978777296
613.25 0.138827028318 -163.769399825
613.375 0.103999026932 120.351482246
613.5 0.0734243737477 53.0673485939
613.625 0.0849039328561 -26.4209896521
613.75 0.0837558970456 -90.6116198293
613.875 0.118476312303 -162.62834424
614.0 0.143757740511 114.762646694
614.125 0.104031287802 37.16095327
614.25 0.0848639707716 -41.6056769961
614.375 0.0691937887377 -98.6463625848
614.5 0.098543646631 -176.40688988
614.625 0.12463449923 104.836021362
614.75 0.139292353516 21.6304745568
614.875 0.118471913396 -63.8457634637
615.0 0.0812936290205 -119.281475929
615.125 0.0787198902856 168.68722393
615.25 0.0965886097082 92.3669212428
615.375 0.0929054503131 27.7986548581
615.5 0.12832492329 -57.7219415753
615.625 0.116528598431 -137.497359834
615.75 0.0905256844586 155.844772275
615.875 0.0809811647233 70.9350660076
616.0 0.0707874958285 11.847647902
616.125 0.0986852511611 -77.9911036119
616.25 0.0954895802763 -137.359273076
616.375 0.107365668082 138.048159737
616.5 0.0999883179332 44.5649170052
616.625 0.0686257601799 -12.0244730783
616.75 0.0629150465566 -87.7138475165
616.875 0.08712141789 -166.165436018
617.0 0.0941172956688 133.347355931
617.125 0.143761708298 27.0399921382
617.25 0.094103592461 -43.1092121455
617.375 0.061141827812 -70.5796433035
617.5 0.0649960371758 174.274287291
617.625 0.104812712392 95.5667075429
617.75 0.0955774530507 44.8630102346
617.875 0.106760306602 -51.1350024015
618.0 0.0697978856005 -83.5442199262
618.125 0.063255925991 177.746607963
618.25 0.080101715063 77.1441683973
618.375 0.0805735261908 29.9858043129
618.5 0.0964336351735 -55.1948958974
618.625 0.0665007596432 -73.8383633338
618.75 0.0518602295327 140.379181515
618.875 0.0912834389224 53.2160495904
619.0 0.0691673451702 27.7336489007
619.125 0.06715824138 -62.7438704203
619.25 0.057277032196 -144.435009862
619.375 0.0404787145216 154.535958158
619.5 0.0797886746651 66.616687419
619.625 0.0941169570059 -24.677406139
619.75 0.0638623722654 -88.6319616104
619.875 0.0361026383655 -155.284814014
620.0 0.103334158362 88.1184454005
620.125 0.110731603517 22.829449178
620.25 0.0747690735131 12.8007618529
620.375 0.0678160190635 -108.621604044
620.5 0.0310222905927 -126.68123144
620.625 0.0575656397236 42.8224406904
620.75 0.0392072094006 9.4492887723
620.875 0.0622103763315 -9.45747304943
621.0 0.072991594168 -125.693066602
621.125 0.0421357869328 -105.9877223
621.25 0.0464439654203 15.1332055662
621.375 0.0254568624073 -8.17275350667
621.5 0.0526860161861 -49.5528569217
621.625 0.0787776894927 -137.295307258
621.75 0.0355972282901 -117.963975815
621.875 0.0499274818469 -1.78919897348
622.0 0.0156931120046 -155.800204899
622.125 0.0594542787477 -105.699916879
622.25 0.0832802878461 -162.147373611
622.375 0.0523722451354 -173.313596189
622.5 0.0446762148054 -175.272695184
622.625 0.0842604874393 -128.702875936
622.75 0.0552632501959 -162.017588462
622.875 0.107581331227 124.625292051
623.0 0.0423360696043 104.379242721
623.125 0.0316612016628 -171.279115606
623.25 0.052350233686 -167.280143781
623.375 0.0318805919584 154.752782733
623.5 0.101759844269 104.517815947
623.625 0.0617684878166 52.9561573663
623.75 0.0436291119346 136.505272519
623.875 0.0497500495233 -173.864684936
624.0 0.0989635432187 152.005428143
624.125 0.107657205641 97.467710248
624.25 0.0736012723635 38.7300383315
624.375 0.0488491425377 140.119812133
624.5 0.0776218809993 -148.541396511
624.625 0.0866240327296 159.252135199
624.75 0.105720615406 104.165650598
624.875 0.0715245622659 48.4089884008
625.0 0.0390939176819 164.309840999
625.125 0.0991753166335 -138.054483885
625.25 0.105016127882 153.687943907
625.375 0.0794957024688 94.7506340878
625.5 0.059989804865 33.9473710981
625.625 0.0271165575573 155.723701305
625.75 0.0467676628661 162.353378053
625.875 0.135981777574 136.437065561
626.0 0.0757646250568 66.8365290065
626.125 0.0711997077117 10.0368690903
626.25 0.0410564583921 125.99764809
626.375 0.0579810252303 152.985859401
626.5 0.115579954132 122.080409022
626.625 0.118903923428 55.9186788554
626.75 0.100800967789 -5.19724535967
626.875 0.00622631169621 161.627058122
627.0 0.0397593767917 106.096582454
627.125 0.100193709985 105.414381234
627.25 0.0975771750142 57.2854936378
627.375 0.0808735184362 3.91724677055
627.5 0.0577650283998 -86.7356541685
627.625 0.0319326467672 126.990638182
627.75 0.0960395803845 100.010168984
627.875 0.0713348535664 41.3072624231
628.0 0.0860170350329 1.76526447364
628.125 0.0466293904486 -71.3203820097
628.25 0.0323131058351 143.860835601
628.375 0.116954204038 100.595694553
628.5 0.0714041483838 40.5073407338
628.625 0.0589443289307 -11.0099534116
628.75 0.0546933062937 -76.3515408409
628.875 0.0725396188023 -165.698087007
629.0 0.151439157631 108.406766543
629.125 0.136642112088 35.8529961256
629.25 0.0470599402005 -17.0690227942
629.375 0.06381957767 -92.4769315197
629.5 0.0426555318614 172.388430007
629.625 0.111032959925 111.603037843
629.75 0.134834158672 45.915780098
629.875 0.0866367743078 -18.5019713366
630.0 0.0724261564201 -91.2227004404
630.125 0.030620638736 162.747835551
630.25 0.095125374894 98.657571416
630.375 0.120880649671 47.8332769206
630.5 0.0697033724296 -13.2814863948
630.625 0.0948563650345 -77.9995011779
630.75 0.0884699571458 -174.750178235
630.875 0.080270833674 94.1507627406
631.0 0.0957252188013 30.7302702753
631.125 0.120442714452 -15.7533323138
631.25 0.109858911456 -75.5050396155
631.375 0.055123358995 -162.236990898
631.5 0.0792543343157 103.04261291
631.625 0.0867770121447 19.7861586314
631.75 0.12263547273 -37.8003760535
631.875 0.0876504048721 -84.7715401037
632.0 0.0751006261735 -160.345484036
632.125 0.0931119912789 102.933557851
632.25 0.100282751623 19.9603915772
632.375 0.131371722586 -49.1219176005
632.5 0.122425031327 -112.881734299
632.625 0.0462190844413 -168.81956821
632.75 0.0751751652971 102.928654113
632.875 0.112472734116 19.8642968524
633.0 0.1373419637 -50.7106231838
633.125 0.137478145963 -112.048253069
633.25 0.0632275335 -177.584372097
633.375 0.086028191987 87.9806509492
633.5 0.0910568297465 11.2989927174
633.625 0.144656595159 -61.9186501882
633.75 0.12595506412 -130.19086182
633.875 0.0679401389414 169.600816334
634.0 0.0914717616311 83.3670393616
634.125 0.110117580842 -4.96538798756
634.25 0.0990557355501 -73.781150712
634.375 0.135924212742 -137.93076335
634.5 0.0708185633941 157.280937141
634.625 0.0692357999213 74.3623450937
634.75 0.109474214537 -10.8865761302
634.875 0.124744180797 -95.9970883196
635.0 0.13501324583 -160.201192882
635.125 0.0818394461772 139.495790359
635.25 0.085313737639 55.6340687962
635.375 0.0897028838696 -32.7017542705
635.5 0.111512622474 -106.191172329
635.625 0.152692295019 -175.825604361
635.75 0.0989218949674 119.017001836
635.875 0.0880401541129 46.3087190401
636.0 0.0957468577266 -38.373769955
636.125 0.0856025879344 -119.71367609
636.25 0.10807454253 177.912362944
636.375 0.125253789087 112.152388788
636.5 0.101071401067 38.6636320294
636.625 0.11836654696 -41.7042368307
636.75 0.091373473938 -113.860903463
636.875 0.10552808249 171.580868636
637.0 0.0846684285064 108.903261759
637.125 0.0925885127814 36.5054669521
637.25 0.132436408178 -46.7939677614
637.375 0.127428520082 -122.24062767
637.5 0.124080533736 162.911863204
637.625 0.0750675094351 101.2789516
637.75 0.0665875136683 22.6419501149
637.875 0.103125005772 -62.3106291698
638.0 0.136131418986 -135.142871539
638.125 0.137788468604 162.152138715
638.25 0.125650425655 87.333143849
638.375 0.0876235859685 12.6189489089
638.5 0.0631596444882 -70.0220312391
638.625 0.103272956318 -147.241458616
638.75 0.123040719431 156.101404713
638.875 0.144130572708 97.6698422006
639.0 0.137663429479 17.1263242773
639.125 0.0705342624129 -58.689426317
639.25 0.0811974381873 -142.750868757
639.375 0.0906708198489 157.459379776
639.5 0.129907853599 104.600425254
639.625 0.151962990601 45.2044111982
639.75 0.121899548993 -31.6915746982
639.875 0.0884662489506 -122.662991288
640.0 0.0795729928537 162.344454326
640.125 0.104257708997 103.468730179
640.25 0.131770180585 42.8496599481
640.375 0.130186768073 -22.1419977642
640.5 0.117845749866 -107.552764855
640.625 0.107470661682 159.247387189
640.75 0.0896979112072 89.9778756844
640.875 0.115150885485 21.6267611929
641.0 0.105374963055 -41.5870092265
641.125 0.113176661068 -114.949680738
641.25 0.110293267448 162.97966264
641.375 0.0983689764397 86.2205258157
641.5 0.110248524868 -7.66736323042
641.625 0.0980570706967 -65.7516528835
641.75 0.0829930988017 -123.012356421
641.875 0.0915074743244 162.502339839
642.0 0.129971564515 65.6726473668
642.125 0.116655392158 -18.8493631124
642.25 0.0787300129223 -57.4041215326
642.375 0.0856475558859 -162.438289851
642.5 0.08236942513 135.283726722
642.625 0.111069356741 45.4917991028
642.75 0.100566412258 -30.4578032701
642.875 0.0747520292551 -51.4718591005
643.0 0.050744989199 -140.527630239
643.125 0.0645007233263 87.5162765087
643.25 0.0635615990581 45.122736453
643.375 0.0733246005212 -61.427409015
643.5 0.0624706199671 -57.0852203931
643.625 0.0233513298595 -174.625665305
643.75 0.0514719722268 27.9906392944
643.875 0.0422523686004 -23.1114762554
644.0 0.0651965564767 -119.241165125
644.125 0.0521499832819 -74.074328129
644.25 0.0154388842585 37.4400146329
644.375 0.0580155238858 -49.4201253929
644.5 0.0165959110565 -123.917067793
644.625 0.0683751743095 -176.632322976
644.75 0.0378662237729 122.338711697
644.875 0.0161634367483 -142.716229734
645.0 0.0779708681606 -91.7758680152
645.125 0.0412633709704 -164.916530883
645.25 0.0528794973487 136.745258679
645.375 0.0274580945393 77.910178147
645.5 0.0210436150397 -164.257443642
645.625 0.0890940695452 -111.246083663
645.75 0.0626837650235 150.427247655
645.875 0.0533943295044 96.5429927482
646.0 0.0651925653184 40.5165256974
646.125 0.0622586613541 -38.4665447922
646.25 0.101047779392 -130.506453353
646.375 0.110174757196 153.41566346
646.5 0.0459677795052 58.3167861783
646.625 0.108122365093 13.0906570848
646.75 0.0636890508163 -53.3323256883
646.875 0.0981565742275 -139.569236313
647.0 0.0891493396847 139.79821299
647.125 0.0594401746987 57.1819215562
647.25 0.108397610822 0.473249630856
647.375 0.0688563324584 -80.3980034693
647.5 0.106880738133 -160.782400798
647.625 0.104660194829 129.454457464
647.75 0.040640643259 40.5199089466
647.875 0.065697131498 -21.1614064199
648.0 0.0937829632962 -89.9022994122
648.125 0.0980176055759 -171.802322587
648.25 0.122684065333 121.437111733
648.375 0.0512510950336 53.9172003891
648.5 0.0750774362207 -13.3653211471
648.625 0.0810237501272 -95.4405607397
648.75 0.0949999268181 -172.863149589
648.875 0.129463561709 127.343551245
649.0 0.075103235867 60.4959304493
649.125 0.107775342846 -3.37003771029
649.25 0.0786282100476 -83.9363102071
649.375 0.0695910324672 174.637071297
649.5 0.0943042581347 115.450939564
649.625 0.102103382424 61.1158159357
649.75 0.0818265669619 1.97060451211
649.875 0.099450909895 -75.2535144837
650.0 0.0533156016596 -170.217553422
