!Created with skrf (http://scikit-rf.org).
# GHz S RI R (50+0j) 
!freq	ReS11	ImS11	
500.0	-1.802949487	-3.778215379	
500.625	2.093999381	-1.439281853	
501.25	-2.050233612	-3.359231369	
501.875	-1.730017435	-0.8715620436	
502.5	-0.1770923366	-0.08113370061	
503.125	-0.3043971709	-0.1195150256	
503.75	0.3184045006	0.2342831124	
504.375	0.03733330163	0.1032620922	
505.0	-0.004196970553	-0.2229936788	
505.625	0.2055994127	0.0279012679	
506.25	-0.7110440942	-0.2975854316	
506.875	0.6427865646	-0.456168806	
507.5	-0.5057471466	-2.130396808	
508.125	-1.375060979	-1.987427633	
508.75	1.398148147	-0.8310403391	
509.375	-0.5955004234	-6.288902849	
510.0	-1.117753396	0.1152365746	
510.625	-0.1188215828	-0.741981366	
511.25	-0.5106653624	0.128565238	
511.875	-0.2974814699	-0.1592723849	
512.5	-0.08295818285	0.181341598	
513.125	-0.110453779	-0.3207512291	
513.75	-0.08787610617	-0.00385106625	
514.375	-0.2747552525	-0.4120363323	
515.0	-0.616961579	1.262168076	
515.625	0.6328120437	-3.817247046	
516.25	-2.894412977	-0.2193459155	
516.875	0.8897691717	-1.128538216	
517.5	-0.7392856097	-1.115410012	
518.125	0.3597398505	0.07949616391	
518.75	-0.6185392519	-0.938504879	
519.375	-0.03075128009	0.1408975194	
520.0	0.2238925549	0.2876016116	
520.625	0.575712904	-0.3793871119	
521.25	-0.1909569008	-0.4924909059	
521.875	-0.3217838258	-0.2381953474	
522.5	-0.1055041121	0.1830872316	
523.125	-0.3852962977	-0.0259413158	
523.75	-0.2081625063	0.04419495622	
524.375	-0.5119729002	-0.02078777827	
525.0	0.2262889158	0.2919769962	
525.625	-0.1450195222	0.1303803344	
526.25	0.204931483	-0.1050470439	
526.875	-0.3735108766	0.2423983456	
527.5	0.2066340691	0.5549971982	
528.125	-0.2773497928	0.5455554604	
528.75	0.1072805953	1.167964204	
529.375	0.03779914251	-0.09829731732	
530.0	0.3752948231	0.78290408	
530.625	0.1193826616	0.5486723022	
531.25	1.68634429	0.4217821495	
531.875	-0.04060783751	-0.3094055055	
532.5	0.1342978773	-0.6609838928	
533.125	-0.291523184	0.5584607889	
533.75	0.4834855847	-1.008752855	
534.375	-0.4668125619	-0.2425050867	
535.0	-0.5687882767	-0.5995560495	
535.625	-0.2937906983	0.733454726	
536.25	-0.06369252109	0.102559334	
536.875	0.3149913259	0.1507471071	
537.5	0.1262614644	-0.2048295935	
538.125	0.2731478172	0.06348083109	
538.75	0.3766278468	-0.4750318974	
539.375	-0.1079981366	-0.2363649371	
540.0	-0.3459235998	-0.5644924689	
540.625	-0.4682149251	0.1454990452	
541.25	-0.0731561462	-0.0996266744	
541.875	-0.1930077417	-0.07726646622	
542.5	-0.1706123411	-0.05324856312	
543.125	-0.04204771588	-0.1079730005	
543.75	-0.4054914685	-0.08626966673	
544.375	0.1553429716	0.1121551275	
545.0	-0.19808881	0.2235266684	
545.625	0.3023951359	-0.0624713554	
546.25	0.01631083432	0.2960334159	
546.875	0.4519288085	-0.275729428	
547.5	0.06794482828	-0.04773174883	
548.125	0.08567654188	-0.5528179372	
548.75	-0.4840603315	-0.256268398	
549.375	-0.1052426006	-0.05488949456	
550.0	-0.3007726971	-0.1175912976	
550.625	-0.01966846236	0.1177102234	
551.25	-0.2820253739	-0.04824336195	
551.875	-0.0927348909	0.2771061597	
552.5	-0.157885582	0.07521293147	
553.125	-0.03125149859	0.2201922181	
553.75	0.09350417091	0.0890929223	
554.375	0.2287108602	0.03497954873	
555.0	0.2515972741	-0.1773723631	
555.625	0.1943777729	-0.2509410899	
556.25	0.1759208945	-0.3307873112	
556.875	-0.07592047378	-0.4051539097	
557.5	-0.2347028486	-0.2431684377	
558.125	-0.2567083369	-0.1124900139	
558.75	-0.2789316258	-0.02678532999	
559.375	-0.2412336752	0.06809346167	
560.0	-0.2320271888	0.1156331842	
560.625	-0.1655907999	0.3044340224	
561.25	0.09154227507	0.217918877	
561.875	-0.03439817885	0.1097860278	
562.5	0.1388647784	0.1135629844	
563.125	0.03447812887	0.222621666	
563.75	0.4496697577	-0.04627436061	
564.375	0.1314650238	-0.1543256848	
565.0	0.3626596092	-0.3392850247	
565.625	-0.2191408577	-0.3908380258	
566.25	-0.1542631049	-0.1618488002	
566.875	-0.2861268858	-0.3280822869	
567.5	-0.5012149285	-0.2310563412	
568.125	-0.1384797496	-0.2177088528	
568.75	-0.6430073585	-0.4427255981	
569.375	-0.4612387688	0.4188075128	
570.0	-0.3868536183	0.1734262294	
570.625	-0.2431945167	0.7218749506	
571.25	0.1434537027	0.01034779835	
571.875	0.003974092079	0.5142690138	
572.5	0.2928143218	-0.3810954376	
573.125	0.193715526	0.1047314584	
573.75	0.3759642575	-0.481652138	
574.375	-0.2646114323	-0.1499819562	
575.0	0.379960535	0.01040045844	
575.625	-0.1896074175	-0.3086043334	
576.25	0.3094384029	0.04689392636	
576.875	-0.005005861664	-0.6258930226	
577.5	-0.2463389214	-0.2576387921	
578.125	0.1724465434	-0.2561441124	
578.75	-0.1863084639	-0.5446737529	
579.375	-0.3853966906	-0.002755990841	
580.0	0.1396961295	-0.09878892827	
580.625	-0.4389988367	-0.05291144241	
581.25	0.02608219451	0.0376149379	
581.875	-0.3355888492	0.4645975808	
582.5	0.4308888096	0.4569996582	
583.125	-0.00166122933	-0.1633437189	
583.75	0.1079353903	0.5301459166	
584.375	0.05038479294	-0.3689791663	
585.0	0.160697994	0.5665439921	
585.625	0.5466047966	-0.2561709472	
586.25	0.03656626629	0.001840115032	
586.875	0.497077601	-0.4158963211	
587.5	-0.3080911577	-0.1894727438	
588.125	0.2511054962	-0.2360114351	
588.75	0.1222571136	-0.6198916225	
589.375	-0.09481058447	-0.2342405019	
590.0	0.2185639221	-0.4390626832	
590.625	-0.6180714349	-0.1765716833	
591.25	-0.1938584026	0.3078685961	
591.875	-0.1607044562	0.07108399044	
592.5	-0.007754946488	0.3375191101	
593.125	-0.2110669969	-0.1041340844	
593.75	0.2648715945	0.3713258184	
594.375	0.2267436604	0.08741180224	
595.0	0.1755714197	0.51331841	
595.625	0.8053346463	0.2481320972	
596.25	-0.08298491801	-0.1209884537	
596.875	0.4926708402	0.5192662842	
597.5	0.5588565851	0.00431915083	
598.125	0.009434504661	0.3073541877	
598.75	0.6743103176	0.3164421858	
599.375	0.2350037846	-0.09344687794	
600.0	0.6577945437	-0.158450436	
600.625	0.2840269782	-0.62427611	
601.25	0.1008855185	-0.1890877825	
601.875	0.01374074534	-0.4632803445	
602.5	-0.3915868366	-0.01214319709	
603.125	-0.2250474005	0.133453743	
603.75	-0.1623689193	0.05017011983	
604.375	-0.4344781135	0.1657339202	
605.0	0.0693848092	0.2253211097	
605.625	-0.4272573267	-0.04809427649	
606.25	-0.1268023728	0.3561364373	
606.875	-0.3549892487	-0.1248177958	
607.5	-0.6513253745	0.7258079183	
608.125	0.1369124601	0.2104114246	
608.75	0.1223893474	0.7696167931	
609.375	0.8051274303	-0.3468224714	
610.0	0.1746184651	0.02435571489	
610.625	0.413064572	-0.5795925296	
611.25	-0.1466740797	-0.2010172475	
611.875	-0.00316320488	-0.4777048043	
612.5	-0.4218633938	0.1062175358	
613.125	-0.3867319411	-0.162776365	
613.75	-0.2765429096	0.4645037356	
614.375	0.00539115695	-0.09426405768	
615.0	0.2509449356	0.3384805617	
615.625	-0.08308433814	-0.03753228684	
616.25	-0.292758669	0.5657438304	
616.875	0.1920437892	0.3386651811	
617.5	-0.5000983341	0.361832367	
618.125	0.08693386744	0.7506633807	
618.75	0.0675694477	0.1590074865	
619.375	0.1384564874	0.6458385829	
620.0	0.4202022714	-0.0563877658	
620.625	0.3881144947	-0.209906275	
621.25	-0.2918263215	-0.4542231673	
621.875	-0.3023750238	-0.3396360684	
622.5	-0.6201067664	0.2210351538	
623.125	-0.07471432394	0.2856626696	
623.75	0.3465840491	0.2769094905	
624.375	-0.161387691	-0.2302745986	
625.0	0.3794986383	0.01428095826	
625.625	-0.2533806958	-0.1900637998	
626.25	0.2989906499	-0.3438840691	
626.875	-0.6025150967	-0.3044668252	
627.5	-0.1926891389	0.131029525	
628.125	-0.116184512	-0.4311067955	
628.75	-0.3908095419	-0.1769727397	
629.375	0.02385513582	-0.3162907578	
630.0	-0.5650476542	-0.3678742596	
630.625	-0.2997653781	0.268267925	
631.25	-0.5286376775	0.2235007943	
631.875	-0.06983961745	0.7494107932	
632.5	0.3396052595	0.3604765502	
633.125	0.4017299808	0.1027425617	
633.75	0.4147812388	0.05182689011	
634.375	0.06695397592	-0.540982665	
635.0	0.1421313646	-0.0835253256	
635.625	-0.4611496113	-0.4160080012	
636.25	-0.1382409172	0.3273512519	
636.875	-0.5249660196	0.07063764809	
637.5	0.1340018612	0.4490229948	
638.125	-0.2395766883	-0.1880873367	
638.75	-0.4064480114	0.7751066316	
639.375	0.4556979988	0.348500426	
640.0	-0.1442522752	0.4571952399	
640.625	0.6876256272	0.6576901915	
641.25	0.6651455246	-0.3294724745	
641.875	0.3350813403	-0.01875899973	
642.5	-0.1201181419	-0.9742332811	
643.125	-0.06214588075	0.04078912882	
643.75	-0.3631423153	-0.5779897364	
644.375	-0.4466011166	0.4106259992	
645.0	-0.1736472328	-0.09741732001	
645.625	-0.1147983095	0.8133980847	
646.25	0.6654091283	0.1124919277	
646.875	-0.05977633472	-0.2053727253	
647.5	0.3517234109	0.4892063267	
648.125	0.06976105919	-0.4604936528	
648.75	0.8203643922	0.4826542596	
649.375	0.520997845	-1.091430509	
650.0	-0.0408207902	-0.220347232	
650.625	1.174101387	-0.5749450801	
651.25	0.02174418113	-1.27335671	
651.875	0.1453689138	0.2380604974	
652.5	1.30448434	-0.06053212248	
653.125	0.4274195887	-0.7455774678	
653.75	0.2952174134	0.02430325167	
654.375	-0.1046028819	-1.21313263	
655.0	-0.6676040979	0.2019473793	
655.625	-0.3745843267	-0.1221336348	
656.25	-0.0416960945	0.9223526224	
656.875	0.2476595606	-0.3638744639	
657.5	-0.06471719781	0.6224027975	
658.125	0.5754510377	0.267667669	
658.75	0.4341411271	-0.0002285452942	
659.375	0.9055174032	0.1626596595	
660.0	0.4974973768	-1.19144754	
660.625	0.1246445451	-0.3538741977	
661.25	0.7898642448	-0.6343931748	
661.875	0.2743349346	-1.120912505	
662.5	0.2351289534	0.1153809732	
663.125	1.232914116	-0.524944914	
663.75	-0.1094064652	-0.8450553813	
664.375	0.2438528236	-0.3790727466	
665.0	-0.8334498023	-0.8588156702	
665.625	-0.3513888969	0.446784629	
666.25	-0.5958163984	0.428346964	
666.875	0.5319242952	0.6550353976	
667.5	0.1654885015	-0.04412120353	
668.125	0.7248415418	0.3429744255	
668.75	0.4109669608	-0.6390469864	
669.375	0.06694306548	-0.319371396	
670.0	0.2409748162	-0.4404528253	
670.625	-0.02021711933	-0.7052133281	
671.25	-0.0760207861	-0.1222148218	
671.875	0.5629930794	-0.4372260274	
672.5	0.3466818549	-0.5628835326	
673.125	0.3423023405	-0.08240137964	
673.75	0.715872326	-0.7678211989	
674.375	-0.3427394626	-0.5335199187	
675.0	0.2720448943	-0.3001796047	
675.625	-0.7061824404	-0.7372100481	
676.25	-0.4722662262	0.4880174541	
676.875	-0.0847377909	-0.4741492188	
677.5	-0.6441933812	0.5122531786	
678.125	-0.1266084846	-0.03685341929	
678.75	-0.2376992684	0.9008191559	
679.375	0.660153035	-0.3313838661	
680.0	0.2272431598	0.2068167524	
680.625	0.4726358939	-0.2846896387	
681.25	-0.04676420321	-0.3523676209	
681.875	0.06902768778	0.4928417189	
682.5	0.8203347678	0.3408196184	
683.125	0.538236272	-0.06379453654	
683.75	0.2987188612	0.09525480018	
684.375	0.9104265875	0.532924843	
685.0	0.5871499149	-0.5996332506	
685.625	0.5443913035	0.6459887796	
686.25	1.102549042	-0.4999638534	
686.875	-0.05719917178	-0.1953585902	
687.5	1.560926255	-0.4582822344	
688.125	-1.144692114	-1.344012707	
688.75	-0.02374709712	-0.3921310114	
689.375	-1.415811336	1.0124221	
690.0	0.6986663302	0.5904837314	
690.625	-0.03560591795	0.8241574297	
691.25	1.249331362	0.4803865204	
691.875	0.6157558663	0.675170392	
692.5	1.515715854	0.7660597793	
693.125	1.601496301	-0.3173322458	
693.75	1.249927495	-0.2993823264	
694.375	1.021203494	-0.951828583	
695.0	1.013647848	-0.4180486191	
695.625	1.385754816	-0.5538588512	
696.25	0.6662048514	0.2551522952	
696.875	1.226262772	1.570662922	
697.5	1.208336054	0.2087475216	
698.125	0.9619074142	1.117141866	
698.75	1.347330156	-1.686102136	
699.375	-0.5724711671	-0.1755387573	
700.0	-1.567015264	0.7348801642	
700.625	0.8892292994	0.5237754301	
701.25	-0.08596026367	0.6026440579	
701.875	1.133812376	0.5731849666	
702.5	0.2356637793	0.5166672876	
703.125	1.249597391	0.5523273075	
703.75	0.6546805249	-0.5296107157	
704.375	0.9209986275	-0.0101111298	
705.0	0.5011309368	-0.7844850358	
705.625	0.1653648782	0.3525980828	
706.25	1.269532126	0.6264720916	
706.875	0.2154800391	0.06079333748	
707.5	0.4324548192	1.268076483	
708.125	1.486042537	-0.1655166974	
708.75	0.4793004551	-0.4159525182	
709.375	-0.7443279751	-1.144363252	
710.0	-0.156544043	0.7700945762	
710.625	-0.1250421771	0.4127909484	
711.25	0.4652217321	0.2314408479	
711.875	0.3176406102	0.2736911537	
712.5	0.8748315779	0.006508515933	
713.125	0.5823079657	-0.2636920409	
713.75	0.4143539321	-0.8209702484	
714.375	-0.1893028325	-0.2680748388	
715.0	0.3430370945	-0.8008264493	
715.625	-0.5387299407	-0.3785764112	
716.25	0.7568301869	-0.02492770046	
716.875	1.336052781	-1.263126701	
717.5	-0.1345424023	0.003335096364	
718.125	2.727682884	1.061346356	
718.75	2.050315807	-2.066406517	
719.375	0.7103379877	0.9271680152	
720.0	3.100941448	-3.898247115	
720.625	-1.058593727	-1.711000241	
721.25	0.8901898885	-2.289867353	
721.875	-0.5838878405	-3.594070683	
722.5	-1.836369388	-0.793311624	
723.125	-1.89478427	-1.205189981	
723.75	-0.9052399155	1.619164598	
724.375	0.2530035511	0.6922638168	
725.0	0.1228672358	0.9091156826	
725.625	0.6767384312	1.557889828	
726.25	0.8310296685	1.043076063	
726.875	-1.086804523	1.638541651	
727.5	-0.7364146402	4.99228873	
728.125	2.717790387	3.380744238	
728.75	-7.436698777	3.284797157	
729.375	4.182137972	16.29310168	
730.0	1.498440099	1.550295075	
730.625	-9.071141956	17.57200356	
731.25	9.864167051	14.83113342	
731.875	-8.782011871	-1.874899388	
732.5	-14.28907623	3.429247498	
733.125	-6.158727254	3.799642789	
733.75	-0.539333296	1.457719949	
734.375	2.913254696	2.840357033	
735.0	-0.8519660339	-0.9786934389	
735.625	-0.8829410749	-0.3454907382	
736.25	-0.2018287457	2.350213815	
736.875	0.8622079814	-0.1480988788	
737.5	2.411091077	2.223898244	
738.125	5.173230382	-1.731631036	
738.75	3.664799252	-6.552875451	
739.375	-1.306261315	0.4507121436	
740.0	23.6745665	12.00779196	
740.625	-1.619882795	-15.25376587	
741.25	-17.5962698	10.0954035	
741.875	-32.25200514	41.33570911	
742.5	9.13786209	-5.378796324	
743.125	2.418910426	-9.054286686	
743.75	-3.036086428	-1.85784262	
744.375	0.1789521989	-0.4389175122	
745.0	-0.031315234	0.8560627056	
745.625	-0.1300025392	-0.2032617659	
746.25	0.1568800779	-0.5025023509	
746.875	-0.5892545141	0.2989883628	
747.5	-0.181390848	0.4858971885	
748.125	-0.218304536	1.553459556	
748.75	0.956220552	0.9820506331	
749.375	0.2705958263	1.214776959	
750.0	-0.7288939648	1.386669661	
