!Created with skrf (http://scikit-rf.org).
# GHz S RI R (50+0j) 
!freq	ReS11	ImS11	
500.0	-0.05882696743	-1.312795647	
500.625	3.020422344	-4.009148183	
501.25	-1.779508214	-2.321480482	
501.875	-1.436494671	-0.1317013406	
502.5	0.1033640376	-0.3736571857	
503.125	-0.3467605228	0.1883807377	
503.75	-0.05436360119	-0.01698089439	
504.375	0.1784169076	-0.03612400458	
505.0	-0.04992297118	0.03862655841	
505.625	0.1017384409	-0.3803795228	
506.25	-0.2219048569	0.3330578136	
506.875	-0.4558783306	-0.940524171	
507.5	-1.592193156	-1.280084337	
508.125	0.04531477492	-0.2402479877	
508.75	3.584203154	-3.337401256	
509.375	-3.228565367	-3.419495648	
510.0	-0.2124728839	-1.103765318	
510.625	-1.684313793	-0.5831020899	
511.25	0.005234553926	-0.176962563	
511.875	-0.6710259201	-0.2352635381	
512.5	-0.0247171635	0.2431162089	
513.125	-0.06518321988	-0.1302812814	
513.75	-0.03692007334	-0.2956761155	
514.375	-0.6761501869	0.003173358995	
515.0	1.484698817	0.08011374414	
515.625	-2.088912723	-1.60306745	
516.25	0.9767672926	-0.4855446878	
516.875	-1.097779541	-2.761256701	
517.5	-0.7071659899	0.3283288251	
518.125	-0.004957103231	-0.5146051201	
518.75	-0.6687564225	0.03172709851	
519.375	-0.1947285088	-0.02044547144	
520.0	0.4779352015	0.2267347787	
520.625	0.2684801618	-0.2947757964	
521.25	0.2459523749	-0.5862272389	
521.875	-0.5783771631	-0.03378415129	
522.5	-0.002221284053	-0.02905826239	
523.125	-0.1786687791	0.2747764484	
523.75	-0.2135131127	-0.1517021498	
524.375	-0.4379547224	0.395032916	
525.0	-0.161594291	0.01324252356	
525.625	0.104903975	0.3968068601	
526.25	-0.1630959964	-0.2542882502	
526.875	-0.02209119705	0.3036612109	
527.5	-0.1485073618	0.1961015885	
528.125	-0.03748930105	1.219660614	
528.75	0.5796287269	0.4948436373	
529.375	-0.04386195429	0.3603019202	
530.0	0.2868529061	0.1672655889	
530.625	0.02094940155	1.394174816	
531.25	1.071125111	-0.3075068759	
531.875	0.6983250801	-0.06503270711	
532.5	-0.4089858043	-0.4532877113	
533.125	0.6828025168	0.02200601077	
533.75	-0.1475544285	-0.6818974629	
534.375	0.1668953961	-0.6691639909	
535.0	-1.098357746	-0.1961041953	
535.625	-0.1175171075	0.1487879915	
536.25	-0.1219527553	0.2541370243	
536.875	0.3553174266	-0.002785499045	
537.5	0.06713810948	6.873103692e-05	
538.125	0.4661409403	-0.2293059005	
538.75	0.1271459003	-0.2371593521	
539.375	-0.0022869068	-0.522005139	
540.0	-0.6339090568	-0.2940356426	
540.625	-0.1508454852	-0.05000124046	
541.25	-0.2660734696	-0.06446007225	
541.875	-0.1840172327	-0.03649943623	
542.5	-0.04592990691	-0.001586715417	
543.125	-0.2028095184	-0.3124034291	
543.75	-0.2475212264	0.2395933018	
544.375	-0.1646266736	-0.09153529051	
545.0	0.1187844758	0.2581981776	
545.625	-0.1216364895	0.06073702212	
546.25	0.4597573752	0.1662306692	
546.875	0.02202542739	-0.130640505	
547.5	0.401142925	-0.1781651703	
548.125	-0.2591453534	-0.546785926	
548.75	-0.1961173858	-0.09095627221	
549.375	-0.1868612834	-0.3387584807	
550.0	-0.2651817932	0.1388644841	
550.625	-0.05504417117	-0.1394803922	
551.25	-0.2425790512	0.2005287476	
551.875	-0.109294288	0.04225341476	
552.5	-0.2015047762	0.2437266438	
553.125	0.01084143179	0.1430434861	
553.75	0.07673840926	0.1298369169	
554.375	0.2528280103	0.005529596928	
555.0	0.2178450631	-0.1669244172	
555.625	0.2216389143	-0.241367651	
556.25	0.1707253326	-0.3513660666	
556.875	-0.08661388634	-0.3904122244	
557.5	-0.2125756897	-0.2492321936	
558.125	-0.2792050018	-0.1129227171	
558.75	-0.2611499343	0.003140287365	
559.375	-0.2322854869	0.01797218432	
560.0	-0.2776740844	0.164889335	
560.625	-0.07390202831	0.2850608342	
561.25	-0.0322086715	0.1629824476	
561.875	0.1295157307	0.1804787738	
562.5	-0.05584755664	0.03708115977	
563.125	0.2608093126	0.2501076013	
563.75	0.19537915	-0.07848628902	
564.375	0.4022833028	-0.07857889024	
565.0	0.1619215569	-0.4930520731	
565.625	-0.1056887795	-0.2243782265	
566.25	-0.1403280419	-0.327325846	
566.875	-0.4729451454	-0.2155110492	
567.5	-0.2020614517	-0.106345254	
568.125	-0.2689211445	-0.602087554	
568.75	-0.6208223206	-0.03668803732	
569.375	-0.4498271576	-0.0212825768	
570.0	-0.4799876632	0.6635685611	
570.625	0.1161384866	0.3665821058	
571.25	-0.3193752964	0.1050232807	
571.875	0.5089826129	0.2604430027	
572.5	-0.06305151402	0.09746517389	
573.125	0.5475230271	-0.308755712	
573.75	-0.1482281648	-0.4158224684	
574.375	0.2239051513	0.1193852318	
575.0	-0.04780929939	-0.4172150958	
575.625	0.1881301339	0.1431576854	
576.25	0.3051366399	-0.4753715655	
576.875	-0.2781481119	-0.2934541584	
577.5	0.1933674929	-0.1234408855	
578.125	0.006887188613	-0.6241318577	
578.75	-0.3953913619	-0.216148171	
579.375	0.009005049258	-0.03953279568	
580.0	-0.2381290468	-0.3162395769	
580.625	0.02415284622	0.1307977412	
581.25	-0.5005359062	-0.007883376925	
581.875	0.1880622171	0.5511542818	
582.5	0.1594703941	-0.02320237981	
583.125	-0.1971510084	0.4215309804	
583.75	0.5734706602	-0.1613203364	
584.375	-0.3528494177	0.329731274	
585.0	0.6131435694	0.09868002697	
585.625	-0.02239094023	-0.05904667415	
586.25	0.7029042363	0.05199056644	
586.875	-0.1179473966	-0.4606031919	
587.5	0.2031210833	-0.1208426501	
588.125	0.02739454815	-0.6108843285	
588.75	-0.2149378833	-0.3058984054	
589.375	0.3710008259	-0.04115905874	
590.0	-0.1266778889	-0.6488403527	
590.625	-0.3915879801	0.0248149276	
591.25	-0.2987931521	0.07408845397	
591.875	-0.2214314137	0.4209584542	
592.5	0.08015185064	-0.07476986767	
593.125	-0.08831381482	0.2584768238	
593.75	0.1156919448	0.1391189959	
594.375	0.1137271948	0.4356774853	
595.0	0.7233666917	0.4586835186	
595.625	0.2450084171	-0.2372907925	
596.25	0.2327544125	0.5615360786	
596.875	0.6902268354	-0.06143224022	
597.5	-0.01650568512	0.1515489449	
598.125	0.5550272531	0.562232604	
598.75	0.2350983971	-0.04079277885	
599.375	0.572716202	0.3099924022	
600.0	0.4121566935	-0.6042775128	
600.625	0.1520077116	-0.2598839563	
601.25	0.3898970332	-0.3328136388	
601.875	-0.2150926672	-0.468416519	
602.5	-0.2619154472	0.006427274319	
603.125	-0.196164745	0.0468617089	
603.75	-0.3645691451	0.08090841666	
604.375	-0.1323764428	0.2942243968	
605.0	-0.2313992356	-0.003933226302	
605.625	-0.1958216021	0.3068205998	
606.25	-0.1670592703	-0.05963871785	
606.875	-0.7600604661	0.2380880157	
607.5	-0.01533223627	0.4049905252	
608.125	-0.5173221418	0.367360775	
608.75	0.8688530903	0.5131242821	
609.375	0.1322835767	-0.03219186637	
610.0	0.7120534607	-0.1777517442	
610.625	-0.04525996023	-0.4677978689	
611.25	0.3502470148	-0.1948779007	
611.875	-0.48828644	-0.2396354117	
612.5	-0.1147035156	-0.2199446319	
613.125	-0.6158494771	0.0201641886	
613.75	-0.03300271428	0.261409475	
614.375	-0.09649375512	0.5002145668	
615.0	0.1678416585	-0.08688058729	
615.625	-0.2234559955	0.3725873638	
616.25	0.2812525721	0.2843498254	
616.875	-0.4655735787	0.1918952542	
617.5	-0.1890693766	0.8120078456	
618.125	0.1680240682	0.2607193722	
618.75	-0.2438164023	0.5927668385	
619.375	0.3997032238	0.3061487808	
620.0	0.2472027268	0.2364932413	
620.625	0.3469941059	-0.4778888358	
621.25	-0.1328977013	-0.3064820907	
621.875	-0.5812887531	-0.2740358773	
622.5	-0.4140861145	0.1456390098	
623.125	-0.2546710613	0.3852347744	
623.75	0.4282962102	-0.0707793319	
624.375	0.09455982753	0.240559975	
625.0	-0.07971940089	-0.3819887522	
625.625	0.2655247465	0.1091465337	
626.25	-0.1868522267	-0.6469475838	
626.875	-0.3053325515	0.1192425938	
627.5	-0.2155727514	-0.465526426	
628.125	-0.4728487633	-0.03506256134	
628.75	0.09689718184	-0.171365899	
629.375	-0.3152934944	-0.6128400683	
630.0	-0.2929592435	0.03058823382	
630.625	-0.5466749365	-0.1179460377	
631.25	-0.4819974506	0.5482049928	
631.875	0.04200494247	0.5305383841	
632.5	0.2797428886	0.3820544813	
633.125	0.3938740795	0.2885673414	
633.75	0.4888450648	-0.2753094205	
634.375	0.1009062999	-0.1460266971	
635.0	0.09081217377	-0.5274865905	
635.625	-0.3021436821	0.03803379565	
636.25	-0.4910071807	-0.0779819857	
636.875	-0.1029188543	0.520896577	
637.5	0.05695288716	-0.04782305521	
638.125	-0.6366152837	0.3825796119	
638.75	0.3494293213	0.4292164945	
639.375	-0.3462749483	0.2556494681	
640.0	0.2942359794	0.9250792387	
640.625	0.6824748244	0.09819721365	
641.25	0.291513237	0.2210067734	
641.875	0.5993122691	-0.7843429966	
642.5	-0.1295727919	-0.1163218399	
643.125	-0.08837873873	-0.6321075252	
643.75	-0.6954578567	0.08202706887	
644.375	0.08884463442	-0.1918151622	
645.0	-0.7054397361	0.3562019561	
645.625	0.3081513135	0.6275365344	
646.25	0.3076087877	-0.124176834	
646.875	0.14222711	0.4308853933	
647.5	0.1643478424	-0.4985041207	
648.125	0.3272902068	0.6218910213	
648.75	0.8324621802	-0.518939157	
649.375	0.007838104032	-0.2257184713	
650.0	1.207934663	-0.6027358694	
650.625	-0.09000808404	-1.272621851	
651.25	0.05915150066	0.1089385272	
651.875	1.317670297	-0.2211642547	
652.5	0.4926810069	-0.8176024897	
653.125	0.2512375648	0.2243375217	
653.75	0.8426099442	-0.8080642209	
654.375	-0.5146679863	-0.4301282589	
655.0	-0.1816144814	-0.4991386364	
655.625	-0.9210927411	0.726419971	
656.25	0.4516848262	0.1122854771	
656.875	-0.2630616684	0.2435915209	
657.5	0.4032125495	0.3083159091	
658.125	0.08003210853	0.08954191539	
658.75	0.7602961637	0.653718456	
659.375	0.7332901701	-0.666542055	
660.0	0.3242751165	-0.4205920174	
660.625	0.7534633583	-0.6718555324	
661.25	0.02359169902	-1.210846354	
661.875	0.2818328674	0.013904341	
662.5	1.177875525	-0.4785808333	
663.125	0.352226666	-0.8782362417	
663.75	0.3388893241	-0.07905929988	
664.375	0.003436314701	-1.287563772	
665.0	-0.5276089791	0.003351792696	
665.625	-0.8423382427	-0.2792792161	
666.25	-0.1822511255	0.9992247355	
666.875	0.2119064422	0.06888311303	
667.5	0.3745586706	0.5866897624	
668.125	0.7090123505	-0.2288407304	
668.75	0.1752972989	-0.3038028963	
669.375	0.4569432216	-0.3343534207	
670.0	-0.07908985438	-0.7783024081	
670.625	0.02046696383	-0.1655015071	
671.25	0.2794609358	-0.5067900611	
671.875	0.09667008126	-0.5060684879	
672.5	0.4824027914	-0.01897281989	
673.125	0.6748836696	-0.6363987776	
673.75	0.008621983541	-0.5971299755	
674.375	0.2833786864	-0.1842648157	
675.0	-0.01735687123	-1.015894689	
675.625	-0.8288798135	0.1726111554	
676.25	0.02465362732	-0.5288225623	
676.875	-0.7719951318	0.325542063	
677.5	0.1668127426	-0.1170219494	
678.125	-0.9183178843	0.530535628	
678.75	0.5792367659	0.1543128759	
679.375	0.1208971466	0.4261950201	
680.0	0.7044902045	-0.1216268169	
680.625	-0.02401008739	-0.5808222343	
681.25	0.008071322616	0.4546464076	
681.875	0.6936590035	0.1221579266	
682.5	0.4387206735	-0.005484928594	
683.125	0.2907334409	0.1515333139	
683.75	0.9078286876	0.4260093082	
684.375	0.459095141	-0.2386469954	
685.0	0.5314447931	0.4530472907	
685.625	1.11355268	-0.09706849984	
686.25	0.006745666816	-0.2811944195	
686.875	1.574977596	0.2947027843	
687.5	0.0356074431	-1.637609323	
688.125	0.4220604105	-0.1944207396	
688.75	-1.254302474	-1.110458108	
689.375	-0.09536430279	1.150184194	
690.0	-0.4912533237	0.566523338	
690.625	1.180221186	0.6221209325	
691.25	0.2621987353	0.4095641464	
691.875	1.274230552	1.201480949	
692.5	1.50060024	0.1054291229	
693.125	1.322599124	0.1538944781	
693.75	1.434194535	-0.5719206036	
694.375	1.032403125	-0.889128114	
695.0	1.176666683	-0.9061045812	
695.625	0.8131014713	-0.150632076	
696.25	1.505514076	0.7750800167	
696.875	1.224399482	0.2265558003	
697.5	0.3260338722	1.319685319	
698.125	2.185207598	0.4135945931	
698.75	0.3587685754	-0.6087682437	
699.375	-0.6527934431	-1.71813907	
700.0	-0.3097821283	1.339394529	
700.625	-0.3345085665	0.251574823	
701.25	1.062293539	0.7038714138	
701.875	0.2694206005	0.2581019438	
702.5	0.9756047638	1.079563266	
703.125	0.9869912368	-0.1293483254	
703.75	0.9135190344	0.2422985287	
704.375	0.708185941	-0.894073614	
705.0	0.2317628592	-0.05541528538	
705.625	1.401949916	-0.03209694052	
706.25	0.2821228427	-0.0770166966	
706.875	0.2766710893	1.127332975	
707.5	1.294973925	0.6999165575	
708.125	0.4597105611	0.4780198089	
708.75	1.1521349	-1.155355498	
709.375	-0.9625579281	-0.3294063971	
710.0	-0.6124786544	0.1272681007	
710.625	0.3902570293	0.6232327129	
711.25	-0.02318217691	0.135943723	
711.875	0.6219212611	0.3777285322	
712.5	0.5881205988	-0.02423217282	
713.125	0.8016634323	-0.6146316829	
713.75	0.1151573416	-0.4294021018	
714.375	0.3227205314	-0.6879640061	
715.0	-0.4272694954	-0.4255395486	
715.625	0.4448670742	-0.2130362604	
716.25	0.2777012537	-1.378646894	
716.875	0.05218772235	0.0433648098	
717.5	2.038895668	0.5739428883	
718.125	2.232888013	-1.441888532	
718.75	0.1242220559	1.116357306	
719.375	4.009614154	-1.434705594	
720.0	-0.3226651779	-1.986911757	
720.625	1.039179787	-1.611492156	
721.25	-0.5878147621	-3.977974701	
721.875	-0.2831348925	-1.119696885	
722.5	-1.64957299	-2.835164253	
723.125	-2.245859775	0.09113937773	
723.75	-0.3976384702	0.8237368607	
724.375	-0.3696510052	1.093944313	
725.0	0.7210412601	1.236123908	
725.625	0.7705662362	0.5403944063	
726.25	-0.481871081	1.31466796	
726.875	-0.3382546362	3.528471555	
727.5	1.919148404	1.986819996	
728.125	-3.811887942	4.959463068	
728.75	2.697504671	9.077019882	
729.375	-0.6030396797	1.221314033	
730.0	-5.990283056	16.8852946	
730.625	12.12203312	4.332242221	
731.25	-12.67494133	3.357065792	
731.875	-10.80001415	8.185879127	
732.5	-7.362749044	8.503069231	
733.125	-2.742871279	-1.230140747	
733.75	-4.173148414	4.74453445	
734.375	2.035693295	0.3620716275	
735.0	0.7177188571	-0.7779972892	
735.625	-2.096958224	0.9476934828	
736.25	-0.1375564617	0.03110981092	
736.875	0.7920621085	2.331156862	
737.5	3.471805601	0.1439335614	
738.125	2.785927404	-2.874523436	
738.75	1.550087051	1.725985931	
739.375	14.42944655	-6.408832794	
740.0	-2.053097552	-14.32839918	
740.625	-2.856935691	12.0267422	
741.25	24.16036387	22.29845035	
741.875	38.39508605	-34.36668402	
742.5	-3.000636541	-21.44457931	
743.125	-5.477144669	-0.2355191044	
743.75	2.719365905	-1.136154869	
744.375	-2.376865095	-0.794971528	
745.0	0.5856318024	-0.3258749909	
745.625	0.3169905203	0.2145143297	
746.25	-0.2638686606	-0.3396619645	
746.875	-0.3420054482	0.001253460327	
747.5	-0.3635807465	1.105342591	
748.125	0.7800715973	1.354774755	
748.75	0.5581275117	0.9160421781	
749.375	0.5874849089	1.549078762	
750.0	-0.04627871353	0.3172887079	
