!Created with skrf (http://scikit-rf.org).
# GHz S RI R (50+0j) 
!freq	ReS11	ImS11	
500.0	0.02723665095	-0.7668363492	
500.625	1.048065655	-4.189635782	
501.25	-2.682435559	-1.491708851	
501.875	-1.214252031	-0.4636090194	
502.5	0.08279691201	-0.4306418926	
503.125	-0.360606778	0.180140049	
503.75	0.007962850175	-0.05421558301	
504.375	0.1865245172	-0.006474328323	
505.0	-0.09277769335	0.009420377473	
505.625	0.1354106649	-0.3642034376	
506.25	-0.2562951699	0.343386485	
506.875	-0.6175043861	-1.006720967	
507.5	-1.685323988	-0.6932481274	
508.125	0.2082834803	-0.182216604	
508.75	2.390676656	-3.571384761	
509.375	-2.884614798	-4.503521326	
510.0	-0.3256971051	-0.7641347432	
510.625	-0.9026718497	-0.4682136243	
511.25	-0.1060210354	-0.07444914024	
511.875	-0.5842499984	-0.1489782795	
512.5	0.0001262568038	0.2476524252	
513.125	-0.01905748242	-0.202617632	
513.75	-0.04077226075	-0.3451981336	
514.375	-0.6912454934	0.007875330098	
515.0	1.472686345	0.3905863815	
515.625	-2.410207689	-1.348805899	
516.25	1.053649061	-0.1228075579	
516.875	-1.019342233	-2.941181106	
517.5	-0.7623227367	0.2753231048	
518.125	0.01176733301	-0.4781148802	
518.75	-0.5981339702	0.07611150992	
519.375	-0.1547221592	0.008405690185	
520.0	0.4788766561	0.2342316945	
520.625	0.2773356929	-0.3107216342	
521.25	0.1706979706	-0.5280517714	
521.875	-0.5886181913	-0.008194097546	
522.5	0.006645228694	-0.04656208512	
523.125	-0.2112134926	0.2796252192	
523.75	-0.1165617658	-0.1625674499	
524.375	-0.4762447142	0.4000903092	
525.0	-0.1394488421	-0.007830772403	
525.625	0.1106278983	0.3793707397	
526.25	-0.1759400719	-0.2710714874	
526.875	-0.006524703759	0.3122465934	
527.5	-0.1400103504	0.1696192455	
528.125	-0.04260328381	1.159689888	
528.75	0.5583007949	0.4688209151	
529.375	-0.0958843321	0.3569109206	
530.0	0.3521653923	0.1835590435	
530.625	0.02070901544	1.323256938	
531.25	1.015867406	-0.4570978051	
531.875	0.6716021591	-0.03208376761	
532.5	-0.5343364114	-0.445521372	
533.125	0.7656152737	0.04483163863	
533.75	-0.2484181428	-0.6999167141	
534.375	0.1328225194	-0.5923625632	
535.0	-1.104143295	-0.1408645362	
535.625	-0.07143672022	0.1337177317	
536.25	-0.1197448961	0.2732210912	
536.875	0.3444931371	-0.01552039388	
537.5	0.05829651397	-0.02819040949	
538.125	0.4527767585	-0.1794166232	
538.75	0.1287501371	-0.2902651162	
539.375	-0.001074702387	-0.447511321	
540.0	-0.6155075542	-0.3328549057	
540.625	-0.1332617751	-0.01877170191	
541.25	-0.297106217	-0.06671131138	
541.875	-0.1470975233	0.0231405023	
542.5	-0.04534880123	-0.03969633148	
543.125	-0.2116869888	-0.2826249815	
543.75	-0.266609548	0.2543670637	
544.375	-0.1320025869	-0.1186370349	
545.0	0.1199367849	0.2969285142	
545.625	-0.1218657076	0.001746731211	
546.25	0.4718983336	0.2053452725	
546.875	0.01304553201	-0.1590076601	
547.5	0.3986922276	-0.1816064317	
548.125	-0.2950074026	-0.5251906592	
548.75	-0.1982776712	-0.08562396414	
549.375	-0.1785868966	-0.3129431647	
550.0	-0.2764399593	0.1337399842	
550.625	-0.03129897062	-0.114469795	
551.25	-0.2613477623	0.1904256009	
551.875	-0.08416032825	0.05761204898	
552.5	-0.1907993242	0.2487153367	
553.125	0.02433525453	0.1294051511	
553.75	0.08461487344	0.1289961616	
554.375	0.2486892911	-0.004782270264	
555.0	0.2060602017	-0.1728851587	
555.625	0.2011285199	-0.241971068	
556.25	0.1570464675	-0.3486942174	
556.875	-0.09820243007	-0.377696214	
557.5	-0.2188465675	-0.2465317519	
558.125	-0.279662691	-0.1028613906	
558.75	-0.2565206313	0.01326200758	
559.375	-0.2262152133	0.02393529163	
560.0	-0.2699483428	0.1764267511	
560.625	-0.0629895684	0.2844930907	
561.25	-0.01099503679	0.153775894	
561.875	0.106337966	0.1901835071	
562.5	-0.02323510682	0.01416782275	
563.125	0.2397276145	0.2637610662	
563.75	0.2039036215	-0.1026540683	
564.375	0.3883280862	-0.09066110531	
565.0	0.126582082	-0.494230592	
565.625	-0.09508494198	-0.1954119264	
566.25	-0.1609147096	-0.3298164484	
566.875	-0.470730674	-0.1968935569	
567.5	-0.2225825335	-0.0731166526	
568.125	-0.2193778506	-0.5759171353	
568.75	-0.6852919256	-0.03514527488	
569.375	-0.3548262772	0.03647834192	
570.0	-0.5017720084	0.643985476	
570.625	0.1252375661	0.367627922	
571.25	-0.3024366269	0.1326787225	
571.875	0.5158714478	0.2392375234	
572.5	-0.07944716559	0.1127180889	
573.125	0.5355940834	-0.3063713873	
573.75	-0.1334083552	-0.4419576855	
574.375	0.1293776141	0.1424296335	
575.0	0.05284208017	-0.4255504137	
575.625	0.1097388216	0.1569645659	
576.25	0.3037998047	-0.4546667071	
576.875	-0.2849500431	-0.278936101	
577.5	0.2071775408	-0.1157819937	
578.125	-0.02411822069	-0.6355617265	
578.75	-0.3944764282	-0.1956869733	
579.375	-0.01696283544	-0.00726141123	
580.0	-0.1904357116	-0.3309736126	
580.625	-0.03172357606	0.1789534916	
581.25	-0.454261925	-0.06125948269	
581.875	0.1893719921	0.566203444	
582.5	0.1708374333	-0.02574877413	
583.125	-0.1718512992	0.4119103387	
583.75	0.5584156341	-0.1560626923	
584.375	-0.359883115	0.3172619603	
585.0	0.619905249	0.09373073082	
585.625	0.003468957324	-0.121816339	
586.25	0.6106513705	0.07979975168	
586.875	-0.07939689116	-0.5059434349	
587.5	0.1626789425	-0.1049324165	
588.125	0.01153278946	-0.5920349861	
588.75	-0.2119741525	-0.2795068569	
589.375	0.3934615944	-0.03731776919	
590.0	-0.1963847727	-0.6358008608	
590.625	-0.3757918978	0.03807377165	
591.25	-0.2408843356	0.09181669945	
591.875	-0.270415234	0.3698125478	
592.5	0.1971844003	-0.01442898335	
593.125	-0.1509598901	0.2587699853	
593.75	0.1425232916	0.1248107656	
594.375	0.1373340638	0.412313653	
595.0	0.715544696	0.3684812207	
595.625	0.2147617052	-0.2109727606	
596.25	0.2350205183	0.5453050009	
596.875	0.7051122897	-0.09683149519	
597.5	0.01007617574	0.108611035	
598.125	0.4634340284	0.5375976123	
598.75	0.3013780444	-0.05795806046	
599.375	0.5179588178	0.2568811323	
600.0	0.3965168741	-0.594545808	
600.625	0.1434424451	-0.2420377655	
601.25	0.3804287842	-0.3709860455	
601.875	-0.2709546361	-0.46005811	
602.5	-0.1958687417	0.006520975752	
603.125	-0.2055675413	0.07455767872	
603.75	-0.3556492729	0.07046375172	
604.375	-0.1350248818	0.3648359662	
605.0	-0.2012546649	-0.07480950537	
605.625	-0.2181451563	0.3687560856	
606.25	-0.09838028487	-0.06781384446	
606.875	-0.7525845725	0.230824669	
607.5	0.001765389562	0.4354854822	
608.125	-0.4592477832	0.3743274502	
608.75	0.8862166627	0.5142512113	
609.375	0.1223280298	-0.02700808334	
610.0	0.686296607	-0.1951109765	
610.625	-0.02788672788	-0.4826186692	
611.25	0.2897963974	-0.1938742957	
611.875	-0.500112347	-0.2234809022	
612.5	-0.1215486903	-0.2002413947	
613.125	-0.6170879599	0.02123027601	
613.75	0.04204609369	0.2686077079	
614.375	-0.1144224423	0.4739813887	
615.0	0.216051837	-0.08900261045	
615.625	-0.2636905161	0.3593702654	
616.25	0.2961949675	0.3366307383	
616.875	-0.4304203071	0.1649103562	
617.5	-0.1508745776	0.8061279489	
618.125	0.1577958276	0.2544460567	
618.75	-0.2037801176	0.583088637	
619.375	0.4221023774	0.2913769985	
620.0	0.2506827403	0.194794282	
620.625	0.3157932265	-0.4655752132	
621.25	-0.1366456377	-0.2999203058	
621.875	-0.6130447779	-0.2496840345	
622.5	-0.3664387182	0.1637804029	
623.125	-0.2612556413	0.3983067761	
623.75	0.4436943906	-0.09802935329	
624.375	0.08850627589	0.2048843742	
625.0	-0.09294738554	-0.3850201819	
625.625	0.265380266	0.1049673096	
626.25	-0.2006055982	-0.6382123459	
626.875	-0.3183953851	0.1418924204	
627.5	-0.1658314474	-0.4138308171	
628.125	-0.4778855799	-0.08716082103	
628.75	0.007595584905	-0.1360587976	
629.375	-0.2356333458	-0.5637803541	
630.0	-0.3883907243	0.05188043396	
630.625	-0.5402174263	-0.08419332225	
631.25	-0.4215469991	0.578067199	
631.875	0.1138108827	0.5061293874	
632.5	0.2439533082	0.37137519	
633.125	0.4177339562	0.2422076256	
633.75	0.5078853125	-0.3043111241	
634.375	0.01655396328	-0.127761804	
635.0	0.1330070801	-0.5149283161	
635.625	-0.4438310027	0.1083379512	
636.25	-0.420066131	-0.160499168	
636.875	-0.1079608329	0.5592147922	
637.5	0.06424561187	-0.05034704813	
638.125	-0.5767064895	0.4075175794	
638.75	0.4034554772	0.3451841636	
639.375	-0.4016565908	0.2940605393	
640.0	0.3806951546	0.9054399383	
640.625	0.7123176593	0.06927776471	
641.25	0.2663437045	0.06245349262	
641.875	0.7315737586	-0.6716819979	
642.5	-0.2658694674	-0.2025263664	
643.125	-0.05026592395	-0.5733810389	
643.75	-0.6972402374	0.09334642864	
644.375	0.07836169473	-0.2380452144	
645.0	-0.6876808378	0.4677070762	
645.625	0.368230449	0.5245042585	
646.25	0.289824913	-0.09963395162	
646.875	0.1092131189	0.4055241546	
647.5	0.3145739019	-0.5016365364	
648.125	0.1908803542	0.6336808555	
648.75	0.9247465751	-0.5377485503	
649.375	-0.07169607042	-0.3214717438	
650.0	1.148992153	-0.5268130152	
650.625	-0.1118783258	-1.27292587	
651.25	0.03982250485	0.1115063134	
651.875	1.289350135	-0.2510911077	
652.5	0.4431589042	-0.8682091808	
653.125	0.2071098123	0.1483326501	
653.75	0.7996138082	-0.7768457892	
654.375	-0.601947748	-0.4841246305	
655.0	-0.1916026853	-0.3963174906	
655.625	-0.8813758061	0.7406854077	
656.25	0.4830266769	0.09019808018	
656.875	-0.2579164611	0.2414888985	
657.5	0.4184588164	0.2903437684	
658.125	0.1341213057	0.06268571312	
658.75	0.6596481531	0.6137314677	
659.375	0.8009168987	-0.7277584359	
660.0	0.226847242	-0.4597462398	
660.625	0.6919617775	-0.6226649866	
661.25	0.0279315963	-1.213835089	
661.875	0.2694829615	-0.009449495339	
662.5	1.109901503	-0.5520182013	
663.125	0.298830135	-0.8909463311	
663.75	0.2649849385	-0.1043390939	
664.375	0.02368212936	-1.206164749	
665.0	-0.6915549943	0.02639942295	
665.625	-0.7043458167	-0.1981097686	
666.25	-0.1818459954	0.9815568051	
666.875	0.2171795515	0.04384080735	
667.5	0.4625640102	0.5435720404	
668.125	0.635121834	-0.2881818183	
668.75	0.1257445198	-0.2650545903	
669.375	0.4627335263	-0.3657573733	
670.0	-0.06244494749	-0.7680350121	
670.625	-0.1305229199	-0.1746340638	
671.25	0.317958683	-0.4153629987	
671.875	0.1704272466	-0.6017820541	
672.5	0.278567874	-0.05867479104	
673.125	0.6677246486	-0.6323031091	
673.75	0.001324573216	-0.5497674243	
674.375	0.2754616794	-0.2483423681	
675.0	-0.1183029745	-1.010627413	
675.625	-0.8215139304	0.2386967779	
676.25	0.07972225822	-0.399714297	
676.875	-0.8077655529	0.2611587157	
677.5	0.1136024476	0.03590871579	
678.125	-0.8209392356	0.37088687	
678.75	0.6373417058	0.2812509851	
679.375	0.1412565586	0.3687341752	
680.0	0.6915984185	-0.2047897931	
680.625	-0.1263550052	-0.5339765628	
681.25	0.1187385458	0.4980975484	
681.875	0.7302755736	-0.004476353882	
682.5	0.38323879	-0.00774355728	
683.125	0.3185606457	0.09201045411	
683.75	0.8070776128	0.5209461226	
684.375	0.6289744324	-0.4701508225	
685.0	0.3425622788	0.4718557745	
685.625	1.139218298	-0.1145832242	
686.25	-0.01808697889	-0.3973650319	
686.875	1.495181831	0.1980184941	
687.5	-0.1090608835	-1.550356337	
688.125	0.369566014	-0.1882613277	
688.75	-1.364706759	-0.9907139008	
689.375	-0.03344776696	1.204972866	
690.0	-0.3451592258	0.5121695376	
690.625	1.140585074	0.6303716813	
691.25	0.3613609623	0.3571964647	
691.875	1.164196218	1.092443301	
692.5	1.520185726	0.05795630532	
693.125	1.284843226	0.1046483032	
693.75	1.407522094	-0.6142602249	
694.375	0.9171744578	-0.9216932368	
695.0	1.131037622	-0.8736845903	
695.625	0.7866090212	-0.2473186079	
696.25	1.467517178	0.7814345203	
696.875	1.338647553	0.1065657006	
697.5	0.343795896	1.183509615	
698.125	2.232647452	0.1985719114	
698.75	0.183647605	-0.6149480616	
699.375	-0.8548611121	-1.588269729	
700.0	-0.1790529189	1.412394207	
700.625	-0.2817109417	0.2413784297	
701.25	1.086085557	0.6022547188	
701.875	0.2640493511	0.2283241783	
702.5	0.9500093603	1.006006796	
703.125	0.9937857921	-0.1921594188	
703.75	0.845045125	0.226313265	
704.375	0.7082536899	-0.9079153339	
705.0	0.1757146915	-0.1101158879	
705.625	1.35069083	0.03916697414	
706.25	0.2963994723	-0.1533478881	
706.875	0.3002319934	1.05963463	
707.5	1.359102311	0.6132656766	
708.125	0.5179832021	0.2681341234	
708.75	0.9870988386	-1.142332272	
709.375	-0.9741777939	-0.2674300159	
710.0	-0.5188601114	0.2630637327	
710.625	0.4100170073	0.5719383162	
711.25	-0.01389749133	0.1272877332	
711.875	0.6381350057	0.3757896029	
712.5	0.6041417074	-0.138467123	
713.125	0.7419916693	-0.6132697814	
713.75	0.0207963952	-0.4556787452	
714.375	0.4196478682	-0.6620120759	
715.0	-0.5560802299	-0.4767909325	
715.625	0.3937866924	-0.06630543101	
716.25	0.5096059251	-1.440611385	
716.875	-0.09839284929	-0.06665029835	
717.5	1.985792725	0.5487454239	
718.125	2.064775791	-1.676253999	
718.75	0.2505446242	1.454999682	
719.375	3.70097675	-2.369775402	
720.0	-0.7210145397	-1.581305393	
720.625	1.034651933	-1.661860913	
721.25	-0.2628933141	-3.775146896	
721.875	-1.376206993	-1.18473654	
722.5	-1.262287964	-2.483643051	
723.125	-2.315154585	0.2377441658	
723.75	-0.2867793862	0.9345665096	
724.375	-0.3522426503	1.176831681	
725.0	0.9271168382	0.9921337708	
725.625	0.4873805478	0.6376592918	
726.25	-0.3988353115	1.401353633	
726.875	-0.1449630768	3.409510059	
727.5	2.370093891	2.195923552	
728.125	-3.805252096	4.690125292	
728.75	3.132660401	8.066509658	
729.375	2.513525386	1.813510753	
730.0	-8.118162783	18.02149533	
730.625	10.61001311	11.6783924	
731.25	-6.574519889	3.960781872	
731.875	-10.80352171	9.784019781	
732.5	-5.22614225	9.506245338	
733.125	-3.08928613	-1.130957779	
733.75	-3.315395051	5.457517647	
734.375	2.056448999	-0.05783642531	
735.0	0.3411326694	-0.6726131617	
735.625	-2.169224639	0.8202708453	
736.25	0.2032091823	0.02393341379	
736.875	0.7839488475	2.233481656	
737.5	3.525933872	-0.04425318169	
738.125	2.795651089	-3.175858864	
738.75	0.9230138891	0.964008642	
739.375	13.2246364	-6.832519596	
740.0	-0.9427727704	-17.47213124	
740.625	-1.946274682	14.40327146	
741.25	17.94808402	17.91438666	
741.875	6.502066687	-13.98691785	
742.5	-23.32772632	-28.26028658	
743.125	-5.815801897	-1.214164946	
743.75	2.317203622	-0.7948940196	
744.375	-2.637892954	-0.6595906722	
745.0	0.8481150325	-0.1980828278	
745.625	0.1941773555	0.1837340176	
746.25	-0.1547270975	-0.4447987014	
746.875	-0.04850278904	0.01651665228	
747.5	-0.5848874897	1.322404226	
748.125	0.7676575479	1.275458737	
748.75	0.3189071064	0.8304891383	
749.375	0.8038411887	2.854662443	
750.0	0.6907036569	3.867177096	
