!Created with skrf (http://scikit-rf.org).
# GHz S RI R 50.0 
!freq ReS11 ImS11
500.0 -0.01122612361 0.001076316613
500.625 0.004082942428 -0.00137708515
501.25 -0.009945410245 -0.0190845278
501.875 -0.03899265307 -0.0289480083
502.5 -0.02942275424 -0.01369292572
503.125 -0.01503779452 0.003118828102
503.75 -0.01364647462 0.001249178427
504.375 -0.02025370324 -0.001357072265
505.0 -0.01176008463 -0.0008897502454
505.625 -0.01148286762 -0.009878414148
506.25 -0.03258756734 -0.00991714417
506.875 -0.06274818563 -0.04346281743
507.5 -0.06600395935 -0.01789738734
508.125 -0.05119414875 -0.03310666483
508.75 -0.08129923181 0.007460151611
509.375 -0.09016799451 0.02217626318
510.0 -0.06462739176 0.01247205585
510.625 -0.01038597886 0.02934944664
511.25 -0.02452610461 0.04370439815
511.875 -0.006566092641 0.064529778
512.5 0.02700113388 0.0390079563
513.125 0.06503383417 -0.02191415823
513.75 0.08249756382 -0.05963485048
514.375 0.04485449087 -0.06959904139
515.0 0.005279978196 -0.06419709095
515.625 0.04372198395 -0.06692256969
516.25 0.0308754106 -0.08022978008
516.875 0.08368651279 0.003533273433
517.5 0.07132939411 -0.0507774478
518.125 0.1907332152 0.01702401383
518.75 0.06230133496 -0.109129574
519.375 0.04820924863 -0.06525782365
520.0 0.0118252083 -0.06695426691
520.625 0.005494187634 -0.1071965269
521.25 -0.01035880289 -0.1082195138
521.875 0.01992720806 -0.05621237976
522.5 -0.01966298982 -0.07320598735
523.125 -0.04276141669 -0.208250972
523.75 -0.09942570955 -0.2934073939
524.375 -0.06845216939 -0.2764654994
525.0 -0.06975859037 -0.1282489772
525.625 -0.06336290978 -0.1101616037
526.25 -0.02551687629 -0.09894606625
526.875 -0.04548484347 -0.06992599787
527.5 -0.09133566459 -0.05405284108
528.125 -0.09812201552 -0.01415270891
528.75 -0.08563297298 -0.002353230029
529.375 -0.0951205975 0.0783668544
530.0 -0.03032457431 0.1467762586
530.625 0.07408795703 0.1236550905
531.25 0.0489832678 0.0831643235
531.875 0.05850174221 0.08437429679
532.5 0.07619615561 0.1394864152
533.125 0.05477797794 0.1217621366
533.75 0.05943913372 0.0709743423
534.375 0.06981895521 0.06334284227
535.0 0.09883612104 0.09721130216
535.625 0.04098307207 0.1036746767
536.25 0.08693395165 0.03166576529
536.875 0.09918874334 0.04967106096
537.5 0.05638244954 0.08465669392
538.125 0.03422888474 0.07394879328
538.75 0.07271558209 0.07690926473
539.375 0.0946941139 0.1351955342
540.0 0.08153877403 0.1176648016
540.625 0.06646433266 0.07966845786
541.25 0.0736735366 0.08026468025
541.875 0.07559285507 0.1036721565
542.5 0.01736432015 0.06732008366
543.125 0.01764252241 0.04068938399
543.75 0.07098599712 0.04312299807
544.375 0.1192690258 0.04972230787
545.0 0.110598762 -0.03579103752
545.625 0.05337203921 -0.08326964865
546.25 0.005496499919 -0.1213782373
546.875 0.01995695547 -0.1245782841
547.5 0.03917655521 -0.1152806026
548.125 0.04940151484 -0.1310461165
548.75 0.0932371297 -0.1238126369
549.375 0.1391042671 -0.09288399449
550.0 0.1485109932 -0.03223911767
550.625 0.1737696604 -0.05938670725
551.25 0.1710237915 0.03703236616
551.875 0.1223813994 -0.00337289037
552.5 0.09370983437 -0.03347089164
553.125 0.09769046973 -0.07191521972
553.75 0.1099709008 -0.03266580595
554.375 0.05920593441 -0.02425204668
555.0 0.05456390758 -0.0328517297
555.625 0.07590375757 -0.05680791288
556.25 0.09551035758 -0.03059119495
556.875 0.06440217531 -0.002724731796
557.5 0.06409264936 -0.003871481211
558.125 0.09836637762 0.02437056911
558.75 0.08388463741 0.07211205355
559.375 0.09395390189 0.05718061138
560.0 0.1172358507 0.03788329214
560.625 0.1318570984 0.01198370509
561.25 0.09670343755 -0.02143116939
561.875 0.06872611672 -0.04823233956
562.5 0.06838167934 -0.06407866722
563.125 0.05623751764 -0.06084522927
563.75 0.03585670792 -0.04729029006
564.375 0.0262830469 -0.06016970358
565.0 0.07298003316 -0.09546749529
565.625 0.08668203262 -0.07598028175
566.25 0.07686646528 -0.05812169191
566.875 0.07600377051 -0.06217059088
567.5 0.10445584 -0.03942674516
568.125 0.1058618025 0.02233759834
568.75 0.0982417715 0.02924976761
569.375 0.1241781845 0.02679019177
570.0 0.1306836867 0.02354378971
570.625 0.1100919743 0.007085758129
571.25 0.09686154258 -0.01842468003
571.875 0.107861978 -0.040567257
572.5 0.07181392909 -0.05623703735
573.125 0.03646803913 -0.04655617507
573.75 0.03674912366 -0.06061870739
574.375 0.05164379869 -0.08919017555
575.0 0.0436575325 -0.0868564531
575.625 0.008070586647 -0.06361656318
576.25 0.001182582557 -0.070155485
576.875 0.03730063456 -0.07821499192
577.5 0.04903286806 -0.06477298554
578.125 0.04041145404 -0.06616674308
578.75 0.03497018791 -0.09455185861
579.375 0.06133944734 -0.1094110594
580.0 0.06317760159 -0.0859520609
580.625 0.03874194219 -0.1056752656
581.25 0.00744636918 -0.1299694049
581.875 0.0121834056 -0.1048988289
582.5 0.02263492027 -0.06149154888
583.125 0.03023171688 -0.06534374889
583.75 0.05599144327 -0.08216076033
584.375 0.06123837546 -0.0635183784
585.0 0.04996933561 -0.03952175288
585.625 0.0598664076 -0.03666837494
586.25 0.081585334 -0.03985590782
586.875 0.06522630623 -0.03784613883
587.5 0.04343704526 -0.04653435603
588.125 0.04158777548 -0.07372570046
588.75 0.06202526634 -0.08034020874
589.375 0.03306147435 -0.09528417491
590.0 -0.02884205876 -0.09755575186
590.625 -0.06769371728 -0.09013133144
591.25 -0.03327886765 -0.06215148748
591.875 -0.01086004354 -0.03470210913
592.5 -0.01010974639 -0.04193399677
593.125 -0.009806270727 -0.07186384291
593.75 0.01826495613 -0.07109569756
594.375 0.03929781084 -0.04364314944
595.0 0.05481383978 -0.04261868639
595.625 0.08035131543 -0.03878583926
596.25 0.08136954003 -0.01834106199
596.875 0.06731233003 -0.002926725274
597.5 0.07067543041 0.00436900607
598.125 0.08372668058 0.005287876594
598.75 0.08581744312 -0.01476053487
599.375 0.08285459908 -0.03318038821
600.0 0.07834887937 -0.03658963139
600.625 0.06071672314 -0.03137793419
601.25 0.03588468181 -0.03009797409
601.875 0.02700762665 -0.02348437266
602.5 0.02872107165 -0.006767347614
603.125 0.01993808167 0.01072653302
603.75 0.02013789574 0.01801292679
604.375 0.03398084183 0.01930536846
605.0 0.03932000153 0.0201187075
605.625 0.01936388413 0.01642678077
606.25 -0.001134042155 0.01957250811
606.875 -0.004661649489 0.03794908251
607.5 0.01200918788 0.05089877282
608.125 0.03031735739 0.03842873263
608.75 0.0301333295 0.02726630582
609.375 0.02717509116 0.02991974999
610.0 0.02686426132 0.03044317131
610.625 0.02898052401 0.01759394568
611.25 0.024613585 0.004336541586
611.875 0.01570026505 -0.004578715227
612.5 0.003645940384 -0.01208895067
613.125 -0.01001836531 -0.01059959414
613.75 -0.01334181301 -0.0002781589545
614.375 -0.004085886738 0.003885870383
615.0 0.00394091328 -0.004720033989
615.625 -0.001553099451 -0.01393572917
616.25 -0.008671918068 -0.007627353945
616.875 -0.0008497768356 0.001284284155
617.5 0.01231305749 -0.0039245495
618.125 0.01753919613 -0.01345152068
618.75 0.01803457933 -0.01393963146
619.375 0.02724895235 -0.01053100224
620.0 0.04413225892 -0.02047045083
620.625 0.04330442854 -0.04877612019
621.25 0.0401921397 -0.05986727573
621.875 0.02628631958 -0.0705893912
622.5 -0.03552642792 -0.05934157867
623.125 -0.03548997934 -0.03263766287
623.75 -0.01632191017 -0.02076654464
624.375 0.005485593384 -0.02287359187
625.0 0.02352887624 -0.01717944747
625.625 0.02190854292 -0.006520054746
626.25 0.02939035394 0.004072266383
626.875 0.05657857096 0.0008264831193
627.5 0.07862383155 0.01271195355
628.125 0.07182854889 0.01925834641
628.75 0.06871128112 0.01801991892
629.375 0.08538405111 0.02314645015
630.0 0.09516123519 0.04676409563
630.625 0.07443557078 0.05325662001
631.25 0.07342827643 0.04002004307
631.875 0.07598008469 0.04037251765
632.5 0.06411205374 0.04359558509
633.125 0.03894761761 0.04574968698
633.75 0.04478067673 0.03945186516
634.375 0.04472136517 0.05403068139
635.0 0.03661005233 0.05183167903
635.625 0.03796470737 0.05456449176
636.25 0.05582451391 0.06805794938
636.875 0.05546357311 0.07809844001
637.5 0.03390110261 0.05801164257
638.125 0.02506190416 0.06217607968
638.75 0.02867417526 0.1091199796
639.375 -0.01628082884 0.1204911277
640.0 -0.03065728915 0.08536556047
640.625 -0.02195380836 0.07310482563
641.25 -0.0505021454 0.08453247238
641.875 -0.08519455514 0.04847357256
642.5 -0.07091939273 0.02905089295
643.125 -0.06913931519 0.03740168595
643.75 -0.09424528123 0.03026685894
644.375 -0.1081054987 0.00840101697
645.0 -0.09587473733 0.0149581778
645.625 -0.1045837827 0.04810675141
646.25 -0.1100105125 0.0584377536
646.875 -0.09973888655 0.02989034977
647.5 -0.08731277531 0.02149807321
648.125 -0.1058423409 0.03147427644
648.75 -0.1120558917 0.003247299409
649.375 -0.07761516107 -0.01121534151
650.0 -0.06145696532 -0.02597391798
650.625 -0.05112208753 -0.06842679098
651.25 -0.01414491459 -0.08556733457
651.875 0.01910272013 -0.07086961856
652.5 0.04401431507 -0.07722198082
653.125 0.10848283 -0.0822486667
653.75 0.1274043176 -0.03978979134
654.375 0.1195741173 -0.03436241205
655.0 0.1337428455 -0.04919145467
655.625 0.1459453228 -0.03696042553
656.25 0.1061227612 -0.01876834222
656.875 0.07693891108 -0.05313936609
657.5 0.1025436474 -0.05744063331
658.125 0.1066186972 -0.03109369634
658.75 0.07494418049 -0.005236728601
659.375 0.06502466857 -0.01897534004
660.0 0.09430688953 -0.05500735077
660.625 0.1060861837 -0.06355423
661.25 0.08939408809 -0.07480040521
661.875 0.06031047173 -0.1134223804
662.5 0.04644936151 -0.1451251234
663.125 0.06530342857 -0.13074803
663.75 0.08734989666 -0.09245047203
664.375 0.1394459 -0.03840013709
665.0 0.1185478092 0.0570961637
665.625 0.07304366726 0.06810958026
666.25 0.05498080122 0.0676344733
666.875 0.02951422454 0.1138958046
667.5 -0.04975434416 0.1122343249
668.125 -0.05404936778 0.07805292439
668.75 -0.02803025244 0.1031393934
669.375 -0.02528801126 0.1473354926
670.0 -0.06204679151 0.1319601642
670.625 -0.06178046857 0.08527613993
671.25 -0.02002561904 0.1165757482
671.875 0.01217851342 0.1489927547
672.5 0.05616350002 0.124607385
673.125 0.05478127268 0.08456275605
673.75 0.04695347847 0.08759877882
674.375 0.01530573993 0.1140372697
675.0 -0.02886599848 0.106126008
675.625 -0.05568186769 0.09905666981
676.25 -0.1188820245 0.07647983658
676.875 -0.1344613527 0.03344007939
677.5 -0.1301784091 0.03464697238
678.125 -0.1348348132 0.07528992422
678.75 -0.1728782953 0.05876898615
679.375 -0.119419144 0.002165497567
680.0 -0.0850550678 0.019006725
680.625 -0.09463178574 0.0511640308
681.25 -0.1180491007 0.06731924247
681.875 -0.09673597431 0.02947182891
682.5 -0.06502707525 0.04031685664
683.125 -0.0814081469 0.08106361573
683.75 -0.1288133843 0.08203210436
684.375 -0.1471549794 -0.01696437786
685.0 -0.08797967542 -0.09258001241
685.625 -0.0282876956 -0.1511025343
686.25 0.04123895818 -0.1618596264
686.875 0.06592895296 -0.1480145667
687.5 0.08997635078 -0.1297401267
688.125 0.1014263917 -0.0838520724
688.75 0.09051344429 -0.03899845877
689.375 0.08234387421 -0.02849099369
690.0 0.1187902854 -0.02690715057
690.625 0.1312926519 0.0194865967
691.25 0.1065058972 0.00245463018
691.875 0.09400409245 -0.06546247585
692.5 0.01484833031 -0.1815241914
693.125 -0.1223054482 -0.1803918967
693.75 -0.1380822634 -0.06222656155
694.375 -0.1360075115 -0.009087952958
695.0 -0.149548463 -0.07442136805
695.625 -0.02797977766 -0.1719199394
696.25 0.1048347195 -0.06256324035
696.875 0.1010652575 0.02878383434
697.5 0.04819906244 0.1008866425
698.125 -0.004756662291 0.1162553896
698.75 -0.02217387121 0.1234109159
699.375 -0.03261439041 0.1386411938
700.0 -0.05539243132 0.1205881969
700.625 -0.07743330579 0.0926883317
701.25 -0.07746103708 0.1134267184
701.875 -0.08386152976 0.1574386173
702.5 -0.02577075137 0.1209895707
703.125 0.01987669526 0.07466612445
703.75 0.07423045077 0.04978271242
704.375 0.1560745103 0.05709807935
705.0 0.1344721702 0.08555282499
705.625 0.07145843837 0.0841925606
706.25 0.02317371281 0.1144651506
706.875 -0.1117994071 0.1202361305
707.5 -0.173186515 0.01173893376
708.125 -0.1224476904 -0.0448961287
708.75 -0.0999502956 -0.07375873219
709.375 -0.02439021013 -0.1202004812
710.0 0.06165697148 -0.09828174506
710.625 0.08097383341 -0.06080203513
711.25 0.08531407661 -0.04093215304
711.875 0.07021523927 -0.02399992199
712.5 0.06811605815 -0.02311265128
713.125 0.06295302553 -0.09054752675
713.75 -0.0232652537 -0.1493232753
714.375 -0.09631975824 -0.1031434322
715.0 -0.1217942009 -0.04156326146
715.625 -0.1507241154 -0.04021868537
716.25 -0.1247593821 -0.1218503663
716.875 -0.02644745359 -0.1194497128
717.5 0.01959804335 -0.08769454784
718.125 0.04959231132 -0.08931474964
718.75 0.09400684103 -0.06697601885
719.375 0.08785832696 -0.01318704048
720.0 0.05841680731 0.01837442867
720.625 0.01589375214 0.06140258359
721.25 -0.07550546202 0.03326901688
721.875 -0.08226504247 -0.06133466144
722.5 -0.07683300598 -0.08353427138
723.125 -0.1235050185 -0.04025217104
723.75 -0.1076498643 0.05366822579
724.375 -0.03585062963 0.09116103857
725.0 0.02457666113 0.07780036323
725.625 0.04401960102 0.05093843901
726.25 0.03060713265 0.03262741517
726.875 0.002798749177 0.03453564684
727.5 -0.03232162695 0.04563607472
728.125 -0.06530389266 0.03826622761
728.75 -0.05823877451 0.03869811642
729.375 -0.02932245853 0.04678870732
730.0 -0.0246586654 0.04042284016
730.625 -0.04066759885 0.02980309123
731.25 -0.04395160141 0.01031957254
731.875 -0.03899667757 -0.01153982367
732.5 -0.02550821051 -0.02500868917
733.125 -0.01066005926 -0.01714937377
733.75 0.001613657029 -0.003473174796
734.375 0.01290396761 -0.004920254023
735.0 0.009909036606 -0.01503215619
735.625 0.007287074769 -0.01646532547
736.25 0.00404213912 -0.02483243854
736.875 -0.01178408178 -0.0291342177
737.5 -0.02719586618 -0.01541823068
738.125 -0.03409240322 0.007699880511
738.75 -0.02688667068 0.03310055128
739.375 -0.005010056139 0.0425662938
740.0 0.01223350169 0.02903250104
740.625 0.009030945966 0.02474795124
741.25 0.003161665935 0.03725053702
741.875 -0.02169556436 0.03652333063
742.5 -0.04372500347 -0.0006004275423
743.125 -0.02081626233 -0.04566726771
743.75 0.01511241657 -0.05447818407
744.375 0.01686042698 -0.05527063094
745.0 0.0001775076772 -0.06111228116
745.625 -0.024997335 -0.05051877163
746.25 -0.01249054572 -0.02561115727
746.875 -0.000894487532 -0.03216167213
747.5 -0.02260469477 -0.04082156641
748.125 -0.05223049464 -0.02970712708
748.75 -0.06657242922 0.008822583607
749.375 -0.04016950359 0.05930149225
750.0 0.0393712181 0.08027931722
