!Created with skrf (http://scikit-rf.org).
# GHz S RI R 50.0 
!freq ReS11 ImS11
500.0 -0.005114283327 0.002818709837
500.625 0.004600352671 -0.002719128116
501.25 -0.008933321882 -0.01894576145
501.875 -0.03774570819 -0.02935558713
502.5 -0.02732671383 -0.01513233627
503.125 -0.01485421385 0.003663757407
503.75 -0.01313117417 -2.524850842e-05
504.375 -0.02068538026 -0.001310715858
505.0 -0.01301759307 -0.002128167715
505.625 -0.0107017037 -0.01245686907
506.25 -0.0326863202 -0.0107698716
506.875 -0.06162026001 -0.04538521257
507.5 -0.06545904926 -0.01881839845
508.125 -0.05042852315 -0.03456903867
508.75 -0.08429674743 0.007546034612
509.375 -0.08899599687 0.02201168033
510.0 -0.06266829354 0.01230623867
510.625 -0.01008515179 0.03003465425
511.25 -0.02552579465 0.04533647939
511.875 -0.004797959871 0.06403471394
512.5 0.02467494377 0.04279983711
513.125 0.06619088815 -0.02047656866
513.75 0.08362952605 -0.05544452431
514.375 0.04483589285 -0.0683967658
515.0 0.006607815141 -0.06371777771
515.625 0.04582334732 -0.0660011139
516.25 0.0320172777 -0.0789335951
516.875 0.08579825941 0.006246538383
517.5 0.07117647903 -0.04843110376
518.125 0.1954921397 0.02056375784
518.75 0.06519944038 -0.1072597274
519.375 0.04987154827 -0.06488387573
520.0 0.01332969882 -0.06697915793
520.625 0.008970723002 -0.1070593401
521.25 -0.009027839724 -0.1101317932
521.875 0.02050829426 -0.05580926004
522.5 -0.01845461175 -0.07445660433
523.125 -0.04143710347 -0.210392822
523.75 -0.09464697659 -0.2921614385
524.375 -0.06853531877 -0.2775349082
525.0 -0.0681922105 -0.1297342867
525.625 -0.06115329138 -0.1107779159
526.25 -0.02451741585 -0.09891135601
526.875 -0.04469338328 -0.07035872698
527.5 -0.0905715676 -0.05529894952
528.125 -0.09743154141 -0.01572232173
528.75 -0.08528849536 -0.003484942839
529.375 -0.09608178694 0.07715348451
530.0 -0.03247343053 0.1463274659
530.625 0.07139573871 0.123156159
531.25 0.04770595828 0.08322924871
531.875 0.05656024533 0.08575199559
532.5 0.07355990564 0.1413617194
533.125 0.0536439729 0.1229973555
533.75 0.05845637766 0.07191452739
534.375 0.06913071976 0.06482876036
535.0 0.09749412218 0.09839977038
535.625 0.03926064999 0.1042504127
536.25 0.08634305579 0.0328826239
536.875 0.09787288057 0.05123913416
537.5 0.05399320535 0.08592212908
538.125 0.03304243037 0.07448756737
538.75 0.07191258386 0.07803284145
539.375 0.0927969946 0.1365275794
540.0 0.08002266933 0.1179581074
540.625 0.06504046013 0.08039224548
541.25 0.07234472155 0.08156987379
541.875 0.07360907965 0.104672673
542.5 0.01549668721 0.06741483151
543.125 0.01697683253 0.04156730692
543.75 0.07104449535 0.04483718142
544.375 0.118910012 0.051822322
545.0 0.1109985051 -0.03469320264
545.625 0.05418720286 -0.08309222718
546.25 0.006903716556 -0.1216999534
546.875 0.02124882125 -0.1241478093
547.5 0.04032509436 -0.1149092797
548.125 0.05134150466 -0.1309680668
548.75 0.09597386263 -0.1229156638
549.375 0.1401618235 -0.09122192629
550.0 0.1488490803 -0.03051639773
550.625 0.1749233011 -0.05774529663
551.25 0.1698311081 0.03929726277
551.875 0.121824953 -0.002251916107
552.5 0.09368059472 -0.03259623574
553.125 0.09854304565 -0.07023432229
553.75 0.110119767 -0.02986271126
554.375 0.05918361388 -0.0228813415
555.0 0.05527619899 -0.03156014865
555.625 0.0771530253 -0.05520960297
556.25 0.0960856363 -0.02839866261
556.875 0.06453564981 -0.001397098316
557.5 0.06475409922 -0.002754053446
558.125 0.09851531067 0.02565155387
558.75 0.08327113231 0.07325697169
559.375 0.09365987428 0.05818017636
560.0 0.1170214528 0.03914144291
560.625 0.1312134814 0.01378861303
561.25 0.09628301486 -0.02015933747
561.875 0.0693682343 -0.04675465001
562.5 0.06955545684 -0.06221732632
563.125 0.05727535193 -0.05937924742
563.75 0.03659718032 -0.04672884726
564.375 0.02740537574 -0.06015464583
565.0 0.07493332844 -0.09464606471
565.625 0.08756054908 -0.07502849292
566.25 0.0777196109 -0.05742806353
566.875 0.07714562681 -0.06107467298
567.5 0.1055295062 -0.03760789843
568.125 0.1054580676 0.02409431664
568.75 0.0982448194 0.03065081392
569.375 0.123950291 0.02890562362
570.0 0.1300205534 0.02571125449
570.625 0.1096451837 0.008565900218
571.25 0.09673464145 -0.01718740993
571.875 0.1080111221 -0.03878870384
572.5 0.07199623239 -0.05484769207
573.125 0.03700203173 -0.0458046518
573.75 0.03800645617 -0.0600688513
574.375 0.05318353606 -0.08838703088
575.0 0.04477332506 -0.08597522965
575.625 0.008877681882 -0.06347156179
576.25 0.002462824071 -0.07034121482
576.875 0.03865547339 -0.07768082715
577.5 0.04995207734 -0.06424289594
578.125 0.04157826902 -0.06582860686
578.75 0.03694725352 -0.0945888262
579.375 0.06379706418 -0.1083567914
580.0 0.06433465699 -0.08497457397
580.625 0.04029595328 -0.1052893687
581.25 0.00980790984 -0.1295484957
581.875 0.01406031731 -0.104050469
582.5 0.02343729501 -0.0606383772
583.125 0.03115814367 -0.06494007419
583.75 0.05688725388 -0.0813859595
584.375 0.06157280146 -0.06286643246
585.0 0.05046602832 -0.03887494522
585.625 0.06068636958 -0.03577744737
586.25 0.0823145346 -0.03837053623
586.875 0.06574399433 -0.03643115288
587.5 0.04446935368 -0.04581060322
588.125 0.04321402033 -0.07329169474
588.75 0.06317753582 -0.07933610366
589.375 0.03405502066 -0.09483133982
590.0 -0.02791729432 -0.09783916497
590.625 -0.06659512398 -0.09062975806
591.25 -0.03218736465 -0.06203837641
591.875 -0.009992486744 -0.03465329765
592.5 -0.009267306136 -0.04239999444
593.125 -0.008391239694 -0.07237879611
593.75 0.01961440345 -0.07093764279
594.375 0.03989360131 -0.04341391477
595.0 0.05541012595 -0.04256354434
595.625 0.08071763427 -0.03851529184
596.25 0.0815650756 -0.01792562045
596.875 0.0673825134 -0.002610867953
597.5 0.07084928915 0.004845839812
598.125 0.08375300507 0.005937905476
598.75 0.08586843418 -0.01422339897
599.375 0.08295918529 -0.03247191664
600.0 0.07832120266 -0.03576041827
600.625 0.06047161459 -0.03057802437
601.25 0.03578309041 -0.02959457391
601.875 0.02705357642 -0.0230286859
602.5 0.02871844473 -0.006293016923
603.125 0.0198518141 0.011050275
603.75 0.02016332719 0.01825740279
604.375 0.03399766402 0.01964777087
605.0 0.03914317452 0.0206565272
605.625 0.01907288684 0.01681760755
606.25 -0.001339961828 0.01990528272
606.875 -0.004969549785 0.03828946067
607.5 0.01173694099 0.05117930521
608.125 0.03020843655 0.03865887838
608.75 0.03013212773 0.02731142121
609.375 0.02713117135 0.02999519925
610.0 0.026760922 0.03050844324
610.625 0.02888114134 0.01769691251
611.25 0.02451336976 0.004422713655
611.875 0.01557087352 -0.004530992885
612.5 0.003570606274 -0.01208375572
613.125 -0.01007405442 -0.01064325004
613.75 -0.01338221043 -0.0002883518515
614.375 -0.004045506703 0.003913514086
615.0 0.004011211045 -0.004646545191
615.625 -0.001388056534 -0.01387841863
616.25 -0.008505406428 -0.007620557312
616.875 -0.0006982220358 0.001320308523
617.5 0.0125168684 -0.003865089631
618.125 0.01784914878 -0.01331892044
618.75 0.01835071589 -0.01382231538
619.375 0.02754195962 -0.01037670256
620.0 0.04441952465 -0.02034457335
620.625 0.04362325249 -0.04856150062
621.25 0.04035917891 -0.05967088484
621.875 0.02644559095 -0.07042091585
622.5 -0.03530359351 -0.05915516104
623.125 -0.03514422501 -0.03249968132
623.75 -0.01584576545 -0.02052450696
624.375 0.006247321764 -0.02233203181
625.0 0.02409950264 -0.01609226149
625.625 0.02246071584 -0.005516342143
626.25 0.03005546824 0.004875805161
626.875 0.05739693469 0.001834155806
627.5 0.07886241468 0.01390472035
628.125 0.07184236445 0.02007862457
628.75 0.06878675232 0.01860625204
629.375 0.08549503282 0.02378874807
630.0 0.09492209073 0.04745850171
630.625 0.07403519363 0.05357258286
631.25 0.07302440742 0.04047430137
631.875 0.07530483687 0.04107034786
632.5 0.06304893578 0.04431234765
633.125 0.03791956529 0.04610908391
633.75 0.04397364358 0.04017242897
634.375 0.04366717703 0.05475902239
635.0 0.03579480331 0.05254177909
635.625 0.03725545542 0.05546446237
636.25 0.05480566734 0.06933220577
636.875 0.05401635803 0.07908816716
637.5 0.03269861525 0.05866682164
638.125 0.02398476198 0.06321608629
638.75 0.02666133473 0.1103063888
639.375 -0.01791369629 0.1203075309
640.0 -0.03148954357 0.08469398284
640.625 -0.0229067791 0.07278473675
641.25 -0.05171871717 0.08368736661
641.875 -0.08537520379 0.04763727603
642.5 -0.07106968602 0.0284286196
643.125 -0.06961410795 0.03664218553
643.75 -0.09494505378 0.02895824243
644.375 -0.108288151 0.00657681125
645.0 -0.09617763518 0.01369856399
645.625 -0.1056017949 0.04650331292
646.25 -0.1106934986 0.05668076275
646.875 -0.09978977456 0.02821354514
647.5 -0.08761056978 0.0202198507
648.125 -0.1063457559 0.0298354706
648.75 -0.1116483917 0.001471421748
649.375 -0.0771094125 -0.01249350165
650.0 -0.06085304787 -0.02744827753
650.625 -0.0494755605 -0.06986109186
651.25 -0.01246360534 -0.08590588861
651.875 0.0202108902 -0.07081437663
652.5 0.04550764557 -0.07710796153
653.125 0.1098578967 -0.08108527143
653.75 0.1274441642 -0.03862923028
654.375 0.119877501 -0.03343284966
655.0 0.1344616371 -0.04770461273
655.625 0.146235499 -0.03428118048
656.25 0.1056594786 -0.01695060777
656.875 0.07775868062 -0.05153785946
657.5 0.1036135535 -0.05516188469
658.125 0.106898193 -0.02825194589
658.75 0.07485263975 -0.003207294005
659.375 0.06576970163 -0.01788268758
660.0 0.09543008994 -0.05395861278
660.625 0.1069501631 -0.06250449029
661.25 0.09049370026 -0.07392991848
661.875 0.06182651364 -0.1130008668
662.5 0.04877368182 -0.1444389782
663.125 0.06744840843 -0.1292179604
663.75 0.08886714252 -0.09079208164
664.375 0.1399750823 -0.03600961988
665.0 0.1172489363 0.05857677921
665.625 0.07216476152 0.06863915727
666.25 0.05424468337 0.06822109157
666.875 0.02751930496 0.1145387335
667.5 -0.05201366644 0.1113228573
668.125 -0.05513128233 0.07752414101
668.75 -0.02993088192 0.1032841455
669.375 -0.02874819799 0.147261253
670.0 -0.06464903277 0.1302342972
670.625 -0.06288803979 0.08426884502
671.25 -0.02163025697 0.1165367749
671.875 0.00998723626 0.14900895
672.5 0.05427058895 0.1249296318
673.125 0.05348040528 0.08516640627
673.75 0.04523806067 0.08857234855
674.375 0.01310525794 0.114402625
675.0 -0.03103635209 0.105600213
675.625 -0.05752058975 0.09823332489
676.25 -0.1205147999 0.07439891469
676.875 -0.1347237762 0.03178179248
677.5 -0.130459609 0.03360962211
678.125 -0.1358760081 0.07456077054
678.75 -0.1730409073 0.05703332698
679.375 -0.1188690483 0.001211464481
680.0 -0.08498260455 0.01804970957
680.625 -0.09563952519 0.04940559841
681.25 -0.1195302179 0.06415350091
681.875 -0.09717579338 0.0267938136
682.5 -0.06632112651 0.03906708536
683.125 -0.08393849262 0.0799282055
683.75 -0.1311137121 0.07951265873
684.375 -0.1469545605 -0.01959786358
685.0 -0.08691911487 -0.0940611922
685.625 -0.02626503645 -0.1517953296
686.25 0.04285343451 -0.1613206683
686.875 0.06731084288 -0.1471333416
687.5 0.09130768459 -0.1284576303
688.125 0.1022002689 -0.08209925551
688.75 0.09060638488 -0.03737825861
689.375 0.08293481974 -0.0270551239
690.0 0.1196825423 -0.02438774545
690.625 0.1309186357 0.02200847934
691.25 0.1065683793 0.003851228046
691.875 0.09526489179 -0.0650080255
692.5 0.01796912936 -0.1824120153
693.125 -0.1188282957 -0.1823744659
693.75 -0.1366210338 -0.06375704141
694.375 -0.1359209824 -0.01157073382
695.0 -0.1479295971 -0.0778710379
695.625 -0.02352830204 -0.1718496656
696.25 0.1053938039 -0.06056959026
696.875 0.1005672588 0.03068797967
697.5 0.04651660258 0.1017029811
698.125 -0.006267779994 0.1163295898
698.75 -0.02311134525 0.1236069694
699.375 -0.03412920956 0.138499495
700.0 -0.05668060652 0.1200481623
700.625 -0.07866649602 0.09159274153
701.25 -0.07950588408 0.1121913511
701.875 -0.08763986449 0.1549889992
702.5 -0.02831652895 0.1193117328
703.125 0.01776662538 0.07477960015
703.75 0.07345573002 0.05204018153
704.375 0.1554627764 0.06096001326
705.0 0.1325044078 0.08794943173
705.625 0.07018573143 0.0853346341
706.25 0.02110849924 0.1155659021
706.875 -0.1144212166 0.1186607662
707.5 -0.1729736514 0.008259620092
708.125 -0.1213529735 -0.04649104617
708.75 -0.09867162203 -0.07524261335
709.375 -0.02259794393 -0.1203193317
710.0 0.06302164009 -0.09721933103
710.625 0.08158505599 -0.05962210404
711.25 0.08559382229 -0.03956011572
711.875 0.07043518996 -0.02228049975
712.5 0.06911246391 -0.02153087983
713.125 0.06577284214 -0.09004988255
713.75 -0.01996846788 -0.1504749689
714.375 -0.09444563116 -0.1051950685
715.0 -0.1214800303 -0.04366338543
715.625 -0.1505353088 -0.04338245253
716.25 -0.1215959723 -0.1243716748
716.875 -0.02422703789 -0.1190892013
717.5 0.02119782932 -0.08703295523
718.125 0.05167402335 -0.0883142884
718.75 0.09527136015 -0.06458807943
719.375 0.08771514304 -0.01111679738
720.0 0.05776863114 0.01975292037
720.625 0.01412887855 0.0621462382
721.25 -0.07679026941 0.03152548949
721.875 -0.08158638262 -0.06299028957
722.5 -0.07541541036 -0.08531874041
723.125 -0.1229267896 -0.04265761557
723.75 -0.1085623372 0.05106779993
724.375 -0.03783476204 0.09003243228
725.0 0.02253882673 0.07821776991
725.625 0.04234750813 0.05180882516
726.25 0.02921193906 0.03327410165
726.875 0.001234799747 0.03485734113
727.5 -0.03409351972 0.04529430646
728.125 -0.0665340119 0.03697182492
728.75 -0.05907768549 0.03755551685
729.375 -0.03034836767 0.0463454685
730.0 -0.02558492021 0.040143133
730.625 -0.04125433642 0.02908732558
731.25 -0.04405857513 0.009518763063
731.875 -0.03876011292 -0.01219354237
732.5 -0.02490031675 -0.02530981047
733.125 -0.01006380488 -0.01708349525
733.75 0.002190087851 -0.003308296123
734.375 0.01333672571 -0.004915439557
735.0 0.01022587065 -0.01515956873
735.625 0.00740811059 -0.01665174537
736.25 0.004107116445 -0.02481714777
736.875 -0.01177582464 -0.02910962518
737.5 -0.02726875148 -0.01537669943
738.125 -0.03434013612 0.007715675431
738.75 -0.02741606292 0.03299160235
739.375 -0.005677187038 0.04258430862
740.0 0.01155954707 0.02912950742
740.625 0.008181264891 0.02508320167
741.25 0.002157902109 0.0374307736
741.875 -0.02240862567 0.03599730238
742.5 -0.04373854266 -0.0014422234
743.125 -0.01958059202 -0.04633883162
743.75 0.01630508638 -0.05374866796
744.375 0.01809431251 -0.05438344066
745.0 0.001809972771 -0.06071581447
745.625 -0.02309814419 -0.05049384025
746.25 -0.01101507515 -0.02594461409
746.875 0.0001596357723 -0.03269956507
747.5 -0.02197101243 -0.04184732947
748.125 -0.05191055965 -0.03103405194
748.75 -0.0668839027 0.007162713953
749.375 -0.04182213268 0.05846180474
750.0 0.03701359562 0.08179096597
