!Created with skrf (http://scikit-rf.org).
# GHz S RI R 50.0 
!freq ReS11 ImS11
500.0 -0.007882253729 0.0008025744167
500.625 0.0001447969168 0.0004528007009
501.25 -0.0119184033 -0.01877638529
501.875 -0.04190482271 -0.02594149975
502.5 -0.03415547951 -0.01507827019
503.125 -0.01613037991 0.004584143434
503.75 -0.01532541688 0.00344545267
504.375 -0.02133447268 0.002867436012
505.0 -0.01341258662 0.003256782052
505.625 -0.009237303266 -0.006990422947
506.25 -0.03095429741 -0.004532456979
506.875 -0.06396335189 -0.03655828329
507.5 -0.06733428295 -0.01088113197
508.125 -0.05294835851 -0.02713332978
508.75 -0.07997725906 0.01574524121
509.375 -0.0866963804 0.03205188307
510.0 -0.06114034074 0.02051019058
510.625 -0.004304349166 0.03022262467
511.25 -0.01927849959 0.04363333381
511.875 -0.0002375868941 0.06227559629
512.5 0.02918497509 0.04037439803
513.125 0.06242002583 -0.02563778689
513.75 0.07700301362 -0.06633881315
514.375 0.03778937798 -0.07560033103
515.0 -0.001483822183 -0.06544836783
515.625 0.03416982715 -0.07213650583
516.25 0.01686696135 -0.08643756004
516.875 0.08039565636 -0.005005116798
517.5 0.06399208371 -0.05143324837
518.125 0.1867546426 0.005412098035
518.75 0.05137275011 -0.1126649751
519.375 0.04238624683 -0.06941116729
520.0 0.006485053246 -0.06452045707
520.625 -0.005264990368 -0.1051960371
521.25 -0.02171372115 -0.1053887101
521.875 0.01404612751 -0.05611241805
522.5 -0.02313110736 -0.06920295697
523.125 -0.05779719258 -0.1970968798
523.75 -0.1145722422 -0.2830093444
524.375 -0.07773288746 -0.2725756321
525.0 -0.07547303042 -0.1230190165
525.625 -0.07108498737 -0.1070227073
526.25 -0.03236506099 -0.09895982056
526.875 -0.04972264362 -0.06702961765
527.5 -0.09539326917 -0.04639091618
528.125 -0.1018617117 -0.005620600601
528.75 -0.08643783802 0.003597788406
529.375 -0.08935965471 0.08320360987
530.0 -0.01940583467 0.1499320116
530.625 0.0876741883 0.1233599439
531.25 0.05793019854 0.08351008789
531.875 0.0678523886 0.07548027753
532.5 0.09160600349 0.1281810139
533.125 0.06681689231 0.1170744074
533.75 0.06476656154 0.06598834942
534.375 0.07306889719 0.05493124218
535.0 0.1070319375 0.08599192482
535.625 0.04776912339 0.1020191521
536.25 0.08849685008 0.02733869259
536.875 0.1048483288 0.04148294064
537.5 0.06700414629 0.07874065999
538.125 0.04081584116 0.07033656713
538.75 0.07572551041 0.07019106675
539.375 0.106947519 0.1256842098
540.0 0.09273665278 0.1147553806
540.625 0.07392368301 0.07540425912
541.25 0.07979799591 0.07292786636
541.875 0.08668184584 0.09668746253
542.5 0.02575510545 0.06737314201
543.125 0.02054599089 0.03647663875
543.75 0.06931389538 0.03469013127
544.375 0.1194534208 0.03991704762
545.0 0.1081019025 -0.04203905947
545.625 0.04821170189 -0.08476153067
546.25 -0.00509968466 -0.1181842507
546.875 0.009507953138 -0.1258624182
547.5 0.03120958578 -0.1168029568
548.125 0.03868061065 -0.1307435523
548.75 0.08078743016 -0.1277291997
549.375 0.1329774926 -0.1024569583
550.0 0.1460795974 -0.03880252556
550.625 0.1667351592 -0.06906522825
551.25 0.1773289116 0.02483675605
551.875 0.1266280115 -0.01178792934
552.5 0.09358885411 -0.04031426089
553.125 0.09123910353 -0.08098543569
553.75 0.1088287943 -0.04915661107
554.375 0.05912315268 -0.03167753012
555.0 0.05109685586 -0.03862377221
555.625 0.06912596436 -0.06411548685
556.25 0.09255417034 -0.04188864048
556.875 0.06453415136 -0.01017033325
557.5 0.06023839565 -0.01062227331
558.125 0.09722744086 0.01344533492
558.75 0.08780970647 0.06387171048
559.375 0.09584261957 0.05045671956
560.0 0.1175221406 0.03057203553
560.625 0.1352260009 0.001100890769
561.25 0.09812286978 -0.02869273527
561.875 0.06517027755 -0.05439088803
562.5 0.06123604766 -0.07311699565
563.125 0.04907990893 -0.06944189821
563.75 0.03023885692 -0.05200033817
564.375 0.01816075202 -0.05961209888
565.0 0.05749857421 -0.09897706725
565.625 0.07942179163 -0.08334157096
566.25 0.07218779718 -0.06332295098
566.875 0.06944691926 -0.06652684938
567.5 0.0979804684 -0.04846580891
568.125 0.1076287101 0.01231733108
568.75 0.09783619381 0.02351174272
569.375 0.1238973883 0.01741958285
570.0 0.1332284777 0.01381315386
570.625 0.1124165526 -0.001627714236
571.25 0.09616364928 -0.02563573542
571.875 0.1045396471 -0.05230650779
572.5 0.07034715831 -0.06694986757
573.125 0.03238253529 -0.05313115841
573.75 0.02748607318 -0.06342103362
574.375 0.04114533792 -0.09283850246
575.0 0.0357304101 -0.0933307349
575.625 0.002352685123 -0.06482521729
576.25 -0.008310650237 -0.06756622677
576.875 0.02439946247 -0.08181347665
577.5 0.04080072142 -0.06854388021
578.125 0.03428331826 -0.06695842536
578.75 0.0249754487 -0.09312281518
579.375 0.04861979166 -0.1137016952
580.0 0.05759345739 -0.09029068648
580.625 0.03253062403 -0.1068964437
581.25 -0.002913629858 -0.1310325148
581.875 0.002311681055 -0.1095413283
582.5 0.01727439054 -0.06650291502
583.125 0.02256864145 -0.06749968332
583.75 0.04497244886 -0.08891171277
584.375 0.05486176693 -0.07147176051
585.0 0.04524386121 -0.04547369997
585.625 0.05362990716 -0.04269489667
586.25 0.07532401347 -0.04905908397
586.875 0.06199816177 -0.04469825483
587.5 0.03769310545 -0.04987013526
588.125 0.03016884806 -0.07592753684
588.75 0.05322519865 -0.08463000554
589.375 0.02602879914 -0.09818952659
590.0 -0.03528289343 -0.09475687635
590.625 -0.07858611498 -0.08357169857
591.25 -0.04402959412 -0.06261551767
591.875 -0.01744141996 -0.03448257222
592.5 -0.01602848054 -0.03814085853
593.125 -0.01932654414 -0.067132834
593.75 0.008674906358 -0.07192565323
594.375 0.03403924198 -0.04572891438
595.0 0.04808393059 -0.04497342492
595.625 0.07404854521 -0.04564041906
596.25 0.07873378886 -0.0265238539
596.875 0.06612792233 -0.009355446778
597.5 0.0686437717 -0.002469726699
598.125 0.08260713027 -0.002440867091
598.75 0.0841716917 -0.02092023617
599.375 0.0802140315 -0.03890120895
600.0 0.07702757546 -0.0432621735
600.625 0.06136529395 -0.03736446963
601.25 0.03596847665 -0.0351444303
601.875 0.02518606726 -0.02934148855
602.5 0.02810921256 -0.01399719723
603.125 0.02108225862 0.005406887159
603.75 0.02045872698 0.01392053422
604.375 0.03377951291 0.01455411166
605.0 0.04109560695 0.01477767757
605.625 0.02217944224 0.01318595372
606.25 0.000900032729 0.0170309804
606.875 -0.002473097476 0.03503997822
607.5 0.01451004605 0.04803874944
608.125 0.03225170962 0.03599886762
608.75 0.0314939704 0.02505906628
609.375 0.02880781553 0.02807978639
610.0 0.02892451284 0.02924450128
610.625 0.03063141555 0.01692014423
611.25 0.0260553082 0.003644443798
611.875 0.01690067406 -0.004740395798
612.5 0.00427352088 -0.01204411502
613.125 -0.009558415102 -0.01054710699
613.75 -0.01325092178 -0.000269560688
614.375 -0.004345126221 0.003817289297
615.0 0.003280088597 -0.00487512874
615.625 -0.002655237911 -0.01422075556
616.25 -0.01015187598 -0.008032217503
616.875 -0.002643848835 0.0008918330898
617.5 0.0100318789 -0.00438118038
618.125 0.01492633235 -0.01442609227
618.75 0.01546504579 -0.01531727514
619.375 0.02463971799 -0.0118943339
620.0 0.04081504107 -0.02213138197
620.625 0.03947176691 -0.05039492747
621.25 0.03694148316 -0.06253482212
621.875 0.02291252366 -0.07341581023
622.5 -0.04109879145 -0.05977838639
623.125 -0.04152852844 -0.03340294383
623.75 -0.02187262503 -0.02228613807
624.375 4.938645656e-05 -0.02595698533
625.0 0.01982388225 -0.02317184169
625.625 0.01879097197 -0.01243668625
626.25 0.0253133863 -0.0002296042208
626.875 0.05069781769 -0.004582662722
627.5 0.07652207537 0.003496955716
628.125 0.07218598437 0.01187537233
628.75 0.06777118788 0.01122737966
629.375 0.08374440864 0.01378367154
630.0 0.09939128992 0.03588962569
630.625 0.08049011075 0.04829324115
631.25 0.0777848711 0.03422795469
631.875 0.08246318834 0.03167003347
632.5 0.07317607336 0.03533883924
633.125 0.04785362795 0.041604776
633.75 0.05092952958 0.03228318962
634.375 0.0543075826 0.04624886158
635.0 0.04545371794 0.04468945967
635.625 0.04407821779 0.04657304782
636.25 0.06218747933 0.05802578023
636.875 0.06634327014 0.06937740701
637.5 0.04308108425 0.05306646677
638.125 0.03108297376 0.05491436004
638.75 0.04006854777 0.09954848226
639.375 -0.003552248185 0.1227758618
640.0 -0.02298617878 0.09077110884
640.625 -0.01325033814 0.0751100203
641.25 -0.03505717741 0.0906241573
641.875 -0.07840371478 0.0637855866
642.5 -0.06797555935 0.0377912399
643.125 -0.06234021384 0.04509282579
643.75 -0.0860139159 0.04452629658
644.375 -0.1051829351 0.02521121034
645.0 -0.09416376744 0.02398948863
645.625 -0.0963019 0.05773626086
646.25 -0.1018865052 0.07348018361
646.875 -0.09657411407 0.04543443859
647.5 -0.08431152809 0.03311521311
648.125 -0.09939073786 0.04483573506
648.75 -0.1143522038 0.02019482754
649.375 -0.08250623319 0.0004215544513
650.0 -0.0653783067 -0.01427507938
650.625 -0.06287113224 -0.05601750443
651.25 -0.02859690668 -0.08101032408
651.875 0.008575256121 -0.07087034302
652.5 0.03003092826 -0.07637612875
653.125 0.08974145594 -0.09355397646
653.75 0.122230104 -0.05319649171
654.375 0.1152019023 -0.04478514767
655.0 0.1244726269 -0.06391489173
655.625 0.1411671666 -0.06109078721
656.25 0.1098424663 -0.0359408336
656.875 0.07090345231 -0.0630148797
657.5 0.093162927 -0.0736929914
658.125 0.1036552708 -0.05215476081
658.75 0.07538538366 -0.02206875978
659.375 0.05765065315 -0.02845293878
660.0 0.0774926874 -0.0669809871
660.625 0.09259808423 -0.07755069547
661.25 0.07762278642 -0.08423203625
661.875 0.04326284625 -0.1159544873
662.5 0.02616817259 -0.1477619917
663.125 0.04932116132 -0.1395085558
663.75 0.07741252812 -0.1015801051
664.375 0.131742156 -0.0586510173
665.0 0.133346815 0.03982034866
665.625 0.08646249595 0.05944510126
666.25 0.0653913479 0.05916015944
666.875 0.05164104502 0.1030312103
667.5 -0.02508902933 0.1211118126
668.125 -0.04268093925 0.08367758054
668.75 -0.01528737111 0.1007097845
669.375 -0.002974973498 0.1447290444
670.0 -0.03999281862 0.14279998
670.625 -0.05172104051 0.09492085326
671.25 -0.005035956808 0.1148542351
671.875 0.03494097349 0.1456229792
672.5 0.07885053777 0.1181121715
673.125 0.07156959821 0.07674439479
673.75 0.06246380045 0.0762169376
674.375 0.03564077507 0.1074622806
675.0 -0.0122158194 0.1082948761
675.625 -0.03866948807 0.1019655825
676.25 -0.101180437 0.09371677951
676.875 -0.1273031737 0.05055338868
677.5 -0.1253296665 0.04737794694
678.125 -0.1217534906 0.0871555312
678.75 -0.1628321249 0.08867005391
679.375 -0.1284196078 0.02056236778
680.0 -0.08564833025 0.03184084342
680.625 -0.08369333341 0.06607083109
681.25 -0.1015643415 0.09289856539
681.875 -0.09236058225 0.05298657484
682.5 -0.05569592552 0.0484210229
683.125 -0.06245356146 0.08714778769
683.75 -0.1093248963 0.09786728501
684.375 -0.1474003501 0.00711546081
685.0 -0.09719990989 -0.07928906356
685.625 -0.04748202125 -0.1407691611
686.25 0.01933261234 -0.1654949407
686.875 0.04671968701 -0.1569058332
687.5 0.07082357865 -0.1440517947
688.125 0.09246782793 -0.1052872775
688.75 0.08749573332 -0.05757701548
689.375 0.07677893351 -0.0424382071
690.0 0.1073592572 -0.0492474511
690.625 0.1345521088 -0.009683648025
691.25 0.1037374071 -0.01437312962
691.875 0.08092804554 -0.07120528312
692.5 -0.01079319195 -0.1703207911
693.125 -0.1527761326 -0.1587580372
693.75 -0.1515082472 -0.04804148599
694.375 -0.1357433541 0.008212681598
695.0 -0.1578527702 -0.04868392744
695.625 -0.06060036528 -0.1672300199
696.25 0.09925898379 -0.08303608146
696.875 0.1052508866 0.011704493
697.5 0.06720555273 0.08896832857
698.125 0.01694776261 0.1118620957
698.75 -0.002327029082 0.1209591491
699.375 -0.009633182969 0.1391717536
700.0 -0.03654446301 0.1276024337
700.625 -0.06464062078 0.1024979997
701.25 -0.0602679787 0.1194386568
701.875 -0.05356059957 0.1721389774
702.5 -0.006432309197 0.1337937243
703.125 0.03591904362 0.07396376909
703.75 0.0771692733 0.03169811646
704.375 0.155671345 0.02157651352
705.0 0.1519993064 0.06214134908
705.625 0.0822508248 0.07441116165
706.25 0.03622444968 0.1038095958
706.875 -0.08681768205 0.130425574
707.5 -0.1717729188 0.03917263552
708.125 -0.1304860552 -0.03291422213
708.75 -0.1100852571 -0.05924148412
709.375 -0.04602807858 -0.1157481797
710.0 0.04338264682 -0.111011466
710.625 0.07231178782 -0.07614353168
711.25 0.07931436624 -0.05899545965
711.875 0.06544434158 -0.04167450567
712.5 0.05775608642 -0.03636860231
713.125 0.04130460042 -0.09177970789
713.75 -0.04651128247 -0.1378753026
714.375 -0.1080800595 -0.08891288171
715.0 -0.1234165532 -0.02781210597
715.625 -0.1489748117 -0.01911373647
716.25 -0.146030384 -0.1002036539
716.875 -0.04635048082 -0.1218940582
717.5 0.007370759972 -0.09258151434
718.125 0.03190389813 -0.09613279656
718.75 0.07878033769 -0.08610880228
719.375 0.08868198846 -0.03165103827
720.0 0.06255714742 0.007439130535
720.625 0.02911017419 0.05372614722
721.25 -0.06204615322 0.04471749798
721.875 -0.08679307221 -0.04584834566
722.5 -0.08356416052 -0.07170718359
723.125 -0.1262647408 -0.02380662149
723.75 -0.1007883112 0.06919788972
724.375 -0.02191965378 0.09776507196
725.0 0.03819844189 0.07427108552
725.625 0.05530740662 0.04464188807
726.25 0.03990127992 0.02792839903
726.875 0.01239112686 0.03195993627
727.5 -0.01997612057 0.0470501707
728.125 -0.05569882965 0.04661509091
728.75 -0.0519662274 0.04594156705
729.375 -0.02210421203 0.049969334
730.0 -0.01634443515 0.04272443408
730.625 -0.03465915967 0.03482698493
731.25 -0.04244450824 0.0161083457
731.875 -0.04060196299 -0.00670355579
732.5 -0.03003327048 -0.02232844544
733.125 -0.01553486917 -0.01748060066
733.75 -0.002304812686 -0.003980924731
734.375 0.009582993622 -0.004776652879
735.0 0.007781820583 -0.01362468945
735.625 0.006292485102 -0.01524012738
736.25 0.003883474925 -0.02424431445
736.875 -0.01164406046 -0.02932198582
737.5 -0.02664285748 -0.01614119479
738.125 -0.03254892448 0.006897881397
738.75 -0.02426920025 0.03276036555
739.375 -0.001558135903 0.04272011413
740.0 0.01634503635 0.02830995196
740.625 0.01371233607 0.02245198404
741.25 0.008733310413 0.03560100333
741.875 -0.01693369601 0.03903476465
742.5 -0.04366716433 0.005252128362
743.125 -0.02819017139 -0.04234021675
743.75 0.006240086755 -0.05805292828
744.375 0.009523430026 -0.05983993943
745.0 -0.009146345443 -0.06381857152
745.625 -0.0376268178 -0.04922289962
746.25 -0.0241291061 -0.02197152086
746.875 -0.008285869254 -0.02634931772
747.5 -0.0255268158 -0.03348803567
748.125 -0.05336477767 -0.02061414827
748.75 -0.06356714964 0.01857632928
749.375 -0.03004339726 0.06428859384
750.0 0.04992854102 0.07147784562
