!Created with skrf (http://scikit-rf.org).
# GHz S RI R 50.0 
!freq ReS11 ImS11
500.0 -0.00880608682 -0.001147383151
500.625 -0.001801148192 -0.001962071099
501.25 -0.01501004901 -0.01664634719
501.875 -0.05168178548 -0.02314922597
502.5 -0.03988374956 -0.01610036813
503.125 -0.02048904352 0.006473517713
503.75 -0.01652248369 0.008488744899
504.375 -0.02220679799 0.009049416477
505.0 -0.01280706246 0.009122066267
505.625 -0.009028751626 -0.002456835182
506.25 -0.02644903035 0.0002413680441
506.875 -0.06587690402 -0.02512892137
507.5 -0.06683977417 -0.0005790765903
508.125 -0.05398931407 -0.01930376253
508.75 -0.07245632369 0.02472640804
509.375 -0.08355499459 0.04385829159
510.0 -0.06174360614 0.02982908316
510.625 0.001958975897 0.0303594307
511.25 -0.01004390445 0.04321862123
511.875 0.00712678162 0.06000892791
512.5 0.03340184952 0.03542142633
513.125 0.05845994957 -0.03138809018
513.75 0.06453353364 -0.0790041893
514.375 0.02802960164 -0.08090651668
515.0 -0.01153517037 -0.06627099892
515.625 0.02112195988 -0.0745657617
516.25 -0.0006442515717 -0.08366554097
516.875 0.07220742676 -0.01390514514
517.5 0.05512445919 -0.05055286744
518.125 0.1736217294 -0.01558097406
518.75 0.03920018135 -0.1168169258
519.375 0.03336251322 -0.07384626578
520.0 -0.0005265196757 -0.06173494467
520.625 -0.01417877436 -0.09706088459
521.25 -0.0319501827 -0.1017507489
521.875 0.008885332799 -0.05615065805
522.5 -0.02704975893 -0.06204927505
523.125 -0.07047669387 -0.1803163342
523.75 -0.1355424188 -0.2721384121
524.375 -0.09473325953 -0.2649933819
525.0 -0.08526417097 -0.1144026884
525.625 -0.08388214505 -0.1009309147
526.25 -0.04406868196 -0.097523918
526.875 -0.05609784193 -0.06230678824
527.5 -0.09982502427 -0.03429758598
528.125 -0.1051718935 0.008795924717
528.75 -0.08698258752 0.01306686596
529.375 -0.079119733 0.09030794414
530.0 -0.001102319498 0.1532593298
530.625 0.1065620545 0.1208545307
531.25 0.07152778291 0.08429978752
531.875 0.07937335948 0.06187168322
532.5 0.1108838286 0.1080305282
533.125 0.08285682895 0.1084735496
533.75 0.07218103086 0.05826897031
534.375 0.07588127544 0.04346367689
535.0 0.1157851459 0.0677687947
535.625 0.06145904995 0.09659823498
536.25 0.09134307676 0.01798686362
536.875 0.111946515 0.02746749798
537.5 0.08200232058 0.06671791789
538.125 0.05207728891 0.06231699464
538.75 0.08088343917 0.05842401172
539.375 0.1243994192 0.1067059963
540.0 0.1115060759 0.1055901643
540.625 0.08648449726 0.06574956397
541.25 0.08918859213 0.05990821114
541.875 0.1048284505 0.07982511814
542.5 0.04229694544 0.0643122207
543.125 0.02639818034 0.02871456494
543.75 0.06665190988 0.01964707562
544.375 0.1189246801 0.02006378068
545.0 0.1011444835 -0.05587018337
545.625 0.03723051308 -0.08869051272
546.25 -0.0225249533 -0.111345204
546.875 -0.009520980238 -0.125350643
547.5 0.01637159945 -0.1187394651
548.125 0.02141943084 -0.1292985953
548.75 0.0626438133 -0.1313854588
549.375 0.1197637618 -0.1169903173
550.0 0.1416772997 -0.05000683537
550.625 0.1548692567 -0.08151986319
551.25 0.1840111357 0.005379243154
551.875 0.130274858 -0.02508246607
552.5 0.09246400467 -0.04965449602
553.125 0.08121423584 -0.09149207781
553.75 0.1063868725 -0.06571475342
554.375 0.05832463386 -0.04164256192
555.0 0.04511086858 -0.04640134899
555.625 0.05738495291 -0.07377005462
556.25 0.08444030098 -0.05860298889
556.875 0.06301285218 -0.02177398293
557.5 0.054158834 -0.01918427133
558.125 0.09322158897 -0.002194720085
558.75 0.09265345535 0.0504130867
559.375 0.09820997009 0.03951069039
560.0 0.1174353946 0.01919111319
560.625 0.1365970327 -0.01434390158
561.25 0.09867647619 -0.04006003651
561.875 0.05955795053 -0.06280498117
562.5 0.04925840861 -0.0838580223
563.125 0.03730809452 -0.07934502202
563.75 0.02142545377 -0.05790929214
564.375 0.008116079519 -0.05839578256
565.0 0.03829427331 -0.1006396588
565.625 0.06899829609 -0.09185369277
566.25 0.06524328554 -0.06964961589
566.875 0.05987753195 -0.07222580134
567.5 0.08740635876 -0.06049647913
568.125 0.1079092747 -0.00345967401
568.75 0.09720733114 0.01457791163
569.375 0.1219434836 0.003915731441
570.0 0.1347076962 -0.001322711922
570.625 0.1138920602 -0.0145112055
571.25 0.09441077854 -0.03503973488
571.875 0.09801245268 -0.06568028254
572.5 0.0659055444 -0.08030943142
573.125 0.02629277254 -0.0610303636
573.75 0.01552993821 -0.06582897648
574.375 0.0268506471 -0.09642364875
575.0 0.02267607482 -0.1003430882
575.625 -0.005961257292 -0.06614297283
576.25 -0.01932316621 -0.06340954602
576.875 0.007965427599 -0.08335757617
577.5 0.03038125081 -0.07166596218
578.125 0.02691187982 -0.06779481218
578.75 0.01368342054 -0.09026238054
579.375 0.03219530466 -0.1161731385
580.0 0.04974474827 -0.09553487478
580.625 0.023845252 -0.1077685016
581.25 -0.01652012406 -0.1304240545
581.875 -0.01160640858 -0.1135746115
582.5 0.008626434056 -0.07263812947
583.125 0.01297079911 -0.06934330439
583.75 0.03139901968 -0.0945152993
584.375 0.04638570601 -0.07977707897
585.0 0.0395620815 -0.05171381798
585.625 0.04612783407 -0.04870579744
586.25 0.06692049567 -0.05777545619
586.875 0.0573419453 -0.05227760581
587.5 0.03150922756 -0.05288642971
588.125 0.01880806431 -0.07596023184
588.75 0.04183426354 -0.08875608854
589.375 0.01693500703 -0.1008807676
590.0 -0.04220788831 -0.09129766422
590.625 -0.08849644243 -0.07496286526
591.25 -0.05608145574 -0.06092747296
591.875 -0.02480419358 -0.03354845242
592.5 -0.02181965708 -0.03369993214
593.125 -0.02913109765 -0.0606117302
593.75 -0.003073376466 -0.07146862274
594.375 0.02738191715 -0.0480369345
595.0 0.04059834357 -0.04689496113
595.625 0.06622106907 -0.05206904413
596.25 0.07492600199 -0.034825166
596.875 0.06427829406 -0.01594504249
597.5 0.06592256867 -0.008956823302
598.125 0.08036509346 -0.01054567823
598.75 0.08171323181 -0.0274526929
599.375 0.07679848154 -0.04482961818
600.0 0.07447413898 -0.05049002771
600.625 0.06092506771 -0.04421214747
601.25 0.03521156905 -0.04050477487
601.875 0.022618254 -0.03482551321
602.5 0.02633769479 -0.02095699507
603.125 0.02163225841 0.0001820610769
603.75 0.02050231984 0.01006753033
604.375 0.03320831557 0.01017236423
605.0 0.04210396402 0.009398486478
605.625 0.02461041648 0.009548487561
606.25 0.002892029731 0.01436254302
606.875 -0.0003535467468 0.03194426025
607.5 0.01698275076 0.04481474796
608.125 0.03414245087 0.03312625358
608.75 0.03267713258 0.02273112453
609.375 0.03018650446 0.02604642805
610.0 0.0306733247 0.02783862126
610.625 0.0320939018 0.01589838329
611.25 0.02719880265 0.003429472471
611.875 0.01800336823 -0.00476954963
612.5 0.005373988911 -0.01189505511
613.125 -0.009147300724 -0.0104788338
613.75 -0.01315745577 -0.0002344647461
614.375 -0.004582393479 0.003785100485
615.0 0.002631990988 -0.004897020046
615.625 -0.00369228598 -0.01431390758
616.25 -0.01139080946 -0.008231346352
616.875 -0.004125639131 0.0007217810443
617.5 0.008189792104 -0.004521623609
618.125 0.01252327805 -0.01499106569
618.75 0.01304289761 -0.01625532098
619.375 0.02218178969 -0.0129625797
620.0 0.0374673283 -0.02336084926
620.625 0.03562628326 -0.05156714721
621.25 0.03350631274 -0.06451955281
621.875 0.01962046789 -0.07538427115
622.5 -0.04573350398 -0.0592627571
623.125 -0.04635854163 -0.03314495796
623.75 -0.0263971442 -0.0227327578
624.375 -0.004747245864 -0.02788477106
625.0 0.01586973175 -0.02795313886
625.625 0.01540429311 -0.01736745185
626.25 0.02147834161 -0.003801523982
626.875 0.04526529157 -0.008785031948
627.5 0.07366643063 -0.004187801383
628.125 0.07185752894 0.005529772545
628.75 0.06672744559 0.00595947011
629.375 0.08163949103 0.006843214354
630.0 0.1014006158 0.02684143289
630.625 0.0848949299 0.04355792198
631.25 0.08080730474 0.02912613099
631.875 0.08632502106 0.02506145122
632.5 0.07895803589 0.02884672779
633.125 0.05415802593 0.03819525567
633.75 0.05450053242 0.02742052288
634.375 0.06098315005 0.03886338205
635.0 0.05164490286 0.03831524528
635.625 0.04806898819 0.04013482717
636.25 0.06591867202 0.0501469877
636.875 0.07331976152 0.06191302373
637.5 0.0495574674 0.04845900985
638.125 0.03508550519 0.04922954065
638.75 0.04789660676 0.09079581434
639.375 0.007438594164 0.1231980427
640.0 -0.0161812736 0.0944630247
640.625 -0.006571530954 0.07596905755
641.25 -0.0229243289 0.09342510679
641.875 -0.07139797025 0.0741919087
642.5 -0.06548070552 0.04383540007
643.125 -0.05728397445 0.04985403404
643.75 -0.07892548231 0.05342448465
644.375 -0.1010906332 0.03711584518
645.0 -0.09233145663 0.03131593628
645.625 -0.08924163277 0.06406921709
646.25 -0.0942378131 0.08376153473
646.875 -0.09262796748 0.05708688449
647.5 -0.08124164319 0.04146924808
648.125 -0.09384586003 0.05327140577
648.75 -0.1141094552 0.03191006326
649.375 -0.08486703438 0.008416882765
650.0 -0.06703179245 -0.006513138605
650.625 -0.0693814678 -0.04647129487
651.25 -0.03811355533 -0.07652440772
651.875 0.0009168788849 -0.07030664239
652.5 0.02070994694 -0.07482865553
653.125 0.07540338377 -0.09921441173
653.75 0.1175679653 -0.06266800174
654.375 0.1123416707 -0.05007652101
655.0 0.1186970614 -0.07050269173
655.625 0.1366959488 -0.07373249729
656.25 0.1115210401 -0.04611715472
656.875 0.06810295534 -0.06789713091
657.5 0.08530694175 -0.08352772844
658.125 0.09944004646 -0.06643083919
658.75 0.07395739161 -0.03426891027
659.375 0.05219758419 -0.03444589917
660.0 0.06540904256 -0.07312055799
660.625 0.08248420996 -0.08559971634
661.25 0.06896926167 -0.08973676763
661.875 0.03288045528 -0.1160623506
662.5 0.01348363707 -0.1475523127
663.125 0.0375652538 -0.1442496908
663.75 0.07025172409 -0.1073433741
664.375 0.1243860886 -0.07118674957
665.0 0.1419439933 0.02510041074
665.625 0.09509302524 0.05226971254
666.25 0.07147627957 0.05333995353
666.875 0.06394882696 0.09419044952
667.5 -0.008339681549 0.1238814917
668.125 -0.03508679426 0.08685769025
668.75 -0.007635679092 0.09857721798
669.375 0.01093111459 0.140901404
670.0 -0.02381771403 0.1473828276
670.625 -0.04334329677 0.1011076301
671.25 0.004522751175 0.1123949587
671.875 0.04997851006 0.1408534104
672.5 0.09341902127 0.1112521518
673.125 0.08157936632 0.07029995474
673.75 0.07077161227 0.06815838976
674.375 0.04709635237 0.1018267012
675.0 -0.001859320401 0.1084706271
675.625 -0.02799995493 0.102718399
676.25 -0.08743052566 0.1028800936
676.875 -0.1206537614 0.06145985137
677.5 -0.1210484154 0.05608789509
678.125 -0.1118087215 0.09335741855
678.75 -0.1525101864 0.106433483
679.375 -0.1326430727 0.03395852322
680.0 -0.08536539567 0.03963502501
680.625 -0.07641102633 0.0735631472
681.25 -0.08940617508 0.1056149405
681.875 -0.08706035722 0.06717690131
682.5 -0.04964111977 0.05301321581
683.125 -0.05039177491 0.08915456883
683.75 -0.09496463485 0.1062308842
684.375 -0.1447773646 0.02351120688
685.0 -0.1025425036 -0.06965281241
685.625 -0.05854634064 -0.1323981217
686.25 0.005473893779 -0.1654924107
686.875 0.03481888306 -0.1605731311
687.5 0.05881325566 -0.1504402293
688.125 0.08496867461 -0.1173427651
688.75 0.08414392227 -0.06865754671
689.375 0.07258177239 -0.05059042226
690.0 0.09789332953 -0.06182938921
690.625 0.1327749266 -0.0300700507
691.25 0.1006505869 -0.02570467795
691.875 0.07204078275 -0.07443587618
692.5 -0.02523527665 -0.1610385604
693.125 -0.1687529852 -0.1415772763
693.75 -0.1590068417 -0.0382932304
694.375 -0.134454465 0.01801025903
695.0 -0.1602685193 -0.03337928606
695.625 -0.07902872833 -0.1610227233
696.25 0.0936997747 -0.09549915284
696.875 0.106636169 0.0007397613539
697.5 0.0782624215 0.07956345297
698.125 0.03010319636 0.1072615695
698.75 0.009932382599 0.1181450109
699.375 0.004588210546 0.1370133594
700.0 -0.02465763 0.1301257493
700.625 -0.05664540766 0.1074091607
701.25 -0.05014049549 0.1218670228
701.875 -0.0346459818 0.1767096549
702.5 0.00654442059 0.1402318954
703.125 0.04582157271 0.07238195071
703.75 0.07772972981 0.0210872847
704.375 0.1512837371 0.0001427469318
705.0 0.1605982839 0.04433372629
705.625 0.08868631954 0.06746281884
706.25 0.04324579335 0.09673306435
706.875 -0.07145994174 0.1340601015
707.5 -0.1679720703 0.0552928036
708.125 -0.1346821371 -0.02508387548
708.75 -0.1145182239 -0.05035153012
709.375 -0.05773597068 -0.1113614399
710.0 0.03165589645 -0.1164542894
710.625 0.06587555786 -0.08451150949
711.25 0.07379131986 -0.06926878251
711.875 0.06105190143 -0.05212081031
712.5 0.0504507257 -0.04376012592
713.125 0.02881373958 -0.0905553158
713.75 -0.05902125136 -0.1286815169
714.375 -0.1140571922 -0.07951273031
715.0 -0.1237266166 -0.01956081901
715.625 -0.1463773883 -0.007516979357
716.25 -0.1556649104 -0.08534009493
716.875 -0.05876883608 -0.1214923084
717.5 -0.0001091316979 -0.09479262035
718.125 0.02137481772 -0.09820614357
718.75 0.06789145527 -0.09560450358
719.375 0.08707207723 -0.04296315939
720.0 0.06434286181 0.0004407239746
720.625 0.03625985041 0.04801949405
721.25 -0.05364352269 0.05014458501
721.875 -0.0879603479 -0.0364415555
722.5 -0.08654675421 -0.06444929456
723.125 -0.1263882116 -0.01434455671
723.75 -0.09575585039 0.07772684612
724.375 -0.01312401075 0.1005501899
725.0 0.04570865946 0.0709359353
725.625 0.06129817015 0.03987207353
726.25 0.0449181521 0.02439437875
726.875 0.01771579378 0.02972908101
727.5 -0.01286044877 0.04653849127
728.125 -0.04917533183 0.05074093031
728.75 -0.04755681812 0.04987529237
729.375 -0.0176206313 0.05131225915
730.0 -0.01152062652 0.0432469052
730.625 -0.03080276584 0.03742026228
731.25 -0.04095232782 0.01952087628
731.875 -0.04110156846 -0.003660385161
732.5 -0.03233644239 -0.02030254518
733.125 -0.01826118246 -0.01725075558
733.75 -0.00453956168 -0.003907875234
734.375 0.00778340796 -0.004373593653
735.0 0.006656814153 -0.01268629074
735.625 0.005840641767 -0.01444735985
736.25 0.003776708039 -0.02381252358
736.875 -0.01164401301 -0.02938823812
737.5 -0.02633977508 -0.0164734794
738.125 -0.03174305084 0.006271765723
738.75 -0.02292734748 0.03234483718
739.375 0.0002916298364 0.04254457641
740.0 0.01870277711 0.02762820841
740.625 0.01625121796 0.02070212805
741.25 0.01187367578 0.03418290488
741.875 -0.0137695895 0.04030243259
742.5 -0.0432897513 0.008542911432
743.125 -0.03182882302 -0.03972359269
743.75 0.0008900994344 -0.05923259498
744.375 0.004666704818 -0.06214154922
745.0 -0.0146348104 -0.06447701613
745.625 -0.04431942692 -0.04769835178
746.25 -0.03003414664 -0.01919610475
746.875 -0.01192344362 -0.02258284247
747.5 -0.02677815445 -0.02922901031
748.125 -0.05322625774 -0.01567186621
748.75 -0.06107916104 0.0238581839
749.375 -0.02391842481 0.06617751088
750.0 0.05530324494 0.06549053504
