!Created with skrf (http://scikit-rf.org).
# GHz S RI R 50.0 
!freq ReS11 ImS11
500.0 -0.01106975459 -0.007003694278
500.625 -0.005063420854 0.0002302960592
501.25 -0.01775630077 -0.01261903868
501.875 -0.05446167205 -0.01851693275
502.5 -0.04358548378 -0.01290932354
503.125 -0.02298341605 0.008764368468
503.75 -0.01765568465 0.01231606937
504.375 -0.02224022978 0.01467504793
505.0 -0.01211587074 0.01364710384
505.625 -0.007076270433 0.00252775945
506.25 -0.02385353426 0.006431734907
506.875 -0.0667360368 -0.0153918604
507.5 -0.06709637069 0.007287462776
508.125 -0.05609259417 -0.01194421972
508.75 -0.06776165878 0.03246101617
509.375 -0.07787859624 0.05344702183
510.0 -0.05831441934 0.03991939158
510.625 0.007067703689 0.0300499813
511.25 -0.002691434941 0.04225773544
511.875 0.01514364616 0.05968490588
512.5 0.03351572479 0.03051572732
513.125 0.05397823761 -0.03683703681
513.75 0.05789739341 -0.08675251202
514.375 0.01675909002 -0.08566933058
515.0 -0.01865757042 -0.06550705292
515.625 0.01257211264 -0.07727752037
516.25 -0.01553893691 -0.08244502518
516.875 0.06550908512 -0.02501657216
517.5 0.04738914898 -0.05267485862
518.125 0.1647516133 -0.02881766242
518.75 0.02604675852 -0.1185836672
519.375 0.02495074471 -0.07773550543
520.0 -0.006459852743 -0.05745863748
520.625 -0.02357584901 -0.08942821976
521.25 -0.04140123789 -0.0943316468
521.875 0.001912780675 -0.05453646431
522.5 -0.03043691088 -0.05540585053
523.125 -0.0774744336 -0.1643880946
523.75 -0.1551951847 -0.254694768
524.375 -0.1091134146 -0.2576862535
525.0 -0.09049243502 -0.1074083714
525.625 -0.09279642727 -0.09435921845
526.25 -0.05373858068 -0.0947171225
526.875 -0.06173896976 -0.05771675798
527.5 -0.1024408368 -0.0248057338
528.125 -0.1062443008 0.0213537059
528.75 -0.08653237679 0.02152755358
529.375 -0.07050285326 0.09571137474
530.0 0.01354930294 0.1526780693
530.625 0.1237004694 0.1143848213
531.25 0.08472528554 0.08432220163
531.875 0.08799699488 0.05087420558
532.5 0.1233007215 0.08884454478
533.125 0.09722476377 0.0978668159
533.75 0.0793287352 0.05079587169
534.375 0.07839505675 0.03433645131
535.0 0.1203340743 0.0512559177
535.625 0.07227043173 0.09067604107
536.25 0.0936453578 0.01108992982
536.875 0.116622876 0.01540783776
537.5 0.09172177419 0.05569289439
538.125 0.06069526804 0.05384448316
538.75 0.08436685406 0.04963774535
539.375 0.1352110453 0.0910160088
540.0 0.1257714233 0.09682002639
540.625 0.0966802793 0.05669421218
541.25 0.0959001997 0.04940569289
541.875 0.1173745185 0.06442415298
542.5 0.05627696916 0.06017053176
543.125 0.03093695794 0.02215762804
543.75 0.06276580014 0.009263210316
544.375 0.1151633096 0.00611367687
545.0 0.09426499193 -0.06651932794
545.625 0.02905850835 -0.09127097412
546.25 -0.0334583977 -0.1048472181
546.875 -0.02463886768 -0.1217212677
547.5 0.002747575603 -0.1195366244
548.125 0.007596563438 -0.127325521
548.75 0.04803258679 -0.1331541347
549.375 0.1053156564 -0.1271457969
550.0 0.1374046736 -0.06046836578
550.625 0.1450632825 -0.09135351628
551.25 0.1876557067 -0.01258068149
551.875 0.1314375425 -0.03737722391
552.5 0.09178548586 -0.05875537917
553.125 0.07192612967 -0.09988424783
553.75 0.09997093885 -0.08302130796
554.375 0.05635653837 -0.05163395992
555.0 0.03968893618 -0.05346273912
555.625 0.04633229039 -0.08109175307
556.25 0.07549690407 -0.07241253007
556.875 0.06114914784 -0.03284490645
557.5 0.04908722746 -0.02631324187
558.125 0.08805581345 -0.01515238406
558.75 0.09526932201 0.03747942566
559.375 0.10006993 0.02930234927
560.0 0.1173788416 0.009484896306
560.625 0.1355998636 -0.0288189001
561.25 0.09766196401 -0.05192299704
561.875 0.05430529521 -0.07078346097
562.5 0.03756731036 -0.09232903155
563.125 0.02615670046 -0.08619155109
563.75 0.01156743402 -0.06276996146
564.375 -0.001264739189 -0.05728373162
565.0 0.02119969452 -0.09995250413
565.625 0.05747503774 -0.09985452978
566.25 0.05734641222 -0.07587468029
566.875 0.05094812838 -0.07714478832
567.5 0.07704845819 -0.06971595193
568.125 0.1056243804 -0.01834926033
568.75 0.09650857558 0.006174700299
569.375 0.1191779902 -0.007419735876
570.0 0.1339645996 -0.0142705437
570.625 0.1142481587 -0.02663428762
571.25 0.09281051009 -0.04408452634
571.875 0.09090305207 -0.07641782109
572.5 0.05934665421 -0.0923554999
573.125 0.01923382209 -0.06954853681
573.75 0.004516457817 -0.06776360008
574.375 0.01363323088 -0.09871626435
575.0 0.008573555465 -0.1048150711
575.625 -0.01505770493 -0.06781013503
576.25 -0.02882177044 -0.05946570075
576.875 -0.007862492495 -0.08237096427
577.5 0.0193008927 -0.07306287739
578.125 0.01874465171 -0.06865387079
578.75 0.003196488061 -0.08701526816
579.375 0.01579131213 -0.1161920625
580.0 0.04069454441 -0.1005134879
580.625 0.01517150342 -0.1087685622
581.25 -0.02879062639 -0.1287924406
581.875 -0.02549938616 -0.1155329191
582.5 -0.0007146859916 -0.07828510481
583.125 0.004324321883 -0.07091704935
583.75 0.01737476427 -0.09808420914
584.375 0.03561815479 -0.08761460634
585.0 0.03295228205 -0.05888754312
585.625 0.03801689302 -0.05455225944
586.25 0.05722239961 -0.06533989556
586.875 0.05083484759 -0.0606346417
587.5 0.02465137987 -0.05697985694
588.125 0.006767322368 -0.07537040536
588.75 0.02995902651 -0.09181593906
589.375 0.006120579157 -0.1024629466
590.0 -0.04968995808 -0.08800670371
590.625 -0.09792494925 -0.06501882649
591.25 -0.06950518499 -0.05709368368
591.875 -0.03359778338 -0.03154260278
592.5 -0.02808378087 -0.02895891392
593.125 -0.03840385375 -0.05274565046
593.75 -0.01550368035 -0.0692075955
594.375 0.01989553573 -0.05045239398
595.0 0.03323540263 -0.04863960717
595.625 0.05731744025 -0.05765446204
596.25 0.06959639634 -0.0439202041
596.875 0.06199852508 -0.02367172428
597.5 0.06277621536 -0.01627912937
598.125 0.0766669386 -0.0195617512
598.75 0.07783009693 -0.03563689769
599.375 0.07266526964 -0.05167855868
600.0 0.07131457804 -0.05808151906
600.625 0.0596886472 -0.05182208766
601.25 0.03409680479 -0.04697498674
601.875 0.01970845429 -0.04076235091
602.5 0.02380370573 -0.02843439287
603.125 0.02173687717 -0.006179789764
603.75 0.02049762239 0.005131412451
604.375 0.03247212994 0.00497002331
605.0 0.04289120989 0.002929267031
605.625 0.02750122122 0.004736765419
606.25 0.005387472724 0.01107326216
606.875 0.001919284724 0.02843504012
607.5 0.0195571349 0.04098444393
608.125 0.03634384463 0.02958864244
608.75 0.03428202078 0.01979198524
609.375 0.03197510933 0.02341955614
610.0 0.03297371925 0.02599284885
610.625 0.03423451545 0.0145391207
611.25 0.02895237715 0.002592673759
611.875 0.01950990397 -0.00495358885
612.5 0.00652718932 -0.01166157914
613.125 -0.008427893833 -0.01021410896
613.75 -0.0129020622 8.383203277e-05
614.375 -0.004795195636 0.004091773705
615.0 0.002052137295 -0.004561762128
615.625 -0.004735125648 -0.01400424884
616.25 -0.01290125452 -0.007947930786
616.875 -0.005977425674 0.0009687770452
617.5 0.005777061231 -0.004226983649
618.125 0.009473275627 -0.01513672505
618.75 0.009794509131 -0.01693127874
619.375 0.01888849904 -0.01384996855
620.0 0.03340870639 -0.02423362496
620.625 0.0307989155 -0.05217890025
621.25 0.02899129629 -0.06640212011
621.875 0.01515968809 -0.07754015968
622.5 -0.05149775883 -0.05790601153
623.125 -0.05287690468 -0.03175510397
623.75 -0.03291247325 -0.02271349819
624.375 -0.01134378956 -0.02970653097
625.0 0.01010429886 -0.03332845561
625.625 0.01009022606 -0.02307607059
626.25 0.01602330734 -0.008115729007
626.875 0.0383080861 -0.01312005786
627.5 0.06868148821 -0.01315131058
628.125 0.07025085985 -0.002943261462
628.75 0.06490512323 -0.001413428915
629.375 0.07805597558 -0.002135504981
630.0 0.1021737549 0.01403653565
630.625 0.09089600104 0.03555461836
631.25 0.08482594583 0.02174277303
631.875 0.0906024841 0.01464251987
632.5 0.08598770772 0.01728383053
633.125 0.06350632696 0.03113565212
633.75 0.05979568439 0.01960195204
634.375 0.06847228544 0.02802883465
635.0 0.05924396123 0.027686138
635.625 0.05354977456 0.02984687241
636.25 0.07042751432 0.03866414322
636.875 0.08158162038 0.04996020492
637.5 0.05901322527 0.03983572367
638.125 0.04114477916 0.04046464746
638.75 0.05685930302 0.07804423829
639.375 0.02274124888 0.1217647968
640.0 -0.004859426273 0.09881197602
640.625 0.002708414611 0.07756537509
641.25 -0.006337018678 0.09485011605
641.875 -0.05779900993 0.08785585177
642.5 -0.05994100043 0.05402133035
643.125 -0.04988732808 0.05691978964
643.75 -0.0671222514 0.06505925108
644.375 -0.09123254083 0.05446297631
645.0 -0.08829994785 0.04346979767
645.625 -0.07932768806 0.07213767254
646.25 -0.08141414025 0.09662621474
646.875 -0.08361869405 0.0734987497
647.5 -0.07553033211 0.054847472
648.125 -0.08515374559 0.06505818639
648.75 -0.1108301227 0.0501690325
649.375 -0.08727660101 0.02349925532
650.0 -0.06959901821 0.006230855243
650.625 -0.07748591361 -0.03089666947
651.25 -0.05109677132 -0.06766815948
651.875 -0.01142355675 -0.06855749264
652.5 0.008105296384 -0.07243217796
653.125 0.054762171 -0.1039707916
653.75 0.1082915097 -0.07654583239
654.375 0.1066632905 -0.06134663307
655.0 0.1077372034 -0.08218707313
655.625 0.124625474 -0.09479174591
656.25 0.1096865004 -0.06752056222
656.875 0.06194842195 -0.0777691361
657.5 0.07228531311 -0.09646788814
658.125 0.08978414599 -0.08692177266
658.75 0.06875445346 -0.05383064286
659.375 0.04452010211 -0.04396966752
660.0 0.04765314352 -0.07908489302
660.625 0.06475310117 -0.0957174568
661.25 0.05345221807 -0.09804886218
661.875 0.01629261377 -0.1159086506
662.5 -0.006924884489 -0.1456529839
663.125 0.01693605404 -0.1479598488
663.75 0.05787417424 -0.1169494432
664.375 0.1125511915 -0.08780997958
665.0 0.1506385028 0.001542739113
665.625 0.106115341 0.03906227744
666.25 0.08213966467 0.04401516836
666.875 0.0809636583 0.07862797849
667.5 0.02074578076 0.1234618083
668.125 -0.01998403033 0.09161736109
668.75 0.005306842272 0.09527451568
669.375 0.03091555782 0.1327648448
670.0 0.001822354269 0.1498211344
670.625 -0.0283724751 0.1102286438
671.25 0.01750021143 0.1092314574
671.875 0.07011346269 0.1311682909
672.5 0.1134991634 0.09695589719
673.125 0.09839964871 0.05802105499
673.75 0.08342964324 0.05424319528
674.375 0.06487196567 0.08951210856
675.0 0.01696059323 0.1063102733
675.625 -0.0101746419 0.1035237182
676.25 -0.06505427972 0.1142148289
676.875 -0.1092762619 0.07688281161
677.5 -0.1121417828 0.07025048653
678.125 -0.09888201454 0.1021210311
678.75 -0.1335783322 0.129047063
679.375 -0.1358478042 0.05821471263
680.0 -0.08357801412 0.05521081658
680.625 -0.06439712236 0.08527739378
681.25 -0.06583394803 0.1232234757
681.875 -0.07223083195 0.09122257801
682.5 -0.03856442135 0.06221436184
683.125 -0.03213971336 0.09089629212
683.75 -0.07320969583 0.1152495153
684.375 -0.1364419127 0.04782765902
685.0 -0.1110643484 -0.05395125399
685.625 -0.07292682929 -0.1190630139
686.25 -0.0162250907 -0.1630226648
686.875 0.01281402258 -0.1646703069
687.5 0.03744645134 -0.1601034209
688.125 0.06910585328 -0.1373418515
688.75 0.07507893181 -0.08760223884
689.375 0.06466462815 -0.06506283871
690.0 0.0821239181 -0.07908895405
690.625 0.1243552242 -0.06046306631
691.25 0.09300846775 -0.04318365236
691.875 0.05818653842 -0.08034542696
692.5 -0.04416289137 -0.1456406252
693.125 -0.1884995007 -0.1094951118
693.75 -0.1708665618 -0.01664653283
694.375 -0.1326326758 0.034939449
695.0 -0.1616759246 -0.007408579033
695.625 -0.1081925418 -0.1447661256
696.25 0.07955362627 -0.1177595841
696.875 0.1086108713 -0.01640927386
697.5 0.09340453258 0.06300828707
698.125 0.04970725657 0.09698613605
698.75 0.02999937044 0.1113330438
699.375 0.02645577747 0.1319636358
700.0 -0.004299748423 0.1317580888
700.625 -0.04034992193 0.1147575722
701.25 -0.03309866459 0.1253404514
701.875 -0.003197897126 0.1794837867
702.5 0.03198292178 0.1483483529
703.125 0.06401851889 0.06742022602
703.75 0.07877893945 0.004927750055
704.375 0.1398119727 -0.03013447901
705.0 0.168980682 0.01226038036
705.625 0.09974332459 0.05387998114
706.25 0.05387210954 0.08613486931
706.875 -0.04673220712 0.1364673052
707.5 -0.1554830278 0.08239824616
708.125 -0.1425596644 -0.008289634688
708.75 -0.1208913499 -0.03531218042
709.375 -0.07646496287 -0.1014066048
710.0 0.009035383149 -0.1224610846
710.625 0.05276021437 -0.09909194743
711.25 0.0641060236 -0.08450499883
711.875 0.05158159928 -0.06801206436
712.5 0.03640790143 -0.05512557523
713.125 0.008000188315 -0.08739685257
713.75 -0.07833177061 -0.1105897062
714.375 -0.1230449939 -0.06108434876
715.0 -0.1233107032 -0.003390691884
715.625 -0.1407432879 0.01152775621
716.25 -0.1679798337 -0.05792968445
716.875 -0.08104612842 -0.1174838912
717.5 -0.01379155219 -0.09829484242
718.125 0.004898663389 -0.1004245423
718.75 0.0482211535 -0.1079218209
719.375 0.08166714732 -0.06244809316
720.0 0.06756829992 -0.01144533748
720.625 0.04647628856 0.03843717328
721.25 -0.03831938109 0.05733570851
721.875 -0.08817033113 -0.01915718874
722.5 -0.09171108644 -0.05184697541
723.125 -0.1254941953 0.001379671794
723.75 -0.08568740197 0.09055148958
724.375 0.001915945731 0.1036981635
725.0 0.05749294649 0.06495678829
725.625 0.07037587671 0.03134632609
726.25 0.05294321919 0.01770964892
726.875 0.02652721947 0.02562892829
727.5 -0.001052564114 0.04529176363
728.125 -0.0374477718 0.05662684958
728.75 -0.03940540299 0.05607871225
729.375 -0.009882959719 0.05362183321
730.0 -0.003316973573 0.04383096659
730.625 -0.02365274061 0.0410202446
731.25 -0.03825284806 0.02513245571
731.875 -0.04197242418 0.001318178682
732.5 -0.03598844219 -0.01703830813
733.125 -0.02307228254 -0.01667924021
733.75 -0.008663209741 -0.00392374446
734.375 0.004395333684 -0.003909384499
735.0 0.004321639628 -0.0112029746
735.625 0.004402238993 -0.01316447245
736.25 0.002974452069 -0.02310089077
736.875 -0.01221749354 -0.02943714451
737.5 -0.02650973052 -0.01729651591
738.125 -0.03103479181 0.004942751651
738.75 -0.02091128032 0.03099550291
739.375 0.003269172723 0.04151443402
740.0 0.02215597677 0.02548575821
740.625 0.01956135223 0.01711644935
741.25 0.01629110504 0.03064178974
741.875 -0.008376232799 0.04114152765
742.5 -0.04137971209 0.01396501393
743.125 -0.03705658093 -0.03428534061
743.75 -0.008320345246 -0.05919305023
744.375 -0.003990170713 -0.06421614085
745.0 -0.02354032449 -0.06463180792
745.625 -0.05449637067 -0.04317829749
746.25 -0.03925687655 -0.01217527926
746.875 -0.01751566767 -0.01499349147
747.5 -0.02788602868 -0.02181489382
748.125 -0.05160221569 -0.007390585713
748.75 -0.05516397383 0.03188415962
749.375 -0.01233015714 0.06820776399
750.0 0.06291748649 0.05468351724
