!Created with skrf (http://scikit-rf.org).
# GHz S RI R 50.0 
!freq ReS11 ImS11
500.0 -0.00522472307 -0.0009569153499
500.625 0.002458851377 -0.004424993866
501.25 -0.008798914436 -0.018880352
501.875 -0.03783568701 -0.0290713315
502.5 -0.03081193875 -0.01627105076
503.125 -0.01606408932 0.002231273294
503.75 -0.01359183703 0.001784177298
504.375 -0.02070843876 -0.0004940694223
505.0 -0.01303458382 -0.0007802477266
505.625 -0.009805562083 -0.009910668075
506.25 -0.03222032485 -0.009246420606
506.875 -0.06226997079 -0.04200959424
507.5 -0.0659902069 -0.01645112398
508.125 -0.05154079757 -0.03210582524
508.75 -0.08158057347 0.01029532593
509.375 -0.08874345367 0.02543587675
510.0 -0.06276926942 0.01490001605
510.625 -0.008091945279 0.03018590533
511.25 -0.02254311488 0.04506886619
511.875 -0.004686500054 0.0658144503
512.5 0.027961781 0.03885691995
513.125 0.06442273631 -0.02221894837
513.75 0.08091199809 -0.06138903918
514.375 0.04403239499 -0.07200465572
515.0 0.003806014949 -0.06433046145
515.625 0.0423573583 -0.07023588182
516.25 0.02724647972 -0.08291625661
516.875 0.08357524712 0.005365953778
517.5 0.06979940155 -0.04995773007
518.125 0.1925804136 0.01611464525
518.75 0.06089259961 -0.1094676298
519.375 0.04770493936 -0.06663524206
520.0 0.01027316266 -0.06597583784
520.625 0.003231919149 -0.1097213081
521.25 -0.01247095334 -0.1064483811
521.875 0.01821387137 -0.05653771693
522.5 -0.01989869556 -0.0723759368
523.125 -0.04517108775 -0.2058636246
523.75 -0.1047900715 -0.2913518462
524.375 -0.07345866619 -0.2775612696
525.0 -0.07086660061 -0.1274624191
525.625 -0.06507587216 -0.1095559053
526.25 -0.02759061501 -0.09882504564
526.875 -0.0466223338 -0.06915575287
527.5 -0.09211000825 -0.05242172195
528.125 -0.09898223365 -0.01241828298
528.75 -0.08570898191 -0.001034675488
529.375 -0.09348311936 0.07950746768
530.0 -0.02757729527 0.1476446563
530.625 0.07736398538 0.1234012706
531.25 0.05149563712 0.08341528715
531.875 0.06063038494 0.08234644237
532.5 0.08024939041 0.1367997908
533.125 0.05843349229 0.1210063046
533.75 0.06089503192 0.07019187938
534.375 0.07035991311 0.06166872366
535.0 0.1008459677 0.09381519722
535.625 0.04269769297 0.1035285763
536.25 0.0873465082 0.03067063043
536.875 0.1003729182 0.04802223189
537.5 0.0581976061 0.08369372199
538.125 0.03592569373 0.07297411489
538.75 0.07341996528 0.07529102045
539.375 0.09806042177 0.1329768143
540.0 0.08492171952 0.1164384343
540.625 0.06844386398 0.07851382515
541.25 0.07524677575 0.07855388103
541.875 0.07886862562 0.1015065663
542.5 0.01921305356 0.06747566156
543.125 0.01855956847 0.03976084649
543.75 0.07076505476 0.04102609772
544.375 0.1192353192 0.04721072199
545.0 0.1098293944 -0.03809592842
545.625 0.05177337714 -0.08404323638
546.25 0.002312505442 -0.1206498791
546.875 0.016480946 -0.1247718136
547.5 0.03650995881 -0.1159545312
548.125 0.04663308096 -0.1312629109
548.75 0.09084753932 -0.1248771129
549.375 0.1369766032 -0.09557336707
550.0 0.1481577077 -0.03397691101
550.625 0.1721979545 -0.0617195337
551.25 0.1721902771 0.03514346718
551.875 0.1231645714 -0.00544289374
552.5 0.09367529785 -0.0351696581
553.125 0.09619468173 -0.07398815549
553.75 0.1102971231 -0.03590120353
554.375 0.05907895506 -0.02600926855
555.0 0.05386521238 -0.03407441135
555.625 0.07419299358 -0.05854501206
556.25 0.0948653798 -0.03338701075
556.875 0.06466748738 -0.004561141531
557.5 0.06336555146 -0.005457740623
558.125 0.09828106396 0.02133022172
558.75 0.08518275495 0.06971814001
559.375 0.09486024913 0.05515849193
560.0 0.1173327487 0.03599966166
560.625 0.132521927 0.00964128849
561.25 0.0969108357 -0.02321642301
561.875 0.06816011936 -0.04943970835
562.5 0.06719398556 -0.06562451431
563.125 0.05481674856 -0.06227431653
563.75 0.03455545078 -0.04840979735
564.375 0.02461728226 -0.06027949203
565.0 0.06954224897 -0.09638793688
565.625 0.08501816597 -0.0777798074
566.25 0.07596124571 -0.05959427151
566.875 0.07467721232 -0.06332114584
567.5 0.1031196956 -0.04154747587
568.125 0.1063979789 0.01998567247
568.75 0.09828737689 0.02812313395
569.375 0.1241223894 0.02491545221
570.0 0.1311804778 0.02166093752
570.625 0.1107476257 0.005359521612
571.25 0.09690458569 -0.01972924793
571.875 0.1072170574 -0.04275859665
572.5 0.07151912612 -0.0585490906
573.125 0.0356492403 -0.04814116724
573.75 0.03501115903 -0.0611913997
574.375 0.04972667576 -0.08996357468
575.0 0.04199636543 -0.0880720894
575.625 0.006832536929 -0.06407577325
576.25 -0.001277895786 -0.06976031658
576.875 0.03425190158 -0.07939137435
577.5 0.04691484775 -0.06569883771
578.125 0.03910904039 -0.06648644472
578.75 0.03306078892 -0.09436689799
579.375 0.05905144372 -0.1103391326
580.0 0.06215746005 -0.08657858516
580.625 0.03794543336 -0.1057970646
581.25 0.006113221981 -0.130230537
581.875 0.0105146438 -0.1059763792
582.5 0.0215423555 -0.06260783509
583.125 0.02860994132 -0.06588847995
583.75 0.05364303349 -0.08374944714
584.375 0.05970954551 -0.06543144681
585.0 0.04924079335 -0.04078703267
585.625 0.05885807036 -0.03782189781
586.25 0.08054266164 -0.04125721826
586.875 0.06476226308 -0.03869372146
587.5 0.04258717755 -0.04714217644
588.125 0.03968448427 -0.07412492604
588.75 0.0604626759 -0.08087051705
589.375 0.03174241095 -0.09597596747
590.0 -0.03021581904 -0.09709766026
590.625 -0.07031305333 -0.08881025155
591.25 -0.03550216003 -0.06234070039
591.875 -0.01214496276 -0.03470693954
592.5 -0.01097639993 -0.04141431884
593.125 -0.01125419638 -0.07125935085
593.75 0.01676653556 -0.07141972661
594.375 0.0383142632 -0.04423948186
595.0 0.05356518759 -0.04318015508
595.625 0.07905534627 -0.04048822319
596.25 0.08098050407 -0.02037055869
596.875 0.06729653811 -0.004431344933
597.5 0.07044698341 0.002992989005
598.125 0.08356934527 0.003836618217
598.75 0.08551827012 -0.01597669503
599.375 0.08248023735 -0.03422501944
600.0 0.07808953474 -0.03773542287
600.625 0.06077126458 -0.03249605289
601.25 0.03588609361 -0.03134259329
601.875 0.02667359374 -0.0248898036
602.5 0.02865776457 -0.00844330393
603.125 0.02027518657 0.009554054215
603.75 0.0203296142 0.0171372736
604.375 0.03408287042 0.0184113164
605.0 0.0397735275 0.01932965752
605.625 0.01989194491 0.01603187823
606.25 -0.0006969513237 0.01924926883
606.875 -0.004256040532 0.03752356125
607.5 0.01260364877 0.05045321555
608.125 0.03093991045 0.03802160675
608.75 0.03061457734 0.02675436889
609.375 0.02764662456 0.02948935222
610.0 0.02726276753 0.03028960948
610.625 0.02932367215 0.01754330031
611.25 0.02486369058 0.004360314662
611.875 0.01587082977 -0.004518188733
612.5 0.003814346644 -0.01202470662
613.125 -0.009920267195 -0.01059614513
613.75 -0.01331709205 -0.0002312537956
614.375 -0.004132776528 0.003942672002
615.0 0.003831449741 -0.00464567882
615.625 -0.001691743983 -0.01392404893
616.25 -0.008881404734 -0.00772180911
616.875 -0.001145668716 0.001220278588
617.5 0.01207957162 -0.003938541213
618.125 0.01729070078 -0.01357117257
618.75 0.01784447673 -0.01413495229
619.375 0.02692950276 -0.0107106682
620.0 0.04360922206 -0.02083091564
620.625 0.04270250974 -0.04901410946
621.25 0.03955899518 -0.06039253314
621.875 0.02565382354 -0.07107378563
622.5 -0.0364415388 -0.05939114691
623.125 -0.03643243777 -0.03272948041
623.75 -0.01698539201 -0.02089182926
624.375 0.005038898108 -0.02310128957
625.0 0.02330213286 -0.01762716669
625.625 0.02169880639 -0.007179467658
626.25 0.02897452671 0.003542853966
626.875 0.05580926659 0.0001224292282
627.5 0.078481188 0.01127529596
628.125 0.07207725948 0.01806454337
628.75 0.06872624854 0.01703744433
629.375 0.08526253476 0.02186476813
630.0 0.09582005893 0.04545718907
630.625 0.07506066889 0.05277913792
631.25 0.07392954971 0.03943920162
631.875 0.07681308942 0.03931756131
632.5 0.06543496766 0.04245521738
633.125 0.0402828045 0.04519290581
633.75 0.04571170496 0.03844996321
634.375 0.04624702356 0.0529037886
635.0 0.038131534 0.05085166399
635.625 0.03884121926 0.05369726084
636.25 0.05640828995 0.06727220748
636.875 0.05646004123 0.07740018005
637.5 0.034786988 0.05767024157
638.125 0.02552445008 0.06168296226
638.75 0.02990907209 0.1082634874
639.375 -0.01469426138 0.1209722
640.0 -0.02963237288 0.086202199
640.625 -0.02082491497 0.07356808386
641.25 -0.04837347583 0.08542413098
641.875 -0.08438104721 0.05063574871
642.5 -0.07065949277 0.03007173662
643.125 -0.06858280684 0.03811670885
643.75 -0.09355697814 0.03173980275
644.375 -0.1079727078 0.01000400102
645.0 -0.09584988421 0.0161014981
645.625 -0.1035257162 0.04942570141
646.25 -0.1087121127 0.06098508884
646.875 -0.09930433027 0.03229680233
647.5 -0.08717945332 0.02301320119
648.125 -0.1051174975 0.03305251894
648.75 -0.1123398158 0.004788043106
649.375 -0.07810132496 -0.01040242025
650.0 -0.06181824545 -0.02530344635
650.625 -0.05199176835 -0.06769422861
651.25 -0.01537692475 -0.08522719457
651.875 0.01790462629 -0.07101832479
652.5 0.04234907679 -0.07722177997
653.125 0.1058040739 -0.08417378633
653.75 0.1266128871 -0.04167441765
654.375 0.1192420921 -0.03548377939
655.0 0.1330915491 -0.05033740763
655.625 0.1457131044 -0.03861215685
656.25 0.1064281944 -0.0196103884
656.875 0.07666386778 -0.05359288224
657.5 0.1017452011 -0.05893485141
658.125 0.1065267493 -0.03298982494
658.75 0.07528165014 -0.007293301994
659.375 0.06422925736 -0.02018210733
660.0 0.0919811741 -0.05689467287
660.625 0.1045048836 -0.06541063909
661.25 0.08841151117 -0.07574418019
661.875 0.0588385772 -0.1135966679
662.5 0.04512517581 -0.1454187561
663.125 0.06436540067 -0.1311264699
663.75 0.08690456461 -0.09307700271
664.375 0.1390000545 -0.0403280745
665.0 0.1204992494 0.05518670067
665.625 0.07513355935 0.06690798556
666.25 0.05631818346 0.06685294726
666.875 0.0314757074 0.1130773429
667.5 -0.04803205178 0.1130656997
668.125 -0.05333756819 0.07848346789
668.75 -0.02732142504 0.1030477631
669.375 -0.02397784593 0.1472258583
670.0 -0.06000252571 0.1330519864
670.625 -0.06074412394 0.08665957506
671.25 -0.01813544719 0.1164144662
671.875 0.01499129321 0.1485730108
672.5 0.05932424516 0.1239179459
673.125 0.05692630671 0.08396600164
673.75 0.04822817667 0.08686790772
674.375 0.01676068111 0.1136845503
675.0 -0.02803673716 0.1063394212
675.625 -0.05464747519 0.09898787625
676.25 -0.1172252359 0.07831880418
676.875 -0.1336098628 0.03546422643
677.5 -0.1296635128 0.0365999931
678.125 -0.1332009373 0.07738532579
678.75 -0.1717043252 0.06334421821
679.375 -0.1207038428 0.004506372718
680.0 -0.08529598153 0.02039338976
680.625 -0.09374077684 0.05249468166
681.25 -0.1168431489 0.06958385719
681.875 -0.09658567754 0.03154624237
682.5 -0.06442402152 0.04109649829
683.125 -0.07989795176 0.08168967782
683.75 -0.1268664557 0.08354376528
684.375 -0.1475496248 -0.01396141619
685.0 -0.08929886901 -0.09120320026
685.625 -0.03027409179 -0.1500289411
686.25 0.03907041614 -0.1623516694
686.875 0.06417784162 -0.1489244902
687.5 0.08854548751 -0.1311467294
688.125 0.10095856 -0.08553664854
688.75 0.09027574658 -0.04067176386
689.375 0.08191101633 -0.02986216424
690.0 0.117681274 -0.02963542966
690.625 0.1322351205 0.01554302427
691.25 0.1061247339 -0.0003035217445
691.875 0.09223808702 -0.06671418064
692.5 0.01177526144 -0.180294425
693.125 -0.1260940632 -0.1782543201
693.75 -0.1395853981 -0.06089829162
694.375 -0.1361063424 -0.007670813097
695.0 -0.1502275777 -0.07246908011
695.625 -0.03048280338 -0.1716440219
696.25 0.1044031132 -0.06481854226
696.875 0.1016631573 0.02720199119
697.5 0.05058207059 0.09954993412
698.125 -0.001695784904 0.1157685226
698.75 -0.0190294922 0.123552296
699.375 -0.02982902753 0.1392804396
700.0 -0.0531840783 0.1217606787
700.625 -0.07626838176 0.09369050518
701.25 -0.07590555147 0.1138735506
701.875 -0.08151831503 0.1592150002
702.5 -0.02427193695 0.1222675293
703.125 0.02145020346 0.07482129001
703.75 0.07461205645 0.04771684512
704.375 0.1563389161 0.05244986268
705.0 0.1370646722 0.0829814281
705.625 0.07302205132 0.0831551312
706.25 0.02464112371 0.1133533389
706.875 -0.1093803534 0.1216757524
707.5 -0.1733445829 0.01401913549
708.125 -0.1231610393 -0.04417851805
708.75 -0.1008683584 -0.07264906074
709.375 -0.02663168612 -0.1197868366
710.0 0.05967126493 -0.09983188126
710.625 0.08014946879 -0.06283024344
711.25 0.08464398757 -0.04338320113
711.875 0.06966556626 -0.02627923138
712.5 0.06689254654 -0.02494094093
713.125 0.06044872915 -0.09089048687
713.75 -0.02589527341 -0.1485157417
714.375 -0.09749711753 -0.1020650136
715.0 -0.1221681592 -0.04037644509
715.625 -0.1507353818 -0.03839419858
716.25 -0.1268687072 -0.1202581192
716.875 -0.02843185243 -0.1199585503
717.5 0.01839878691 -0.08832273293
718.125 0.04738836185 -0.09029981244
718.75 0.09221613689 -0.06966791272
719.375 0.08828972921 -0.01517571854
720.0 0.0590672421 0.01725879502
720.625 0.01719251344 0.06077133669
721.25 -0.07446902172 0.03425562849
721.875 -0.08283620308 -0.06006859716
722.5 -0.07720849745 -0.08285008385
723.125 -0.1237345156 -0.03911808748
723.75 -0.107424161 0.05476176797
724.375 -0.03452459 0.09213316487
725.0 0.02603639766 0.07773502384
725.625 0.04537401372 0.05055914859
726.25 0.03177421101 0.03225266747
726.875 0.003900842259 0.0344203975
727.5 -0.03102794849 0.04596005714
728.125 -0.06443862824 0.039136172
728.75 -0.05793968507 0.03927244734
729.375 -0.02881490706 0.0472312048
730.0 -0.02388097767 0.04079032112
730.625 -0.04015685304 0.0303310121
731.25 -0.04385532814 0.01088913667
731.875 -0.03920770489 -0.01103805473
732.5 -0.0261245659 -0.02473950223
733.125 -0.01132112905 -0.01732786053
733.75 0.001190739846 -0.003617775163
734.375 0.01256269808 -0.00501795987
735.0 0.009678466677 -0.01502395854
735.625 0.0070443761 -0.0164231413
736.25 0.003928432722 -0.02471343185
736.875 -0.01183839146 -0.02914049024
737.5 -0.02714425495 -0.01551662075
738.125 -0.0339998646 0.007554918804
738.75 -0.02675636577 0.03299791094
739.375 -0.00478812167 0.04266854928
740.0 0.01262763746 0.02909456979
740.625 0.009545615902 0.02458035387
741.25 0.003516509077 0.03706481359
741.875 -0.02143860816 0.03669158776
742.5 -0.0436791144 -9.743952953e-05
743.125 -0.02135832544 -0.0456222081
743.75 0.01424956013 -0.05472913636
744.375 0.01618150398 -0.055619498
745.0 -0.0006370813803 -0.06149616584
745.625 -0.02655906051 -0.05039528568
746.25 -0.01403986965 -0.02526451828
746.875 -0.001810039395 -0.03157980061
747.5 -0.02286678691 -0.04024937709
748.125 -0.05222084864 -0.02916781671
748.75 -0.06656253068 0.009189042956
749.375 -0.0399263613 0.05965399692
750.0 0.03953280072 0.07992662333
