!Created with skrf (http://scikit-rf.org).
# GHz S RI R 50.0 
!freq ReS11 ImS11
500.0 -0.008314951642 -0.001332477619
500.625 0.00109042284 -0.0007265530849
501.25 -0.01369361477 -0.01726298142
501.875 -0.04556545288 -0.02514225378
502.5 -0.03485303815 -0.0140671271
503.125 -0.01929619059 0.004569951074
503.75 -0.01560281998 0.005777057613
504.375 -0.02169575154 0.005521651741
505.0 -0.01317535451 0.006267554831
505.625 -0.008097840124 -0.005607418275
506.25 -0.02917724936 -0.003492019936
506.875 -0.06469414277 -0.03177108836
507.5 -0.06752723383 -0.006775876635
508.125 -0.05412666731 -0.02473160214
508.75 -0.07597131557 0.02005652743
509.375 -0.08410300927 0.03765233938
510.0 -0.06245140597 0.02432021225
510.625 -0.002036163175 0.03015484467
511.25 -0.01427674448 0.04524933225
511.875 0.004180060785 0.0626001432
512.5 0.03230980863 0.03572372842
513.125 0.06228857218 -0.02800084856
513.75 0.07319889042 -0.07093112823
514.375 0.03427935959 -0.07701151867
515.0 -0.006104790266 -0.06539222661
515.625 0.03019825975 -0.07354435426
516.25 0.01003882548 -0.08472531569
516.875 0.07627923801 -0.005904776745
517.5 0.05934640907 -0.0517580577
518.125 0.1811116142 -0.009530751845
518.75 0.04731462888 -0.1153958424
519.375 0.03894413448 -0.07220282851
520.0 0.003831294798 -0.06293813547
520.625 -0.009622133498 -0.1001764022
521.25 -0.02565368777 -0.1043054015
521.875 0.01213997995 -0.05698547123
522.5 -0.02462669975 -0.06580914927
523.125 -0.06267184591 -0.1891385101
523.75 -0.1252901841 -0.2775405678
524.375 -0.09018256137 -0.2708248847
525.0 -0.07983319829 -0.1194341662
525.625 -0.07666592938 -0.1046254798
526.25 -0.03891239017 -0.09793628178
526.875 -0.05321722985 -0.06493825164
527.5 -0.0978748594 -0.0409303438
528.125 -0.1036101917 0.001102487343
528.75 -0.08652448361 0.008186027248
529.375 -0.08430921867 0.08724288811
530.0 -0.01063699357 0.1519942232
530.625 0.09706192287 0.1211215132
531.25 0.06525103704 0.08433374348
531.875 0.07365181308 0.0696844859
532.5 0.1010745937 0.1185710957
533.125 0.07563008678 0.1127848107
533.75 0.0690782108 0.06262453808
534.375 0.07481022065 0.05029685465
535.0 0.1109926437 0.0770208332
535.625 0.05489257706 0.09966154791
536.25 0.09054546605 0.02289505828
536.875 0.1087987719 0.03484112388
537.5 0.07372373334 0.0734094357
538.125 0.04697322823 0.06596917924
538.75 0.07867541741 0.0646433479
539.375 0.1160225287 0.1173537953
540.0 0.102182213 0.1096400858
540.625 0.08100258972 0.07031785163
541.25 0.08504158016 0.06677863447
541.875 0.09693233716 0.08784161792
542.5 0.0341862643 0.06628885317
543.125 0.02423337779 0.03260769715
543.75 0.06850507345 0.02707888339
544.375 0.1191412606 0.02994502903
545.0 0.1047741524 -0.05027104664
545.625 0.04291686561 -0.08746462346
546.25 -0.01344114417 -0.1156542488
546.875 -0.0003238295702 -0.1251636538
547.5 0.02278316356 -0.1186496691
548.125 0.02941184675 -0.1312166503
548.75 0.07229380188 -0.1300821057
549.375 0.1249531272 -0.110137231
550.0 0.1442394189 -0.04542372713
550.625 0.1611779615 -0.07640184483
551.25 0.1810996022 0.01634615992
551.875 0.1279350441 -0.0187378386
552.5 0.09347223403 -0.04531966842
553.125 0.08644615958 -0.08642443018
553.75 0.1082899303 -0.05725702725
554.375 0.05846868926 -0.03693372078
555.0 0.04838775294 -0.04272977668
555.625 0.0630876678 -0.06935508398
556.25 0.08858610439 -0.05097753505
556.875 0.06418497326 -0.01636411271
557.5 0.05781833243 -0.01497218315
558.125 0.09556599654 0.005699913925
558.75 0.09060716867 0.05683412196
559.375 0.0979619191 0.04468875393
560.0 0.1180989007 0.02460515904
560.625 0.135817926 -0.006731084285
561.25 0.09813533918 -0.03576177886
561.875 0.06251942437 -0.05955856582
562.5 0.0556477242 -0.0792205704
563.125 0.04341742961 -0.07404346639
563.75 0.02531672367 -0.0551499407
564.375 0.01323375463 -0.05975192256
565.0 0.04873394186 -0.1006406267
565.625 0.0746936224 -0.08756648137
566.25 0.06845264858 -0.06715869713
566.875 0.06487887712 -0.07017190436
567.5 0.09291412718 -0.05526571319
568.125 0.1081837761 0.003688214131
568.75 0.09802380708 0.01846146106
569.375 0.1234568357 0.01066954894
570.0 0.1338500602 0.006409959019
570.625 0.1136468934 -0.008012952644
571.25 0.09592124961 -0.03018372709
571.875 0.1017969678 -0.05875639319
572.5 0.06772848772 -0.07333447388
573.125 0.02910483695 -0.05809530365
573.75 0.02124774371 -0.06545698253
574.375 0.03368063791 -0.09521907651
575.0 0.0284546298 -0.09685268589
575.625 -0.002599323893 -0.06648088972
576.25 -0.01389898667 -0.06645057794
576.875 0.01728018346 -0.08328782629
577.5 0.03572132417 -0.06984392293
578.125 0.03048617244 -0.06802231959
578.75 0.01947859442 -0.09258467452
579.375 0.04048748708 -0.1154893232
580.0 0.05338584337 -0.09323958815
580.625 0.02777556303 -0.1079629227
581.25 -0.009647388578 -0.1313213339
581.875 -0.004787505841 -0.1120137416
582.5 0.01284368762 -0.07013235942
583.125 0.01794868375 -0.06898274236
583.75 0.03881215097 -0.09185494056
584.375 0.05040699019 -0.07601602343
585.0 0.04277422157 -0.04931095915
585.625 0.05029750839 -0.04625384903
586.25 0.07137037429 -0.05341294625
586.875 0.05943765488 -0.04905232136
587.5 0.03470689305 -0.05221740268
588.125 0.02485367119 -0.0766782545
588.75 0.04795391599 -0.0868287273
589.375 0.0211853927 -0.09975744853
590.0 -0.03905193617 -0.09368224726
590.625 -0.08374738456 -0.07996032049
591.25 -0.05006548046 -0.06199013841
591.875 -0.021649245 -0.03408327439
592.5 -0.01924313001 -0.03636150176
593.125 -0.02443709817 -0.06441058368
593.75 0.002534796211 -0.07212323599
594.375 0.03058481794 -0.04756883787
595.0 0.04477161662 -0.04647457692
595.625 0.07056126744 -0.04898039203
596.25 0.07722673528 -0.03106282091
596.875 0.06584901421 -0.01298306042
597.5 0.06776588161 -0.005850314623
598.125 0.0816193785 -0.00692294113
598.75 0.08288617479 -0.02520902589
599.375 0.07888380798 -0.04257887166
600.0 0.07608168856 -0.04709475171
600.625 0.0610276992 -0.04106274113
601.25 0.03569378748 -0.03821094603
601.875 0.02429384205 -0.03222122152
602.5 0.0276472776 -0.01731702781
603.125 0.02157738045 0.002900597412
603.75 0.0208504952 0.01186916419
604.375 0.03393220529 0.01224838463
605.0 0.04209435047 0.01209693544
605.625 0.02386784798 0.01137096784
606.25 0.002347376888 0.01585120372
606.875 -0.001033415522 0.03375583625
607.5 0.01614459237 0.04667139617
608.125 0.03368918444 0.03469108743
608.75 0.03255551749 0.02391350146
609.375 0.02991246801 0.02699096703
610.0 0.03003305429 0.02867689526
610.625 0.03171874641 0.01645910486
611.25 0.026870444 0.00362919527
611.875 0.01754545618 -0.004601183482
612.5 0.004974071863 -0.01180023612
613.125 -0.009270177265 -0.01032919091
613.75 -0.0131395285 -6.331483302e-05
614.375 -0.004406383765 0.003994291413
615.0 0.003055648387 -0.004639176247
615.625 -0.002995630521 -0.0140874496
616.25 -0.01064121994 -0.007977754142
616.875 -0.00331094234 0.000941042642
617.5 0.009238218468 -0.00434347468
618.125 0.01385512046 -0.01464071855
618.75 0.01435684864 -0.015779428
619.375 0.02347303688 -0.01248616936
620.0 0.03921794463 -0.0228214627
620.625 0.03761061152 -0.05099059838
621.25 0.03522607472 -0.06346895487
621.875 0.02128465874 -0.074441672
622.5 -0.04331645468 -0.05939650766
623.125 -0.04389767335 -0.03300282579
623.75 -0.0241140044 -0.02237261069
624.375 -0.002092099232 -0.02683221531
625.0 0.01810089189 -0.02529694705
625.625 0.01731611962 -0.01469977071
626.25 0.02371097768 -0.002051087826
626.875 0.04863497126 -0.006607487568
627.5 0.07556245648 0.000178913416
628.125 0.07216172126 0.008838132632
628.75 0.06771896653 0.008589885771
629.375 0.08308820861 0.01035268179
630.0 0.1005586592 0.03147328416
630.625 0.082838529 0.0457682122
631.25 0.07964114869 0.03170688995
631.875 0.08442989851 0.02849273485
632.5 0.0759601005 0.03211888651
633.125 0.05087138883 0.04015068903
633.75 0.05259322804 0.03054546741
634.375 0.05710213415 0.04340879677
635.0 0.048290549 0.04180971215
635.625 0.0464103099 0.04386165168
636.25 0.06419623827 0.0549676779
636.875 0.06955141887 0.066200058
637.5 0.04661792582 0.0507194022
638.125 0.03369804061 0.05236007121
638.75 0.0443090615 0.09571450845
639.375 0.001891386051 0.1230188344
640.0 -0.01924121854 0.09291018837
640.625 -0.01026404851 0.07613438635
641.25 -0.0297500956 0.09226618071
641.875 -0.07535210664 0.068371924
642.5 -0.06679306942 0.04116832232
643.125 -0.06048997172 0.04758028702
643.75 -0.08309380684 0.04864688359
644.375 -0.1031744629 0.03109773636
645.0 -0.09360125223 0.02805279292
645.625 -0.09356145439 0.06082124828
646.25 -0.09880937341 0.07786226654
646.875 -0.09481770847 0.0510163419
647.5 -0.08353580448 0.03737315853
648.125 -0.09743754525 0.04841214665
648.75 -0.1142450129 0.02498514923
649.375 -0.08383022059 0.004655226973
650.0 -0.06687195918 -0.01075159293
650.625 -0.06605050789 -0.0522976463
651.25 -0.03252802367 -0.07907027308
651.875 0.004448215639 -0.07104982995
652.5 0.02609754782 -0.07650029037
653.125 0.08416759078 -0.0964211987
653.75 0.1204024108 -0.05701841591
654.375 0.1145485374 -0.0474218553
655.0 0.1228464433 -0.06648580772
655.625 0.1397240948 -0.06582137185
656.25 0.1106469984 -0.04043256835
656.875 0.07047664609 -0.06530155441
657.5 0.09032895848 -0.0780383138
658.125 0.1020061928 -0.05818975813
658.75 0.07492712968 -0.028061934
659.375 0.05605427016 -0.03141518264
660.0 0.07303091738 -0.06957541263
660.625 0.08830815184 -0.08077348301
661.25 0.07364257987 -0.08749561636
661.875 0.03886726185 -0.1169096671
662.5 0.02123146032 -0.147794794
663.125 0.04354710778 -0.1413572373
663.75 0.07450889808 -0.1051513178
664.375 0.1294129287 -0.06416900834
665.0 0.1370331086 0.03413276475
665.625 0.09000149655 0.05589130577
666.25 0.06866146973 0.05746865292
666.875 0.05669862422 0.1000496221
667.5 -0.01827670465 0.1224804523
668.125 -0.03901970026 0.08507572273
668.75 -0.0119443655 0.1005756489
669.375 0.002467432944 0.1437128979
670.0 -0.0331541091 0.1447839016
670.625 -0.04788848911 0.09821304304
671.25 -0.001160695926 0.1144816407
671.875 0.04080252681 0.1440272641
672.5 0.08493353455 0.1150986522
673.125 0.07656787846 0.07474731442
673.75 0.06592184686 0.07368564438
674.375 0.0402154739 0.1052283929
675.0 -0.007547697878 0.1083452396
675.625 -0.03400835973 0.1033642508
676.25 -0.09563046388 0.09803083096
676.875 -0.124338139 0.05519023785
677.5 -0.1232328045 0.05226029467
678.125 -0.1182348673 0.09045976013
678.75 -0.1591129372 0.09623355399
679.375 -0.1299893131 0.02626966105
680.0 -0.08597775424 0.03578698864
680.625 -0.08146303632 0.06910501461
681.25 -0.09712620969 0.09776391062
681.875 -0.08994431098 0.0587793595
682.5 -0.05346251213 0.05104231565
683.125 -0.05810149782 0.08824470283
683.75 -0.1035765302 0.1012892403
684.375 -0.1463226339 0.01483423893
685.0 -0.1006349039 -0.07551090653
685.625 -0.05202600196 -0.1376474902
686.25 0.01361693229 -0.1653116347
686.875 0.04124972069 -0.1589985235
687.5 0.06588443222 -0.1478717814
688.125 0.08955336006 -0.1105485393
688.75 0.08564906221 -0.06292458472
689.375 0.07535249515 -0.04679344479
690.0 0.1038098843 -0.05517208547
690.625 0.1342626428 -0.01810325154
691.25 0.1022514373 -0.01936639298
691.875 0.07742988212 -0.07377345218
692.5 -0.01603251097 -0.1673689522
693.125 -0.1589518694 -0.1522337673
693.75 -0.1548144362 -0.04339727085
694.375 -0.1361158738 0.01217033218
695.0 -0.1592904442 -0.04234030596
695.625 -0.06864459016 -0.1641622815
696.25 0.09620712692 -0.08990816261
696.875 0.1065465594 0.007127447564
697.5 0.07237779607 0.08500280959
698.125 0.02319455609 0.1095987308
698.75 0.004146093409 0.1203086954
699.375 -0.003634615197 0.1394488566
700.0 -0.03150704426 0.1288887416
700.625 -0.06111108288 0.1046892591
701.25 -0.05619372519 0.1210786995
701.875 -0.04618034496 0.174962597
702.5 -0.001373753841 0.1364488607
703.125 0.04072676014 0.07346945673
703.75 0.07814233195 0.02745516973
704.375 0.154430106 0.01279154045
705.0 0.15562264 0.05485841092
705.625 0.08591332811 0.0712615558
706.25 0.03952143087 0.1016138115
706.875 -0.08051757588 0.1322869285
707.5 -0.1695504051 0.04635647843
708.125 -0.1334088121 -0.02896561782
708.75 -0.1124294847 -0.05558960437
709.375 -0.05139958419 -0.1138434244
710.0 0.03736729293 -0.1136507735
710.625 0.06976520234 -0.08088977671
711.25 0.07741459421 -0.06329259136
711.875 0.06376955535 -0.04586623138
712.5 0.05444420126 -0.04004901934
713.125 0.03594445913 -0.09223510512
713.75 -0.05205240292 -0.1349299727
714.375 -0.1109570548 -0.084996852
715.0 -0.1242322024 -0.02343998847
715.625 -0.1485712417 -0.0137084577
716.25 -0.1506483389 -0.09428797436
716.875 -0.05189804908 -0.1218404676
717.5 0.00409168217 -0.09407875423
718.125 0.02780912781 -0.09733824523
718.75 0.07472029359 -0.09008357408
719.375 0.08821536871 -0.03602179036
720.0 0.06399870126 0.004780390453
720.625 0.03210410776 0.05203366872
721.25 -0.0589816361 0.04700558495
721.875 -0.08780135381 -0.04140241525
722.5 -0.08524743223 -0.06926538298
723.125 -0.1269130468 -0.02052873592
723.75 -0.09951779772 0.07236886181
724.375 -0.01831828392 0.09961415998
725.0 0.04125652347 0.07376620584
725.625 0.05783189324 0.04345161132
726.25 0.04202550202 0.02682668551
726.875 0.01481632885 0.03146632701
727.5 -0.01690804167 0.04746747488
728.125 -0.053156757 0.04886499953
728.75 -0.05043218462 0.04795250754
729.375 -0.02029387195 0.0511461036
730.0 -0.01441078343 0.04346759113
730.625 -0.03327118889 0.0362252526
731.25 -0.04216982942 0.01762785534
731.875 -0.0411406475 -0.005490008799
732.5 -0.03114156452 -0.02181678776
733.125 -0.01671762978 -0.01777719872
733.75 -0.00328542719 -0.004349184194
734.375 0.008705163561 -0.004993916919
735.0 0.006983283012 -0.01357942958
735.625 0.005571799867 -0.01506564245
736.25 0.003304663085 -0.02399082194
736.875 -0.01198380134 -0.02927750081
737.5 -0.02681030108 -0.01631306667
738.125 -0.03253357568 0.006433763901
738.75 -0.02405007803 0.0323538537
739.375 -0.001098016678 0.0425335371
740.0 0.01713517435 0.02797375153
740.625 0.01449572029 0.02167772794
741.25 0.009668875866 0.03487825408
741.875 -0.01572920986 0.03919303624
742.5 -0.04334199917 0.006605553154
743.125 -0.02931547248 -0.04119231236
743.75 0.004118106226 -0.05804893762
744.375 0.007334232451 -0.06049558246
745.0 -0.01113176582 -0.06396709634
745.625 -0.03992360473 -0.04872554032
746.25 -0.02639385765 -0.02084877414
746.875 -0.009761266057 -0.02481581381
747.5 -0.02603999818 -0.03186141442
748.125 -0.05312162695 -0.01898867809
748.75 -0.06243582725 0.02022622665
749.375 -0.02766406457 0.06520389965
750.0 0.05172261978 0.06957849879
