!Created with skrf (http://scikit-rf.org).
# GHz S RI R 50.0 
!freq ReS11 ImS11
500.0 -0.009249123034 -0.00018314123
500.625 0.003170647917 -0.00600329305
501.25 -0.008275062835 -0.02035836747
501.875 -0.03979297353 -0.02889112482
502.5 -0.03025485288 -0.01732741478
503.125 -0.0156133189 0.001781946415
503.75 -0.01394835774 0.001344058614
504.375 -0.02046689743 -0.0004372309998
505.0 -0.0125444598 -0.001184324496
505.625 -0.008793595663 -0.01089762371
506.25 -0.03269067455 -0.009383573125
506.875 -0.0630340888 -0.04132048508
507.5 -0.06565352835 -0.01632440399
508.125 -0.05192479369 -0.03212389728
508.75 -0.08114602412 0.009014021557
509.375 -0.08854968026 0.02574209106
510.0 -0.06309361507 0.01578475624
510.625 -0.008687001063 0.03039375237
511.25 -0.02363641783 0.04379610225
511.875 -0.004312713057 0.06369340585
512.5 0.02895716733 0.04134955781
513.125 0.06495202346 -0.02111000253
513.75 0.0807271501 -0.06019463807
514.375 0.04332285784 -0.06972103026
515.0 0.003407181347 -0.06478261712
515.625 0.04346998562 -0.0677325509
516.25 0.02749599395 -0.08242588935
516.875 0.0850536476 0.005784600211
517.5 0.0673271366 -0.04973408864
518.125 0.1948359963 0.01549846718
518.75 0.06157178816 -0.1090204122
519.375 0.04738873787 -0.06699961045
520.0 0.01121069362 -0.06617387626
520.625 0.006030022835 -0.1072105177
521.25 -0.01057790305 -0.1085821287
521.875 0.01816022213 -0.05695113025
522.5 -0.01892498746 -0.07210446926
523.125 -0.04537487716 -0.2044292957
523.75 -0.1060587907 -0.2900697765
524.375 -0.07211045542 -0.275549544
525.0 -0.07134149434 -0.126638244
525.625 -0.0661227995 -0.1097827272
526.25 -0.02842526875 -0.09892086439
526.875 -0.04684737597 -0.06913584501
527.5 -0.092481499 -0.05180468881
528.125 -0.09916450912 -0.01197641593
528.75 -0.08574567584 -0.0008050166971
529.375 -0.09325557987 0.07968298665
530.0 -0.02716928771 0.1479329322
530.625 0.07764178373 0.124094122
531.25 0.05187713807 0.08428471019
531.875 0.06132047004 0.08190510037
532.5 0.08093976165 0.1360214403
533.125 0.058482537 0.1206907023
533.75 0.06104351894 0.07002239281
534.375 0.0703799814 0.06169377656
535.0 0.1010388044 0.09323354888
535.625 0.04370641798 0.103129015
536.25 0.08779419266 0.02965997718
536.875 0.1008751783 0.04722994287
537.5 0.05962275715 0.08289581373
538.125 0.0372504505 0.07226857506
538.75 0.07428750593 0.07403573312
539.375 0.09995075947 0.1314673572
540.0 0.08647247586 0.1154300551
540.625 0.06943361749 0.07774462048
541.25 0.07605521849 0.07769615591
541.875 0.08098833553 0.09993845566
542.5 0.02092077707 0.06721825095
543.125 0.0195159532 0.03902030733
543.75 0.07109588808 0.03916997281
544.375 0.1198528626 0.04481680517
545.0 0.1093507404 -0.03993887135
545.625 0.05064533671 -0.08479271451
546.25 0.0006807049329 -0.1204595869
546.875 0.01535385071 -0.1248380513
547.5 0.03572119549 -0.1162877425
548.125 0.04561945424 -0.1316947071
548.75 0.08991999202 -0.1251841415
549.375 0.1360949135 -0.09673959586
550.0 0.1478628043 -0.03461189629
550.625 0.17140319 -0.06297518741
551.25 0.173279375 0.03342837566
551.875 0.1236921025 -0.00627003697
552.5 0.09385142942 -0.03558296885
553.125 0.09578013657 -0.07412721229
553.75 0.1110433041 -0.03463719296
554.375 0.05928156524 -0.02579556525
555.0 0.05374807688 -0.03431670959
555.625 0.07356462981 -0.05940364311
556.25 0.09456257965 -0.03472511747
556.875 0.06471985662 -0.005427312395
557.5 0.06299932431 -0.0062820028
558.125 0.09826334135 0.01979680323
558.75 0.08581404625 0.06890546995
559.375 0.09517166453 0.05461868292
560.0 0.1174786898 0.03542138081
560.625 0.13271823 0.009050920964
561.25 0.09702327532 -0.02393206367
561.875 0.06783934615 -0.05050597125
562.5 0.06625124937 -0.06720393199
563.125 0.053897761 -0.06360530192
563.75 0.03371006483 -0.04901964998
564.375 0.02373599322 -0.0602092398
565.0 0.06845847294 -0.09689990838
565.625 0.08454566306 -0.07813309465
566.25 0.07554644771 -0.05997731654
566.875 0.07400288191 -0.06390235197
567.5 0.1024993549 -0.04283306068
568.125 0.1067089389 0.01836302071
568.75 0.09824632133 0.02713605094
569.375 0.1241402935 0.02344983472
570.0 0.1314780155 0.0201328953
570.625 0.1109919414 0.004132204605
571.25 0.09675786452 -0.02029663521
571.875 0.1070545879 -0.04351931558
572.5 0.07140698611 -0.05893184264
573.125 0.03530004277 -0.04878300713
573.75 0.03386720247 -0.06172333576
574.375 0.04805588733 -0.09049265181
575.0 0.04045224468 -0.08918302967
575.625 0.005846151872 -0.06442925759
576.25 -0.002323929602 -0.06957190685
576.875 0.03337438764 -0.07963671851
577.5 0.04641140348 -0.06595128702
578.125 0.03890060021 -0.06651761031
578.75 0.03244155278 -0.09427977519
579.375 0.05819206947 -0.1107579965
580.0 0.06162664616 -0.08717698625
580.625 0.03695789821 -0.1061156057
581.25 0.00447245488 -0.1304802862
581.875 0.009211573842 -0.1065712098
582.5 0.02075424654 -0.06342102868
583.125 0.02773826446 -0.0661533122
583.75 0.05286374037 -0.08413633673
584.375 0.05940215352 -0.06583600915
585.0 0.04901104415 -0.04124906392
585.625 0.05838989648 -0.0383679743
586.25 0.07981601999 -0.04231657997
586.875 0.06442016311 -0.03978207715
587.5 0.04194537428 -0.04759642627
588.125 0.03836656566 -0.07436965124
588.75 0.05910375185 -0.08172503566
589.375 0.03071847458 -0.09637960393
590.0 -0.03079958946 -0.09695946404
590.625 -0.0708578742 -0.08854660372
591.25 -0.03605110226 -0.06248124731
591.875 -0.01268139549 -0.03474390277
592.5 -0.01167616232 -0.04105759978
593.125 -0.0125650121 -0.07065150539
593.75 0.01535865476 -0.07171901843
594.375 0.03756482505 -0.04459169191
595.0 0.05276090464 -0.04344245234
595.625 0.07853115448 -0.04107385026
596.25 0.08082594988 -0.0209785576
596.875 0.06722390219 -0.004855091512
597.5 0.07021157183 0.002327412233
598.125 0.08346152937 0.002917365171
598.75 0.08535677927 -0.01699145004
599.375 0.08209796886 -0.03528679498
600.0 0.07797025918 -0.03887266143
600.625 0.06084076223 -0.03337452488
601.25 0.03586843134 -0.03195224674
601.875 0.0265280063 -0.02546482359
602.5 0.02867347536 -0.008961725646
603.125 0.02039348276 0.009167408277
603.75 0.02038740793 0.01678018719
604.375 0.03412350879 0.01784820109
605.0 0.04008997398 0.018591044
605.625 0.02040651465 0.01551518824
606.25 -0.0002718424709 0.01885731741
606.875 -0.003850687811 0.03707828814
607.5 0.01290855165 0.05006717316
608.125 0.03110294199 0.03776942719
608.75 0.03072939452 0.02662024274
609.375 0.0278075504 0.02937766161
610.0 0.02748422116 0.03020252309
610.625 0.02957880516 0.0174730504
611.25 0.02511127164 0.004574547933
611.875 0.01616868996 -0.004368969768
612.5 0.004155205641 -0.01190867552
613.125 -0.009828052954 -0.01057147905
613.75 -0.01329880253 -0.0002415578754
614.375 -0.004167542672 0.003911859147
615.0 0.003792255163 -0.004639913026
615.625 -0.001790765396 -0.01398043317
616.25 -0.009036086728 -0.007787067305
616.875 -0.001343738795 0.001176199736
617.5 0.01170686643 -0.004007659036
618.125 0.0168832476 -0.01369543318
618.75 0.01734666753 -0.01441701577
619.375 0.02648469273 -0.01100135464
620.0 0.043117971 -0.02111621248
620.625 0.04225377403 -0.04928504625
621.25 0.03924545249 -0.06071450396
621.875 0.02533443932 -0.07149449017
622.5 -0.03708863857 -0.05946236696
623.125 -0.0372332021 -0.03286460828
623.75 -0.01794950009 -0.02121614039
624.375 0.003987066593 -0.0237661625
625.0 0.02262512149 -0.01879812812
625.625 0.02117119616 -0.008202557104
626.25 0.02836123483 0.002822101656
626.875 0.05510779042 -0.0006494374608
627.5 0.07830523359 0.01031731402
628.125 0.07211408487 0.01721557254
628.75 0.06865856361 0.01605250998
629.375 0.08516299592 0.0203646087
630.0 0.09660630806 0.04368918393
630.625 0.07635614274 0.05185094977
631.25 0.07490609974 0.03823953383
631.875 0.07786017348 0.03828271593
632.5 0.06657705172 0.04173409814
633.125 0.0411688674 0.0450903121
633.75 0.0461079221 0.03816966586
634.375 0.04741508571 0.0521208135
635.0 0.03926359858 0.04999965604
635.625 0.03988350294 0.05255056576
636.25 0.05763133627 0.06563424237
636.875 0.05863860904 0.07599643644
637.5 0.03688059017 0.05674879154
638.125 0.027052678 0.06011986415
638.75 0.03237224294 0.1063764252
639.375 -0.01247463673 0.1215299565
640.0 -0.02843481675 0.08718496921
640.625 -0.01957831922 0.07392602014
641.25 -0.0463002878 0.08651438262
641.875 -0.08350829817 0.05295791195
642.5 -0.07020086688 0.03189079637
643.125 -0.06736576654 0.03978529112
643.75 -0.09205483022 0.03468918007
644.375 -0.1074460152 0.01377290382
645.0 -0.09561035166 0.01782167803
645.625 -0.1023293828 0.05107472759
646.25 -0.1078699552 0.06285618695
646.875 -0.09902178766 0.03440940225
647.5 -0.08691607698 0.02488233625
648.125 -0.1043270092 0.03498056254
648.75 -0.1128791543 0.007690254123
649.375 -0.07934996892 -0.007911273627
650.0 -0.06292839665 -0.02264641074
650.625 -0.05469646895 -0.06522746104
651.25 -0.01842668651 -0.0843300461
651.875 0.01577324789 -0.07113895619
652.5 0.03970334381 -0.07735893248
653.125 0.1030918535 -0.08591780905
653.75 0.1259045343 -0.04376387508
654.375 0.1188246823 -0.03679641383
655.0 0.1318269182 -0.05260370642
655.625 0.1454761978 -0.04278194082
656.25 0.1077779191 -0.02265123001
656.875 0.07621505279 -0.05509056868
657.5 0.1000629684 -0.06235109459
658.125 0.1062114752 -0.03705843025
658.75 0.07551913541 -0.01012345313
659.375 0.06321807695 -0.02172252432
660.0 0.08952021118 -0.05892692286
660.625 0.102375679 -0.06794915027
661.25 0.08599308598 -0.07808759206
661.875 0.05512483586 -0.1145732502
662.5 0.04044128648 -0.146173552
663.125 0.06049130702 -0.1337166784
663.75 0.08474151441 -0.09560382015
664.375 0.137570444 -0.04496085843
665.0 0.1235216129 0.05214818188
665.625 0.07751154915 0.06542209026
666.25 0.05849286368 0.06536228283
666.875 0.03650552878 0.1111846921
667.5 -0.04273372147 0.1154238161
668.125 -0.05061288587 0.07982278327
668.75 -0.02447276488 0.1027732784
669.375 -0.01912108358 0.1470614621
670.0 -0.05588966289 0.1354016489
670.625 -0.05901376686 0.08845902223
671.25 -0.01545694631 0.1162742243
671.875 0.01912333809 0.1483137254
672.5 0.06357065127 0.1228991782
673.125 0.06067235012 0.0825709314
673.75 0.05215858771 0.08431564115
674.375 0.02187659453 0.1122217809
675.0 -0.02378381954 0.1070767655
675.625 -0.05029637011 0.1003910495
676.25 -0.1139450113 0.08237707852
676.875 -0.1322436637 0.03893692125
677.5 -0.1287837273 0.0391371075
678.125 -0.1310388591 0.0795060525
678.75 -0.1704465155 0.06885541535
679.375 -0.1226021424 0.007871099037
680.0 -0.08561263352 0.02333816545
680.625 -0.09153344404 0.05598417001
681.25 -0.1133871796 0.07571132306
681.875 -0.09580024764 0.0371015383
682.5 -0.06232396789 0.04300219973
683.125 -0.07561112151 0.08325776692
683.75 -0.1229464681 0.08720495059
684.375 -0.1477114131 -0.008925313882
685.0 -0.09141277415 -0.08872936158
685.625 -0.0345184435 -0.1481504985
686.25 0.03432541828 -0.163426093
686.875 0.05968099147 -0.1513441907
687.5 0.08390264433 -0.1351180008
688.125 0.09902350932 -0.09091079123
688.75 0.08971007039 -0.04538463819
689.375 0.08079673524 -0.03331530948
690.0 0.1154811631 -0.03457096932
690.625 0.1331842019 0.01018225237
691.25 0.1057261545 -0.003417671878
691.875 0.08981119262 -0.06800511911
692.5 0.006589716759 -0.1783991327
693.125 -0.1326750204 -0.1741100863
693.75 -0.142718292 -0.057608944
694.375 -0.1362364236 -0.003427141014
695.0 -0.1527317537 -0.06606680121
695.625 -0.03875841916 -0.1707555916
696.25 0.1033054252 -0.07007308392
696.875 0.1028713947 0.02310540123
697.5 0.05510582139 0.09708642084
698.125 0.003134680798 0.1150337696
698.75 -0.01480205588 0.1233321523
699.375 -0.02483380267 0.1398132225
700.0 -0.04885803337 0.1234258642
700.625 -0.07299383259 0.09621179782
701.25 -0.07194814308 0.1155894988
701.875 -0.07430945768 0.1634750915
702.5 -0.02001700765 0.1255094802
703.125 0.0252093719 0.07479659595
703.75 0.07547418801 0.04379042569
704.375 0.156803294 0.04530526418
705.0 0.1406188963 0.07849366743
705.625 0.07546638122 0.08126607622
706.25 0.02746214501 0.111295875
706.875 -0.1040319433 0.1241273652
707.5 -0.1731690871 0.02053710819
708.125 -0.125510849 -0.04122517824
708.75 -0.1037940461 -0.06901995835
709.375 -0.03228483813 -0.1189749493
710.0 0.05497908702 -0.1034447809
710.625 0.07826153891 -0.06688756518
711.25 0.0835220749 -0.04745849555
711.875 0.06880261663 -0.03008244374
712.5 0.06470006362 -0.02796461164
713.125 0.05588758398 -0.09172301385
713.75 -0.03112198034 -0.1462924103
714.375 -0.1005059515 -0.09878087425
715.0 -0.1227673413 -0.03689572161
715.625 -0.1506511799 -0.03318733929
716.25 -0.1322818749 -0.1155484064
716.875 -0.03308556977 -0.1206514596
717.5 0.01557527634 -0.0896508365
718.125 0.04374137578 -0.09187359054
718.75 0.08929704913 -0.07371583542
719.375 0.08855823798 -0.01908800929
720.0 0.06010807858 0.01482698838
720.625 0.02047156462 0.05929139451
721.25 -0.07133547 0.03738460237
721.875 -0.08427878154 -0.055914634
722.5 -0.07899798176 -0.08016256169
723.125 -0.1246938036 -0.0352862847
723.75 -0.1062407393 0.05854655903
724.375 -0.03155604253 0.09390906919
725.0 0.02876114951 0.07718943876
725.625 0.04763519484 0.04951872338
726.25 0.03360670602 0.03147067819
726.875 0.005906614551 0.03403566956
727.5 -0.02840003641 0.04650298898
728.125 -0.06242966363 0.04133814206
728.75 -0.0562929658 0.04133912525
729.375 -0.02684080836 0.04826581724
730.0 -0.02164720344 0.04168653211
730.625 -0.03887286332 0.03186792071
731.25 -0.043665097 0.01247340524
731.875 -0.03973836464 -0.009891521794
732.5 -0.02710947316 -0.02423060002
733.125 -0.0122935993 -0.01750310241
733.75 0.0004114037741 -0.00377774915
734.375 0.01183567595 -0.005038432247
735.0 0.00913641444 -0.01475932917
735.625 0.006725330751 -0.01617500626
736.25 0.00376378109 -0.02451607527
736.875 -0.01187804627 -0.02913795747
737.5 -0.02710316387 -0.01567025218
738.125 -0.03369028018 0.007297186808
738.75 -0.02628629339 0.03292030924
739.375 -0.004223377478 0.04270203846
740.0 0.0135897659 0.02897428216
740.625 0.01055492772 0.02396742674
741.25 0.004794409737 0.03671514402
741.875 -0.0201885996 0.03747017106
742.5 -0.04377822811 0.001534618203
743.125 -0.02332465537 -0.04478307047
743.75 0.01224488486 -0.05562125463
744.375 0.0146269617 -0.0566271355
745.0 -0.002437264029 -0.06212961489
745.625 -0.0286703331 -0.05037949942
746.25 -0.01601493141 -0.02488618403
746.875 -0.003296462918 -0.03043148095
747.5 -0.02361762716 -0.03869376718
748.125 -0.05257719618 -0.02708565153
748.75 -0.06576452597 0.01165220847
749.375 -0.03718267168 0.06123958096
750.0 0.04262712664 0.07789573217
