!Created with skrf (http://scikit-rf.org).
# GHz S RI R 50.0 
!freq ReS11 ImS11
500.0 -0.01305430322 -0.00176653176
500.625 -0.004075707862 -0.0005779853768
501.25 -0.01551926792 -0.01658242793
501.875 -0.04653187603 -0.02470399488
502.5 -0.0359061257 -0.0140498116
503.125 -0.01975470587 0.005329410007
503.75 -0.01539729788 0.00717254358
504.375 -0.02250958684 0.00689462896
505.0 -0.01337345982 0.006897578275
505.625 -0.009791076796 -0.002785218122
506.25 -0.02792591639 -0.0005606222921
506.875 -0.06584718509 -0.02855582713
507.5 -0.0674668247 -0.004626847935
508.125 -0.05393944334 -0.02141090479
508.75 -0.076813307 0.02344046358
509.375 -0.08331536493 0.04091921053
510.0 -0.06131714373 0.02641047998
510.625 0.0002537835433 0.0294041361
511.25 -0.01305088822 0.04356634089
511.875 0.005383227804 0.06172483756
512.5 0.03423351966 0.03580255069
513.125 0.06065800519 -0.03167076328
513.75 0.07135898247 -0.0736944109
514.375 0.03313615937 -0.0796944828
515.0 -0.006893523087 -0.06702186868
515.625 0.025889687 -0.07258541247
516.25 0.004988727939 -0.08471987887
516.875 0.0731793268 -0.01119219595
517.5 0.05781517507 -0.05116528247
518.125 0.1791765205 -0.007556086331
518.75 0.04385492924 -0.1154691066
519.375 0.03660724898 -0.07224143333
520.0 0.002044186861 -0.06246416751
520.625 -0.01200518518 -0.0987893616
521.25 -0.0264265008 -0.1045335679
521.875 0.009780428931 -0.0563754771
522.5 -0.02545376389 -0.06369182451
523.125 -0.06579452622 -0.1840203371
523.75 -0.1317406766 -0.2750747243
524.375 -0.08832733718 -0.2677198125
525.0 -0.08192534195 -0.1170438051
525.625 -0.08028430162 -0.1024000297
526.25 -0.04064400923 -0.09803501942
526.875 -0.05431408667 -0.0636616046
527.5 -0.09858358696 -0.03783722758
528.125 -0.1046428617 0.004723174474
528.75 -0.08685316831 0.0105090053
529.375 -0.08205362954 0.08828577512
530.0 -0.006075297135 0.152812109
530.625 0.1010529774 0.1218823124
531.25 0.06720299196 0.08440792584
531.875 0.0763641215 0.06569672569
532.5 0.1059246672 0.1142689435
533.125 0.07896603692 0.1107410668
533.75 0.06999565602 0.06033041685
534.375 0.07551144677 0.04617340755
535.0 0.1141471773 0.07216294277
535.625 0.05853498914 0.09787948354
536.25 0.09075482649 0.01998688907
536.875 0.1103770488 0.03121738103
537.5 0.07842276056 0.07000662014
538.125 0.04930491456 0.06454030425
538.75 0.07980916309 0.0613180245
539.375 0.1205581201 0.1115666058
540.0 0.1069592648 0.1078294064
540.625 0.0835032091 0.06820486331
541.25 0.0872093507 0.06288963333
541.875 0.1011811296 0.0836705346
542.5 0.03867918123 0.06506377181
543.125 0.02529615235 0.03040061468
543.75 0.06753604062 0.02251843735
544.375 0.1194757877 0.02396985024
545.0 0.1027222719 -0.05323243725
545.625 0.03947271985 -0.08805221223
546.25 -0.01916263855 -0.1130966181
546.875 -0.005661231985 -0.1257675549
547.5 0.01949547112 -0.1183325873
548.125 0.02517771714 -0.1299099213
548.75 0.0670051229 -0.1307038881
549.375 0.123383529 -0.1136537994
550.0 0.1429552258 -0.04719225228
550.625 0.1581924186 -0.07857669225
551.25 0.1825998537 0.01015075502
551.875 0.1295190381 -0.02190260878
552.5 0.09274619354 -0.04754558125
553.125 0.08342191528 -0.08900504489
553.75 0.1075672026 -0.06145471752
554.375 0.05869440537 -0.03929140276
555.0 0.04636064468 -0.04482008309
555.625 0.05997430073 -0.07185763825
556.25 0.08646045027 -0.05496363767
556.875 0.06349323082 -0.0191664756
557.5 0.05552229853 -0.01734642373
558.125 0.09434772758 0.001146805848
558.75 0.09191463675 0.05341715323
559.375 0.09785223742 0.04177429626
560.0 0.1175917227 0.02155997082
560.625 0.1365983493 -0.01070311546
561.25 0.09881810254 -0.03723112743
561.875 0.06103914076 -0.06077296161
562.5 0.05216056719 -0.08149361968
563.125 0.04027511121 -0.07720345708
563.75 0.0235889288 -0.05665666627
564.375 0.0102866136 -0.05877665284
565.0 0.04225540953 -0.1005600759
565.625 0.07131256676 -0.09028016535
566.25 0.06668187456 -0.06839097463
566.875 0.06183839027 -0.0712119724
567.5 0.08965928612 -0.05817764165
568.125 0.1078780864 -0.0001459638419
568.75 0.09755765186 0.01636197161
569.375 0.1225131302 0.006739618772
570.0 0.1344716155 0.001885353576
570.625 0.1137296709 -0.01187392401
571.25 0.09478726832 -0.03322003888
571.875 0.0996937873 -0.06288418916
572.5 0.06704589745 -0.07739731599
573.125 0.02765638885 -0.05911231562
573.75 0.01804477897 -0.06537929001
574.375 0.02986345217 -0.09577280475
575.0 0.02568164802 -0.09908279417
575.625 -0.004198778633 -0.06600641224
576.25 -0.01720996384 -0.06426855668
576.875 0.01120981593 -0.08337396785
577.5 0.03223622007 -0.07124819239
578.125 0.02824402832 -0.06766660817
578.75 0.01565662085 -0.09079832916
579.375 0.03534448494 -0.1157817192
580.0 0.0513544559 -0.09450911501
580.625 0.02564435753 -0.1077304692
581.25 -0.01365403956 -0.1307485122
581.875 -0.008583272111 -0.1128172723
582.5 0.01044323113 -0.07147527189
583.125 0.01479976173 -0.06909015609
583.75 0.03418778271 -0.09354147064
584.375 0.04830535114 -0.07813311917
585.0 0.04085176431 -0.05051762066
585.625 0.04761129825 -0.0475601631
586.25 0.06875516665 -0.0560298126
586.875 0.05856059298 -0.050734997
587.5 0.0328664104 -0.05216014377
588.125 0.02125843075 -0.0759228055
588.75 0.04397845894 -0.08811191587
589.375 0.01870723948 -0.1005081259
590.0 -0.04117129725 -0.09188414757
590.625 -0.08717926331 -0.0762640032
591.25 -0.05435191906 -0.06129116015
591.875 -0.02371920958 -0.03368631538
592.5 -0.0209154887 -0.03446130101
593.125 -0.02742457266 -0.06199362937
593.75 -0.0006718354382 -0.07164098755
594.375 0.02879846666 -0.04764001081
595.0 0.04212937548 -0.04659614413
595.625 0.06764839393 -0.0509400498
596.25 0.07571412785 -0.03356159341
596.875 0.06466931036 -0.01494043389
597.5 0.06642807112 -0.008073316418
598.125 0.08080220954 -0.009297190512
598.75 0.08207731967 -0.02641069177
599.375 0.07739620704 -0.04382839085
600.0 0.07490851742 -0.04911370295
600.625 0.06105350048 -0.04296073171
601.25 0.03538800053 -0.03954103909
601.875 0.02309814877 -0.03397554373
602.5 0.02670435022 -0.01985253292
603.125 0.02157524498 0.0009280837247
603.75 0.02053377441 0.01062536248
604.375 0.03333223247 0.01078008172
605.0 0.04200606631 0.01022347154
605.625 0.02423816417 0.0101379286
606.25 0.002549708563 0.01488301692
606.875 -0.0007546260892 0.03259024987
607.5 0.01650972763 0.04548484529
608.125 0.03383364151 0.03364324097
608.75 0.03253340954 0.02305374055
609.375 0.03005185056 0.02627142033
610.0 0.03048892936 0.02797700341
610.625 0.03194775321 0.01599472644
611.25 0.02702507817 0.003565894351
611.875 0.01784438448 -0.004690730533
612.5 0.005316418115 -0.01186725354
613.125 -0.009188161746 -0.01046934114
613.75 -0.01314382043 -0.0002464746489
614.375 -0.004556245717 0.003785988197
615.0 0.002767479437 -0.004887604267
615.625 -0.003538598141 -0.01431722562
616.25 -0.01126710533 -0.008195746066
616.875 -0.003952453828 0.0007361336652
617.5 0.008397303953 -0.004494086941
618.125 0.01284743128 -0.01491950175
618.75 0.01343783636 -0.0161022005
619.375 0.02255339005 -0.01280066663
620.0 0.03803240549 -0.02315184875
620.625 0.03621097398 -0.05144789621
621.25 0.03405019045 -0.06430949814
621.875 0.02001610746 -0.07518550615
622.5 -0.04532588494 -0.05930389706
623.125 -0.04598732623 -0.03312918141
623.75 -0.02599431106 -0.02266974631
624.375 -0.004265803035 -0.02766785784
625.0 0.01634147181 -0.02743015794
625.625 0.01585746484 -0.01674959689
626.25 0.02206993013 -0.00333140692
626.875 0.04618409318 -0.008200497795
627.5 0.07414334636 -0.003042223186
628.125 0.07190873169 0.006386704126
628.75 0.06679809732 0.006507375356
629.375 0.08190669768 0.007483298235
630.0 0.1012653493 0.02761564427
630.625 0.08451430253 0.04400539115
631.25 0.08046213148 0.02976730212
631.875 0.08586116142 0.02598106305
632.5 0.07817892314 0.0298317785
633.125 0.05324244709 0.03879079437
633.75 0.05401205114 0.02813405891
634.375 0.06036845768 0.03970920481
635.0 0.051111578 0.03891424119
635.625 0.04781779056 0.04055690059
636.25 0.06571194232 0.05065014725
636.875 0.07294861866 0.06233706281
637.5 0.04916223357 0.04877303981
638.125 0.03476440327 0.04974746876
638.75 0.0470982167 0.0918402376
639.375 0.006087058619 0.1230748829
640.0 -0.01695646994 0.09401794818
640.625 -0.007318157802 0.07591217569
641.25 -0.0241873705 0.09321131474
641.875 -0.07213103469 0.07328848021
642.5 -0.06556978571 0.04355316601
643.125 -0.05759889046 0.04958241471
643.75 -0.07947432431 0.05289584096
644.375 -0.1013875775 0.0362722661
645.0 -0.09249052414 0.03051890847
645.625 -0.09010434472 0.06351499155
646.25 -0.09516130303 0.08265011599
646.875 -0.09306943963 0.05570425898
647.5 -0.08143703387 0.04072904366
648.125 -0.09403043066 0.05312301579
648.75 -0.1141271907 0.03167715609
649.375 -0.08483024502 0.008350543418
650.0 -0.06699589364 -0.006763301277
650.625 -0.06902820528 -0.04716714224
651.25 -0.0371708398 -0.07707233377
651.875 0.001857868258 -0.07053715748
652.5 0.02200719724 -0.07516715408
653.125 0.07745245838 -0.09869153332
653.75 0.1180134232 -0.06172264229
654.375 0.1129030022 -0.04966756197
655.0 0.1189181939 -0.07035398542
655.625 0.136874817 -0.07312702584
656.25 0.1113802595 -0.04606363333
656.875 0.06822899624 -0.06763377251
657.5 0.08597350845 -0.08314539464
658.125 0.09971033135 -0.06548616854
658.75 0.07414209579 -0.03304959023
659.375 0.05271294293 -0.0339546222
660.0 0.06676706827 -0.07246881288
660.625 0.08330945926 -0.08505057195
661.25 0.06949105796 -0.08946076321
661.875 0.03323323525 -0.1161072108
662.5 0.01398367168 -0.1475481083
663.125 0.03837592585 -0.1439362126
663.75 0.07095769098 -0.1069936589
664.375 0.1253507977 -0.06993360773
665.0 0.1408976127 0.02711433728
665.625 0.09421890473 0.0530541098
666.25 0.07107434149 0.05376397526
666.875 0.06357717476 0.09451656349
667.5 -0.008405208233 0.1239930962
668.125 -0.03491259971 0.08690647049
668.75 -0.007543901512 0.09864385088
669.375 0.01052364158 0.1409068464
670.0 -0.02462604337 0.1472922717
670.625 -0.04412356507 0.1006870891
671.25 0.003556225865 0.1128116981
671.875 0.04832368548 0.1414748982
672.5 0.09206393636 0.1120559805
673.125 0.08071968254 0.07096074934
673.75 0.07021163804 0.06882946174
674.375 0.04664582492 0.1021114179
675.0 -0.002262656804 0.1084377565
675.625 -0.028577634 0.1027970845
676.25 -0.08857251505 0.1020975173
676.875 -0.1214370972 0.0605869204
677.5 -0.1215000902 0.05548869219
678.125 -0.112937067 0.09301170554
678.75 -0.1534307989 0.1051574874
679.375 -0.1324706517 0.03346504099
680.0 -0.08538823961 0.0397140179
680.625 -0.07641682365 0.07354127358
681.25 -0.08955065287 0.1055403306
681.875 -0.08719859949 0.06693556584
682.5 -0.05000206265 0.05286261416
683.125 -0.05131786976 0.08922523052
683.75 -0.0963406207 0.1055131335
684.375 -0.1451528686 0.02168575986
685.0 -0.1020198128 -0.07069389248
685.625 -0.05758782975 -0.1333019806
686.25 0.006721345525 -0.1656901642
686.875 0.03518371164 -0.1603911693
687.5 0.05893347955 -0.15036286
688.125 0.08498949931 -0.1175068504
688.75 0.08421105769 -0.0685871108
689.375 0.07270909901 -0.05027213099
690.0 0.09837664894 -0.06117801356
690.625 0.1330314166 -0.02865104008
691.25 0.1008192823 -0.02494394393
691.875 0.07275004474 -0.07427734014
692.5 -0.02449561313 -0.1616572358
693.125 -0.168080044 -0.1423567291
693.75 -0.1587448402 -0.03854636144
694.375 -0.1345913197 0.01775461071
695.0 -0.1603453979 -0.03359161132
695.625 -0.07872189042 -0.1611466763
696.25 0.09376196598 -0.09528505752
696.875 0.1066703242 0.001308035571
697.5 0.07761926677 0.08019656145
698.125 0.0292746247 0.1076343024
698.75 0.009094167689 0.1183565559
699.375 0.003981166089 0.1373303503
700.0 -0.02455498013 0.1301827546
700.625 -0.05642976552 0.1074387942
701.25 -0.05027620827 0.1219265579
701.875 -0.03486908782 0.1768521609
702.5 0.006237350501 0.1400025167
703.125 0.04532206048 0.07246253107
703.75 0.0778166722 0.02177698392
704.375 0.1517503407 0.001506395632
705.0 0.1600723594 0.04550023886
705.625 0.08837672219 0.06773694445
706.25 0.04307183721 0.09703853048
706.875 -0.07181528126 0.1340123469
707.5 -0.1678749538 0.05546359995
708.125 -0.1347903617 -0.02490106627
708.75 -0.1144830823 -0.05055342944
709.375 -0.05747034074 -0.1115393559
710.0 0.03201605162 -0.1163125833
710.625 0.0661519372 -0.08411601954
711.25 0.07430153955 -0.06863498343
711.875 0.06117759817 -0.05152066301
712.5 0.05076020549 -0.04352075536
713.125 0.02885220315 -0.09086668632
713.75 -0.05915968427 -0.1286369409
714.375 -0.1141895811 -0.07939450144
715.0 -0.1237486919 -0.01943197027
715.625 -0.1464229709 -0.007361497706
716.25 -0.1555601766 -0.08562022042
716.875 -0.05814128226 -0.1214676034
717.5 0.0002587441128 -0.0947511764
718.125 0.02179571166 -0.09818119191
718.75 0.0682228627 -0.09548385067
719.375 0.08713553918 -0.04279642463
720.0 0.06439044969 0.000647828114
720.625 0.03619775422 0.04812488309
721.25 -0.05390681666 0.05009120941
721.875 -0.08814131106 -0.03680222804
722.5 -0.08644816662 -0.06484712766
723.125 -0.1264893644 -0.01475083589
723.75 -0.09605247687 0.07722248643
724.375 -0.0137151975 0.100369948
725.0 0.04532364997 0.07111229278
725.625 0.061114828 0.04003310473
726.25 0.04479278769 0.02449286351
726.875 0.01761289632 0.02978342966
727.5 -0.0129110925 0.04661950192
728.125 -0.04923946739 0.05077194502
728.75 -0.04752458902 0.04978697973
729.375 -0.01771423813 0.05131201927
730.0 -0.01188776337 0.04325679997
730.625 -0.0311111575 0.03720276236
731.25 -0.0411784174 0.01929329083
731.875 -0.04111120834 -0.003930884787
732.5 -0.03222019285 -0.02043992856
733.125 -0.01816081944 -0.01726191494
733.75 -0.004520360258 -0.003945834782
734.375 0.007783249579 -0.004402118449
735.0 0.006681372982 -0.01268109148
735.625 0.005815219179 -0.01448410558
736.25 0.003785262733 -0.02384765009
736.875 -0.01165464086 -0.02942652986
737.5 -0.0263543665 -0.01646076442
738.125 -0.03179363342 0.006297190731
738.75 -0.02291856571 0.03231062471
739.375 0.00026575874 0.04255074632
740.0 0.01863887711 0.02753456085
740.625 0.01615261053 0.02069779317
741.25 0.01178449978 0.03422062602
741.875 -0.01379743745 0.04022099149
742.5 -0.0431186494 0.00833038253
743.125 -0.03164045036 -0.03991739706
743.75 0.001194633196 -0.05913080942
744.375 0.005079320709 -0.06187850586
745.0 -0.01434202476 -0.06442924534
745.625 -0.04420882025 -0.04784962487
746.25 -0.03000428653 -0.01922388173
746.875 -0.01193408526 -0.02260567404
747.5 -0.02671574888 -0.02922366777
748.125 -0.05312911722 -0.0156492599
748.75 -0.06104706109 0.02372199829
749.375 -0.02393320442 0.06613420355
750.0 0.05514703012 0.06577410011
