!Created with skrf (http://scikit-rf.org).
# GHz S RI R 50.0 
!freq ReS11 ImS11
500.0 -0.009453311715 -0.001207017028
500.625 0.00286177916 -0.0004266138358
501.25 -0.01095539438 -0.01730040801
501.875 -0.03833877163 -0.0278872508
502.5 -0.03058045355 -0.01481353601
503.125 -0.01438510594 0.002435387521
503.75 -0.01367664819 0.001799678323
504.375 -0.02060170365 0.0001797746623
505.0 -0.01261475733 -0.0002593969556
505.625 -0.009170703893 -0.01027601446
506.25 -0.0323992218 -0.008696756022
506.875 -0.06254310319 -0.04095188427
507.5 -0.06658665334 -0.01570458572
508.125 -0.05156931948 -0.03186534292
508.75 -0.08146017135 0.01026430796
509.375 -0.08922060991 0.02688922479
510.0 -0.0642969729 0.01524604999
510.625 -0.00780208339 0.0302662546
511.25 -0.023199138 0.04415835866
511.875 -0.006056593777 0.0638403744
512.5 0.02923583416 0.04048361008
513.125 0.06489224847 -0.02335031444
513.75 0.08111889046 -0.06216583095
514.375 0.04208658336 -0.07156525458
515.0 0.002701451251 -0.06475861923
515.625 0.04176901528 -0.06666067645
516.25 0.02573193142 -0.08108519311
516.875 0.08186789227 0.003293475105
517.5 0.06977102022 -0.05016192483
518.125 0.1945412318 0.01999360096
518.75 0.0596463407 -0.1096488233
519.375 0.04633153904 -0.06709866932
520.0 0.009395064485 -0.06617064145
520.625 0.004250029896 -0.1059939507
521.25 -0.01218937522 -0.1072744734
521.875 0.01859088754 -0.05643063902
522.5 -0.02029067071 -0.07183029141
523.125 -0.04774040609 -0.2039821911
523.75 -0.101688855 -0.289393998
524.375 -0.07245255518 -0.2760786026
525.0 -0.07233402032 -0.1267228651
525.625 -0.06617606872 -0.1093510363
526.25 -0.02799823738 -0.09883161134
526.875 -0.04721278707 -0.06882472119
527.5 -0.09282008983 -0.0513499388
528.125 -0.09933946755 -0.01139165942
528.75 -0.08591522103 -0.0004811568744
529.375 -0.09365096015 0.07997302463
530.0 -0.02726589979 0.1479628563
530.625 0.07791569265 0.1236250193
531.25 0.05185439043 0.08348890745
531.875 0.06173049995 0.08142510259
532.5 0.08220399528 0.1355886479
533.125 0.05999226069 0.1201362509
533.75 0.06149030227 0.06941609796
534.375 0.0710069955 0.06082573091
535.0 0.1014772934 0.09373939038
535.625 0.04320796609 0.1031737818
536.25 0.08757182699 0.03017259785
536.875 0.1010079963 0.04719037464
537.5 0.05990193588 0.08270157932
538.125 0.03695877794 0.0725166204
538.75 0.07417687386 0.07423586358
539.375 0.09974469115 0.1316805376
540.0 0.08575809849 0.1162945322
540.625 0.06919294935 0.07807867482
541.25 0.07581626427 0.07787907932
541.875 0.0793901314 0.1012929421
542.5 0.01996282989 0.06730867835
543.125 0.01882590863 0.03931519351
543.75 0.07072463761 0.03977011249
544.375 0.1195730087 0.04549792456
545.0 0.1095454645 -0.03882307753
545.625 0.05103691721 -0.08424781019
546.25 0.001013008001 -0.1204263241
546.875 0.01576306936 -0.1249799352
547.5 0.03620683304 -0.1159536626
548.125 0.04591862313 -0.131291849
548.75 0.08964515724 -0.1250401111
549.375 0.1372294389 -0.09605566168
550.0 0.1476830989 -0.0347075232
550.625 0.1713856418 -0.06317572041
551.25 0.1732571016 0.03278251053
551.875 0.1237849465 -0.006838094329
552.5 0.09362389428 -0.0362585099
553.125 0.09557882672 -0.07521216024
553.75 0.110201955 -0.03740678174
554.375 0.05920835797 -0.0264803245
555.0 0.05361419215 -0.03470967244
555.625 0.07381596168 -0.05910148685
556.25 0.0945092069 -0.03439013385
556.875 0.06451853594 -0.005427512221
557.5 0.06273062915 -0.006393965967
558.125 0.09802876367 0.02020846006
558.75 0.08548777873 0.06894854419
559.375 0.09481972145 0.05473473654
560.0 0.1174766176 0.03557103432
560.625 0.1328136506 0.009049587894
561.25 0.09696502467 -0.02365786496
561.875 0.06770106851 -0.050289603
562.5 0.06619532862 -0.0671188172
563.125 0.05367264774 -0.06385410643
563.75 0.03349879867 -0.04922457339
564.375 0.02315756388 -0.0602881026
565.0 0.0676085718 -0.09708665278
565.625 0.08410563727 -0.07855482345
566.25 0.07538658451 -0.06010889038
566.875 0.0740573365 -0.06366710889
567.5 0.1026445508 -0.04219714907
568.125 0.1066338415 0.01914514458
568.75 0.09834366516 0.02722238675
569.375 0.1242108341 0.02355791873
570.0 0.131632988 0.01987611265
570.625 0.1111848673 0.003521332007
571.25 0.09669815182 -0.02121967233
571.875 0.1067775159 -0.04456512676
572.5 0.07128415589 -0.0596757608
573.125 0.03529106847 -0.04873464394
573.75 0.03402280341 -0.06171020419
574.375 0.04849264317 -0.09031982548
575.0 0.04099847816 -0.08906234119
575.625 0.005921503733 -0.06431217461
576.25 -0.002483795682 -0.06947744085
576.875 0.03261282557 -0.0797850129
577.5 0.04595303277 -0.06628007843
578.125 0.03832115853 -0.0665952668
578.75 0.03169584503 -0.09431198154
579.375 0.05758581708 -0.1108775185
580.0 0.06142222476 -0.08723449889
580.625 0.03685142085 -0.1062357476
581.25 0.00414623253 -0.1304224699
581.875 0.008729166798 -0.1065797326
582.5 0.02065896746 -0.06349325772
583.125 0.02708808869 -0.06643378855
583.75 0.05167596914 -0.08501446422
584.375 0.05872366268 -0.06650138456
585.0 0.04850743089 -0.04174035592
585.625 0.05823349765 -0.03863658554
586.25 0.07995107284 -0.04248976229
586.875 0.06429082537 -0.03961157252
587.5 0.04177523281 -0.04751130604
588.125 0.03817828926 -0.07462806262
588.75 0.05895008579 -0.08182501982
589.375 0.0302510764 -0.09665453668
590.0 -0.0314840346 -0.0964940596
590.625 -0.07212094919 -0.08780344312
591.25 -0.03707859219 -0.06234828525
591.875 -0.01309561521 -0.03465018891
592.5 -0.01202523867 -0.04090895761
593.125 -0.01275115119 -0.07061601018
593.75 0.01514536765 -0.07158481741
594.375 0.03735248722 -0.04465069037
595.0 0.05223076301 -0.04389916909
595.625 0.07814926905 -0.04169240869
596.25 0.08059906619 -0.02153199135
596.875 0.06704411778 -0.005398993604
597.5 0.07011674252 0.001889159909
598.125 0.08346967046 0.002723059229
598.75 0.08528387078 -0.01675633485
599.375 0.08209347119 -0.03509152019
600.0 0.07794713862 -0.03873767466
600.625 0.06096328482 -0.03337641964
601.25 0.03597344501 -0.03205620316
601.875 0.02642994402 -0.02584515355
602.5 0.02864314749 -0.009570900344
603.125 0.02047558119 0.008767968075
603.75 0.02038847399 0.01656542803
604.375 0.03405206382 0.0177174853
605.0 0.03998823009 0.01855241593
605.625 0.02023643233 0.01553272999
606.25 -0.0004589722403 0.01887947282
606.875 -0.003843590652 0.03713651213
607.5 0.01294072639 0.05002124096
608.125 0.03113629305 0.03764205003
608.75 0.03076986661 0.02642933915
609.375 0.0278926841 0.02923586265
610.0 0.02771475323 0.0300218282
610.625 0.02961323491 0.01739701472
611.25 0.02509726347 0.004280240111
611.875 0.016084707 -0.004539739722
612.5 0.003917643897 -0.01199555439
613.125 -0.009858517202 -0.01056201016
613.75 -0.01329482201 -0.0002316816376
614.375 -0.00415238087 0.003927389965
615.0 0.003719541602 -0.004718622187
615.625 -0.001934805893 -0.01401690419
616.25 -0.009144848371 -0.007765158191
616.875 -0.001407859379 0.001135439056
617.5 0.01167152926 -0.004089345299
618.125 0.01681910941 -0.0137390298
618.75 0.01735578096 -0.01436074882
619.375 0.02649558684 -0.01097463046
620.0 0.04310832016 -0.02104582236
620.625 0.04210558097 -0.04938732977
621.25 0.0390950386 -0.06077850252
621.875 0.02509738166 -0.07160929825
622.5 -0.03749500681 -0.05947240177
623.125 -0.03757789933 -0.03289930192
623.75 -0.01811112745 -0.02126671171
624.375 0.003907934991 -0.02383122518
625.0 0.02252847875 -0.01896532998
625.625 0.02105144281 -0.008315988993
626.25 0.02826625935 0.002702309845
626.875 0.0548887791 -0.0008512981766
627.5 0.07813625905 0.009745577375
628.125 0.0720408409 0.01676302949
628.75 0.06852225634 0.01565655043
629.375 0.08497568725 0.01995092478
630.0 0.09677316571 0.04322105551
630.625 0.0763727998 0.05170073152
631.25 0.07489946889 0.03829001457
631.875 0.07798954947 0.03795517236
632.5 0.06698812707 0.04124240267
633.125 0.04177538729 0.04463033234
633.75 0.04683225109 0.0373606011
634.375 0.04798216051 0.05167018088
635.0 0.03976414312 0.049518219
635.625 0.04016674191 0.05203807968
636.25 0.05804598099 0.0650468343
636.875 0.0590269894 0.07554495421
637.5 0.03693816058 0.05651521989
638.125 0.02706107174 0.06008784718
638.75 0.03229449578 0.1064601266
639.375 -0.01235478847 0.1214144931
640.0 -0.02816884115 0.08716347408
640.625 -0.01923630263 0.07395034464
641.25 -0.04566019131 0.08688119413
641.875 -0.08311599606 0.05358905041
642.5 -0.07005566214 0.0320249529
643.125 -0.06716542651 0.03995212214
643.75 -0.09194289955 0.03474516038
644.375 -0.1074397342 0.01359817061
645.0 -0.09544529753 0.01776998362
645.625 -0.1020522296 0.05139278599
646.25 -0.1073696778 0.06365571924
646.875 -0.09888921256 0.03544294184
647.5 -0.0865261404 0.02557289273
648.125 -0.1038865669 0.03627784951
648.75 -0.1130500181 0.00907383184
649.375 -0.07938806632 -0.007298350532
650.0 -0.0629758749 -0.02230222971
650.625 -0.0550518474 -0.06489546106
651.25 -0.01869361803 -0.08440741188
651.875 0.01563106775 -0.07106759732
652.5 0.03951962699 -0.07729265902
653.125 0.1025975473 -0.08645103753
653.75 0.1255502877 -0.04434877254
654.375 0.1183070017 -0.03804563525
655.0 0.1311055841 -0.05415205819
655.625 0.1449894662 -0.04487025255
656.25 0.1075341105 -0.0241155661
656.875 0.07531810548 -0.05634340077
657.5 0.09980779424 -0.06307489648
658.125 0.106052168 -0.03803302215
658.75 0.07548865814 -0.01082188409
659.375 0.0627445765 -0.02225622996
660.0 0.08859307148 -0.05965326962
660.625 0.1014254241 -0.06889889149
661.25 0.08533743877 -0.07845584096
661.875 0.05441968371 -0.1147465909
662.5 0.03968108738 -0.1461112378
663.125 0.06044067371 -0.1336494707
663.75 0.08438484576 -0.09563371915
664.375 0.1372945437 -0.04515596203
665.0 0.1237078772 0.05173947576
665.625 0.07785301714 0.0650317501
666.25 0.05898794903 0.0647650597
666.875 0.03765134134 0.1106108015
667.5 -0.041301726 0.1158365179
668.125 -0.04979103508 0.08022974139
668.75 -0.0233429008 0.1026778438
669.375 -0.01735560667 0.1468820468
670.0 -0.05464447047 0.1359896345
670.625 -0.05843061438 0.08874921908
671.25 -0.01459973684 0.1162836237
671.875 0.02007397582 0.1481921788
672.5 0.06441299955 0.1225701768
673.125 0.06106780128 0.08214619461
673.75 0.05266308688 0.0839836352
674.375 0.02257022415 0.1120870289
675.0 -0.02291225325 0.1072449935
675.625 -0.04993090762 0.1004305147
676.25 -0.1132313161 0.08303893683
676.875 -0.131992149 0.03957172107
677.5 -0.1285401638 0.03958005748
678.125 -0.1303677146 0.08028829743
678.75 -0.1700533859 0.07018247194
679.375 -0.1230144683 0.008966149365
680.0 -0.08552067954 0.02391898614
680.625 -0.09087842725 0.05701291101
681.25 -0.1127513121 0.07694002916
681.875 -0.09551083824 0.03780048198
682.5 -0.06180971948 0.04330558038
683.125 -0.07508072991 0.08355239934
683.75 -0.1222679752 0.08783759387
684.375 -0.1476820129 -0.008316307233
685.0 -0.09168928154 -0.08806805732
685.625 -0.03531077918 -0.1478713442
686.25 0.03371752068 -0.1634066559
686.875 0.05868468116 -0.1518562721
687.5 0.08307581636 -0.135599558
688.125 0.09859683945 -0.09199878576
688.75 0.08953354511 -0.04598768786
689.375 0.08056747509 -0.03394175739
690.0 0.1151711674 -0.03563550441
690.625 0.1331707265 0.008953031133
691.25 0.1056597745 -0.003936228815
691.875 0.08917630605 -0.06811233172
692.5 0.005001602552 -0.1781024127
693.125 -0.1338897904 -0.173306608
693.75 -0.1431573925 -0.05715990089
694.375 -0.1363550503 -0.002683984989
695.0 -0.1531824887 -0.06518741178
695.625 -0.04009628312 -0.1708403002
696.25 0.1029420575 -0.07048969472
696.875 0.1031351359 0.02229705021
697.5 0.05570388634 0.09663736758
698.125 0.003730698481 0.1149472317
698.75 -0.01422931868 0.1230902572
699.375 -0.02402573127 0.1394667338
700.0 -0.0485742533 0.123648011
700.625 -0.07287846311 0.0965174496
701.25 -0.07102067474 0.1162162563
701.875 -0.07325118758 0.1641082219
702.5 -0.01901698121 0.1258783466
703.125 0.02600853401 0.07465461361
703.75 0.07580511902 0.04293372124
704.375 0.1569815831 0.0434642124
705.0 0.1414721629 0.07727781179
705.625 0.07573355983 0.08066847055
706.25 0.02823375399 0.1107992498
706.875 -0.1029801138 0.1243927319
707.5 -0.1731323911 0.02176602186
708.125 -0.1255960568 -0.04038218875
708.75 -0.1041588741 -0.06842778208
709.375 -0.03295878345 -0.1189134386
710.0 0.0547105691 -0.103653368
710.625 0.07799341435 -0.06692625604
711.25 0.08332727812 -0.04793281647
711.875 0.06866697249 -0.03070757984
712.5 0.06440382451 -0.02834020606
713.125 0.05494198724 -0.09169584523
713.75 -0.03196471304 -0.1458658029
714.375 -0.1008088682 -0.09820423909
715.0 -0.1227141355 -0.03640760264
715.625 -0.1506740195 -0.03208404574
716.25 -0.1334912459 -0.1142812065
716.875 -0.03414155115 -0.12069092
717.5 0.01472877172 -0.08991254081
718.125 0.04261201982 -0.09238993284
718.75 0.08830495547 -0.07506007863
719.375 0.08853170691 -0.02036820528
720.0 0.06031376868 0.01421174787
720.625 0.02110380356 0.05885502917
721.25 -0.07080797031 0.03780268694
721.875 -0.08426500104 -0.05576075317
722.5 -0.07959736503 -0.07952119385
723.125 -0.1248752101 -0.03431944854
723.75 -0.1054808779 0.05972476317
724.375 -0.03051617289 0.09418100318
725.0 0.03001985452 0.07676548403
725.625 0.04864267312 0.04880204458
726.25 0.0343190936 0.03104982883
726.875 0.006541194362 0.03385750542
727.5 -0.02760040136 0.04657608641
728.125 -0.06199339635 0.04184588425
728.75 -0.05602968366 0.04154245825
729.375 -0.02670101613 0.04819038938
730.0 -0.02149493776 0.04158880015
730.625 -0.0384880623 0.03192099594
731.25 -0.04351919579 0.01265184967
731.875 -0.03975636378 -0.009676037012
732.5 -0.02736559438 -0.0240658062
733.125 -0.0125478126 -0.01746199058
733.75 0.000213298152 -0.003793483048
734.375 0.01170766064 -0.005016632023
735.0 0.00904790811 -0.01459774937
735.625 0.006817039595 -0.01609909693
736.25 0.003913395839 -0.02455707798
736.875 -0.01182732754 -0.02925606297
737.5 -0.02703485108 -0.01568151567
738.125 -0.03350777737 0.007340487171
738.75 -0.02588544261 0.03292570964
739.375 -0.003699247809 0.04263055836
740.0 0.01383585522 0.02881226575
740.625 0.01083177929 0.02395123849
741.25 0.00523978999 0.03671464288
741.875 -0.01989852643 0.03742940574
742.5 -0.04374573942 0.001562875343
743.125 -0.02365178488 -0.0446000285
743.75 0.01176004534 -0.05585272394
744.375 0.01410506978 -0.05715250886
745.0 -0.00334447151 -0.0624026509
745.625 -0.02988607133 -0.05031394471
746.25 -0.01697608089 -0.02442240938
746.875 -0.003756222776 -0.02998394184
747.5 -0.02372985917 -0.03824506773
748.125 -0.05283269438 -0.02628303358
748.75 -0.06559809835 0.01251752166
749.375 -0.03641369695 0.06154055868
750.0 0.04324940082 0.07726311193
