!Created with skrf (http://scikit-rf.org).
# GHz S RI R 50.0 
!freq ReS11 ImS11
500.0 -0.01003497298 -0.001631841189
500.625 0.001623367112 0.002350007477
501.25 -0.008854553294 -0.01984882248
501.875 -0.03674453373 -0.03029681098
502.5 -0.02806134299 -0.01480789684
503.125 -0.01483280556 0.00253562681
503.75 -0.0131633707 0.0008424603132
504.375 -0.02017111379 -0.001212296002
505.0 -0.0126678175 -0.001404958598
505.625 -0.009679325625 -0.01119812976
506.25 -0.03259132941 -0.01070017181
506.875 -0.06222644387 -0.04449215833
507.5 -0.06544244278 -0.01854559943
508.125 -0.05120390647 -0.03370853655
508.75 -0.08330979012 0.006652816758
509.375 -0.08992791206 0.02298519986
510.0 -0.06345023879 0.01271293452
510.625 -0.009645646938 0.02941812326
511.25 -0.02529954558 0.04550200717
511.875 -0.00685656341 0.06522207049
512.5 0.02722158135 0.04047581691
513.125 0.06616145524 -0.02109930955
513.75 0.08266793039 -0.05758530447
514.375 0.04483520232 -0.06894663229
515.0 0.006197192921 -0.0645744049
515.625 0.04432558409 -0.06453828028
516.25 0.03190411726 -0.08087550339
516.875 0.08464642783 0.007846920891
517.5 0.07059588988 -0.04870063419
518.125 0.1930575491 0.02460700924
518.75 0.06349920597 -0.1077798117
519.375 0.04929858173 -0.06495940148
520.0 0.01267730187 -0.06633628749
520.625 0.008897362686 -0.1091147143
521.25 -0.008562297996 -0.1093740561
521.875 0.01944769448 -0.05660954994
522.5 -0.01873779294 -0.07379836965
523.125 -0.04222732911 -0.2074410095
523.75 -0.09910370789 -0.291233652
524.375 -0.06992969104 -0.2770661533
525.0 -0.06837676295 -0.1284248699
525.625 -0.06250982584 -0.1105488853
526.25 -0.0252764686 -0.0989421128
526.875 -0.04517493178 -0.07008770733
527.5 -0.09112706669 -0.05434155757
528.125 -0.09795910013 -0.01465304685
528.75 -0.08552118715 -0.002572543999
529.375 -0.09518864728 0.07788299951
530.0 -0.03103622003 0.1467181469
530.625 0.0729209581 0.1239244781
531.25 0.04844319835 0.08328371472
531.875 0.05755027634 0.08508359683
532.5 0.07563786898 0.1404758119
533.125 0.05452782265 0.1221998412
533.75 0.05907934198 0.07133671755
534.375 0.06970781994 0.0637345195
535.0 0.09872005343 0.09649359588
535.625 0.04052359104 0.103879543
536.25 0.08670119064 0.03224564946
536.875 0.09861294417 0.05027810602
537.5 0.05534379583 0.08523139198
538.125 0.03369031837 0.07414011786
538.75 0.07234868926 0.077184402
539.375 0.09450325326 0.135384177
540.0 0.08149110678 0.1177177318
540.625 0.06630360375 0.07972563937
541.25 0.07350845406 0.0803546071
541.875 0.075357463 0.1037879712
542.5 0.01663674278 0.0673440933
543.125 0.01733533228 0.04099319863
543.75 0.07080818455 0.04380205455
544.375 0.1189473183 0.05065504728
545.0 0.1107497797 -0.03538580649
545.625 0.05339777375 -0.08329876905
546.25 0.005016080454 -0.1212010526
546.875 0.01932451405 -0.1246576441
547.5 0.03883813212 -0.1153462041
548.125 0.04912705803 -0.1311987572
548.75 0.09367975577 -0.1236293104
549.375 0.1391522807 -0.09260979719
550.0 0.1485411921 -0.03168715034
550.625 0.1736458563 -0.05925663549
551.25 0.1709127175 0.03743849998
551.875 0.1224895101 -0.003577870174
552.5 0.09368717377 -0.03395586158
553.125 0.09726580753 -0.07221223962
553.75 0.1101374292 -0.03289171641
554.375 0.05911215041 -0.02424156648
555.0 0.05478149602 -0.03251139196
555.625 0.07620661108 -0.05642222839
556.25 0.095613082 -0.0299626293
556.875 0.06440434173 -0.002384659889
557.5 0.06413505695 -0.003680155563
558.125 0.09832351836 0.02404881554
558.75 0.0840863135 0.07151705501
559.375 0.09415171356 0.05664985516
560.0 0.1171122349 0.0375989131
560.625 0.1319168801 0.0116483502
561.25 0.096583343 -0.02134944997
561.875 0.06895663501 -0.04785743448
562.5 0.06868553138 -0.06346721346
563.125 0.05632796089 -0.06068844932
563.75 0.03564776047 -0.04744314236
564.375 0.02593977399 -0.06010506458
565.0 0.07172221451 -0.0956617697
565.625 0.08619907435 -0.07656910088
566.25 0.07688865687 -0.05846998978
566.875 0.07594053906 -0.06218305784
567.5 0.1043429729 -0.03933016489
568.125 0.1058784582 0.02231897069
568.75 0.09825331832 0.0297706436
569.375 0.1240116882 0.02731229182
570.0 0.1306784118 0.02368567018
570.625 0.1103168607 0.006849186659
571.25 0.09686664625 -0.01868865694
571.875 0.107553518 -0.04127338931
572.5 0.07183794979 -0.05726131022
573.125 0.03621197642 -0.04707091852
573.75 0.03624782706 -0.06069368607
574.375 0.05149742954 -0.08907021236
575.0 0.04357083142 -0.08713385269
575.625 0.008032954004 -0.06370117564
576.25 0.0004948235786 -0.07000654745
576.875 0.03631387183 -0.07872119761
577.5 0.04825578653 -0.06511179286
578.125 0.04002246093 -0.06628564681
578.75 0.03452170796 -0.09444736981
579.375 0.06118924802 -0.1095284889
580.0 0.06320035939 -0.08593005682
580.625 0.03922761592 -0.1055704653
581.25 0.007921358364 -0.1299482234
581.875 0.01236458181 -0.1048544293
582.5 0.02247240056 -0.06166318861
583.125 0.02949859165 -0.06557019346
583.75 0.05477220076 -0.08298733333
584.375 0.06055178537 -0.06462045665
585.0 0.04951813289 -0.04010217651
585.625 0.05953960173 -0.03707864309
586.25 0.08131220665 -0.04011651032
586.875 0.06531076428 -0.03763840155
587.5 0.04327943588 -0.04658106116
588.125 0.04108121688 -0.07382232198
588.75 0.06160585736 -0.08016845435
589.375 0.03254549042 -0.0954493187
590.0 -0.0294904604 -0.09734560716
590.625 -0.06905191935 -0.08944980963
591.25 -0.03438318177 -0.06229285665
591.875 -0.01135326007 -0.03468577455
592.5 -0.01037776816 -0.04175693324
593.125 -0.009874033294 -0.07172513101
593.75 0.01801974284 -0.0711670596
594.375 0.03893683847 -0.04384794686
595.0 0.05406678938 -0.04289205152
595.625 0.07956712691 -0.0397521469
596.25 0.08114409996 -0.01943887165
596.875 0.06727042394 -0.003715076315
597.5 0.07050557487 0.003664287456
598.125 0.08364327782 0.004700874729
598.75 0.08577289089 -0.01498015449
599.375 0.08275976888 -0.03334331123
600.0 0.07825546303 -0.03675538053
600.625 0.06085053199 -0.03168546785
601.25 0.0359105605 -0.03063102242
601.875 0.02687542608 -0.02428159375
602.5 0.02872437744 -0.007822252353
603.125 0.02012800313 0.009957138096
603.75 0.02021568282 0.01751609363
604.375 0.03397225653 0.01885665744
605.0 0.03953780122 0.01975429163
605.625 0.01957846926 0.01629451127
606.25 -0.001021444133 0.01944021048
606.875 -0.004562665491 0.03777366905
607.5 0.01215082782 0.05069155596
608.125 0.03056105214 0.03826612183
608.75 0.03034966832 0.02699828983
609.375 0.02747790077 0.02968848529
610.0 0.02714320205 0.03037239089
610.625 0.0291938748 0.01759315469
611.25 0.02479063101 0.004369302282
611.875 0.01581080516 -0.004539373438
612.5 0.003751204704 -0.0120639416
613.125 -0.009957948786 -0.01061864395
613.75 -0.01332379696 -0.0002777102776
614.375 -0.004137682033 0.003884378468
615.0 0.003872263435 -0.004670674467
615.625 -0.001647354015 -0.01395238087
616.25 -0.008825989518 -0.007729667586
616.875 -0.001040108224 0.001242210421
617.5 0.01215286784 -0.003951359367
618.125 0.01748821118 -0.01344574597
618.75 0.01791839408 -0.01408576104
619.375 0.02711600132 -0.01065113039
620.0 0.04387999042 -0.02061951413
620.625 0.04296272479 -0.04885826687
621.25 0.03977862345 -0.06018687425
621.875 0.02591012446 -0.07102032042
622.5 -0.0362345074 -0.0594405536
623.125 -0.03621663218 -0.03283879098
623.75 -0.01678411626 -0.02092450345
624.375 0.005229288432 -0.0230421466
625.0 0.02341973229 -0.01740352067
625.625 0.02177356556 -0.006913439831
626.25 0.02914302219 0.003828981855
626.875 0.05604231193 0.0004655777912
627.5 0.07848447321 0.01184676926
628.125 0.07191176058 0.01857946757
628.75 0.0686314629 0.01729178599
629.375 0.08518725116 0.0221255294
630.0 0.09563964059 0.04573657354
630.625 0.0748788471 0.05297647388
631.25 0.07376952327 0.03970430618
631.875 0.07653721889 0.03975470346
632.5 0.06493389575 0.04293955561
633.125 0.03986529415 0.04542209038
633.75 0.04541856362 0.03877728576
634.375 0.04593266978 0.05321334496
635.0 0.03775004491 0.05106707132
635.625 0.03860588808 0.05383725684
636.25 0.05629200825 0.06739038074
636.875 0.05631448183 0.07750191503
637.5 0.03462661786 0.05776021174
638.125 0.0254326833 0.06173170342
638.75 0.02940272976 0.1084439237
639.375 -0.0153424027 0.1208309842
640.0 -0.02993508019 0.08601499924
640.625 -0.02123983605 0.07334297711
641.25 -0.04888292639 0.08522230611
641.875 -0.08442557837 0.05036046217
642.5 -0.07071666971 0.03001557326
643.125 -0.06861419628 0.03795696762
643.75 -0.09362561212 0.03138983686
644.375 -0.1080121522 0.009568123452
645.0 -0.09589286809 0.01530221166
645.625 -0.1040112205 0.04861257431
646.25 -0.109252568 0.05998152735
646.875 -0.09951677787 0.03145761813
647.5 -0.0872388281 0.02271297665
648.125 -0.1051615231 0.03278291067
648.75 -0.1123765604 0.004794901188
649.375 -0.07824458965 -0.01017752713
650.0 -0.06184280823 -0.0250616489
650.625 -0.05211684307 -0.06756184527
651.25 -0.01530363412 -0.08518423659
651.875 0.01800332692 -0.07092211096
652.5 0.04244656227 -0.07717127536
653.125 0.1062386959 -0.08373548526
653.75 0.1267364933 -0.041210481
654.375 0.1192617444 -0.03522880598
655.0 0.1330138922 -0.05023128994
655.625 0.1458355625 -0.03843496058
656.25 0.1065203191 -0.01964553526
656.875 0.07673583639 -0.05348160896
657.5 0.1020111291 -0.05869537053
658.125 0.106542543 -0.03261073266
658.75 0.07524994624 -0.006812682396
659.375 0.06419898735 -0.01997466806
660.0 0.09235591045 -0.05676658926
660.625 0.1045371393 -0.06546565273
661.25 0.08813740489 -0.07590882448
661.875 0.05833213872 -0.1138137352
662.5 0.04461605458 -0.1453757677
663.125 0.06416925159 -0.131456596
663.75 0.08666745029 -0.09320661944
664.375 0.1387734186 -0.04029152336
665.0 0.1202193171 0.05562257467
665.625 0.07448747616 0.06730207826
666.25 0.05612050233 0.06686679931
666.875 0.031421957 0.1131703609
667.5 -0.04789731706 0.1131511615
668.125 -0.05322966333 0.07858159032
668.75 -0.02730810518 0.1029018368
669.375 -0.02395416519 0.1472877331
670.0 -0.06041375922 0.133018546
670.625 -0.06099776223 0.08635401265
671.25 -0.01841362642 0.1165034228
671.875 0.01490808575 0.1487042407
672.5 0.05919899106 0.1240671173
673.125 0.05704538635 0.08389039437
673.75 0.04874892638 0.0865177147
674.375 0.01727952043 0.1135190234
675.0 -0.02787329497 0.1062786353
675.625 -0.05446410933 0.09901740377
676.25 -0.1175230151 0.07773218098
676.875 -0.1340595216 0.03498608784
677.5 -0.1298881312 0.03550176349
678.125 -0.1337801029 0.07659288057
678.75 -0.1720220702 0.06252964769
679.375 -0.1207421348 0.004223237667
680.0 -0.08522135177 0.02038270014
680.625 -0.09362682718 0.05256653723
681.25 -0.1167024594 0.06981410122
681.875 -0.09661849648 0.03146989325
682.5 -0.06446944063 0.04091772847
683.125 -0.07989654096 0.08148981445
683.75 -0.126878831 0.08346655665
684.375 -0.1474064125 -0.01435744979
685.0 -0.08901099875 -0.09141893178
685.625 -0.03032411445 -0.1499782934
686.25 0.03873173694 -0.1623295872
686.875 0.06403893985 -0.149081427
687.5 0.08832563646 -0.1314037607
688.125 0.10091573 -0.08598194158
688.75 0.09034433375 -0.0407976742
689.375 0.08213746717 -0.02964141465
690.0 0.1178935361 -0.02889167101
690.625 0.132011614 0.01677920523
691.25 0.1061804314 0.0006826208549
691.875 0.09257169034 -0.06626823057
692.5 0.01235719587 -0.1803789596
693.125 -0.1256392344 -0.1785393064
693.75 -0.1395424474 -0.06104710484
694.375 -0.1361349407 -0.007654202904
695.0 -0.1503890603 -0.07210228891
695.625 -0.03109432897 -0.1716858586
696.25 0.104578786 -0.06504009384
696.875 0.1017213684 0.02705260765
697.5 0.05053441987 0.09968984666
698.125 -0.001875901323 0.1158474208
698.75 -0.01951001769 0.1231666007
699.375 -0.02957836705 0.1390807034
700.0 -0.05308787671 0.1216206353
700.625 -0.0763098363 0.09362293599
701.25 -0.07612966873 0.1138380328
701.875 -0.08177802705 0.1589517615
702.5 -0.02475604742 0.1222371358
703.125 0.02099275345 0.0748156447
703.75 0.07442844373 0.04829739371
704.375 0.1561546923 0.05348498379
705.0 0.1364349163 0.08357609727
705.625 0.07254197506 0.08338167325
706.25 0.02437355416 0.1133453586
706.875 -0.1089750831 0.1215663626
707.5 -0.1732313606 0.01459068032
708.125 -0.1232184081 -0.0439597349
708.75 -0.1011438216 -0.07234963551
709.375 -0.02697328061 -0.1198821853
710.0 0.05969908936 -0.1000463627
710.625 0.08023532705 -0.06268602458
711.25 0.08482144686 -0.04324764326
711.875 0.0697721705 -0.02614454613
712.5 0.06704310009 -0.02451448257
713.125 0.06097065011 -0.09067591985
713.75 -0.02521548121 -0.1484927635
714.375 -0.09718037282 -0.1023514166
715.0 -0.1219045634 -0.04090643999
715.625 -0.1505316611 -0.03885579545
716.25 -0.1265075345 -0.1205097181
716.875 -0.02813603835 -0.1199992528
717.5 0.01861614712 -0.08829903306
718.125 0.04764687152 -0.0901584807
718.75 0.09226871413 -0.06946526719
719.375 0.08830019346 -0.0153510221
720.0 0.05898719518 0.01715448068
720.625 0.01741427439 0.0605970646
721.25 -0.07426424851 0.03432929224
721.875 -0.08268496908 -0.06012245659
722.5 -0.07704723459 -0.08287336965
723.125 -0.1235993212 -0.03929574191
723.75 -0.1076207486 0.05456878916
724.375 -0.03478773965 0.09199332365
725.0 0.02594365972 0.07775895057
725.625 0.04521384488 0.05056209306
726.25 0.03154965443 0.03237616834
726.875 0.00369028509 0.03441981938
727.5 -0.0311931764 0.04586678292
728.125 -0.06467863812 0.03889221619
728.75 -0.0578578157 0.03922744638
729.375 -0.02881696618 0.04706240541
730.0 -0.02388665563 0.04069594078
730.625 -0.04014129309 0.030371686
731.25 -0.0438843081 0.01081381683
731.875 -0.03918692076 -0.01110483764
732.5 -0.0260403492 -0.0247920899
733.125 -0.0112286057 -0.01728039812
733.75 0.001277381824 -0.0035634383
734.375 0.01264443802 -0.004954111901
735.0 0.009814471611 -0.0149234942
735.625 0.007229913203 -0.01642905338
736.25 0.004070557301 -0.02470474785
736.875 -0.01170494723 -0.0291567767
737.5 -0.02710070004 -0.01556515132
738.125 -0.03394071497 0.007540453465
738.75 -0.02672412537 0.03292250587
739.375 -0.004853124205 0.04268662671
740.0 0.01255168473 0.02909314748
740.625 0.009335411977 0.02461846439
741.25 0.003334465108 0.03725138631
741.875 -0.0215038458 0.03649507507
742.5 -0.04371152405 -0.0002151799862
743.125 -0.02131330757 -0.04561144894
743.75 0.01436749424 -0.05493928536
744.375 0.01623801753 -0.05554248651
745.0 -0.0004523830767 -0.06145513338
745.625 -0.02611364802 -0.05055470202
746.25 -0.01346369215 -0.02535825844
746.875 -0.001411084657 -0.03170065514
747.5 -0.02279593278 -0.04049355781
748.125 -0.05210390622 -0.02933337922
748.75 -0.06639676124 0.009102049778
749.375 -0.03996763804 0.05955926378
750.0 0.03960856836 0.08001752843
