!Created with skrf (http://scikit-rf.org).
# GHz S RI R 50.0 
!freq ReS11 ImS11
500.0 -0.01833386853 -0.00711395498
500.625 -0.01260544817 0.0009134492116
501.25 -0.02506543092 -0.007763156483
501.875 -0.06392184794 -0.0049253178
502.5 -0.05895081701 -0.005293334902
503.125 -0.02862105962 0.01721011628
503.75 -0.01758526435 0.02197436916
504.375 -0.01963462642 0.02830842141
505.0 -0.00631688832 0.02857883425
505.625 -0.002089832018 0.01499530451
506.25 -0.01150518885 0.01213637397
506.875 -0.06066735694 0.01218807046
507.5 -0.05967683865 0.03237667868
508.125 -0.05589366066 0.00869322696
508.75 -0.04692929464 0.05109451382
509.375 -0.05503637954 0.07905256257
510.0 -0.04837396041 0.06405490454
510.625 0.0222001758 0.0261297084
511.25 0.01511766051 0.03269668297
511.875 0.033537776 0.04383714928
512.5 0.04309816569 0.01810022213
513.125 0.04042074118 -0.04578385389
513.75 0.02537732068 -0.09892087418
514.375 -0.01354728498 -0.0943075683
515.0 -0.0428539859 -0.06113245581
515.625 -0.02104096243 -0.08046994003
516.25 -0.05630047247 -0.06467728704
516.875 0.04045768377 -0.04783458205
517.5 0.02532606592 -0.05007728669
518.125 0.1256005245 -0.05995193969
518.75 -0.01291518803 -0.1169543631
519.375 -0.001891890361 -0.08246727265
520.0 -0.02254069969 -0.04744533216
520.625 -0.04565237875 -0.06135041722
521.25 -0.0681264004 -0.07307988892
521.875 -0.01423808564 -0.05023673619
522.5 -0.03563925502 -0.03747805806
523.125 -0.09601017102 -0.1139754324
523.75 -0.1959919828 -0.1968823757
524.375 -0.1435112682 -0.2280277956
525.0 -0.1017378395 -0.0838568869
525.625 -0.1154420517 -0.06957836296
526.25 -0.07962738623 -0.08149697854
526.875 -0.07337730058 -0.04301299478
527.5 -0.1018712757 0.002752146865
528.125 -0.0981425186 0.05725554184
528.75 -0.08206335412 0.04517041188
529.375 -0.04540888321 0.1046507234
530.0 0.05349948688 0.1417702177
530.625 0.16730308 0.08604765694
531.25 0.1231222122 0.07612656628
531.875 0.1036647586 0.01704437673
532.5 0.1433937099 0.02663889309
533.125 0.1300142661 0.06089433926
533.75 0.09377085213 0.02626501106
534.375 0.07955009711 0.007069925361
535.0 0.120576077 0.003737619766
535.625 0.09742314119 0.06734701798
536.25 0.09564597852 -0.008744136305
536.875 0.1184674375 -0.02108446756
537.5 0.1122173597 0.01761643183
538.125 0.07898622228 0.02623214266
538.75 0.08868108187 0.02373399478
539.375 0.1492457047 0.04000350173
540.0 0.1656671088 0.06217042437
540.625 0.1184313699 0.0274728648
541.25 0.1068070954 0.01748194781
541.875 0.1374115659 0.01594671112
542.5 0.09343970706 0.03558885445
543.125 0.03982619915 0.00224419509
543.75 0.04503455617 -0.01574496545
544.375 0.09570402437 -0.03145619326
545.0 0.06731742978 -0.0896098276
545.625 0.004044980062 -0.09289330273
546.25 -0.05817817231 -0.07898529853
546.875 -0.06556160153 -0.1026038845
547.5 -0.03258802494 -0.1125780298
548.125 -0.02567778907 -0.1115135987
548.75 0.005109574118 -0.1289874456
549.375 0.05802416013 -0.148178064
550.0 0.1184169637 -0.08643388151
550.625 0.112871714 -0.1077336946
551.25 0.1766590272 -0.06789384818
551.875 0.1281794868 -0.07368732482
552.5 0.08329412138 -0.08265978775
553.125 0.04354895432 -0.1140940522
553.75 0.06757145193 -0.1205130308
554.375 0.04491451364 -0.07992687912
555.0 0.02055150999 -0.06815985987
555.625 0.01286399059 -0.09158122164
556.25 0.04144729674 -0.1002483795
556.875 0.04587051363 -0.06183320233
557.5 0.03090496543 -0.04127705244
558.125 0.0632804084 -0.04574601204
558.75 0.09305949345 0.002753216347
559.375 0.09626325251 0.003000834057
560.0 0.1095377906 -0.01599993275
560.625 0.120860088 -0.0664454122
561.25 0.0891474795 -0.08185607774
561.875 0.03605188672 -0.08632855802
562.5 0.0006998788436 -0.1020937054
563.125 -0.009828007212 -0.09787125413
563.75 -0.01777118088 -0.0710820783
564.375 -0.02373717162 -0.04853532
565.0 -0.0199920014 -0.08387245314
565.625 0.01574382213 -0.1136378487
566.25 0.03357860776 -0.08720437006
566.875 0.02574228689 -0.08326652688
567.5 0.04393411791 -0.08602142977
568.125 0.08632988699 -0.05519759285
568.75 0.09076112057 -0.01559828096
569.375 0.1020689393 -0.03412282798
570.0 0.1232627028 -0.05004364724
570.625 0.1061011289 -0.05773561833
571.25 0.08185788644 -0.06677747006
571.875 0.06457641327 -0.09777506062
572.5 0.03149243891 -0.1227652253
573.125 -0.003486176184 -0.0860966321
573.75 -0.02410770501 -0.0641854011
574.375 -0.02686429003 -0.09450158229
575.0 -0.03353097478 -0.107180426
575.625 -0.03809322482 -0.06629557207
576.25 -0.04906389897 -0.04268178794
576.875 -0.04803887231 -0.06314821497
577.5 -0.01151584978 -0.07051322955
578.125 -0.002427935878 -0.06576196186
578.75 -0.0197859394 -0.07115230275
579.375 -0.02501513537 -0.1017404496
580.0 0.010571701 -0.1087596438
580.625 -0.00669158705 -0.1052561896
581.25 -0.05961095494 -0.1136975088
581.875 -0.06362920495 -0.1098373697
582.5 -0.03069533722 -0.08591354342
583.125 -0.01918206784 -0.06986931932
583.75 -0.02136922648 -0.09496392591
584.375 0.003758672553 -0.1009984711
585.0 0.0116553987 -0.07160443695
585.625 0.01262660456 -0.06291751784
586.25 0.02588474099 -0.07754257301
586.875 0.02753602881 -0.07854116207
587.5 0.004642714183 -0.06196768594
588.125 -0.02228087905 -0.06327828534
588.75 -0.005075585416 -0.09120841442
589.375 -0.02267219981 -0.09948022279
590.0 -0.06538533683 -0.0749245802
590.625 -0.1114551792 -0.03395061934
591.25 -0.1011986534 -0.03420464656
591.875 -0.05510826986 -0.02127771044
592.5 -0.04048133866 -0.01253798142
593.125 -0.05487347156 -0.02542095369
593.75 -0.04580946757 -0.05240066706
594.375 -0.002061568836 -0.05151938964
595.0 0.01350014654 -0.04738541362
595.625 0.03067831086 -0.06486571946
596.25 0.0491419528 -0.06198918829
596.875 0.04989203832 -0.04098322372
597.5 0.04971552296 -0.03139187298
598.125 0.06087015592 -0.03861219797
598.75 0.06312063286 -0.05163433821
599.375 0.05736690806 -0.06420784755
600.0 0.05629561433 -0.07435825287
600.625 0.05068748966 -0.07039409203
601.25 0.02700063982 -0.06211730722
601.875 0.007819402504 -0.05261128292
602.5 0.01034454669 -0.04461242133
603.125 0.01700647862 -0.02306834313
603.75 0.01696666911 -0.00691443877
604.375 0.0265400241 -0.006521012245
605.0 0.03874831894 -0.01318037496
605.625 0.03026693227 -0.009745675826
606.25 0.008775449814 0.0009936149159
606.875 0.004244375633 0.01800402046
607.5 0.02207330173 0.02957112611
608.125 0.03798601227 0.01928416863
608.75 0.03514260861 0.01180580457
609.375 0.0335859376 0.01619954411
610.0 0.0364010638 0.01977249057
610.625 0.0375512275 0.009887039796
611.25 0.03191543382 -0.0008080577572
611.875 0.02252607456 -0.006915093948
612.5 0.008921584031 -0.01250727991
613.125 -0.007083833093 -0.01050537724
613.75 -0.01258855441 0.0001039343492
614.375 -0.005549015093 0.004338192572
615.0 0.0002282692167 -0.003956248945
615.625 -0.007905279438 -0.01304806812
616.25 -0.01713120007 -0.006805805516
616.875 -0.01091637291 0.002355781942
617.5 -0.0002839073788 -0.00232387009
618.125 0.001357644443 -0.01375816688
618.75 0.0007589887517 -0.01668833586
619.375 0.00991349511 -0.01428459184
620.0 0.02266867335 -0.02391986812
620.625 0.01819179454 -0.05064832037
621.25 0.01596645795 -0.06839385569
621.875 0.002706073685 -0.08014097561
622.5 -0.06486786314 -0.0509187112
623.125 -0.06834718124 -0.0243310433
623.75 -0.04892214222 -0.01860840628
624.375 -0.02886983348 -0.02978199505
625.0 -0.008862052712 -0.04297914278
625.625 -0.007620845164 -0.03447010245
626.25 -0.0001427392295 -0.01546072514
626.875 0.01825054349 -0.01856760344
627.5 0.04794791254 -0.03201470864
628.125 0.06072819828 -0.02405504529
628.75 0.05584530491 -0.01805540528
629.375 0.0634038966 -0.02022081846
630.0 0.09326498407 -0.01693962216
630.625 0.1007062286 0.0107429201
631.25 0.08990452418 0.002108589027
631.875 0.09331058792 -0.01301612512
632.5 0.09405198141 -0.01500015903
633.125 0.08123787657 0.006803900219
633.75 0.06790117402 -0.002835442815
634.375 0.0781355801 -0.004616090577
635.0 0.07105227856 -0.003173202505
635.625 0.05922415989 0.002157573306
636.25 0.07220157007 0.008065485469
636.875 0.09297902342 0.01487087766
637.5 0.07686360708 0.01190319768
638.125 0.04946206643 0.01679336263
638.75 0.0661253579 0.04222580189
639.375 0.06223491802 0.1045736282
640.0 0.02536071056 0.1021862649
640.625 0.02504766384 0.07576466106
641.25 0.03158637994 0.08498039189
641.875 -0.01138735234 0.108053945
642.5 -0.04162174468 0.0757577029
643.125 -0.02881833383 0.0684441927
643.75 -0.03109591183 0.08320051571
644.375 -0.05519162666 0.0869249589
645.0 -0.07029530368 0.07119540773
645.625 -0.05299244143 0.08341696789
646.25 -0.04203389433 0.1172560757
646.875 -0.05231041252 0.1048186349
647.5 -0.05190667171 0.08154370358
648.125 -0.05654546054 0.08604188037
648.75 -0.08780147958 0.09136675653
649.375 -0.08401173889 0.05904556254
650.0 -0.06642684293 0.03673020943
650.625 -0.08194126662 0.01311512753
651.25 -0.07806822567 -0.03637728913
651.875 -0.04036505908 -0.05709097373
652.5 -0.01898146408 -0.05809387914
653.125 0.003553266722 -0.09686854501
653.75 0.07315192304 -0.1067146123
654.375 0.08666806467 -0.08329336056
655.0 0.07681005017 -0.09921363183
655.625 0.08090699863 -0.1316276085
656.25 0.08594766213 -0.1185792805
656.875 0.04165051053 -0.09933192188
657.5 0.03269816655 -0.1155249684
658.125 0.04953120122 -0.1285621111
658.75 0.04016168648 -0.09645825361
659.375 0.01834496955 -0.06269129901
660.0 0.003063478155 -0.07942609857
660.625 0.01478595504 -0.1073677759
661.25 0.01193309801 -0.1061638412
661.875 -0.02096959558 -0.1035277009
662.5 -0.05585684847 -0.1243348014
663.125 -0.03558345357 -0.1432424557
663.75 0.02202820244 -0.1310188458
664.375 0.07335497052 -0.1148508789
665.0 0.1474009675 -0.06632844799
665.625 0.1265625342 0.0006339532701
666.25 0.09994464108 0.01557496919
666.875 0.1046411797 0.03345603561
667.5 0.08643695895 0.0953035381
668.125 0.02192521009 0.09568099458
668.75 0.03178919747 0.08019024267
669.375 0.06905205229 0.09879313966
670.0 0.06494478639 0.1332837087
670.625 0.0178616643 0.1207976909
671.25 0.04599671613 0.09461776888
671.875 0.1092556661 0.09208544562
672.5 0.1500204351 0.04805858255
673.125 0.125892737 0.01623283805
673.75 0.1018555258 0.01206543965
674.375 0.09647159591 0.04753815672
675.0 0.06028908709 0.08955041242
675.625 0.02858819975 0.0928502118
676.25 -0.004984511768 0.1179766265
676.875 -0.07004607847 0.1106966186
677.5 -0.08314374302 0.09790081352
678.125 -0.06522390759 0.1127536995
678.75 -0.07187314343 0.1604030167
679.375 -0.1198051083 0.1243741866
680.0 -0.07131796579 0.08843687484
680.625 -0.03175414771 0.1019135267
681.25 -0.001630742208 0.1416146716
681.875 -0.01367564716 0.1351408987
682.5 -0.005458541939 0.07918500269
683.125 0.01020060472 0.08102803081
683.75 -0.01432401736 0.1211156888
684.375 -0.0968402496 0.09833268748
685.0 -0.1189855847 -0.008693596637
685.625 -0.09725392584 -0.07795308048
686.25 -0.06705488034 -0.1411426009
686.875 -0.03740620362 -0.1584594089
687.5 -0.0153390126 -0.1635563195
688.125 0.01052166158 -0.1699719452
688.75 0.03989316618 -0.1264642737
689.375 0.03836968769 -0.09313882291
690.0 0.03569424233 -0.1034098084
690.625 0.07180710134 -0.1233185427
691.25 0.06580290621 -0.08397361582
691.875 0.02304792519 -0.08505827114
692.5 -0.07363362315 -0.09936811204
693.125 -0.2016105897 -0.01973798058
693.75 -0.1852665118 0.04830207141
694.375 -0.1185315979 0.07165488429
695.0 -0.1455930154 0.04957829698
695.625 -0.1591866026 -0.08589679849
696.25 0.02705772433 -0.1593915833
696.875 0.1026474386 -0.05948590766
697.5 0.115735205 0.01166649648
698.125 0.08897655499 0.05998744615
698.75 0.06965568848 0.08158307409
699.375 0.0705869987 0.1005981173
700.0 0.04521671086 0.1226461863
700.625 0.002489078827 0.1222370973
701.25 0.005869491311 0.1226450844
701.875 0.06318766739 0.1553136378
702.5 0.1071853536 0.1441218482
703.125 0.104552108 0.04377248887
703.75 0.07245277425 -0.03140467039
704.375 0.08775826121 -0.08440940251
705.0 0.1541407829 -0.07656067407
705.625 0.1187555619 0.01417061193
706.25 0.07124749185 0.05626377763
706.875 0.00972333402 0.1227489415
707.5 -0.1034722717 0.1318743232
708.125 -0.1486353812 0.03885319744
708.75 -0.1253730951 0.001819304232
709.375 -0.1111183801 -0.06506516975
710.0 -0.04412686636 -0.1188104418
710.625 0.01088400734 -0.1205322455
711.25 0.02826556755 -0.1124450842
711.875 0.01690609343 -0.09958024488
712.5 -0.002341010865 -0.07182003874
713.125 -0.03301372486 -0.06435807369
713.75 -0.1034263726 -0.0509871453
714.375 -0.1314196792 -0.009325540907
715.0 -0.1130966373 0.03293047985
715.625 -0.1160093259 0.04689666155
716.25 -0.1670912015 0.01297426319
716.875 -0.1326533638 -0.08674712687
717.5 -0.04853796847 -0.09789667518
718.125 -0.03223006998 -0.09336264494
718.75 -0.006178269331 -0.1176897066
719.375 0.04937494949 -0.1036923278
720.0 0.06630282438 -0.04259085445
720.625 0.06215970081 0.009006028907
721.25 0.001931467064 0.06157854882
721.875 -0.07415090378 0.01971186341
722.5 -0.09320844511 -0.01697722944
723.125 -0.1098894189 0.03709991874
723.75 -0.05141026503 0.1127945831
724.375 0.03781570492 0.0985890331
725.0 0.07841308309 0.04092489978
725.625 0.08314934511 0.002812298764
726.25 0.06670073642 -0.004916045042
726.875 0.04364366491 0.009341991039
727.5 0.02361498963 0.0318212634
728.125 -0.004996368615 0.05850359857
728.75 -0.01420978989 0.06372906853
729.375 0.009387738516 0.05269411643
730.0 0.01478873886 0.03808090775
730.625 -0.00474069099 0.04218449969
731.25 -0.02668756749 0.03558920338
731.875 -0.03941694047 0.01320464711
732.5 -0.04095143906 -0.006387143903
733.125 -0.03268865527 -0.01087712674
733.75 -0.01739197971 0.0002976384701
734.375 -0.00212394601 0.0004914533452
735.0 0.001495354704 -0.005707400634
735.625 0.003870566741 -0.009156937148
736.25 0.003090998109 -0.02142624099
736.875 -0.01230822283 -0.02971021655
737.5 -0.02628375418 -0.01926431612
738.125 -0.02906520536 0.001484667042
738.75 -0.01623306525 0.02709039781
739.375 0.01040146314 0.03731498218
740.0 0.02950205974 0.01880907669
740.625 0.02542429786 0.006349565145
741.25 0.02493477814 0.01909324663
741.875 0.005830449978 0.03992050866
742.5 -0.0343700304 0.02588943656
743.125 -0.04583325495 -0.01840217595
743.75 -0.03056000228 -0.05268721483
744.375 -0.02735987919 -0.0636780911
745.0 -0.04519632133 -0.059065336
745.625 -0.07532883793 -0.02487239805
746.25 -0.05558933039 0.01074323017
746.875 -0.02537491932 0.007350609451
747.5 -0.02607460166 -0.003527547271
748.125 -0.04220287111 0.01131241176
748.75 -0.03564099479 0.04680616932
749.375 0.01491899745 0.06413687322
750.0 0.07197595021 0.0240184894
