!Created with skrf (http://scikit-rf.org).
# GHz S RI R 50.0 
!freq ReS11 ImS11
500.0 -0.003611599131 0.0007114174678
500.625 0.0007629168467 -0.002438372929
501.25 -0.009017206991 -0.01983022085
501.875 -0.03682575266 -0.03050914384
502.5 -0.02561074146 -0.01521395797
503.125 -0.01377899255 0.002524468694
503.75 -0.01258843947 -0.0006239752017
504.375 -0.01964397289 -0.00311067648
505.0 -0.01218889627 -0.003324864067
505.625 -0.01066875389 -0.01294728437
506.25 -0.03215726383 -0.01250025844
506.875 -0.06069238463 -0.04777495194
507.5 -0.06495444502 -0.02091326697
508.125 -0.05069136276 -0.03551933167
508.75 -0.08219262923 0.004294047577
509.375 -0.09080522116 0.0194467374
510.0 -0.06254707834 0.01201411631
510.625 -0.01123026051 0.03040806533
511.25 -0.02653615267 0.04518069057
511.875 -0.008484846762 0.06371152981
512.5 0.02779750617 0.04300011484
513.125 0.0688510232 -0.01942229659
513.75 0.08413049357 -0.05405422258
514.375 0.04691344303 -0.06625542686
515.0 0.007876351222 -0.06296507646
515.625 0.05231765766 -0.06581925399
516.25 0.03519348523 -0.08039947536
516.875 0.0823594264 0.01124164054
517.5 0.07120182821 -0.04767306846
518.125 0.200260398 0.02539126315
518.75 0.06612181255 -0.1065901479
519.375 0.05073993731 -0.0635172103
520.0 0.01345109044 -0.06725299812
520.625 0.01029930342 -0.1089757422
521.25 -0.008674564992 -0.1086094953
521.875 0.0207845818 -0.05631059875
522.5 -0.01860075741 -0.07539531069
523.125 -0.0386618192 -0.2123816402
523.75 -0.09199183788 -0.2933095018
524.375 -0.06318319064 -0.2800314424
525.0 -0.06601679867 -0.1306674976
525.625 -0.05938945894 -0.1114869237
526.25 -0.02212313815 -0.09870863449
526.875 -0.04356383173 -0.07095813186
527.5 -0.08949234438 -0.05713930131
528.125 -0.09638729518 -0.01757846285
528.75 -0.08511605554 -0.004863067203
529.375 -0.09787316392 0.07563785913
530.0 -0.03508666849 0.1451376468
530.625 0.0679843293 0.1237522936
531.25 0.04521653681 0.08269766209
531.875 0.05405772381 0.08807088874
532.5 0.07018583405 0.1446591083
533.125 0.05056199812 0.1232376651
533.75 0.05721940581 0.07302856755
534.375 0.06860998586 0.06622936716
535.0 0.09583988573 0.10098933
535.625 0.03761862867 0.1041079744
536.25 0.08585393389 0.03398304542
536.875 0.09608661107 0.05346435515
537.5 0.05125776871 0.08715702876
538.125 0.03099209801 0.07550753054
538.75 0.07118875508 0.07973479869
539.375 0.0897906669 0.1383514453
540.0 0.07709494548 0.1190340488
540.625 0.06309632592 0.08150202327
541.25 0.07069071447 0.0832129426
541.875 0.06983744068 0.1068761444
542.5 0.01328635101 0.06721832654
543.125 0.0158656263 0.0426765894
543.75 0.07124041155 0.04718402079
544.375 0.1188424202 0.05424634676
545.0 0.1115930747 -0.0326203365
545.625 0.05542217515 -0.08245567833
546.25 0.009227962296 -0.1221491013
546.875 0.02381789338 -0.1239485886
547.5 0.04232383193 -0.1144239488
548.125 0.05402592475 -0.1305890387
548.75 0.09860562847 -0.1216457749
549.375 0.1423486239 -0.08847385496
550.0 0.149520416 -0.02889215502
550.625 0.1765693314 -0.05504767881
551.25 0.1681570828 0.04132407503
551.875 0.1209163185 -0.0005837978763
552.5 0.09359060354 -0.03172936265
553.125 0.09958123766 -0.06894195948
553.75 0.1096859565 -0.02805925683
554.375 0.05901582426 -0.02184096496
555.0 0.05568189339 -0.03056659226
555.625 0.07853743088 -0.05338089292
556.25 0.09629772346 -0.02546971175
556.875 0.06404808209 0.0002932733602
557.5 0.06527468583 -0.0009992074598
558.125 0.0983708671 0.02851406196
558.75 0.0820213653 0.07492824296
559.375 0.09291418579 0.05956344269
560.0 0.1167403497 0.04093730145
560.625 0.1304692761 0.01592580759
561.25 0.09577783956 -0.01811166707
561.875 0.06999668929 -0.04528884085
562.5 0.07088052377 -0.06001347925
563.125 0.05867986977 -0.05745153833
563.75 0.03770528501 -0.04557341565
564.375 0.02880518656 -0.06016782613
565.0 0.07721020875 -0.09395587957
565.625 0.08839250898 -0.07401980893
566.25 0.07834918804 -0.05663959876
566.875 0.07826707261 -0.06032466275
567.5 0.1065176539 -0.03574930312
568.125 0.1050434265 0.02603418132
568.75 0.09832806119 0.03181187846
569.375 0.1239847139 0.03069765198
570.0 0.1295880485 0.0273715673
570.625 0.1089761311 0.01014130529
571.25 0.09681183616 -0.01608101586
571.875 0.1085635186 -0.03683410984
572.5 0.07214319577 -0.05326339408
573.125 0.03760194616 -0.04449914015
573.75 0.03977412804 -0.05931356746
574.375 0.05496407223 -0.08775327456
575.0 0.04614322327 -0.08469609848
575.625 0.01002951018 -0.06297166674
576.25 0.004006513549 -0.07058680543
576.875 0.040474025 -0.07697773282
577.5 0.05105369058 -0.06380281688
578.125 0.04208961155 -0.06575768561
578.75 0.03788743824 -0.09474974382
579.375 0.06548018534 -0.1076237921
580.0 0.06499945642 -0.08436221988
580.625 0.04120317773 -0.1050026068
581.25 0.01123621286 -0.1293272342
581.875 0.01552363978 -0.1030330344
582.5 0.0243713435 -0.05968532827
583.125 0.032281823 -0.06461206637
583.75 0.05838579165 -0.08048596878
584.375 0.06258045855 -0.06138130159
585.0 0.05099517992 -0.03785397124
585.625 0.06134706177 -0.03486980157
586.25 0.08319201597 -0.03708554205
586.875 0.06613547341 -0.0354090021
587.5 0.04519943267 -0.04525850511
588.125 0.04467879773 -0.07289012296
588.75 0.06441800805 -0.0786301059
589.375 0.03489738673 -0.0944417376
590.0 -0.02731858994 -0.0979687892
590.625 -0.06509351795 -0.09132308169
591.25 -0.03059306794 -0.06176769575
591.875 -0.008920759693 -0.0345687983
592.5 -0.008325750901 -0.04296823244
593.125 -0.006583156443 -0.07295934288
593.75 0.02113530814 -0.07053786219
594.375 0.04065227589 -0.04293017742
595.0 0.05634646909 -0.04205274992
595.625 0.08161965384 -0.03732575707
596.25 0.08180573715 -0.01660896878
596.875 0.06739740641 -0.001575432968
597.5 0.07096236366 0.006109044501
598.125 0.08384670976 0.007316681496
598.75 0.08607897593 -0.01293218381
599.375 0.08333657162 -0.0314940812
600.0 0.07843512682 -0.0347166494
600.625 0.06034619097 -0.02970468103
601.25 0.03580123528 -0.02888871342
601.875 0.02723700214 -0.02220492528
602.5 0.02871940627 -0.00532569977
603.125 0.01962834858 0.01171477696
603.75 0.01997573971 0.01883290666
604.375 0.03389823267 0.02036325401
605.0 0.03869772825 0.02145234905
605.625 0.01847116211 0.01724735943
606.25 -0.001854730599 0.02021855289
606.875 -0.005378031785 0.03868465083
607.5 0.01118274472 0.05152985968
608.125 0.0297633874 0.03897790195
608.75 0.02977329336 0.02764871058
609.375 0.02681803392 0.03026237619
610.0 0.02649522483 0.03061461589
610.625 0.02862263897 0.01778969307
611.25 0.02428921785 0.004462945117
611.875 0.01540893111 -0.004589330578
612.5 0.003426121211 -0.01216435377
613.125 -0.01013268264 -0.01067753109
613.75 -0.01337768847 -0.0003227293843
614.375 -0.004007942959 0.003882646382
615.0 0.004045942785 -0.00471132157
615.625 -0.001360705367 -0.01387037981
616.25 -0.008406385882 -0.00757286058
616.875 -0.0005314216251 0.001369615159
617.5 0.01279630425 -0.003839580494
618.125 0.01815095115 -0.01321722646
618.75 0.01861233885 -0.01362755361
619.375 0.02785534543 -0.01016466213
620.0 0.04482183668 -0.02010843769
620.625 0.04396243721 -0.04836840295
621.25 0.04074805235 -0.05941391277
621.875 0.02671656625 -0.07020833317
622.5 -0.0347577411 -0.0591867776
623.125 -0.03455231607 -0.03248747468
623.75 -0.01531234157 -0.02042385901
624.375 0.006623341125 -0.02210279365
625.0 0.02424622695 -0.01571619505
625.625 0.02254314284 -0.005128428026
626.25 0.03025802576 0.005217921396
626.875 0.05771881505 0.0023039024
627.5 0.07888844441 0.01460453461
628.125 0.07164999707 0.02077112457
628.75 0.06872498955 0.01925150497
629.375 0.08549401057 0.02490089892
630.0 0.09429858682 0.04854275323
630.625 0.0733915553 0.05406057426
631.25 0.07257200257 0.04102365333
631.875 0.07480115301 0.04172638537
632.5 0.0624494888 0.04483745294
633.125 0.03743570139 0.04629734278
633.75 0.04369756806 0.04051700565
634.375 0.04313902095 0.05518645751
635.0 0.0351023233 0.05294304201
635.625 0.0367080567 0.05594872832
636.25 0.05438068689 0.06987393474
636.875 0.05327009651 0.0795005229
637.5 0.03211547582 0.05884978215
638.125 0.02370519655 0.06353517535
638.75 0.02623740984 0.1106719565
639.375 -0.01845954296 0.1200332241
640.0 -0.03173019804 0.08431381761
640.625 -0.02349934773 0.07268909484
641.25 -0.05266842047 0.08328694971
641.875 -0.08578924107 0.04634981679
642.5 -0.07122033089 0.02757796868
643.125 -0.07004720758 0.03600174022
643.75 -0.0953006737 0.02793007841
644.375 -0.1083194176 0.005560644524
645.0 -0.09608270516 0.01326512979
645.625 -0.1057891326 0.04620251707
646.25 -0.1107908207 0.05616968258
646.875 -0.09986066819 0.02742872503
647.5 -0.08764108896 0.01967091026
648.125 -0.10664397 0.02924281831
648.75 -0.1113678249 0.000724005689
649.375 -0.07662243627 -0.01321489039
650.0 -0.0605561107 -0.02798721083
650.625 -0.04903829779 -0.0701991249
651.25 -0.01197734897 -0.08599466235
651.875 0.0205897036 -0.07072244153
652.5 0.04574067081 -0.07719221569
653.125 0.1102929346 -0.08063783135
653.75 0.127686719 -0.03829080772
654.375 0.1199703167 -0.03308741878
655.0 0.1347176144 -0.04692141904
655.625 0.1462932038 -0.03321048405
656.25 0.1051901167 -0.0162182206
656.875 0.07759042542 -0.05139344521
657.5 0.1036639225 -0.05476931535
658.125 0.1066814478 -0.02810214937
658.75 0.07464968333 -0.003163496028
659.375 0.06571047782 -0.01791921229
660.0 0.09556051596 -0.05389171096
660.625 0.1072257851 -0.0622218666
661.25 0.09065581547 -0.07354226949
661.875 0.06238316125 -0.1129324086
662.5 0.04969276792 -0.14423642
663.125 0.06796770716 -0.1288582311
663.75 0.08890547212 -0.09072373857
664.375 0.1401687626 -0.03549079882
665.0 0.1168247409 0.05872887541
665.625 0.07201373118 0.06871245253
666.25 0.05417945519 0.06821454457
666.875 0.02712673743 0.1148498339
667.5 -0.05231302396 0.1110504065
668.125 -0.05530270675 0.07739919482
668.75 -0.02980000901 0.1033747841
669.375 -0.02875326654 0.1473824839
670.0 -0.06475854068 0.1301171234
670.625 -0.06287953038 0.08414741333
671.25 -0.02154591208 0.1168366649
671.875 0.009845076037 0.1492024542
672.5 0.05410664733 0.1249201619
673.125 0.0530890823 0.08517344359
673.75 0.0450230675 0.08881198139
674.375 0.01275652857 0.1146135497
675.0 -0.03111073059 0.105765244
675.625 -0.05809722699 0.09809370236
676.25 -0.1207090375 0.07415069433
676.875 -0.1349551992 0.03170248714
677.5 -0.1303360887 0.0335955314
678.125 -0.1360358387 0.07449627838
678.75 -0.1732743023 0.056905232
679.375 -0.1187240071 0.001276699736
680.0 -0.08492340666 0.01788082599
680.625 -0.09560236023 0.0495266843
681.25 -0.1195944226 0.06422472947
681.875 -0.09697721347 0.02655600031
682.5 -0.0662616257 0.03918276583
683.125 -0.08410358216 0.0802182478
683.75 -0.1310706636 0.0797124177
684.375 -0.1468620579 -0.01958934707
685.0 -0.08698673976 -0.09395557854
685.625 -0.02630943796 -0.1519774106
686.25 0.0429120207 -0.1612194311
686.875 0.06717492236 -0.1471088833
687.5 0.0913169425 -0.1286241477
688.125 0.1019669991 -0.08224605082
688.75 0.09061095412 -0.03737842427
689.375 0.08284695568 -0.0271625085
690.0 0.1197399755 -0.02456997746
690.625 0.1307425902 0.02203031331
691.25 0.1065735103 0.003936638637
691.875 0.0950641779 -0.06501771014
692.5 0.01727034151 -0.1825397242
693.125 -0.1191029622 -0.1820962285
693.75 -0.1366439792 -0.0635360497
694.375 -0.1358790884 -0.01110642335
695.0 -0.1481127027 -0.07772016841
695.625 -0.02392047411 -0.17195012
696.25 0.105278848 -0.06041280657
696.875 0.1005176119 0.03054223407
697.5 0.04634025537 0.1018601236
698.125 -0.006387322742 0.1163607657
698.75 -0.0234261681 0.1234678159
699.375 -0.03410110631 0.1385500183
700.0 -0.05673602193 0.1199675063
700.625 -0.0782297824 0.09175279094
701.25 -0.07899222555 0.1127782488
701.875 -0.08676445284 0.1555033173
702.5 -0.02773784268 0.1193614787
703.125 0.01816500694 0.07462681129
703.75 0.07376019871 0.0515323791
704.375 0.1556955149 0.06021008351
705.0 0.1326976725 0.08745814499
705.625 0.0703339608 0.08503267778
706.25 0.02154930429 0.1154474197
706.875 -0.1144412241 0.1189984239
707.5 -0.1728603292 0.008762829745
708.125 -0.1212987187 -0.04613415161
708.75 -0.0988200498 -0.0751413267
709.375 -0.02234041439 -0.1203961144
710.0 0.06333585674 -0.09698750826
710.625 0.08157192437 -0.0595427442
711.25 0.08566730959 -0.03976164807
711.875 0.07034668946 -0.02279211508
712.5 0.06884831244 -0.02192828755
713.125 0.06474596361 -0.09026423642
713.75 -0.02113451897 -0.1499944969
714.375 -0.09489565841 -0.1045899945
715.0 -0.1215272539 -0.04326679079
715.625 -0.1506096988 -0.04266234951
716.25 -0.1223281609 -0.1236643924
716.875 -0.02459192369 -0.1190727376
717.5 0.02071709129 -0.08716406661
718.125 0.05112421039 -0.08867412032
718.75 0.09501458259 -0.06526651573
719.375 0.08758464084 -0.01187112288
720.0 0.05788267787 0.01940964399
720.625 0.01458491011 0.06198137186
721.25 -0.07670724232 0.03192260846
721.875 -0.08162169206 -0.06299257737
722.5 -0.07593867383 -0.08472430358
723.125 -0.1230740428 -0.04162183425
723.75 -0.1079941527 0.05232808179
724.375 -0.03673580566 0.09040436387
725.0 0.02378923346 0.07788241853
725.625 0.04323862305 0.05117136757
726.25 0.02984149328 0.03290745342
726.875 0.001821657715 0.03468719682
727.5 -0.03350198495 0.04547527117
728.125 -0.06618506722 0.03729047843
728.75 -0.05873631816 0.03781282509
729.375 -0.03004637055 0.04630920382
730.0 -0.02540111687 0.04017872372
730.625 -0.0412406879 0.02917816844
731.25 -0.04405188244 0.009756998665
731.875 -0.03879768346 -0.01194317254
732.5 -0.02516662619 -0.02507596254
733.125 -0.01032315651 -0.01699567097
733.75 0.001991915325 -0.003322535263
734.375 0.01320692693 -0.004915765824
735.0 0.01017278579 -0.01511790912
735.625 0.007419369111 -0.01663274031
736.25 0.004159186095 -0.02485737411
736.875 -0.01181622672 -0.02913116435
737.5 -0.02720516013 -0.01533767387
738.125 -0.03415405285 0.007769869522
738.75 -0.0270636936 0.03313139005
739.375 -0.005207872429 0.04256653332
740.0 0.01191368832 0.02904087276
740.625 0.008553703903 0.02497188758
741.25 0.002478077485 0.03756925295
741.875 -0.02213288643 0.03617251145
742.5 -0.0437386212 -0.001190385705
743.125 -0.0201714822 -0.04622648638
743.75 0.01561134792 -0.05408306159
744.375 0.01762400252 -0.05474217213
745.0 0.0007742293111 -0.06089551089
745.625 -0.0241737376 -0.05040246641
746.25 -0.01158459601 -0.02578122325
746.875 -0.0002923826088 -0.03253392444
747.5 -0.02221644629 -0.04151316647
748.125 -0.05198754815 -0.03037669106
748.75 -0.06670381902 0.007842763149
749.375 -0.04097291096 0.05874924841
750.0 0.03803234409 0.08109528577
