!Created with skrf (http://scikit-rf.org).
# GHz S RI R 50.0 
!freq ReS11 ImS11
500.0 -0.005540546639 0.002272168778
500.625 -0.001266470309 -0.001694897788
501.25 -0.009712594172 -0.02091592008
501.875 -0.03893184535 -0.02992520659
502.5 -0.02890979307 -0.01625798861
503.125 -0.01417289681 0.001352314184
503.75 -0.01335184207 0.0003739810423
504.375 -0.02047438279 -0.001804080965
505.0 -0.01320080087 -0.002282632262
505.625 -0.01069814501 -0.009770666233
506.25 -0.03363216859 -0.0111143291
506.875 -0.06247465231 -0.04419785751
507.5 -0.06566083621 -0.01787559529
508.125 -0.05071512644 -0.03325541109
508.75 -0.08207825657 0.008201793222
509.375 -0.08813034905 0.02297974348
510.0 -0.06328013454 0.01398013435
510.625 -0.009331843397 0.02914837404
511.25 -0.02406468463 0.04476722751
511.875 -0.005685531136 0.06334903164
512.5 0.02720255621 0.03791368053
513.125 0.06521295341 -0.02080722854
513.75 0.08277125789 -0.05848531009
514.375 0.04543007006 -0.06829898448
515.0 0.005471914069 -0.06469109403
515.625 0.04661234794 -0.0652385465
516.25 0.02951186595 -0.08178898473
516.875 0.08263434102 0.004706212285
517.5 0.07070512477 -0.04899893346
518.125 0.1951398566 0.01665789824
518.75 0.0637950756 -0.1081762104
519.375 0.04913128592 -0.06547419152
520.0 0.01228441939 -0.06740530698
520.625 0.007240689762 -0.1089401534
521.25 -0.009508733783 -0.1072499868
521.875 0.01921564171 -0.05577221692
522.5 -0.01889480017 -0.0733047604
523.125 -0.0443136644 -0.2084498659
523.75 -0.1018203017 -0.2931733314
524.375 -0.06939233668 -0.2768419785
525.0 -0.06939878431 -0.1285898791
525.625 -0.06285409124 -0.1102979547
526.25 -0.02547950119 -0.0987426064
526.875 -0.04531345882 -0.07011231901
527.5 -0.09102652312 -0.0544259853
528.125 -0.09790890787 -0.01470536698
528.75 -0.08544009906 -0.002587793599
529.375 -0.09516904483 0.0779915166
530.0 -0.03079038141 0.1470108783
530.625 0.07377944073 0.123378853
531.25 0.04904027667 0.08317788805
531.875 0.05801294514 0.08453987301
532.5 0.07593173552 0.1399024187
533.125 0.05499275637 0.1221159429
533.75 0.05931063029 0.07134698373
534.375 0.06959653234 0.06368146129
535.0 0.09882168235 0.09687938939
535.625 0.04055951498 0.1038253934
536.25 0.08676592028 0.03212583332
536.875 0.09863155835 0.05012198747
537.5 0.05523657467 0.08523878671
538.125 0.03394659858 0.07404336611
538.75 0.07245835477 0.07708440845
539.375 0.0944777209 0.1353572611
540.0 0.0817012167 0.1173321008
540.625 0.06643907035 0.07962430887
541.25 0.07354993538 0.0803629932
541.875 0.07584938516 0.1033292896
542.5 0.01702235205 0.06738160579
543.125 0.0176470256 0.04087634114
543.75 0.07092335934 0.04336402047
544.375 0.1190550977 0.05003706987
545.0 0.1105970219 -0.03609504425
545.625 0.05343864235 -0.08337828555
546.25 0.005317429473 -0.1211137662
546.875 0.01948342571 -0.1245151539
547.5 0.03892543652 -0.1152651217
548.125 0.04971537332 -0.1313431587
548.75 0.09405868133 -0.1235460454
549.375 0.1389704899 -0.09262596609
550.0 0.1486874815 -0.03162033898
550.625 0.1741511678 -0.05865383063
551.25 0.1706117482 0.03786274943
551.875 0.122429051 -0.003466798663
552.5 0.0936436544 -0.03374255228
553.125 0.09733201628 -0.07215499221
553.75 0.1102680385 -0.03301155405
554.375 0.05915497122 -0.02436921233
555.0 0.054674293 -0.03254021603
555.625 0.07609349296 -0.05640478919
556.25 0.09563577951 -0.03012419228
556.875 0.06450547986 -0.002443020739
557.5 0.06421984192 -0.003612251427
558.125 0.09837246861 0.02410712157
558.75 0.08406134832 0.07187010838
559.375 0.09412565957 0.05696356301
560.0 0.1171649817 0.03777056671
560.625 0.1318098304 0.01193721066
561.25 0.09647017673 -0.02135144687
561.875 0.06884708673 -0.04800817337
562.5 0.0686008491 -0.06358402193
563.125 0.05644196118 -0.06044467729
563.75 0.03578545528 -0.04737178836
564.375 0.02598018777 -0.06015733047
565.0 0.07214498067 -0.09562725462
565.625 0.08619673843 -0.07635261244
566.25 0.07676352393 -0.05858606479
566.875 0.07582670488 -0.06236473232
567.5 0.1044021889 -0.03952482581
568.125 0.1059137548 0.02244217263
568.75 0.09826134457 0.02950058502
569.375 0.1240068618 0.02724954909
570.0 0.1305280745 0.02405883747
570.625 0.1100904155 0.007207320452
571.25 0.0968272469 -0.01843697876
571.875 0.1075415668 -0.04094069314
572.5 0.07176224592 -0.05667832771
573.125 0.03631335376 -0.04696122169
573.75 0.03649221988 -0.06077592884
574.375 0.05168026972 -0.08902308946
575.0 0.04368710505 -0.08682948937
575.625 0.008127896045 -0.06375819411
576.25 0.00096405449 -0.07025034709
576.875 0.03681680122 -0.07850264651
577.5 0.04836862332 -0.06493602096
578.125 0.04013194993 -0.06613560477
578.75 0.03475700806 -0.09454217669
579.375 0.0613574162 -0.109528718
580.0 0.06306170838 -0.08578769182
580.625 0.03905475161 -0.1056649561
581.25 0.008260279969 -0.1297674464
581.875 0.0125470259 -0.1048356096
582.5 0.02262097607 -0.06152127037
583.125 0.03006030234 -0.06540198642
583.75 0.05545000321 -0.08257872306
584.375 0.0606736991 -0.06410725755
585.0 0.04977519007 -0.03980254159
585.625 0.05990379086 -0.03674270325
586.25 0.08155672648 -0.03968828225
586.875 0.06534517579 -0.03746467589
587.5 0.04357114426 -0.04652282417
588.125 0.04151796367 -0.07376067708
588.75 0.061931606 -0.08010976345
589.375 0.03277617961 -0.0954454475
590.0 -0.02912690015 -0.09738936261
590.625 -0.06837621676 -0.08981969699
591.25 -0.03378003017 -0.06221692491
591.875 -0.01108447084 -0.03467150297
592.5 -0.01008666522 -0.04197567566
593.125 -0.00963111511 -0.07192526018
593.75 0.01842087548 -0.07109096168
594.375 0.03935502267 -0.04380900544
595.0 0.05474431072 -0.04280020813
595.625 0.08016518272 -0.03919493066
596.25 0.08130168918 -0.01904234848
596.875 0.06739801017 -0.003392363684
597.5 0.07061279954 0.003944290262
598.125 0.08365481487 0.004923797831
598.75 0.08577432315 -0.01491825629
599.375 0.08282488789 -0.03329847453
600.0 0.07819289795 -0.03672514043
600.625 0.06063654491 -0.03154469407
601.25 0.03584767601 -0.03039728904
601.875 0.02690429205 -0.02386909435
602.5 0.02868502884 -0.00729170842
603.125 0.02007830981 0.01039933456
603.75 0.02023961976 0.01782665973
604.375 0.03401025913 0.01917828772
605.0 0.03940117811 0.02017083234
605.625 0.01936482945 0.01656539058
606.25 -0.001120418538 0.01964613927
606.875 -0.004685337694 0.03789494021
607.5 0.01204762187 0.05080760218
608.125 0.03054807113 0.03834896715
608.75 0.03034263849 0.02706300091
609.375 0.0273941798 0.02975712379
610.0 0.02700277211 0.03042453265
610.625 0.02911214322 0.01764289241
611.25 0.02471736484 0.004431742738
611.875 0.01571978702 -0.004524543277
612.5 0.003680740565 -0.01207785423
613.125 -0.01000984592 -0.01062073236
613.75 -0.0133537185 -0.0002669428529
614.375 -0.004095303144 0.003923812824
615.0 0.003926369696 -0.004698653214
615.625 -0.001533926037 -0.01388342098
616.25 -0.008709521278 -0.007676569679
616.875 -0.0008862994882 0.001255629211
617.5 0.01232331201 -0.003892696628
618.125 0.01757584235 -0.01343082354
618.75 0.01806826639 -0.01395710745
619.375 0.02719945433 -0.01061300269
620.0 0.0439102288 -0.02064055403
620.625 0.0431370514 -0.04879627657
621.25 0.03989566907 -0.06003929059
621.875 0.02604416544 -0.07072723282
622.5 -0.03573699344 -0.05940294324
623.125 -0.0357282506 -0.03267227851
623.75 -0.0163342288 -0.02076006068
624.375 0.005664995926 -0.022710559
625.0 0.02371851147 -0.01680372618
625.625 0.02208456908 -0.006287340094
626.25 0.02952169256 0.004234458216
626.875 0.05651762931 0.0009465251333
627.5 0.07863757164 0.01243291681
628.125 0.07194175158 0.01891300812
628.75 0.06873856351 0.01761054987
629.375 0.08530422442 0.0224814613
630.0 0.09548301577 0.04609770274
630.625 0.07469348111 0.053023246
631.25 0.07364756038 0.03975020562
631.875 0.07623745719 0.04000993541
632.5 0.06440934655 0.04322529561
633.125 0.0393109411 0.04558546286
633.75 0.0449644329 0.03918521634
634.375 0.04515098039 0.05368840012
635.0 0.03713583802 0.05152539087
635.625 0.03827630992 0.05427982415
636.25 0.05588483352 0.06791794674
636.875 0.0557174497 0.07800531034
637.5 0.03412167101 0.05798629243
638.125 0.02508261029 0.06215463787
638.75 0.02898516125 0.1089054351
639.375 -0.01577573486 0.1206806332
640.0 -0.03030988966 0.08564269942
640.625 -0.02139577349 0.07331440286
641.25 -0.04941027291 0.08507222747
641.875 -0.08457936042 0.0497517621
642.5 -0.07071375071 0.02981527476
643.125 -0.0687943871 0.03777807561
643.75 -0.09395458053 0.03080692307
644.375 -0.1080293211 0.009000476987
645.0 -0.09593460537 0.0152032889
645.625 -0.1042758047 0.04851043511
646.25 -0.1094737212 0.05941121629
646.875 -0.09947375841 0.03107520057
647.5 -0.0872078149 0.02245739182
648.125 -0.1054378371 0.03233048671
648.75 -0.1121813394 0.004317301513
649.375 -0.07812565624 -0.01050883991
650.0 -0.06174504249 -0.02540836708
650.625 -0.05166447522 -0.0679425433
651.25 -0.01483088762 -0.08533868637
651.875 0.0183016343 -0.07097830563
652.5 0.04306032978 -0.07732146121
653.125 0.1067983379 -0.08328372424
653.75 0.1267958064 -0.04112789841
654.375 0.1192703077 -0.03532998439
655.0 0.1329855483 -0.05046065357
655.625 0.1458995796 -0.03869244412
656.25 0.1065074071 -0.02000129789
656.875 0.07654954072 -0.05364264848
657.5 0.1018102226 -0.05862581812
658.125 0.1065150595 -0.03263373111
658.75 0.07515373327 -0.006860605236
659.375 0.06444108489 -0.01984881543
660.0 0.09274339784 -0.05626919472
660.625 0.1046991924 -0.06511233582
661.25 0.08838632296 -0.075708735
661.875 0.05899760222 -0.1136073097
662.5 0.04510348943 -0.1452935663
663.125 0.06440637113 -0.1311904597
663.75 0.08706617873 -0.09307433572
664.375 0.1389808088 -0.03992951625
665.0 0.1203260598 0.05537488542
665.625 0.07488013331 0.06695426277
666.25 0.05650266276 0.06671699224
666.875 0.03267660667 0.1126258533
667.5 -0.04665058908 0.1136060709
668.125 -0.05266276284 0.07883999404
668.75 -0.02691227879 0.1030042856
669.375 -0.02349695102 0.1471671447
670.0 -0.06041662321 0.1329163562
670.625 -0.06119503518 0.08613881042
671.25 -0.01885945828 0.1164133826
671.875 0.01410276739 0.1487384521
672.5 0.05849176946 0.1240328342
673.125 0.056816169 0.08397722698
673.75 0.04886249569 0.08643206367
674.375 0.01793105616 0.1133237479
675.0 -0.02700405574 0.1065091813
675.625 -0.05331824711 0.0996262232
676.25 -0.1167216186 0.07909317633
676.875 -0.1333094135 0.03598049161
677.5 -0.1295362248 0.0368154967
678.125 -0.1330004636 0.07751879196
678.75 -0.1717305399 0.0634250479
679.375 -0.1209382568 0.004946958565
680.0 -0.08529661323 0.02102138001
680.625 -0.09309069522 0.05326058612
681.25 -0.1161154725 0.07084145824
681.875 -0.09647357979 0.03228006462
682.5 -0.06417691206 0.04116381113
683.125 -0.07967174634 0.08169240401
683.75 -0.1269608224 0.08340301816
684.375 -0.1474616041 -0.01429527869
685.0 -0.08933005422 -0.09124501676
685.625 -0.03084186762 -0.1498282218
686.25 0.03815352905 -0.1624355331
686.875 0.06295572025 -0.14966129
687.5 0.08700715058 -0.1326228511
688.125 0.1003335084 -0.08732420191
688.75 0.09014707798 -0.04195230258
689.375 0.08181968217 -0.03060864914
690.0 0.1174119354 -0.03010864347
690.625 0.132055107 0.01600520158
691.25 0.1061838219 0.000305314192
691.875 0.09242801737 -0.06647946977
692.5 0.01173095393 -0.1802112956
693.125 -0.126631799 -0.1778554638
693.75 -0.1401144267 -0.06038437037
694.375 -0.1361648982 -0.006748244383
695.0 -0.1509737184 -0.07066876138
695.625 -0.03265767336 -0.1713771503
696.25 0.1043238187 -0.06592778611
696.875 0.1018750562 0.02635007365
697.5 0.05128430859 0.09922775557
698.125 -0.001211899642 0.1156754392
698.75 -0.01873652995 0.1233727275
699.375 -0.02920325441 0.1391399086
700.0 -0.05248286527 0.121937719
700.625 -0.07534530814 0.09422083043
701.25 -0.07526819316 0.1141858935
701.875 -0.08003563413 0.1600301172
702.5 -0.02346913806 0.1228904142
703.125 0.02208147359 0.0748705261
703.75 0.07470002948 0.04723775664
704.375 0.1563409437 0.05207274221
705.0 0.137208821 0.08265709573
705.625 0.07330296985 0.08291756903
706.25 0.0250034761 0.1131243923
706.875 -0.1084520174 0.1220914576
707.5 -0.1730729877 0.01575429715
708.125 -0.1237986991 -0.04325169872
708.75 -0.1016364068 -0.07163381443
709.375 -0.02774662266 -0.119627344
710.0 0.05901043646 -0.100419419
710.625 0.07994997723 -0.06321910934
711.25 0.08475216139 -0.04336492373
711.875 0.06962290273 -0.02644845614
712.5 0.06656194905 -0.02528126207
713.125 0.05973843892 -0.09102943691
713.75 -0.02669143708 -0.1481395552
714.375 -0.09811281878 -0.1014075348
715.0 -0.1222334401 -0.03955380702
715.625 -0.1506577238 -0.03728432296
716.25 -0.1279202714 -0.1193796793
716.875 -0.02916274206 -0.1200830755
717.5 0.0179438197 -0.08849640121
718.125 0.04725419399 -0.09038148986
718.75 0.09230258848 -0.06961266
719.375 0.08824299956 -0.01533607065
720.0 0.05919159919 0.01696594188
720.625 0.01775514639 0.06050300605
721.25 -0.07380826761 0.03481444859
721.875 -0.08310131904 -0.05924073524
722.5 -0.07739075914 -0.08250042625
723.125 -0.123892045 -0.03873110219
723.75 -0.1072940211 0.05524043041
724.375 -0.03413807306 0.09231605437
725.0 0.0264939535 0.07765320841
725.625 0.04573456 0.05036970575
726.25 0.03205534734 0.03213756656
726.875 0.004207030024 0.03436593397
727.5 -0.03068249412 0.04604674456
728.125 -0.06434465835 0.03947560745
728.75 -0.05778037011 0.03966780255
729.375 -0.02849758291 0.04741801865
730.0 -0.02363762895 0.04092692072
730.625 -0.0400725802 0.03043038066
731.25 -0.04385806548 0.011127584
731.875 -0.0392986556 -0.01091997955
732.5 -0.02616856006 -0.02471160071
733.125 -0.01134148331 -0.01729623197
733.75 0.001123210523 -0.003608752808
734.375 0.01245559053 -0.005032668305
735.0 0.00960137769 -0.01492875587
735.625 0.007018282892 -0.01639344485
736.25 0.003928493935 -0.0246590685
736.875 -0.01183733293 -0.02914547676
737.5 -0.02715207864 -0.01551254223
738.125 -0.03393213659 0.007539015753
738.75 -0.02664719528 0.03297116073
739.375 -0.004721588826 0.04261399926
740.0 0.01275226792 0.029029116
740.625 0.009684082383 0.02453642741
741.25 0.003685510379 0.03714079483
741.875 -0.02119685801 0.03663706298
742.5 -0.04377540625 9.337125137e-05
743.125 -0.02158402108 -0.04555888309
743.75 0.01413997352 -0.05486079619
744.375 0.01616085147 -0.05572496915
745.0 -0.001075269731 -0.0615730785
745.625 -0.02668375574 -0.0504676988
746.25 -0.01410688811 -0.02515794177
746.875 -0.001830666517 -0.03143868998
747.5 -0.02283278673 -0.04007463788
748.125 -0.05246227488 -0.02897448598
748.75 -0.06641480275 0.009390594392
749.375 -0.03954143165 0.05980571921
750.0 0.03986446069 0.07972004845
