!Created with skrf (http://scikit-rf.org).
# GHz S RI R 50.0 
!freq ReS11 ImS11
500.0 -0.01710224863 -0.00335308926
500.625 -0.005567964077 -0.002025165321
501.25 -0.01924806123 -0.01524846191
501.875 -0.05425063249 -0.01771623107
502.5 -0.04387754783 -0.01271026518
503.125 -0.02321222352 0.008097367834
503.75 -0.01714763234 0.01226560523
504.375 -0.02242136506 0.01437172495
505.0 -0.0112744763 0.01362867864
505.625 -0.006610001759 0.003507913891
506.25 -0.02336289773 0.003812494667
506.875 -0.0665609856 -0.01429479199
507.5 -0.06681214568 0.008818718223
508.125 -0.05626777785 -0.01096513359
508.75 -0.06689977535 0.03397497635
509.375 -0.07578069792 0.05575861133
510.0 -0.05862082139 0.04056657317
510.625 0.007816391747 0.02918421917
511.25 -0.002034167444 0.04094203685
511.875 0.01478300463 0.05633644403
512.5 0.03597415543 0.03017436151
513.125 0.05414893262 -0.03637519179
513.75 0.05586267529 -0.0850640241
514.375 0.01770557477 -0.08532996934
515.0 -0.01986087721 -0.06574215108
515.625 0.009421083411 -0.07838745166
516.25 -0.01723465169 -0.08058779175
516.875 0.06460778646 -0.02510857069
517.5 0.04710488444 -0.05306919261
518.125 0.1644649459 -0.03017191218
518.75 0.02206254443 -0.1199990978
519.375 0.02344621244 -0.07840282824
520.0 -0.00955237249 -0.05897489333
520.625 -0.02916184205 -0.08820996333
521.25 -0.04562794004 -0.09423953915
521.875 0.0008753288405 -0.05515246278
522.5 -0.03107185328 -0.0548811271
523.125 -0.08218048309 -0.1618642197
523.75 -0.159857185 -0.2514733251
524.375 -0.1097394272 -0.2571361305
525.0 -0.09050887523 -0.1061519347
525.625 -0.09319088887 -0.09441840731
526.25 -0.05420946479 -0.09484861856
526.875 -0.06146305347 -0.05781261039
527.5 -0.1021254341 -0.02410463485
528.125 -0.106305277 0.02207450635
528.75 -0.08661237662 0.02179531156
529.375 -0.06996972519 0.0958953288
530.0 0.01489580603 0.1525557946
530.625 0.1266532372 0.1125566223
531.25 0.08630547918 0.08291674027
531.875 0.08859886939 0.0489364133
532.5 0.1248266536 0.08608119837
533.125 0.09837485262 0.09680693902
533.75 0.07948989176 0.04982588446
534.375 0.07849962322 0.03287969715
535.0 0.1208735131 0.04937465788
535.625 0.0715306099 0.09141955731
536.25 0.09316874247 0.01194107245
536.875 0.1167235959 0.01380551117
537.5 0.0928472366 0.05470728157
538.125 0.06053005003 0.0543048242
538.75 0.0834848091 0.04993253347
539.375 0.1345579508 0.09086085872
540.0 0.1260598445 0.09780459417
540.625 0.0964356481 0.05738630162
541.25 0.09563169352 0.04906791554
541.875 0.1172908271 0.06491800505
542.5 0.05668407468 0.06066196971
543.125 0.03064696471 0.02198422259
543.75 0.06154451865 0.009115977642
544.375 0.114576594 0.006368970389
545.0 0.09469341255 -0.06533815172
545.625 0.0299442118 -0.09046514121
546.25 -0.03318393096 -0.1039600656
546.875 -0.02469791846 -0.1220768216
547.5 0.003380481416 -0.1191208745
548.125 0.007103268763 -0.1262132672
548.75 0.04572077758 -0.1329815327
549.375 0.1038055955 -0.1288502291
550.0 0.1366557371 -0.06098333948
550.625 0.1431730729 -0.09203115322
551.25 0.1873759269 -0.01516956538
551.875 0.1317595793 -0.0388098299
552.5 0.09116889768 -0.05934565611
553.125 0.07048304409 -0.1004455869
553.75 0.09560843102 -0.08812922437
554.375 0.05547669993 -0.0537247252
555.0 0.03857825713 -0.05404564358
555.625 0.04471270726 -0.08154259586
556.25 0.07445993368 -0.07346701062
556.875 0.06053563747 -0.03396893303
557.5 0.04777706238 -0.0267875586
558.125 0.08711612636 -0.01600947986
558.75 0.09484105278 0.03747111855
559.375 0.09919293245 0.02964938272
560.0 0.116629277 0.009273419863
560.625 0.1354677987 -0.03080043477
561.25 0.09796811573 -0.05283636648
561.875 0.05331354452 -0.07103078921
562.5 0.03552208437 -0.09290087868
563.125 0.02437851479 -0.08729281759
563.75 0.01089561266 -0.06331807107
564.375 -0.002105141668 -0.05661940063
565.0 0.01895404866 -0.09900891512
565.625 0.05569323897 -0.1009465471
566.25 0.05654972076 -0.07615773866
566.875 0.05009253666 -0.07708374662
567.5 0.07569322258 -0.07022796614
568.125 0.104917814 -0.01990284333
568.75 0.09591941181 0.005704581936
569.375 0.1180274575 -0.008997099193
570.0 0.1338667296 -0.0158974822
570.625 0.114085368 -0.02729220412
571.25 0.09235366426 -0.04486855989
571.875 0.08943330926 -0.07798519175
572.5 0.05845883431 -0.09448798964
573.125 0.01845673428 -0.06998509942
573.75 0.002770187867 -0.06732457476
574.375 0.01105033694 -0.0987165953
575.0 0.006587575021 -0.1057797858
575.625 -0.01557702521 -0.06761244418
576.25 -0.02998348111 -0.05822307785
576.875 -0.01049706733 -0.08164440046
577.5 0.01755700197 -0.0733601705
578.125 0.01769898607 -0.06823875582
578.75 0.001418495649 -0.0857051996
579.375 0.01259165843 -0.1156832513
580.0 0.0390212194 -0.1013292586
580.625 0.01393522276 -0.1084211573
581.25 -0.03131313776 -0.1277963641
581.875 -0.02807049003 -0.1155795235
582.5 -0.001858163008 -0.07870647281
583.125 0.002974857243 -0.07066074156
583.75 0.01477495574 -0.09823424321
584.375 0.03422423681 -0.08877744608
585.0 0.03175465819 -0.05937085959
585.625 0.03627574906 -0.05528204726
586.25 0.05481013289 -0.06698384602
586.875 0.04929519538 -0.06233168947
587.5 0.02262207907 -0.05720572887
588.125 0.0032303872 -0.07461837502
588.75 0.02779923486 -0.09205574964
589.375 0.004724513429 -0.1026714298
590.0 -0.05034073526 -0.08699027359
590.625 -0.09912265425 -0.06289961902
591.25 -0.07206834036 -0.05611193099
591.875 -0.03507238386 -0.03108961178
592.5 -0.02900773806 -0.02757580353
593.125 -0.03996545236 -0.05073612505
593.75 -0.01766394004 -0.06842175341
594.375 0.01877449657 -0.05050184114
595.0 0.03196219108 -0.04837804293
595.625 0.05591725406 -0.05815395027
596.25 0.06861992391 -0.04486469231
596.875 0.06124114228 -0.02454835847
597.5 0.06183299427 -0.0171970492
598.125 0.07582418217 -0.02084857843
598.75 0.07711022443 -0.03648533833
599.375 0.07153779307 -0.05227836223
600.0 0.07027774571 -0.0592850312
600.625 0.05936699404 -0.05314873975
601.25 0.03369555211 -0.04791016819
601.875 0.01877099373 -0.04161631566
602.5 0.02284490947 -0.02973958823
603.125 0.02156212791 -0.007372467255
603.75 0.02020911954 0.004371856344
604.375 0.03195746195 0.004200542356
605.0 0.04261751654 0.001728884238
605.625 0.02772468197 0.003733674065
606.25 0.00551228312 0.01035708565
606.875 0.001993816927 0.02762398325
607.5 0.01962276383 0.04028798057
608.125 0.03626625632 0.02907431363
608.75 0.0341575621 0.01939907541
609.375 0.03197335639 0.02297803305
610.0 0.03315875863 0.0255201445
610.625 0.03435222888 0.01426040083
611.25 0.02915608093 0.001709170654
611.875 0.01967519841 -0.005477564864
612.5 0.00634299254 -0.0120102803
613.125 -0.008385836666 -0.01030318054
613.75 -0.01294130145 -9.687993316e-06
614.375 -0.004901044468 0.00399519034
615.0 0.001837350836 -0.004671485003
615.625 -0.005046005458 -0.01412552287
616.25 -0.01330580576 -0.007999461145
616.875 -0.006413625609 0.0009698781442
617.5 0.00521151957 -0.004205106128
618.125 0.008742757871 -0.015234244
618.75 0.009045455458 -0.01707738396
619.375 0.01816942884 -0.01398902317
620.0 0.0325613988 -0.02435745619
620.625 0.02979735821 -0.05231199014
621.25 0.02806133776 -0.06676688149
621.875 0.01432222239 -0.07792674058
622.5 -0.05271252866 -0.05762570722
623.125 -0.05428721024 -0.03152565714
623.75 -0.03421975241 -0.02265874905
624.375 -0.01284553166 -0.02993840317
625.0 0.008593471159 -0.03455425647
625.625 0.008780200043 -0.02438282137
626.25 0.01480424836 -0.008801573611
626.875 0.03663259436 -0.01371526043
627.5 0.06733554753 -0.01494378359
628.125 0.0699011056 -0.004522195026
628.75 0.06425803508 -0.002520620904
629.375 0.07693460739 -0.003696920709
630.0 0.1019263038 0.01139439682
630.625 0.09195234356 0.03398430395
631.25 0.08520774791 0.02034945326
631.875 0.09134145517 0.01141159261
632.5 0.08740401039 0.01368103172
633.125 0.06545300591 0.02871906224
633.75 0.06083772526 0.01666731279
634.375 0.06979257952 0.02550617095
635.0 0.06064320748 0.02565889503
635.625 0.05403278562 0.02790285255
636.25 0.07076806184 0.03599884609
636.875 0.083238082 0.04692471819
637.5 0.06091978822 0.03796641536
638.125 0.04165813614 0.03857568952
638.75 0.05807734267 0.07485674093
639.375 0.02621620103 0.1211007715
640.0 -0.002854848898 0.0995154582
640.625 0.004304454178 0.07722956298
641.25 -0.002871264606 0.09450279217
641.875 -0.0545867171 0.0904223128
642.5 -0.05898727311 0.05551182087
643.125 -0.04800100783 0.05782814923
643.75 -0.06400832038 0.06743063297
644.375 -0.08902841298 0.05798402656
645.0 -0.0873928246 0.04534016401
645.625 -0.07693818059 0.07322384504
646.25 -0.07849244767 0.09899845326
646.875 -0.08213453948 0.07618092229
647.5 -0.07400444451 0.05668595328
648.125 -0.08270811506 0.06705622884
648.75 -0.109656949 0.05417913413
649.375 -0.08755120481 0.02612787201
650.0 -0.06927564191 0.00893218771
650.625 -0.0786897908 -0.02658511991
651.25 -0.05430241137 -0.06526121322
651.875 -0.01351754073 -0.06806135008
652.5 0.005698523875 -0.07116028133
653.125 0.05049125245 -0.1043584097
653.75 0.1066743551 -0.07889886026
654.375 0.1049865302 -0.06326269128
655.0 0.1042958461 -0.08481554466
655.625 0.1205999777 -0.1001026355
656.25 0.108116428 -0.07333772932
656.875 0.05882786337 -0.08050107646
657.5 0.06867777806 -0.09918746897
658.125 0.08683781267 -0.09147789497
658.75 0.06738851036 -0.05748732039
659.375 0.04226143014 -0.04535121319
660.0 0.04351260518 -0.07977947146
660.625 0.06116139916 -0.09757529496
661.25 0.05075664472 -0.0988837447
661.875 0.01309682757 -0.1148594634
662.5 -0.01142014452 -0.1445731676
663.125 0.01266148966 -0.149073748
663.75 0.05513810518 -0.1180799715
664.375 0.1090632462 -0.09082804175
665.0 0.1518956612 -0.003843293228
665.625 0.1084003228 0.03671652698
666.25 0.08300310772 0.04197627605
666.875 0.0835073001 0.07499937169
667.5 0.0267155401 0.1226313839
668.125 -0.01706943325 0.09247801101
668.75 0.007643674509 0.09371335223
669.375 0.03564014037 0.1297537726
670.0 0.008494374515 0.1499509923
670.625 -0.02496794026 0.1116861216
671.25 0.02022502275 0.1077390595
671.875 0.07427884583 0.1285050859
672.5 0.1173431677 0.09402134181
673.125 0.1002223846 0.05551160856
673.75 0.08513753399 0.05095856683
674.375 0.06822864428 0.08659533097
675.0 0.02047457783 0.1058292212
675.625 -0.00684169319 0.1025256565
676.25 -0.05920923118 0.1151787709
676.875 -0.1065452976 0.08048883344
677.5 -0.1105418667 0.07250331669
678.125 -0.09580688633 0.1028651925
678.75 -0.1286220325 0.1332173366
679.375 -0.1364181432 0.06334529692
680.0 -0.08313251415 0.05709543081
680.625 -0.06120644115 0.08679279565
681.25 -0.06035548387 0.1264232185
681.875 -0.06871797404 0.09614088
682.5 -0.03631296109 0.06329304281
683.125 -0.02758405047 0.09005978476
683.75 -0.06732069383 0.1168953561
684.375 -0.1342392674 0.05283633679
685.0 -0.11170029 -0.05062567185
685.625 -0.0756520643 -0.1154516178
686.25 -0.02068486274 -0.1621414576
686.875 0.009301489451 -0.1646605441
687.5 0.0331120597 -0.1606590623
688.125 0.06474996738 -0.1412078317
688.75 0.07284309542 -0.09150068956
689.375 0.0627495948 -0.06714731051
690.0 0.07772091687 -0.08194265869
690.625 0.1210826079 -0.0675821035
691.25 0.09165533599 -0.04678461549
691.875 0.05556235889 -0.08023723675
692.5 -0.04773586129 -0.1413914137
693.125 -0.1919529368 -0.1015185313
693.75 -0.1733058835 -0.01258538526
694.375 -0.1312701892 0.03818644315
695.0 -0.1609328652 -0.001598486117
695.625 -0.1142921599 -0.1405525725
696.25 0.07672151963 -0.1217350009
696.875 0.1082743347 -0.02016663671
697.5 0.09638196302 0.05866596064
698.125 0.05388089104 0.09444998035
698.75 0.03334379946 0.1093118607
699.375 0.03087742909 0.1294250465
700.0 0.0001203937704 0.1317754372
700.625 -0.03735610224 0.1160520086
701.25 -0.02962125265 0.125060156
701.875 0.004268322079 0.1781727057
702.5 0.03817591959 0.149880648
703.125 0.06742732694 0.06624482594
703.75 0.07791958472 0.001348377285
704.375 0.1355147397 -0.03701219884
705.0 0.1702486758 0.003967387529
705.625 0.1013543004 0.05120897061
706.25 0.05557973153 0.08289273063
706.875 -0.04049822422 0.1360577091
707.5 -0.1520190745 0.08811811354
708.125 -0.1433659746 -0.004913023726
708.75 -0.1215725478 -0.03154386372
709.375 -0.08034611902 -0.09865411188
710.0 0.004842121766 -0.123341307
710.625 0.0499387705 -0.1010017683
711.25 0.06090171324 -0.08756060139
711.875 0.04904444606 -0.07153005146
712.5 0.03351416341 -0.05701679769
713.125 0.003808030743 -0.08543224089
713.75 -0.08202618012 -0.1048792681
714.375 -0.1246466073 -0.05652884014
715.0 -0.1227360412 -0.0003774035984
715.625 -0.1381284147 0.01556413248
716.25 -0.1695112455 -0.05013513665
716.875 -0.08648090381 -0.1157854787
717.5 -0.01683437871 -0.0984455789
718.125 0.0007614262122 -0.0999987002
718.75 0.04294631989 -0.1100983695
719.375 0.0796563994 -0.06667189722
720.0 0.06744997766 -0.01412643206
720.625 0.04845711252 0.03545838669
721.25 -0.03433726626 0.05845504631
721.875 -0.08753195946 -0.01561585641
722.5 -0.09206782661 -0.04870620472
723.125 -0.1244216332 0.005088375997
723.75 -0.08252798939 0.09334317613
724.375 0.005445930767 0.1035690985
725.0 0.05998634241 0.06248639075
725.625 0.07215282402 0.02833920217
726.25 0.05472410524 0.01546659929
726.875 0.02859002334 0.02393502813
727.5 0.002127873402 0.04393551377
728.125 -0.03375725311 0.05733800882
728.75 -0.03673153859 0.05696434807
729.375 -0.007937719229 0.05353111263
730.0 -0.001462905377 0.04335920994
730.625 -0.02194541771 0.04132709096
731.25 -0.03733387937 0.02612930185
731.875 -0.04171650315 0.002476714226
732.5 -0.03657170385 -0.01595656535
733.125 -0.02406139631 -0.01618332763
733.75 -0.009566012729 -0.003455739523
734.375 0.003736845457 -0.003408594899
735.0 0.00410091463 -0.01054103086
735.625 0.004531436062 -0.0126733961
736.25 0.003144452141 -0.02297209874
736.875 -0.0120024272 -0.02952975209
737.5 -0.02626274944 -0.01748705832
738.125 -0.03052441669 0.004771278079
738.75 -0.02011391436 0.03086306073
739.375 0.004395759466 0.04128573584
740.0 0.0231583511 0.02503342865
740.625 0.0206292273 0.0159390223
741.25 0.01756670036 0.0296120517
741.875 -0.006680974578 0.04124223615
742.5 -0.04102791173 0.01531485492
743.125 -0.03851599109 -0.03291388726
743.75 -0.01083108361 -0.05937239853
744.375 -0.006460916031 -0.06477662725
745.0 -0.0261020089 -0.06440630017
745.625 -0.05739129727 -0.04159821135
746.25 -0.04176258294 -0.01017610984
746.875 -0.01890305393 -0.01285614252
747.5 -0.0280006384 -0.01954477376
748.125 -0.05090370161 -0.004833759811
748.75 -0.05321173678 0.03426406462
749.375 -0.009227991297 0.06829885549
750.0 0.06460373892 0.05111572606
