!Created with skrf (http://scikit-rf.org).
# GHz S RI R 50.0 
!freq ReS11 ImS11
500.0 -0.01023413909 0.001556132873
500.625 -1.601815692e-05 -0.001507000886
501.25 -0.01265239936 -0.01612104144
501.875 -0.04303914407 -0.02701652316
502.5 -0.03647264849 -0.01663542304
503.125 -0.01738958552 0.005018495933
503.75 -0.0145449384 0.005048663531
504.375 -0.02190186253 0.004801175758
505.0 -0.01290423272 0.00480743643
505.625 -0.0100639233 -0.004660697873
506.25 -0.03003738036 -0.004206137873
506.875 -0.06549127083 -0.03301125335
507.5 -0.06733487517 -0.007161745009
508.125 -0.05447964883 -0.02425835486
508.75 -0.07630316597 0.02029056928
509.375 -0.08560020034 0.0362251692
510.0 -0.06358003493 0.02501524965
510.625 -0.00344721306 0.0306275541
511.25 -0.01650647706 0.04480329235
511.875 0.001410423812 0.06466779518
512.5 0.03439955626 0.03734670649
513.125 0.06098882621 -0.02731628567
513.75 0.07441273679 -0.07097020094
514.375 0.03503442297 -0.0773847099
515.0 -0.005198710634 -0.06592895742
515.625 0.03050879776 -0.07234039308
516.25 0.008975663118 -0.08441302194
516.875 0.07787648614 -0.007038546236
517.5 0.06081231439 -0.05161953662
518.125 0.1856014032 -0.002699567715
518.75 0.04877939985 -0.1148785965
519.375 0.03911318505 -0.07165193955
520.0 0.003170738568 -0.06432859633
520.625 -0.008796902393 -0.1024206115
521.25 -0.02461271193 -0.10344504
521.875 0.01269986387 -0.05716295981
522.5 -0.02459950165 -0.0661054462
523.125 -0.06143406652 -0.1901222467
523.75 -0.1232351666 -0.2769887103
524.375 -0.08805580118 -0.2716592631
525.0 -0.08001890916 -0.1198342375
525.625 -0.07607017557 -0.1051781982
526.25 -0.03804074823 -0.09803425136
526.875 -0.05285363385 -0.06511902529
527.5 -0.09747171755 -0.04187387078
528.125 -0.1032837242 -0.0001420126085
528.75 -0.08648011166 0.007295742942
529.375 -0.08530562557 0.0863388463
530.0 -0.01294206035 0.1518384837
530.625 0.09406787036 0.1214444599
531.25 0.06346296061 0.08420456629
531.875 0.07234480436 0.07115746537
532.5 0.09848719737 0.12091813
533.125 0.07402569204 0.1136533208
533.75 0.06847271339 0.06336733864
534.375 0.07442879279 0.05129392453
535.0 0.1102554874 0.07865081658
535.625 0.0535314995 0.1001885395
536.25 0.09009655726 0.0238462948
536.875 0.1077677768 0.03666582082
537.5 0.07176691812 0.07480791954
538.125 0.0458524516 0.0667691009
538.75 0.07829417368 0.06559192556
539.375 0.1145574295 0.1187820258
540.0 0.1007161884 0.1100885175
540.625 0.07980776828 0.07115470343
541.25 0.08398228426 0.06818445276
541.875 0.09476963591 0.08971407507
542.5 0.03194977305 0.06653286356
543.125 0.02346773068 0.03369494717
543.75 0.06897443982 0.02900194708
544.375 0.1193146004 0.03198425971
545.0 0.1053046429 -0.04901898531
545.625 0.04359454945 -0.08709596662
546.25 -0.01225517311 -0.1160888435
546.875 0.0009891625288 -0.1251771716
547.5 0.02415805668 -0.11839987
548.125 0.03175018846 -0.1316480948
548.75 0.07479021054 -0.1296530147
549.375 0.1266354826 -0.1085633751
550.0 0.1449103601 -0.04387988251
550.625 0.1626347088 -0.07474739542
551.25 0.1801817356 0.01849533123
551.875 0.1275250524 -0.01762497763
552.5 0.09335860084 -0.04451485258
553.125 0.08730916179 -0.08521720223
553.75 0.1087815884 -0.05472848077
554.375 0.05853249143 -0.03542992861
555.0 0.04931398441 -0.04139564896
555.625 0.06480472986 -0.0677974973
556.25 0.08964217868 -0.04835046988
556.875 0.06431683288 -0.01461759382
557.5 0.05852479603 -0.01392088819
558.125 0.09592776469 0.007063609326
558.75 0.09019641075 0.05794177608
559.375 0.09773425102 0.04570557056
560.0 0.1181011527 0.02586773058
560.625 0.1353234311 -0.00431309725
561.25 0.09800836063 -0.03370757946
561.875 0.0635625826 -0.05795839223
562.5 0.05763612744 -0.07716748198
563.125 0.04520295333 -0.07252510967
563.75 0.02625944401 -0.05451524933
564.375 0.01424306731 -0.05982257723
565.0 0.05065278709 -0.1004516415
565.625 0.07577202957 -0.08661021746
566.25 0.06939945843 -0.06609527873
566.875 0.06626933975 -0.06927738946
567.5 0.09464744638 -0.05312142704
568.125 0.1080503459 0.006602024481
568.75 0.09811046699 0.01995346424
569.375 0.1236701792 0.01279230393
570.0 0.133640532 0.008473607761
570.625 0.1134681001 -0.006554347136
571.25 0.09600538491 -0.02915640985
571.875 0.102414155 -0.05684145941
572.5 0.06817477192 -0.07161213221
573.125 0.03008903289 -0.05682472784
573.75 0.02332191115 -0.0650388352
574.375 0.03642786537 -0.0943504688
575.0 0.03054942741 -0.0955143446
575.625 -0.001292617293 -0.06613192062
576.25 -0.01251214333 -0.06688735989
576.875 0.01899831297 -0.082996183
577.5 0.03691521646 -0.06954514852
578.125 0.03157943062 -0.06792059662
578.75 0.02112588852 -0.09289415844
579.375 0.04338514158 -0.1149822002
580.0 0.05472862358 -0.09216518785
580.625 0.02952019589 -0.1076673699
581.25 -0.007114330384 -0.1312612685
581.875 -0.002585327969 -0.1112089208
582.5 0.01403931396 -0.06922011511
583.125 0.01917459918 -0.06858434129
583.75 0.04046253184 -0.09112820981
584.375 0.05131158579 -0.07507056254
585.0 0.04362903105 -0.04842431506
585.625 0.05160849152 -0.04512103611
586.25 0.07295210672 -0.05162369665
586.875 0.06033627818 -0.04740750318
587.5 0.03589599658 -0.05156361312
588.125 0.02704772685 -0.07645020325
588.75 0.04927704722 -0.08628909785
589.375 0.02239695821 -0.09934124229
590.0 -0.03803154755 -0.09416690205
590.625 -0.0823871441 -0.08096191679
591.25 -0.04810615588 -0.06209741962
591.875 -0.02029328993 -0.0342459693
592.5 -0.01809075145 -0.03717307656
593.125 -0.02265746654 -0.06551825326
593.75 0.004689997507 -0.07223044136
594.375 0.03163622335 -0.04721484
595.0 0.04578272338 -0.04624457001
595.625 0.07163620638 -0.04804668306
596.25 0.07785537718 -0.02981417246
596.875 0.06610050699 -0.01193666376
597.5 0.06819426117 -0.004822679303
598.125 0.08209104062 -0.005358788785
598.75 0.08344502657 -0.02395985161
599.375 0.07952025729 -0.04154701329
600.0 0.07637682121 -0.04582546797
600.625 0.06109336826 -0.0400127576
601.25 0.03569417608 -0.03737465743
601.875 0.02461109352 -0.03136139339
602.5 0.02789581435 -0.01620487114
603.125 0.02145082877 0.003773451513
603.75 0.02082704529 0.01258262486
604.375 0.03402743079 0.01309100112
605.0 0.04179805124 0.01320543392
605.625 0.02325853253 0.01218318822
606.25 0.001949604511 0.01639739663
606.875 -0.001419636195 0.03435077916
607.5 0.01573316371 0.04715910908
608.125 0.03343176894 0.03502777285
608.75 0.03233244667 0.0242476484
609.375 0.02967312592 0.02731791953
610.0 0.02968666221 0.02887605789
610.625 0.03136567779 0.01661788017
611.25 0.02662005847 0.003727262795
611.875 0.01734343851 -0.004593415407
612.5 0.004820738062 -0.01179380822
613.125 -0.009363315364 -0.01035330965
613.75 -0.01317980377 -8.415268156e-05
614.375 -0.004381934971 0.003966034585
615.0 0.003174143403 -0.004673078516
615.625 -0.002812212358 -0.01407550689
616.25 -0.01037327662 -0.007953869017
616.875 -0.002945740923 0.0009665845603
617.5 0.009671788392 -0.004306224045
618.125 0.01439554106 -0.01451842493
618.75 0.01485695883 -0.01558111712
619.375 0.02392529804 -0.01228652445
620.0 0.03977091783 -0.0226330172
620.625 0.0383056164 -0.05078908944
621.25 0.03573274887 -0.06310434718
621.875 0.021824748 -0.07407636816
622.5 -0.04235859366 -0.05938079921
623.125 -0.04273362043 -0.03301596012
623.75 -0.02306899537 -0.02217337933
624.375 -0.001069260231 -0.02636921784
625.0 0.01892328858 -0.02426695383
625.625 0.01798549029 -0.013698091
626.25 0.02442080831 -0.001462583283
626.875 0.04969490297 -0.005752727121
627.5 0.07615826087 0.001833505528
628.125 0.07225761575 0.01023271186
628.75 0.0679522533 0.009828120791
629.375 0.08354973163 0.01184870723
630.0 0.1001450372 0.03348354595
630.625 0.08189167516 0.04670090004
631.25 0.07899995392 0.0326571122
631.875 0.0835733772 0.02987823895
632.5 0.07472678705 0.03348708151
633.125 0.0495684588 0.04080395806
633.75 0.05179583038 0.03158250204
634.375 0.0556030215 0.0448351652
635.0 0.04689027125 0.04322629754
635.625 0.04541309276 0.04534120017
636.25 0.06322968529 0.05687444898
636.875 0.06781965526 0.0680137223
637.5 0.04501397616 0.05186723961
638.125 0.03279427471 0.05358216341
638.75 0.04269819045 0.09747492466
639.375 -0.0004146446674 0.1229341757
640.0 -0.02086446206 0.09206344225
640.625 -0.0117718552 0.07583331795
641.25 -0.03261139323 0.09155952435
641.875 -0.07702379041 0.06561637679
642.5 -0.06739132373 0.03968564428
643.125 -0.06168157909 0.04651156152
643.75 -0.08461170387 0.04664018216
644.375 -0.1039953909 0.02871789243
645.0 -0.0938808847 0.026785314
645.625 -0.09489904033 0.05965822206
646.25 -0.1002765141 0.075842054
646.875 -0.09554559188 0.04853530356
647.5 -0.08417620403 0.03525653851
648.125 -0.09885433455 0.04625244047
648.75 -0.1141766082 0.02195998012
649.375 -0.08319888254 0.002520830166
650.0 -0.06637192876 -0.01251388438
650.625 -0.06456736134 -0.05428290001
651.25 -0.03073778152 -0.07983059628
651.875 0.006017389582 -0.07116157064
652.5 0.02809606734 -0.07689221686
653.125 0.08740815965 -0.09488860394
653.75 0.1216379633 -0.05456043834
654.375 0.1153913274 -0.04561748694
655.0 0.1244381476 -0.06471127148
655.625 0.1409358947 -0.06257441127
656.25 0.1102540287 -0.03798209478
656.875 0.07102348596 -0.06411507957
657.5 0.09180052004 -0.07610618592
658.125 0.102665032 -0.05545550681
658.75 0.07527093623 -0.02514296775
659.375 0.05743383018 -0.02976565911
660.0 0.0762228357 -0.06780048679
660.625 0.09108091073 -0.07865776941
661.25 0.0761058905 -0.08579188794
661.875 0.0419148888 -0.1166703338
662.5 0.02400339168 -0.147646063
663.125 0.04599293891 -0.1403404657
663.75 0.07600406505 -0.1038683401
664.375 0.1307927309 -0.06149112763
665.0 0.1348665879 0.0373897701
665.625 0.08762929639 0.05785423541
666.25 0.06673244913 0.05908932453
666.875 0.05286865857 0.1025531421
667.5 -0.02294867952 0.1214783561
668.125 -0.04085123395 0.08458368119
668.75 -0.0134394874 0.1010296156
669.375 4.28239116e-05 0.1442531421
670.0 -0.03597009412 0.1437257804
670.625 -0.04943147082 0.09694997569
671.25 -0.003316467658 0.1148626224
671.875 0.03705659675 0.1450502249
672.5 0.0810825455 0.116749403
673.125 0.07365869333 0.07635866568
673.75 0.06365259638 0.07566431041
674.375 0.03751352736 0.1064924703
675.0 -0.009725530943 0.1083672459
675.625 -0.03596887057 0.1032201236
676.25 -0.09849275973 0.09611433609
676.875 -0.1255524848 0.05303339816
677.5 -0.1245041819 0.05012666332
678.125 -0.1205703252 0.08872633864
678.75 -0.1618350558 0.09142343795
679.375 -0.1287328499 0.02277209416
680.0 -0.08592482053 0.03394711645
680.625 -0.08305099973 0.06754120441
681.25 -0.09954112031 0.09495392299
681.875 -0.09074609032 0.05621658002
682.5 -0.05474387281 0.05006545836
683.125 -0.06060791816 0.08761597552
683.75 -0.1071404678 0.09893057748
684.375 -0.1470497143 0.01016909414
685.0 -0.09890525735 -0.07839761678
685.625 -0.04841199771 -0.1403256896
686.25 0.01800115247 -0.1652655931
686.875 0.04417990102 -0.157865713
687.5 0.06857167576 -0.1462700369
688.125 0.09091945283 -0.1080961486
688.75 0.08609724613 -0.06080602341
689.375 0.07601155146 -0.04521178983
690.0 0.105806671 -0.05238411072
690.625 0.1343795469 -0.01270424551
691.25 0.1030471837 -0.01638331904
691.875 0.08005313273 -0.07268801283
692.5 -0.01162658105 -0.1699958961
693.125 -0.1543141377 -0.1567716662
693.75 -0.1529037551 -0.04569916017
694.375 -0.1362504838 0.01025903201
695.0 -0.1586557809 -0.04519765672
695.625 -0.06504791923 -0.1652531316
696.25 0.09724306077 -0.08730212236
696.875 0.1060948844 0.009370952633
697.5 0.06950165571 0.08728811156
698.125 0.01939214539 0.1109444058
698.75 0.0005228644356 0.1213061372
699.375 -0.007493275122 0.1398231548
700.0 -0.0340599977 0.1283525479
700.625 -0.06233906885 0.1040701921
701.25 -0.0581708547 0.1207655811
701.875 -0.05008660574 0.173557374
702.5 -0.004447719155 0.1348549336
703.125 0.03808731583 0.07374802184
703.75 0.07784709391 0.03070460851
704.375 0.155726585 0.02005751114
705.0 0.1525352604 0.06050841516
705.625 0.08390005951 0.07344185484
706.25 0.03755072193 0.1034297477
706.875 -0.08391633179 0.1315171457
707.5 -0.1704610527 0.04355083415
708.125 -0.1325954479 -0.03012173769
708.75 -0.111608795 -0.05699104711
709.375 -0.04894944184 -0.1146266869
710.0 0.0402206416 -0.1122718995
710.625 0.07148415108 -0.07837556748
711.25 0.07907204618 -0.05986585217
711.875 0.0648705551 -0.04267475664
712.5 0.05644151501 -0.0379889271
713.125 0.03892116347 -0.09261214491
713.75 -0.04952578949 -0.1366691316
714.375 -0.1098951124 -0.08642575395
715.0 -0.1240500305 -0.02479256711
715.625 -0.1491563485 -0.01593139432
716.25 -0.1483897405 -0.09744523231
716.875 -0.04878566418 -0.1216969142
717.5 0.006180925886 -0.09332308318
718.125 0.03087011791 -0.09645976938
718.75 0.07785524103 -0.08714400153
719.375 0.08868691286 -0.0331106229
720.0 0.06334035776 0.006342473099
720.625 0.03063730117 0.05298393422
721.25 -0.06018617906 0.04624506558
721.875 -0.08751307561 -0.04317289889
722.5 -0.08449261511 -0.07082129613
723.125 -0.1266728383 -0.0230704761
723.75 -0.1009214999 0.06974628587
724.375 -0.02094922187 0.09872521993
725.0 0.03894324647 0.07455991972
725.625 0.05614211976 0.04456418687
726.25 0.04078219898 0.02756690179
726.875 0.01374119863 0.03186425658
727.5 -0.0181448522 0.0475322031
728.125 -0.05421840142 0.04829790092
728.75 -0.05085580395 0.04718840279
729.375 -0.02108613979 0.05072248593
730.0 -0.01545114112 0.04327150923
730.625 -0.03424483685 0.03571010603
731.25 -0.04250182448 0.01677461994
731.875 -0.04092106991 -0.006277448994
732.5 -0.03049738476 -0.02224034879
733.125 -0.01603505857 -0.01773062176
733.75 -0.002887296868 -0.004271474457
734.375 0.008961083751 -0.0050233284
735.0 0.007095062711 -0.01373302105
735.625 0.005665348753 -0.01523338537
736.25 0.003325584624 -0.02406938466
736.875 -0.01204381383 -0.02924091589
737.5 -0.02687587393 -0.01617361637
738.125 -0.03274157666 0.006679696804
738.75 -0.02436291517 0.03250807386
739.375 -0.001503215579 0.04254582949
740.0 0.01674765779 0.02807234677
740.625 0.01404896652 0.02187572146
741.25 0.009205397765 0.03510174273
741.875 -0.01617965668 0.03917266684
742.5 -0.04341088726 0.006001352098
743.125 -0.02856122924 -0.04185139157
743.75 0.005426752109 -0.05777454392
744.375 0.008622009906 -0.06002413577
745.0 -0.009649087087 -0.06387877664
745.625 -0.03843804664 -0.04891754956
746.25 -0.0250460614 -0.02139753846
746.875 -0.00906050233 -0.02560664698
747.5 -0.02578927855 -0.0327671086
748.125 -0.05322074743 -0.0200842533
748.75 -0.06290806986 0.01930701309
749.375 -0.02897667858 0.06470714987
750.0 0.05048653536 0.07098522486
