!Created with skrf (http://scikit-rf.org).
# GHz S RI R 50.0 
!freq ReS11 ImS11
500.0 -0.01564789072 -0.002465176479
500.625 -0.007858424448 -0.002220389386
501.25 -0.01962627423 -0.01442362928
501.875 -0.05561814169 -0.01608067748
502.5 -0.0489402239 -0.01052002009
503.125 -0.02313502825 0.009858676882
503.75 -0.01710844811 0.01280699988
504.375 -0.02203974386 0.01659987511
505.0 -0.01182477492 0.01591986969
505.625 -0.006246635668 0.004541647247
506.25 -0.02113446646 0.007349620381
506.875 -0.06606087148 -0.01121218091
507.5 -0.06547797873 0.01147594319
508.125 -0.05604599658 -0.008326048887
508.75 -0.06501585344 0.03480278179
509.375 -0.0747838547 0.06001207888
510.0 -0.05855869544 0.04342439557
510.625 0.009783795006 0.02855779242
511.25 -0.001538529145 0.04077373239
511.875 0.01736557358 0.0577801243
512.5 0.03680296939 0.02999203295
513.125 0.05313665123 -0.03877698992
513.75 0.05501662749 -0.08709322714
514.375 0.01567117399 -0.08839819432
515.0 -0.02203790113 -0.06579932588
515.625 0.006993572669 -0.07740917886
516.25 -0.02179838233 -0.07930530165
516.875 0.06331620602 -0.02863923258
517.5 0.04406586707 -0.05202241258
518.125 0.1594323616 -0.03525641871
518.75 0.01905052181 -0.1198153597
519.375 0.02034007265 -0.07889815771
520.0 -0.01158962758 -0.05762573999
520.625 -0.02990732471 -0.08485313379
521.25 -0.04665017245 -0.09591382818
521.875 -0.0004885029105 -0.05495916987
522.5 -0.03145954647 -0.05336931658
523.125 -0.08406691421 -0.1577489669
523.75 -0.1622729823 -0.2470466598
524.375 -0.1130438406 -0.2553946956
525.0 -0.09246699971 -0.1052418664
525.625 -0.0957059054 -0.09251447324
526.25 -0.0565185959 -0.09392522958
526.875 -0.0630130302 -0.05674078861
527.5 -0.1026387315 -0.02204195938
528.125 -0.1063850982 0.0249258633
528.75 -0.08640367089 0.02380178405
529.375 -0.06830524354 0.09681428288
530.0 0.01802690922 0.1527288264
530.625 0.1303165743 0.1104027391
531.25 0.08953223717 0.08311192035
531.875 0.09044031859 0.04646538545
532.5 0.127922486 0.08189141822
533.125 0.1016278674 0.09386864435
533.75 0.08117564443 0.04824985201
534.375 0.07895931763 0.03152963549
535.0 0.1213878631 0.04642693435
535.625 0.07327464214 0.09011753626
536.25 0.09381113739 0.0106960076
536.875 0.117438905 0.01159234209
537.5 0.09437394083 0.05252622817
538.125 0.06236846543 0.05215166942
538.75 0.08434727032 0.04802051117
539.375 0.1365837688 0.08780917314
540.0 0.1286287071 0.09605077465
540.625 0.09842944041 0.05541210712
541.25 0.09686570803 0.04741855377
541.875 0.1190884146 0.06230198822
542.5 0.05895901339 0.05981103963
543.125 0.0315017877 0.0209275256
543.75 0.06097267355 0.007651859511
544.375 0.1137332203 0.004358257972
545.0 0.0933909983 -0.06720026987
545.625 0.02866721623 -0.09107728107
546.25 -0.03451451008 -0.103275685
546.875 -0.02665687272 -0.1212679797
547.5 0.001057817289 -0.1191661164
548.125 0.005250363496 -0.1261781215
548.75 0.04402703739 -0.1332436551
549.375 0.1014897528 -0.1299109674
550.0 0.1358577878 -0.06298594901
550.625 0.1418349402 -0.09318905498
551.25 0.1877943962 -0.01762453608
551.875 0.1318056915 -0.04056550252
552.5 0.09132676687 -0.06082174883
553.125 0.06984514959 -0.101330963
553.75 0.0953366601 -0.08980801025
554.375 0.05516780628 -0.05454860192
555.0 0.03817120035 -0.05482584438
555.625 0.04373955411 -0.08236320961
556.25 0.07338341828 -0.07524452145
556.875 0.0602957392 -0.03542900121
557.5 0.04741842637 -0.02761657262
558.125 0.08645009927 -0.01745074406
558.75 0.09507703227 0.03581124513
559.375 0.09959719165 0.02841377967
560.0 0.1168288861 0.008434657104
560.625 0.1350115261 -0.03225131721
561.25 0.09741118293 -0.05429453787
561.875 0.052723781 -0.07208279646
562.5 0.03450815218 -0.09384770304
563.125 0.02327414792 -0.08773777628
563.75 0.009452070971 -0.06378012605
564.375 -0.003074898063 -0.05663127626
565.0 0.01769851365 -0.09904125291
565.625 0.05499794291 -0.1015190814
566.25 0.05575890347 -0.07672329633
566.875 0.04950364301 -0.07745345512
567.5 0.07491514709 -0.07093998946
568.125 0.1047963953 -0.02110099148
568.75 0.09611563078 0.004930451138
569.375 0.1178844059 -0.009656701138
570.0 0.1336722466 -0.01687977508
570.625 0.1141982232 -0.02832886071
571.25 0.09248526697 -0.04540176889
571.875 0.0890723499 -0.07846929484
572.5 0.05792937052 -0.09478686753
573.125 0.01789073292 -0.0707504633
573.75 0.002221321613 -0.06774082531
574.375 0.01026481277 -0.09887731012
575.0 0.00541320814 -0.1057802945
575.625 -0.01665400883 -0.0677890599
576.25 -0.03074100994 -0.05819406816
576.875 -0.0112362375 -0.08171344722
577.5 0.01719252516 -0.07323322845
578.125 0.01735887647 -0.06847446541
578.75 0.001369252581 -0.08601015962
579.375 0.01273276554 -0.1156582631
580.0 0.03890475332 -0.1013783094
580.625 0.01357511711 -0.1086633217
581.25 -0.03156891365 -0.1279126499
581.875 -0.02876373627 -0.1155701553
582.5 -0.00256806749 -0.07923530085
583.125 0.002726920409 -0.07094253339
583.75 0.01468793217 -0.09834673538
584.375 0.03365187682 -0.08891824585
585.0 0.03154706346 -0.05997552162
585.625 0.03621053595 -0.05556118228
586.25 0.05442851732 -0.06709405477
586.875 0.04872061734 -0.06261274851
587.5 0.02227523074 -0.05757687058
588.125 0.003006730592 -0.07482457461
588.75 0.02778823272 -0.09208814991
589.375 0.004592535804 -0.1026386476
590.0 -0.05035732899 -0.08719277432
590.625 -0.09910470139 -0.06334071488
591.25 -0.07181202086 -0.05625227333
591.875 -0.03504923328 -0.03112535012
592.5 -0.02908015873 -0.02785969796
593.125 -0.04001168052 -0.05088383553
593.75 -0.01803299183 -0.06838139614
594.375 0.0183786648 -0.05072648739
595.0 0.03164220723 -0.04862588628
595.625 0.05558827751 -0.05842308932
596.25 0.06851223313 -0.04532237491
596.875 0.06137073449 -0.02491607515
597.5 0.06205171563 -0.01726800504
598.125 0.07588795404 -0.02096647084
598.75 0.07713892157 -0.03655430621
599.375 0.07191280825 -0.05250592053
600.0 0.07054033444 -0.05923131165
600.625 0.05933297776 -0.05312569494
601.25 0.03380815913 -0.04786172514
601.875 0.01906124224 -0.04166290292
602.5 0.0231329829 -0.02967681813
603.125 0.0216296361 -0.007276027266
603.75 0.02033438311 0.004372714171
604.375 0.03210138523 0.004169475006
605.0 0.04276997933 0.001741155943
605.625 0.02787050996 0.003754193767
606.25 0.005696326145 0.01032625658
606.875 0.002175701535 0.02764547543
607.5 0.01980877001 0.0401911747
608.125 0.03646214574 0.02901771078
608.75 0.03427011778 0.01940789215
609.375 0.03206092465 0.02313942137
610.0 0.03316357339 0.0257062569
610.625 0.03443283137 0.0143842705
611.25 0.02924056246 0.001886765916
611.875 0.01969708503 -0.005353842239
612.5 0.006364871603 -0.01192467715
613.125 -0.008359432447 -0.01023316692
613.75 -0.01288831383 5.805594723e-05
614.375 -0.004870504052 0.004092126008
615.0 0.001921424173 -0.004590006222
615.625 -0.004954700244 -0.01402615254
616.25 -0.01323458763 -0.007942252787
616.875 -0.006321379037 0.001001634191
617.5 0.005351049897 -0.004159091206
618.125 0.00886525749 -0.01515274831
618.75 0.009182736649 -0.01700224839
619.375 0.0183140399 -0.01394198024
620.0 0.03278083516 -0.02426706329
620.625 0.03011262273 -0.0522317859
621.25 0.02840491657 -0.06667612045
621.875 0.01471619318 -0.07779331712
622.5 -0.05228373601 -0.05769152966
623.125 -0.05392868911 -0.0316054859
623.75 -0.03398993459 -0.02264005905
624.375 -0.01256449135 -0.0299234458
625.0 0.008910909473 -0.03426869536
625.625 0.00901745866 -0.0240882659
626.25 0.01504997011 -0.008697147261
626.875 0.03707952863 -0.01361867483
627.5 0.06776486052 -0.01448182417
628.125 0.06998540884 -0.004019412007
628.75 0.06451073705 -0.002272215992
629.375 0.07729178155 -0.003288610279
630.0 0.1019905016 0.01212405658
630.625 0.09172049199 0.03433713817
631.25 0.08522750283 0.02069502834
631.875 0.091292553 0.01202446966
632.5 0.08698681338 0.01439520291
633.125 0.06507966897 0.0291330185
633.75 0.06067818513 0.01735414359
634.375 0.06934218604 0.02645355014
635.0 0.06015056645 0.02640228291
635.625 0.05404618813 0.02856431488
636.25 0.07077035174 0.03695617616
636.875 0.08276988003 0.04796030113
637.5 0.06037545321 0.0384174874
638.125 0.04170458577 0.03906413493
638.75 0.05783543458 0.07581771301
639.375 0.0252298053 0.1213366193
640.0 -0.00337942213 0.09926242067
640.625 0.003915705708 0.07751215747
641.25 -0.00405916495 0.09468503645
641.875 -0.05581030664 0.08964186818
642.5 -0.05929415758 0.05523454134
643.125 -0.0485789508 0.05771860722
643.75 -0.06487423541 0.06674754012
644.375 -0.08956816769 0.0570845616
645.0 -0.08768749005 0.0451142687
645.625 -0.07792455648 0.07297801345
646.25 -0.07970115266 0.09803363625
646.875 -0.08266691508 0.07509143912
647.5 -0.07467432612 0.05600906443
648.125 -0.08392664918 0.06615195454
648.75 -0.1102212643 0.05246697275
649.375 -0.08737915026 0.02518042593
650.0 -0.06958782766 0.008172828498
650.625 -0.07840476965 -0.02810040284
651.25 -0.05319816878 -0.06611727838
651.875 -0.01311093683 -0.06821124528
652.5 0.006420801394 -0.07167492213
653.125 0.05206404361 -0.1042340139
653.75 0.1071685251 -0.07801857881
654.375 0.1052489697 -0.06322710756
655.0 0.1053776287 -0.0843018333
655.625 0.1218792027 -0.09857407731
656.25 0.1083808613 -0.07181674486
656.875 0.0593851769 -0.08005395444
657.5 0.07017231335 -0.09825377025
658.125 0.0880580779 -0.08979040488
658.75 0.06777509723 -0.05630099268
659.375 0.043325053 -0.04495554744
660.0 0.04540895391 -0.07943555515
660.625 0.06284454811 -0.09662252075
661.25 0.05164272393 -0.09867267416
661.875 0.01431456924 -0.1154787108
662.5 -0.009947132914 -0.1448321859
663.125 0.01390146218 -0.14861352
663.75 0.0560001863 -0.1179353114
664.375 0.1106062262 -0.08960745711
665.0 0.151507913 -0.001735643267
665.625 0.1073649279 0.03763149984
666.25 0.08272389067 0.04302153522
666.875 0.08246469474 0.07683785069
667.5 0.02404813162 0.1230450414
668.125 -0.01821280455 0.09211670531
668.75 0.006852581 0.09451171714
669.375 0.03382660979 0.130987398
670.0 0.005955975699 0.1497766384
670.625 -0.02624601997 0.1111425602
671.25 0.01917700479 0.1084292266
671.875 0.07239303943 0.1298129046
672.5 0.1156980686 0.0952890054
673.125 0.09969157902 0.05658008869
673.75 0.08462057077 0.05230808183
674.375 0.06689735652 0.08768522116
675.0 0.01913906811 0.1060101047
675.625 -0.008140928283 0.1030342
676.25 -0.06240285283 0.1148022901
676.875 -0.1079946594 0.07858759777
677.5 -0.1113573465 0.0715859242
678.125 -0.09736729285 0.1024120268
678.75 -0.1310602806 0.1313241836
679.375 -0.1359883924 0.06103689469
680.0 -0.08317098009 0.05653237522
680.625 -0.06231414895 0.08627576857
681.25 -0.06273403148 0.1253142518
681.875 -0.07001380453 0.0942917992
682.5 -0.03711323332 0.06307765638
683.125 -0.02950114477 0.09056224044
683.75 -0.07037151567 0.1161434001
684.375 -0.1352918425 0.0506031068
685.0 -0.1115233666 -0.05215656472
685.625 -0.07430165648 -0.1173003727
686.25 -0.01831558488 -0.1625282395
686.875 0.01102383047 -0.1647085859
687.5 0.03505362468 -0.1606007617
688.125 0.06659227766 -0.1398642841
688.75 0.07359733181 -0.08998181455
689.375 0.06351063283 -0.06675186542
690.0 0.07950410467 -0.08104347706
690.625 0.1225855766 -0.06465638634
691.25 0.09226230656 -0.04513507623
691.875 0.05673777418 -0.0804586513
692.5 -0.04601144128 -0.1434182643
693.125 -0.1903865543 -0.1054057209
693.75 -0.1722112527 -0.01436464934
694.375 -0.1320226825 0.03685622513
695.0 -0.1612761309 -0.004203502472
695.625 -0.1115058873 -0.1424910253
696.25 0.07780418489 -0.119951951
696.875 0.1085607677 -0.01835894072
697.5 0.09490569978 0.06085822953
698.125 0.0517016967 0.09572711669
698.75 0.03177908776 0.1103890463
699.375 0.02894985294 0.1307055737
700.0 -0.00180904497 0.1320188851
700.625 -0.03815460398 0.1155919758
701.25 -0.03083986106 0.1255041459
701.875 0.001387894758 0.1789625474
702.5 0.03547990411 0.1492941669
703.125 0.06606196337 0.06670676693
703.75 0.07843943674 0.003074903536
704.375 0.1377850127 -0.03335094043
705.0 0.1695957676 0.008661453359
705.625 0.1005811684 0.05250795993
706.25 0.0547877514 0.08457896033
706.875 -0.04352683643 0.1363428849
707.5 -0.1538263774 0.08533107227
708.125 -0.1430843833 -0.00646536515
708.75 -0.1213902558 -0.03320780999
709.375 -0.07865811296 -0.0999065913
710.0 0.00654719788 -0.1229425605
710.625 0.05116567011 -0.1004953042
711.25 0.06250410479 -0.08625968965
711.875 0.05039866038 -0.06969074827
712.5 0.03498340526 -0.05615082493
713.125 0.005740597991 -0.08647952407
713.75 -0.08027199282 -0.1077943053
714.375 -0.1238905772 -0.05879472069
715.0 -0.1231190817 -0.001762896286
715.625 -0.1396442916 0.01358769643
716.25 -0.1688135924 -0.05437606722
716.875 -0.08342545766 -0.1167739032
717.5 -0.01523595912 -0.0983827461
718.125 0.003058964991 -0.1002911725
718.75 0.04592741901 -0.10891821
719.375 0.08066718186 -0.06451275222
720.0 0.06756788118 -0.01288583782
720.625 0.0476533977 0.03700664898
721.25 -0.03615239067 0.05794463398
721.875 -0.08792026109 -0.01708472175
722.5 -0.09191272881 -0.05027221218
723.125 -0.1250350761 0.003130849241
723.75 -0.08432826109 0.09186282273
724.375 0.00350159255 0.1036317927
725.0 0.05851668637 0.06404039385
725.625 0.07106658224 0.03018185003
726.25 0.05373829398 0.01677065488
726.875 0.02752001141 0.02490719087
727.5 0.0003621906355 0.04476252481
728.125 -0.0358326376 0.05698981508
728.75 -0.03834236736 0.05651265241
729.375 -0.00897898615 0.05365065117
730.0 -0.002521224485 0.04369770582
730.625 -0.02298585381 0.04115755603
731.25 -0.03782934418 0.02571462596
731.875 -0.04192600649 0.001852969758
732.5 -0.03631971145 -0.01660304203
733.125 -0.02350224012 -0.01648672998
733.75 -0.009065736506 -0.003800025717
734.375 0.004069354344 -0.00371973048
735.0 0.004190110605 -0.0109601513
735.625 0.004449391847 -0.01294808958
736.25 0.003006081924 -0.02304162241
736.875 -0.01216754125 -0.02948404693
737.5 -0.02641974561 -0.01736680165
738.125 -0.03082442964 0.004898618735
738.75 -0.02059399699 0.0309732489
739.375 0.003764544257 0.04135903279
740.0 0.02251536355 0.02524478484
740.625 0.01994543215 0.01659683508
741.25 0.01677620494 0.03011339258
741.875 -0.007783801711 0.04125807717
742.5 -0.04128060671 0.01452788911
743.125 -0.03755523644 -0.0337919491
743.75 -0.009136075642 -0.05921465
744.375 -0.004866021196 -0.06433604824
745.0 -0.02450014653 -0.06451742209
745.625 -0.05561473426 -0.04266263824
746.25 -0.04008881797 -0.0112933434
746.875 -0.01816924719 -0.01411951597
747.5 -0.02794963971 -0.02107844948
748.125 -0.05139672293 -0.00646354768
748.75 -0.05447109168 0.03267310971
749.375 -0.01120405801 0.0682218882
750.0 0.06354614736 0.05344112176
