!Created with skrf (http://scikit-rf.org).
# GHz S RI R 50.0 
!freq ReS11 ImS11
500.0 -0.008400482049 -0.002242941352
500.625 0.0006362573309 -0.0004013811396
501.25 -0.01152717564 -0.01819834507
501.875 -0.04274851605 -0.02677762312
502.5 -0.0342899286 -0.01718882806
503.125 -0.01830873805 0.00634884056
503.75 -0.01453421886 0.003376627609
504.375 -0.02140493172 0.004036073115
505.0 -0.01240866746 0.003820402673
505.625 -0.01002087518 -0.004558350108
506.25 -0.03016161832 -0.00471519373
506.875 -0.0646076961 -0.03353308924
507.5 -0.06685382093 -0.008583752455
508.125 -0.05357682911 -0.02539075751
508.75 -0.0771539878 0.01855543939
509.375 -0.08482546501 0.03509935495
510.0 -0.06334320653 0.02254521199
510.625 -0.002026912655 0.02993102524
511.25 -0.01669953817 0.04421933024
511.875 0.001716821348 0.06355308973
512.5 0.03084005749 0.03543775169
513.125 0.0618792675 -0.02658111698
513.75 0.07450860088 -0.06839476033
514.375 0.03585212685 -0.07606949302
515.0 -0.003083218829 -0.0653596978
515.625 0.0325002483 -0.0702293184
516.25 0.0150439525 -0.08252866167
516.875 0.07640880041 -0.006553148397
517.5 0.06105292346 -0.0497421257
518.125 0.1867159289 -0.0004387305549
518.75 0.05024776708 -0.1140719739
519.375 0.04037085413 -0.07073282383
520.0 0.004161759545 -0.06433301982
520.625 -0.006973043507 -0.1036933599
521.25 -0.02392990158 -0.1035741097
521.875 0.01302446543 -0.05645175926
522.5 -0.02389258324 -0.06730828967
523.125 -0.05856369477 -0.1947688028
523.75 -0.1213672217 -0.2796638517
524.375 -0.08483271218 -0.272023297
525.0 -0.0779500025 -0.1212837413
525.625 -0.07402164823 -0.1063307582
526.25 -0.03613015133 -0.09828902502
526.875 -0.05182662785 -0.06578409483
527.5 -0.09663985818 -0.04342933821
528.125 -0.102688134 -0.002336239174
528.75 -0.08646429612 0.005949000782
529.375 -0.08651317646 0.08528374568
530.0 -0.01524871544 0.1511889784
530.625 0.09177919294 0.121810592
531.25 0.06186579753 0.08429959133
531.875 0.07083549431 0.07264552383
532.5 0.09619316586 0.1236327098
533.125 0.07142933743 0.1150023034
533.75 0.06724839461 0.06449100666
534.375 0.07372047148 0.05308198037
535.0 0.1090215722 0.08189883459
535.625 0.05164949764 0.1007942763
536.25 0.08966887437 0.0250285504
536.875 0.1068041494 0.03846024608
537.5 0.07000040102 0.07618890268
538.125 0.04443740148 0.06774432374
538.75 0.07759307342 0.06700742862
539.375 0.1121406919 0.1212078927
540.0 0.09808294257 0.1112999137
540.625 0.07799182393 0.07241464396
541.25 0.08263449531 0.06985484259
541.875 0.09231807499 0.09170247787
542.5 0.03009589156 0.06676622712
543.125 0.02285446152 0.03446365537
543.75 0.06927550453 0.0305323972
544.375 0.1194703401 0.03424757682
545.0 0.1061410314 -0.04734327616
545.625 0.04505389304 -0.08680238531
546.25 -0.009750261567 -0.1170017827
546.875 0.003960735422 -0.125236364
547.5 0.02658769588 -0.1180397813
548.125 0.03419537314 -0.1316878929
548.75 0.07759163189 -0.1290584823
549.375 0.1281665406 -0.1064363502
550.0 0.1452173684 -0.04259382504
550.625 0.1640430772 -0.07343891968
551.25 0.179292759 0.02086892686
551.875 0.1270237288 -0.01574591097
552.5 0.0935152615 -0.04291531141
553.125 0.08898394479 -0.083328716
553.75 0.1094068152 -0.0513120974
554.375 0.05874990316 -0.03375332096
555.0 0.05001636954 -0.04038032693
555.625 0.06626494075 -0.06665030334
556.25 0.09060354094 -0.04666456631
556.875 0.0645753886 -0.01342092913
557.5 0.05927277056 -0.01289346883
558.125 0.09647343204 0.009150156902
558.75 0.0895862667 0.06002418211
559.375 0.09730904672 0.04754096006
560.0 0.1180913216 0.02766735348
560.625 0.1351313509 -0.001952844886
561.25 0.09805460906 -0.03210568454
561.875 0.06434037709 -0.05684768091
562.5 0.05886240278 -0.0759876282
563.125 0.0462680643 -0.07151414919
563.75 0.02751322328 -0.05380080533
564.375 0.01566294117 -0.05999488303
565.0 0.05345778568 -0.09998470124
565.625 0.07744544975 -0.08523842476
566.25 0.07073804879 -0.06503464626
566.875 0.06772280412 -0.06839313499
567.5 0.09605153151 -0.05154722122
568.125 0.1079189159 0.008410148423
568.75 0.0981433592 0.02110590638
569.375 0.1237845675 0.01422769509
570.0 0.1335213099 0.01018256897
570.625 0.1131031564 -0.004731552328
571.25 0.09630915826 -0.02754665712
571.875 0.1034229796 -0.05466794098
572.5 0.0689406446 -0.06933502624
573.125 0.03109040738 -0.05541833498
573.75 0.02493693343 -0.06454190507
574.375 0.03818037694 -0.09386621059
575.0 0.03194945313 -0.09477887865
575.625 -0.0004093225182 -0.0659005374
576.25 -0.01115756071 -0.06731855655
576.875 0.02129371054 -0.0826126194
577.5 0.03859047159 -0.06905208355
578.125 0.03278857753 -0.06764934819
578.75 0.02311158121 -0.0932499656
579.375 0.04605685234 -0.1144026012
580.0 0.0562040369 -0.09128236318
580.625 0.03059843971 -0.1075588257
581.25 -0.005316767804 -0.131253324
581.875 -0.001005804467 -0.110607739
582.5 0.01487046694 -0.06841228373
583.125 0.02035769706 -0.06831225155
583.75 0.04256712551 -0.09001461609
584.375 0.05278419899 -0.07333593143
585.0 0.04455153518 -0.04720843745
585.625 0.05286113666 -0.04405316079
586.25 0.07409191131 -0.05023196923
586.875 0.06101254354 -0.04630177101
587.5 0.03671233809 -0.05103451177
588.125 0.02866929381 -0.07627147052
588.75 0.05111548334 -0.08550605629
589.375 0.0237286056 -0.09897830247
590.0 -0.036741359 -0.09460940815
590.625 -0.08031699624 -0.08257115586
591.25 -0.04594621248 -0.0622846914
591.875 -0.01900421575 -0.03438903011
592.5 -0.01705297337 -0.03790552679
593.125 -0.02101163286 -0.06641016093
593.75 0.00619304496 -0.07217561172
594.375 0.03240611194 -0.04680871441
595.0 0.04673465851 -0.04585095739
595.625 0.07269700392 -0.04725525014
596.25 0.07827690115 -0.02854915502
596.875 0.06634274996 -0.01076345964
597.5 0.06864951763 -0.003670466959
598.125 0.08237351674 -0.004109572721
598.75 0.0838225783 -0.02278696701
599.375 0.07990780449 -0.04054333061
600.0 0.07670237948 -0.04476632323
600.625 0.06105585219 -0.03892899828
601.25 0.03579113098 -0.03648439643
601.875 0.02492108094 -0.03050505173
602.5 0.02803304277 -0.01515935118
603.125 0.02133711622 0.00457262575
603.75 0.02080100411 0.01324568282
604.375 0.03408741661 0.01382484259
605.0 0.04164717952 0.01398515052
605.625 0.02289649371 0.01269082719
606.25 0.001620826382 0.01679763856
606.875 -0.001733799846 0.03477977425
607.5 0.01542586488 0.04765083916
608.125 0.03311566462 0.03548605943
608.75 0.0321396063 0.02458212394
609.375 0.02943215087 0.02761002895
610.0 0.02936974288 0.02910521441
610.625 0.03110889008 0.01670837666
611.25 0.02634869523 0.003791409049
611.875 0.01711824111 -0.004600718603
612.5 0.004619703508 -0.01182333637
613.125 -0.00945341193 -0.01037586945
613.75 -0.01320530879 -9.1153565e-05
614.375 -0.004333129254 0.003981069155
615.0 0.003229243236 -0.004677158886
615.625 -0.002652663689 -0.01408100177
616.25 -0.0101875267 -0.007936608076
616.875 -0.002703958088 0.0009827921264
617.5 0.009990573585 -0.004286422287
618.125 0.01478166519 -0.01449007746
618.75 0.01525821713 -0.01540857606
619.375 0.02437820187 -0.01210338394
620.0 0.04029268201 -0.02246892181
620.625 0.03882488989 -0.05063227674
621.25 0.03622280299 -0.06287901071
621.875 0.02227513802 -0.07363073598
622.5 -0.0417185203 -0.05943165145
623.125 -0.0419823612 -0.032993736
623.75 -0.02222363958 -0.02205635359
624.375 -0.0002298349028 -0.02599003018
625.0 0.01959793987 -0.02335168941
625.625 0.01854905117 -0.01280701095
626.25 0.02517302718 -0.000741136055
626.875 0.05049206998 -0.005079716405
627.5 0.07648710067 0.00276080699
628.125 0.07226132139 0.01099716805
628.75 0.06803157215 0.01042012871
629.375 0.08379424799 0.0127352174
630.0 0.09980662116 0.03467024937
630.625 0.08102943869 0.04746707872
631.25 0.07833839365 0.03360566576
631.875 0.08264783055 0.03130414481
632.5 0.07340080559 0.0349586849
633.125 0.04824862997 0.04153295686
633.75 0.05106828866 0.03242279808
634.375 0.05470471758 0.04575189104
635.0 0.04601048367 0.04406569439
635.625 0.04479022649 0.04622651826
636.25 0.06258990008 0.05796477141
636.875 0.06645961593 0.06926708566
637.5 0.04359194826 0.0527002062
638.125 0.03174459466 0.05485547227
638.75 0.04089993258 0.09929674912
639.375 -0.00247315946 0.1227738694
640.0 -0.02193056206 0.0913631824
640.625 -0.01260167953 0.07565772268
641.25 -0.03379385466 0.09118513367
641.875 -0.07763999543 0.06469066045
642.5 -0.06765515662 0.03883499218
643.125 -0.06242601059 0.04552000094
643.75 -0.08598248934 0.04468106902
644.375 -0.1048004104 0.02558793249
645.0 -0.09431258219 0.02490064463
645.625 -0.09634800915 0.0579457243
646.25 -0.1017040134 0.07366792238
646.875 -0.09612703869 0.0463900867
647.5 -0.08447785983 0.03418107666
648.125 -0.09934786885 0.04514826556
648.75 -0.1140992036 0.02060433587
649.375 -0.08273939923 0.001212310164
650.0 -0.06588109126 -0.01412819913
650.625 -0.06292715696 -0.05633990261
651.25 -0.02838096639 -0.08090464223
651.875 0.007747546806 -0.07127137092
652.5 0.02975047388 -0.07692014219
653.125 0.08936062469 -0.09401371929
653.75 0.1219503375 -0.05366421037
654.375 0.1157007689 -0.04499050547
655.0 0.1252472895 -0.06334059263
655.625 0.1414831914 -0.05963900061
656.25 0.1097251458 -0.03542534852
656.875 0.0720669126 -0.06237301172
657.5 0.09376150234 -0.07315412143
658.125 0.1037059482 -0.05135711122
658.75 0.07545408969 -0.02239909838
659.375 0.05824209641 -0.02869459497
660.0 0.0777445829 -0.06687291477
660.625 0.09216346084 -0.07788883641
661.25 0.07682421451 -0.08521514307
661.875 0.04293867796 -0.1165901792
662.5 0.0263191998 -0.1474652402
663.125 0.04863408157 -0.1395003864
663.75 0.07769078264 -0.1024098976
664.375 0.132117527 -0.05844947156
665.0 0.1330908373 0.03983460862
665.625 0.08670025151 0.05868308004
666.25 0.06602449421 0.05964082345
666.875 0.05170049432 0.1031599913
667.5 -0.02474206589 0.1210951719
668.125 -0.04207574327 0.08385436947
668.75 -0.01539605771 0.1013000206
669.375 -0.003505190386 0.1449800989
670.0 -0.04015493407 0.1423854427
670.625 -0.0512460818 0.09546307835
671.25 -0.005216976362 0.115092736
671.875 0.03504063709 0.1454121334
672.5 0.07946008263 0.1173619082
673.125 0.07249780993 0.07692826534
673.75 0.06250838922 0.07660881796
674.375 0.03530213674 0.1074695724
675.0 -0.01230280031 0.1082849284
675.625 -0.0388782972 0.1027579052
676.25 -0.1014472101 0.09372508692
676.875 -0.1268661384 0.05061692974
677.5 -0.1249289106 0.04874533375
678.125 -0.1213983289 0.08805424295
678.75 -0.1625103188 0.08977464537
679.375 -0.1282161432 0.0216459074
680.0 -0.08596383622 0.03284647468
680.625 -0.08396709958 0.06607495268
681.25 -0.1019734385 0.09209117093
681.875 -0.09207008008 0.05214912019
682.5 -0.05630033029 0.04865337885
683.125 -0.06362015574 0.08723071949
683.75 -0.1097152927 0.0974043395
684.375 -0.1472574175 0.007654078426
685.0 -0.09813251914 -0.07944648218
685.625 -0.04790306211 -0.1406384345
686.25 0.01879865158 -0.1651412027
686.875 0.04570273542 -0.1575322976
687.5 0.07059502114 -0.1449224715
688.125 0.09241444798 -0.1050722956
688.75 0.08705613177 -0.05766340914
689.375 0.07712259961 -0.04274733367
690.0 0.1077017048 -0.04924347411
690.625 0.1344868439 -0.009733640852
691.25 0.1032980403 -0.0153261213
691.875 0.08047089996 -0.07252254089
692.5 -0.01096532305 -0.1704175362
693.125 -0.1529378972 -0.1581476006
693.75 -0.1517907402 -0.04722285253
694.375 -0.1362949549 0.008037723321
695.0 -0.1578532592 -0.04913029548
695.625 -0.05970248225 -0.1668506737
696.25 0.09864023866 -0.08360993597
696.875 0.1056046154 0.01184629304
697.5 0.06739404352 0.08886763385
698.125 0.01766864483 0.1114707774
698.75 -0.0003691259898 0.1213122101
699.375 -0.008405565049 0.1397371147
700.0 -0.0356793631 0.1278256957
700.625 -0.06408745655 0.1027455555
701.25 -0.0607029401 0.1198260936
701.875 -0.05529457843 0.1718120713
702.5 -0.007739910548 0.1328968517
703.125 0.03564990683 0.07403187631
703.75 0.07753486156 0.03237214364
704.375 0.1559028163 0.0219544967
705.0 0.151937633 0.06163602543
705.625 0.08337238514 0.07382901999
706.25 0.03684710061 0.1040271125
706.875 -0.08632017083 0.1306573487
707.5 -0.1711924664 0.0395877519
708.125 -0.1310955698 -0.03242299375
708.75 -0.1100603772 -0.05967160138
709.375 -0.04559737142 -0.1157603603
710.0 0.0429925963 -0.1108294956
710.625 0.0724159601 -0.07677788384
711.25 0.07926231747 -0.05905994644
711.875 0.06509328655 -0.04190648929
712.5 0.05719527521 -0.03724433777
713.125 0.0408282848 -0.09253300118
713.75 -0.04668396963 -0.1384530093
714.375 -0.1081491392 -0.08897742831
715.0 -0.1239162365 -0.02731791733
715.625 -0.1496258461 -0.01936050528
716.25 -0.1455129596 -0.1012251051
716.875 -0.04606536238 -0.1217046779
717.5 0.007458067038 -0.09284052758
718.125 0.03212183198 -0.0961441078
718.75 0.07860943212 -0.08627869425
719.375 0.08860586727 -0.03181571178
720.0 0.06317247311 0.007227505639
720.625 0.02938057286 0.05401968133
721.25 -0.06254951923 0.04451724861
721.875 -0.08697646316 -0.04589613516
722.5 -0.08360316362 -0.0728074648
723.125 -0.1264832592 -0.0250789936
723.75 -0.1015372191 0.06829106256
724.375 -0.02199063927 0.09831120641
725.0 0.03809295256 0.0748305424
725.625 0.05532820734 0.04513723268
726.25 0.03993984846 0.02808529807
726.875 0.01256502228 0.03229994273
727.5 -0.02005161597 0.04746902183
728.125 -0.05590992641 0.04681363778
728.75 -0.05212562027 0.04612335229
729.375 -0.02217725194 0.05037717008
730.0 -0.01645207063 0.0430468723
730.625 -0.03489628344 0.03509070093
731.25 -0.04259616717 0.01625975486
731.875 -0.04077761681 -0.006701567475
732.5 -0.0301615841 -0.02243214977
733.125 -0.01550818085 -0.01775187004
733.75 -0.002264814911 -0.004274826823
734.375 0.009560279426 -0.005071915703
735.0 0.007579040132 -0.01393760194
735.625 0.00584044936 -0.01544035942
736.25 0.003379803391 -0.02413040009
736.875 -0.01201653075 -0.02924365804
737.5 -0.02687488452 -0.01611222769
738.125 -0.0328107221 0.006773588516
738.75 -0.02452460269 0.03259159676
739.375 -0.001852905043 0.0426484232
740.0 0.01627656648 0.0282006882
740.625 0.013514757 0.02232498098
741.25 0.00841280845 0.03545514969
741.875 -0.01691378838 0.0388511217
742.5 -0.04357178468 0.005099249415
743.125 -0.02775543122 -0.04225818437
743.75 0.006412408246 -0.05754966075
744.375 0.009361593839 -0.05944553757
745.0 -0.00886157565 -0.06346766634
745.625 -0.03687926341 -0.04930157703
746.25 -0.02358284924 -0.02214481328
746.875 -0.008100368331 -0.02657900462
747.5 -0.02543831807 -0.03376919341
748.125 -0.05313285317 -0.02130697827
748.75 -0.06354646668 0.01790049139
749.375 -0.03037993306 0.06423874019
750.0 0.04954019008 0.07200886461
