!Created with skrf (http://scikit-rf.org).
# GHz S RI R 50.0 
!freq ReS11 ImS11
500.0 -0.01021580725 -0.001203533833
500.625 0.000801034954 -0.003419647631
501.25 -0.009508512945 -0.02046949351
501.875 -0.03703898016 -0.02906676632
502.5 -0.02958375319 -0.01506801879
503.125 -0.0137726489 0.003206723824
503.75 -0.01315113011 0.0004826054259
504.375 -0.02050358362 -0.002092614391
505.0 -0.01275517905 -0.0024755655
505.625 -0.009585434084 -0.01196975827
506.25 -0.03350921555 -0.01012876237
506.875 -0.06236806959 -0.04544905468
507.5 -0.06569613886 -0.01874152089
508.125 -0.05063033721 -0.0336708062
508.75 -0.08263952908 0.006092684766
509.375 -0.09034163463 0.02190465143
510.0 -0.06353593939 0.01318304368
510.625 -0.009947362428 0.02937993002
511.25 -0.02553017079 0.04534334275
511.875 -0.007549154398 0.06674080916
512.5 0.02558688721 0.04132135036
513.125 0.06684870056 -0.02111667673
513.75 0.08289082137 -0.05740359332
514.375 0.0448454962 -0.06836294834
515.0 0.006404283571 -0.06530313657
515.625 0.0468052552 -0.06429061141
516.25 0.03109617653 -0.08022310155
516.875 0.08550868472 0.003568877029
517.5 0.07211818746 -0.0493386144
518.125 0.194245985 0.02568477369
518.75 0.06310165671 -0.1082107662
519.375 0.04891727055 -0.06460699568
520.0 0.01188422692 -0.06722460983
520.625 0.00617581177 -0.1084058469
521.25 -0.008726527629 -0.1085515719
521.875 0.01959979667 -0.05675261116
522.5 -0.01906085639 -0.07424178964
523.125 -0.04260376868 -0.209316062
523.75 -0.09683066828 -0.2936222707
524.375 -0.06289293847 -0.277945468
525.0 -0.06801539443 -0.1291958559
525.625 -0.06124565969 -0.1114418298
526.25 -0.02313366465 -0.0991865454
526.875 -0.04427535562 -0.07049883303
527.5 -0.09037379146 -0.05530469599
528.125 -0.09756097199 -0.01586616244
528.75 -0.0853635138 -0.003425054808
529.375 -0.09614876896 0.07676847428
530.0 -0.03219278451 0.1461481193
530.625 0.072474037 0.1237507737
531.25 0.04762121657 0.08252189555
531.875 0.05723144234 0.0851308071
532.5 0.07427764358 0.1418787531
533.125 0.05266334962 0.1223752849
533.75 0.05830453614 0.07160339658
534.375 0.06963549788 0.06360344319
535.0 0.09816599925 0.09865256869
535.625 0.03854457538 0.1043374617
536.25 0.08582880795 0.03340327953
536.875 0.09776864099 0.05126325976
537.5 0.05440879546 0.08606725702
538.125 0.03212226598 0.07500523354
538.75 0.0714880996 0.07818229048
539.375 0.09232077798 0.1365558094
540.0 0.07911798145 0.119409539
540.625 0.06445040506 0.08079633366
541.25 0.07211159753 0.08138386278
541.875 0.07243821373 0.1056621058
542.5 0.01525246969 0.06750756307
543.125 0.0162175988 0.04141981659
543.75 0.07027027322 0.04515998205
544.375 0.1186827356 0.0528528489
545.0 0.1112572647 -0.03270964515
545.625 0.05493419405 -0.08188847031
546.25 0.007532536067 -0.1214016235
546.875 0.02281036474 -0.1245910207
547.5 0.04145905474 -0.1142515987
548.125 0.05150261944 -0.1299772119
548.75 0.09459965378 -0.1231378866
549.375 0.1415236884 -0.09087775951
550.0 0.1486641609 -0.0302809021
550.625 0.1745366351 -0.05745269964
551.25 0.1704538245 0.03803527898
551.875 0.1225539109 -0.002259025275
552.5 0.09346341311 -0.03291011626
553.125 0.09805860421 -0.0711746086
553.75 0.1096911753 -0.03382641606
554.375 0.05937839125 -0.0237719724
555.0 0.05486077388 -0.03221675008
555.625 0.07698600168 -0.05587215744
556.25 0.09624538765 -0.02870231894
556.875 0.06433565651 -0.001439877749
557.5 0.06430034798 -0.00297067417
558.125 0.09862173566 0.02589301505
558.75 0.08286689073 0.07374137774
559.375 0.09290965073 0.05848834517
560.0 0.1168000532 0.03899409946
560.625 0.1322400823 0.0126925518
561.25 0.09659818424 -0.02024667825
561.875 0.06866790064 -0.04745552901
562.5 0.06850621196 -0.06349707906
563.125 0.05664178323 -0.0608641443
563.75 0.03644033602 -0.04684699169
564.375 0.02638715996 -0.05981829086
565.0 0.07268185599 -0.09514792739
565.625 0.08666469737 -0.07598050935
566.25 0.07726030936 -0.05762039675
566.875 0.07626574945 -0.06142580774
567.5 0.1046951937 -0.03827012029
568.125 0.1055888761 0.02360012445
568.75 0.09785591327 0.03014518948
569.375 0.1238517929 0.02769906961
570.0 0.1306227281 0.02462140729
570.625 0.1098890491 0.008071157723
571.25 0.096572911 -0.01814610095
571.875 0.107985574 -0.04041793252
572.5 0.07241985998 -0.05631815764
573.125 0.03640810593 -0.0462716064
573.75 0.03645261452 -0.06028907743
574.375 0.05146241287 -0.08907595743
575.0 0.04428414281 -0.08680162391
575.625 0.008450408894 -0.06300616911
576.25 0.0009051349664 -0.06964673776
576.875 0.0366160466 -0.07831291436
577.5 0.04899038897 -0.0649549117
578.125 0.04053830004 -0.06564136258
578.75 0.03508059882 -0.09402919454
579.375 0.06158877068 -0.1092477282
580.0 0.0635506656 -0.08569778568
580.625 0.03920286123 -0.1052361034
581.25 0.007524140876 -0.1296196606
581.875 0.01236920803 -0.1048782721
582.5 0.0228780156 -0.06122482575
583.125 0.02980759172 -0.06521306091
583.75 0.05528755599 -0.08292777764
584.375 0.06115511557 -0.06381152527
585.0 0.04944662223 -0.03947424538
585.625 0.05939226875 -0.0368676593
586.25 0.08119897855 -0.04055107236
586.875 0.06512107225 -0.03788271782
587.5 0.0428298576 -0.04651828556
588.125 0.04029703087 -0.07380896462
588.75 0.0619458988 -0.08024357596
589.375 0.03340350205 -0.09514688449
590.0 -0.02873639106 -0.09704470571
590.625 -0.06830241045 -0.08971349354
591.25 -0.0337764662 -0.06242912153
591.875 -0.01073172208 -0.03466558092
592.5 -0.01015615549 -0.04155442143
593.125 -0.009903557374 -0.07147954163
593.75 0.01826325337 -0.07087343984
594.375 0.03927763826 -0.04321446598
595.0 0.05405483488 -0.04248710387
595.625 0.07985078686 -0.03927377055
596.25 0.08104382197 -0.01870753552
596.875 0.06693812597 -0.003274803521
597.5 0.07024047455 0.003873967251
598.125 0.08358821892 0.005028506255
598.75 0.08566388811 -0.01454585027
599.375 0.08243770669 -0.03304303525
600.0 0.07824198454 -0.03669553339
600.625 0.06101587127 -0.03130587149
601.25 0.03600305517 -0.03017364269
601.875 0.02677117459 -0.02405132653
602.5 0.02858160274 -0.007604847425
603.125 0.01995753221 0.01014822073
603.75 0.01990795331 0.01763544763
604.375 0.03368856649 0.01886306649
605.0 0.03928635728 0.01968632894
605.625 0.01936021563 0.01614652172
606.25 -0.001213693423 0.01918124807
606.875 -0.004731508989 0.03746476879
607.5 0.01195377185 0.05050071771
608.125 0.03025928417 0.03821711724
608.75 0.03007142911 0.02701731543
609.375 0.02716395809 0.02975505489
610.0 0.0270022108 0.03028981452
610.625 0.02903757968 0.01758521372
611.25 0.02476934216 0.00410352147
611.875 0.01577005742 -0.004714074964
612.5 0.00352960286 -0.01222782524
613.125 -0.00997959229 -0.01073698494
613.75 -0.01334604357 -0.0004379576266
614.375 -0.004128468666 0.003741701028
615.0 0.003814203701 -0.004842951617
615.625 -0.00172015174 -0.01410931797
616.25 -0.00890189257 -0.007814155036
616.875 -0.001130175872 0.001110580295
617.5 0.01191337689 -0.004071542374
618.125 0.01712270965 -0.01363856315
618.75 0.01767427111 -0.01411009326
619.375 0.02689621138 -0.01066182942
620.0 0.04365664771 -0.02064432143
620.625 0.04297595627 -0.04886565543
621.25 0.03995455363 -0.0601861662
621.875 0.025960666 -0.07103465504
622.5 -0.03641980756 -0.05968263124
623.125 -0.03640947361 -0.03312264969
623.75 -0.01721014209 -0.02118868542
624.375 0.004564942608 -0.02352215918
625.0 0.02298823144 -0.01818710584
625.625 0.02149260339 -0.007433474579
626.25 0.02869136597 0.003618710915
626.875 0.05547964246 0.0001842253084
627.5 0.07829270138 0.01144696275
628.125 0.07184954357 0.01857270784
628.75 0.06832280446 0.01716585479
629.375 0.08490714589 0.02169315485
630.0 0.09595755873 0.04513845037
630.625 0.07538559531 0.0527016048
631.25 0.07411746824 0.03907847755
631.875 0.07749231043 0.03852071897
632.5 0.06609981226 0.04207480357
633.125 0.04072124151 0.0448900789
633.75 0.04621042824 0.03766940198
634.375 0.04661505087 0.05274463826
635.0 0.038123677 0.05083710783
635.625 0.03878764447 0.0531661976
636.25 0.05684647402 0.06612548937
636.875 0.05753946233 0.07665925176
637.5 0.03529784921 0.05731211192
638.125 0.02583010324 0.06067286115
638.75 0.03074133118 0.1072661686
639.375 -0.0141398929 0.1211409244
640.0 -0.02962654742 0.08613347471
640.625 -0.02045619061 0.07320525219
641.25 -0.04769313091 0.08582799655
641.875 -0.08431052531 0.05128772588
642.5 -0.07043035284 0.03038945706
643.125 -0.06753150687 0.03881338618
643.75 -0.09261698432 0.03334045528
644.375 -0.1079235055 0.01177092601
645.0 -0.09544949071 0.01622514208
645.625 -0.1027253847 0.05010754023
646.25 -0.1085069928 0.06182435051
646.875 -0.09941509384 0.03284276286
647.5 -0.08656515762 0.02347014459
648.125 -0.1045849481 0.03411036805
648.75 -0.1128243324 0.00630267818
649.375 -0.07853082763 -0.009462570953
650.0 -0.06194681521 -0.02369933992
650.625 -0.05367279056 -0.06597348827
651.25 -0.017279247 -0.08494620538
651.875 0.0169306798 -0.07062633879
652.5 0.04050952405 -0.07685806553
653.125 0.1036793316 -0.08541933213
653.75 0.1262693622 -0.04327114176
654.375 0.1182806652 -0.03711687393
655.0 0.1311318133 -0.05333069279
655.625 0.1452089794 -0.04342976521
656.25 0.1073010263 -0.02296017589
656.875 0.07493784805 -0.05589353192
657.5 0.1003914512 -0.06151335763
658.125 0.1063890675 -0.03631855881
658.75 0.07521112124 -0.008955270534
659.375 0.06278449951 -0.02127772213
660.0 0.08985794264 -0.05845271759
660.625 0.1029557365 -0.0672620363
661.25 0.08660879374 -0.07679136622
661.875 0.05578384776 -0.1138575045
662.5 0.04094181156 -0.1460777457
663.125 0.0622129491 -0.1331655846
663.75 0.0848919061 -0.09435442755
664.375 0.1375131418 -0.04438796972
665.0 0.1232702787 0.052643044
665.625 0.07701754627 0.066181841
666.25 0.05795394618 0.06484672368
666.875 0.0364086136 0.1108474202
667.5 -0.04296796383 0.1153924337
668.125 -0.05125846667 0.07956447982
668.75 -0.02452256994 0.1022086964
669.375 -0.01881793275 0.1467422673
670.0 -0.05664309168 0.1353514793
670.625 -0.05942929142 0.08768406453
671.25 -0.01535624521 0.1160258777
671.875 0.01896775158 0.1483617173
672.5 0.06279102362 0.1234230573
673.125 0.05979138317 0.08216705448
673.75 0.05190745402 0.08409139881
674.375 0.02158545644 0.1124699291
675.0 -0.02423945072 0.1069816784
675.625 -0.05032386733 0.09954569533
676.25 -0.1137539298 0.08188170134
676.875 -0.1326093856 0.03874809252
677.5 -0.1288651549 0.03797057143
678.125 -0.1304300901 0.07908269789
678.75 -0.1701008748 0.06895342328
679.375 -0.1229320201 0.007837646681
680.0 -0.08509749418 0.02284979872
680.625 -0.09104438693 0.05633461286
681.25 -0.1132474243 0.07605663245
681.875 -0.09615259235 0.03666959426
682.5 -0.06189711659 0.04248902613
683.125 -0.07533757292 0.08331752157
683.75 -0.1227818983 0.08737949034
684.375 -0.1477703075 -0.009649545151
685.0 -0.09057683505 -0.08827411862
685.625 -0.03464288404 -0.1478908311
686.25 0.03427922566 -0.163439489
686.875 0.05965512512 -0.1513971497
687.5 0.08319928863 -0.1351475705
688.125 0.09866053807 -0.09172235057
688.75 0.08997283952 -0.04555263809
689.375 0.08025099149 -0.03339701527
690.0 0.1147726278 -0.03538901134
690.625 0.133233355 0.009334919931
691.25 0.1058986957 -0.003149774246
691.875 0.08918844544 -0.0671202107
692.5 0.005281945866 -0.1777145861
693.125 -0.1331094027 -0.1741263957
693.75 -0.1422041524 -0.05837755469
694.375 -0.1358153222 -0.003257434061
695.0 -0.1527064515 -0.06593280977
695.625 -0.03877426501 -0.1714299198
696.25 0.1034002164 -0.06912839181
696.875 0.1026427844 0.02241420942
697.5 0.05533693791 0.09681961874
698.125 0.003005342443 0.1151313514
698.75 -0.01500619301 0.1224735315
699.375 -0.02379869267 0.1390130282
700.0 -0.04836243882 0.1236693352
700.625 -0.0730099623 0.09642660553
701.25 -0.07043849891 0.115828888
701.875 -0.07223780355 0.1638634223
702.5 -0.01899770765 0.1261775742
703.125 0.02551259512 0.07449012592
703.75 0.07526986497 0.0427158254
704.375 0.1567199115 0.04376595845
705.0 0.1412136502 0.07814152232
705.625 0.0748069436 0.08096548959
706.25 0.02784400579 0.1103993166
706.875 -0.1030792526 0.1243972119
707.5 -0.1736145087 0.02131388342
708.125 -0.1249032862 -0.04068943872
708.75 -0.1040730569 -0.06822823844
709.375 -0.03321772896 -0.1189546671
710.0 0.05480422862 -0.1039800214
710.625 0.07752552429 -0.06695405151
711.25 0.08300478506 -0.04882677653
711.875 0.06848602144 -0.03158777071
712.5 0.06408994829 -0.02844507653
713.125 0.05427902584 -0.09101585688
713.75 -0.03234124482 -0.1451684315
714.375 -0.1007968313 -0.0981821465
715.0 -0.1222909328 -0.03688340916
715.625 -0.1500795426 -0.03224854718
716.25 -0.1333995715 -0.1141603197
716.875 -0.03387078986 -0.1209328525
717.5 0.01494954933 -0.08960679588
718.125 0.04234928796 -0.09227103098
718.75 0.08821231336 -0.07533794394
719.375 0.08845074556 -0.02070781193
720.0 0.0600638108 0.01373551753
720.625 0.02182249278 0.05811309384
721.25 -0.06996985833 0.03844477717
721.875 -0.08417471242 -0.05525845539
722.5 -0.0794527337 -0.0786422881
723.125 -0.1249199233 -0.03346260671
723.75 -0.1051208572 0.06048648761
724.375 -0.03021257833 0.0940965005
725.0 0.03052524544 0.07637932016
725.625 0.04900478178 0.0484357611
726.25 0.03456721615 0.03083409039
726.875 0.006812343928 0.03348000443
727.5 -0.02715326435 0.04629455705
728.125 -0.06147515948 0.04184851789
728.75 -0.0556922091 0.04152647651
729.375 -0.02637493767 0.04798414723
730.0 -0.02120397814 0.04133509144
730.625 -0.03824538765 0.03197503264
731.25 -0.04335093919 0.01279380267
731.875 -0.03966570199 -0.00939167907
732.5 -0.02757530267 -0.02382072839
733.125 -0.01289230549 -0.01729041304
733.75 -0.0001142153568 -0.003612757652
734.375 0.01143481992 -0.004769056709
735.0 0.009143484565 -0.0143023859
735.625 0.007057845045 -0.01587303811
736.25 0.00419199693 -0.02453931232
736.875 -0.01153840634 -0.02928220214
737.5 -0.0268256042 -0.01574386452
738.125 -0.03329007776 0.007402549838
738.75 -0.02564829796 0.03301981104
739.375 -0.003357054367 0.04283610906
740.0 0.01417246511 0.02889638283
740.625 0.01121409012 0.02389312531
741.25 0.005650720521 0.03681698643
741.875 -0.01980831315 0.03769260894
742.5 -0.04412472657 0.001847653719
743.125 -0.02409793209 -0.04464073739
743.75 0.01139047549 -0.05645697733
744.375 0.01376616209 -0.05756077037
745.0 -0.00409532729 -0.06275112555
745.625 -0.03091377114 -0.05043506701
746.25 -0.01814115668 -0.02426496377
746.875 -0.004509482703 -0.0295491113
747.5 -0.02412172263 -0.03737444715
748.125 -0.05305598708 -0.02537484287
748.75 -0.06546865607 0.01339323745
749.375 -0.03573924081 0.061838277
750.0 0.0443246861 0.07666601766
