!Created with skrf (http://scikit-rf.org).
# GHz S RI R 50.0 
!freq ReS11 ImS11
500.0 -0.01445625104 -0.003494292316
500.625 -0.009770969982 0.001560799257
501.25 -0.02149350423 -0.01322393151
501.875 -0.05623597706 -0.01505258586
502.5 -0.04877993345 -0.01020670417
503.125 -0.02552918056 0.0119690301
503.75 -0.01701542663 0.01443843589
504.375 -0.02169901046 0.01964395887
505.0 -0.01121310026 0.01902697839
505.625 -0.005902739708 0.006598588304
506.25 -0.019920252 0.008215971444
506.875 -0.06582473742 -0.006256199476
507.5 -0.06487583112 0.01469524401
508.125 -0.05720517229 -0.005792974024
508.75 -0.06080945876 0.03991103245
509.375 -0.07218217582 0.06469469826
510.0 -0.05654665014 0.04684634344
510.625 0.01229848023 0.02741998122
511.25 0.002537297636 0.03874216832
511.875 0.02318810105 0.05496407629
512.5 0.03984646286 0.02586206511
513.125 0.05023338053 -0.03937243806
513.75 0.04857078211 -0.08904408103
514.375 0.007312733426 -0.09072284508
515.0 -0.02591529411 -0.06493234227
515.625 0.002567683995 -0.080668525
516.25 -0.02843646357 -0.07789328287
516.875 0.05845593077 -0.03155734194
517.5 0.04065084276 -0.05291834673
518.125 0.1506192964 -0.04026505496
518.75 0.01317810856 -0.1199498353
519.375 0.01735983124 -0.07919210975
520.0 -0.01008327615 -0.0550240771
520.625 -0.03389580614 -0.08240474425
521.25 -0.04958419991 -0.09080599323
521.875 -0.002338430914 -0.05415265448
522.5 -0.03267469531 -0.05017506989
523.125 -0.08673469821 -0.1489910801
523.75 -0.171235798 -0.2420982986
524.375 -0.1204672474 -0.2498524437
525.0 -0.09494840509 -0.09924173234
525.625 -0.100677768 -0.08815622089
526.25 -0.06176644475 -0.09189511173
526.875 -0.06528169516 -0.05363100116
527.5 -0.1030250147 -0.01621389532
528.125 -0.1054532577 0.03218782036
528.75 -0.08583341728 0.02832842981
529.375 -0.06332205629 0.09889795541
530.0 0.02648655726 0.1510323192
530.625 0.1378786131 0.1084256793
531.25 0.09542170341 0.08301421607
531.875 0.09356703418 0.04042579723
532.5 0.132072689 0.07131269429
533.125 0.1069167758 0.08969124095
533.75 0.08316492907 0.0446419761
534.375 0.07917629015 0.02620033265
535.0 0.1230572565 0.03695310831
535.625 0.07995138105 0.08521302727
536.25 0.0942172578 0.005155459715
536.875 0.1185105298 0.00377521284
537.5 0.1000813522 0.04426937957
538.125 0.06699008362 0.04670518896
538.75 0.08582340868 0.04185672504
539.375 0.1415137325 0.07594942772
540.0 0.1377535036 0.08878005128
540.625 0.1032050549 0.04945141758
541.25 0.09957037458 0.04018714833
541.875 0.125178564 0.051181538
542.5 0.06761464439 0.05482208842
543.125 0.03367731726 0.01640181637
543.75 0.05773979356 0.00064570257
544.375 0.1109631495 -0.006261104636
545.0 0.08737904583 -0.07378877172
545.625 0.02198088317 -0.09197867777
546.25 -0.04218267701 -0.0974660772
546.875 -0.0371222808 -0.1183321138
547.5 -0.006708578335 -0.1183404132
548.125 -0.00310064619 -0.1229021419
548.75 0.03455465799 -0.1328937508
549.375 0.09245856552 -0.1358058148
550.0 0.1324130993 -0.06792341374
550.625 0.135238301 -0.09705173139
551.25 0.1871798594 -0.02968040343
551.875 0.132133138 -0.04768404177
552.5 0.08969995378 -0.06496531499
553.125 0.06384917362 -0.1047309373
553.75 0.09214741278 -0.09515052157
554.375 0.05409371053 -0.05947096819
555.0 0.03427862716 -0.05809043238
555.625 0.03640663246 -0.08524046887
556.25 0.06633158643 -0.08211687441
556.875 0.05752282576 -0.04149322976
557.5 0.04340344013 -0.03102188257
558.125 0.08204333171 -0.02502500592
558.75 0.0957936692 0.0282592485
559.375 0.09927468487 0.02240029617
560.0 0.1153400185 0.002321935006
560.625 0.1332439713 -0.04033158968
561.25 0.09674777077 -0.06009610674
561.875 0.04909836568 -0.07519159971
562.5 0.02671037157 -0.09658467959
563.125 0.01582887216 -0.09105457878
563.75 0.00444064413 -0.06599451279
564.375 -0.007490398105 -0.05496457764
565.0 0.008953838129 -0.09661254081
565.625 0.04770567046 -0.1049721391
566.25 0.05159731242 -0.07930431685
566.875 0.04407738633 -0.0791505719
567.5 0.06770810339 -0.07564188023
568.125 0.1017641083 -0.02953980405
568.75 0.09516978863 0.0002162830353
569.375 0.114789318 -0.01613154877
570.0 0.1324264962 -0.02493886288
570.625 0.1129402294 -0.03520938238
571.25 0.0902021239 -0.05024170496
571.875 0.08385666482 -0.08367198274
572.5 0.05354368332 -0.1018702993
573.125 0.0138511866 -0.07400640844
573.75 -0.003802517127 -0.06709509723
574.375 0.002256534615 -0.09884933917
575.0 -0.002459155055 -0.1077900218
575.625 -0.02071643146 -0.06768210929
576.25 -0.03491137117 -0.05484615026
576.875 -0.01962429636 -0.07906973749
577.5 0.01107966141 -0.07356023683
578.125 0.01354359934 -0.06801778269
578.75 -0.003668925244 -0.0828554203
579.375 0.003787980754 -0.1138438991
580.0 0.03327488126 -0.1036300853
580.625 0.009018975072 -0.1080449984
581.25 -0.0383136267 -0.1254688293
581.875 -0.03627357286 -0.115429205
582.5 -0.008184299046 -0.08114760086
583.125 -0.002212839157 -0.07082843341
583.75 0.006765569538 -0.09884405206
584.375 0.02844333667 -0.09204488637
585.0 0.02789921385 -0.06232344364
585.625 0.03127699472 -0.05740751994
586.25 0.04879104375 -0.07013973213
586.875 0.0457149714 -0.06599140391
587.5 0.01936178951 -0.05822559383
588.125 -0.001757924766 -0.07279881162
588.75 0.02109678958 -0.09270570335
589.375 -0.0007208423816 -0.1028998069
590.0 -0.05333055297 -0.08462898833
590.625 -0.1024728593 -0.05711943698
591.25 -0.07863873426 -0.05291651337
591.875 -0.03920906224 -0.0296558372
592.5 -0.03164941432 -0.02455247415
593.125 -0.04411398392 -0.04547512981
593.75 -0.02428195385 -0.06592251546
594.375 0.01448586466 -0.05116709224
595.0 0.02775060485 -0.04844002698
595.625 0.05056353822 -0.06038493633
596.25 0.06524517845 -0.04887410595
596.875 0.05933628508 -0.02799946111
597.5 0.05960738065 -0.02029169854
598.125 0.07329904634 -0.02480811212
598.75 0.07476733363 -0.03968990547
599.375 0.06904370673 -0.05502209182
600.0 0.0678108789 -0.06271049902
600.625 0.05798523013 -0.05682782449
601.25 0.03281637536 -0.05070242658
601.875 0.01682072392 -0.04407467651
602.5 0.02081134915 -0.0330516075
603.125 0.02108092079 -0.01044041165
603.75 0.01976099145 0.002115942103
604.375 0.0310079424 0.001823662734
605.0 0.04219782149 -0.001560495275
605.625 0.02861584384 0.001076217291
606.25 0.006350440891 0.008479078136
606.875 0.002669453177 0.02563157389
607.5 0.02040269408 0.03808398064
608.125 0.03684399429 0.0271777301
608.75 0.03447492907 0.01795249466
609.375 0.03237819372 0.02178280353
610.0 0.03382392634 0.02458051097
610.625 0.03497120029 0.01356834665
611.25 0.02969552489 0.001853815327
611.875 0.0202860894 -0.005438422103
612.5 0.007136569705 -0.01190591651
613.125 -0.008139590887 -0.01034185275
613.75 -0.01286761103 -2.767592443e-05
614.375 -0.00505870192 0.004008922938
615.0 0.001500904348 -0.004592282778
615.625 -0.005660082138 -0.01399595397
616.25 -0.0140746068 -0.007935963519
616.875 -0.007312908354 0.001075170021
617.5 0.004076623151 -0.003991729327
618.125 0.00724400539 -0.01514055887
618.75 0.007456492053 -0.01726022221
619.375 0.01663622903 -0.01421591588
620.0 0.03066109415 -0.0244749046
620.625 0.02763961013 -0.05225860112
621.25 0.02593265269 -0.06736415684
621.875 0.01230211374 -0.07849795764
622.5 -0.05506110757 -0.0566669444
623.125 -0.05696004143 -0.03069953018
623.75 -0.03696427978 -0.02232608048
624.375 -0.01597612553 -0.03033724379
625.0 0.005447172346 -0.03672870235
625.625 0.005989649972 -0.02675579181
626.25 0.0121063941 -0.01037170866
626.875 0.03306362091 -0.01506542013
627.5 0.06429944263 -0.01866504117
628.125 0.06873857483 -0.008098979302
628.75 0.06304877576 -0.005421173486
629.375 0.07473372781 -0.007014581433
630.0 0.1012254749 0.006046417733
630.625 0.09402277019 0.03030211181
631.25 0.08638149353 0.01715294878
631.875 0.09231920587 0.007681991181
632.5 0.08932567638 0.009734327584
633.125 0.06833751906 0.02625412656
633.75 0.06204945077 0.01431763583
634.375 0.07215635461 0.02048426909
635.0 0.06308820356 0.02127334327
635.625 0.05536982461 0.02374464555
636.25 0.07161734438 0.0310614238
636.875 0.08578694601 0.04154806253
637.5 0.06425226603 0.0339943497
638.125 0.04339353424 0.03471780975
638.75 0.06048150368 0.06882474904
639.375 0.03288738659 0.1193911341
640.0 0.001809053858 0.1007824136
640.625 0.007976393482 0.07715863234
641.25 0.003501633277 0.09375104366
641.875 -0.04843737722 0.0949575103
642.5 -0.05677591409 0.05898636376
643.125 -0.0447086419 0.05982155381
643.75 -0.05877732301 0.07096973107
644.375 -0.0841699762 0.0640178159
645.0 -0.08525686367 0.04976366469
645.625 -0.07262898683 0.07547922387
646.25 -0.07282890644 0.1032059176
646.875 -0.07808137718 0.08180164707
647.5 -0.07098858773 0.06109402238
648.125 -0.07868847908 0.07059620608
648.75 -0.1075030633 0.06062845508
649.375 -0.08774802608 0.03108480653
650.0 -0.06929281221 0.01341313426
650.625 -0.08033658855 -0.01997565426
651.25 -0.05904616073 -0.0610030595
651.875 -0.01830257678 -0.06676303431
652.5 0.000894788899 -0.06905598662
653.125 0.04171504236 -0.1045095342
653.75 0.1023108004 -0.08401066785
654.375 0.1031712974 -0.06581365019
655.0 0.1006144537 -0.08667651815
655.625 0.1163123781 -0.1051016939
656.25 0.1072003478 -0.07960926354
656.875 0.05742610993 -0.08267446091
657.5 0.06289104565 -0.1029270465
658.125 0.08202702813 -0.09873071066
658.75 0.0643571018 -0.06430565589
659.375 0.03872890316 -0.04819983874
660.0 0.03673470736 -0.08065906196
660.625 0.05437289737 -0.1002595623
661.25 0.04507794432 -0.1008213642
661.875 0.007355369672 -0.1134394793
662.5 -0.01910259087 -0.1423271202
663.125 0.004741276908 -0.1495645356
663.75 0.05030504517 -0.1204551978
664.375 0.1033566576 -0.09583336428
665.0 0.1533847186 -0.01396314874
665.625 0.111824042 0.0317732672
666.25 0.08572158629 0.03835660488
666.875 0.08794780131 0.06887091455
667.5 0.03607975717 0.1206147979
668.125 -0.01214209095 0.09350766702
668.75 0.01134300265 0.09185983546
669.375 0.04183845626 0.1255931003
670.0 0.01780084158 0.1491470336
670.625 -0.01904653509 0.1141002376
671.25 0.02460967546 0.1058285794
671.875 0.08083659196 0.1237571169
672.5 0.1235861616 0.08814558821
673.125 0.1047182217 0.05046781441
673.75 0.08847680017 0.04522777373
674.375 0.07366132681 0.08126107979
675.0 0.02660136237 0.1043757034
675.625 -0.00130778978 0.1016949572
676.25 -0.05114271801 0.1171691498
676.875 -0.1021560506 0.08512428859
677.5 -0.1074937005 0.07651038492
678.125 -0.09106015349 0.1044598315
678.75 -0.1210261549 0.139120517
679.375 -0.1360723069 0.07174111309
680.0 -0.08196425929 0.06148150389
680.625 -0.05693577545 0.0893986397
681.25 -0.05216729426 0.1304419726
681.875 -0.06241741005 0.1033513451
682.5 -0.03237705745 0.06578604969
683.125 -0.02134774194 0.08948753907
683.75 -0.05962514575 0.1189790636
684.375 -0.1303299493 0.06047434323
685.0 -0.1132452711 -0.04509176872
685.625 -0.07946340587 -0.1105032064
686.25 -0.02735327679 -0.1605805175
686.875 0.002910935229 -0.1648243182
687.5 0.02621399025 -0.1618908253
688.125 0.05809421757 -0.146754888
688.75 0.06934593588 -0.0970578435
689.375 0.05975744582 -0.0708477717
690.0 0.07186379982 -0.08593271157
690.625 0.1163656849 -0.07643514042
691.25 0.08917864089 -0.05164604336
691.875 0.05160289529 -0.08098762376
692.5 -0.05202611116 -0.1360132912
693.125 -0.1955723517 -0.09170087864
693.75 -0.1759839774 -0.006197355732
694.375 -0.1296852699 0.04251071238
695.0 -0.1597551538 0.005902320344
695.625 -0.1219558858 -0.1343245567
696.25 0.07145439204 -0.1277981085
696.875 0.1078002053 -0.02578331467
697.5 0.1001293539 0.05259995329
698.125 0.05907250565 0.09076157854
698.75 0.0381263712 0.1067196106
699.375 0.03639237978 0.1264720352
700.0 0.005675641249 0.1314739142
700.625 -0.03252333785 0.1175468868
701.25 -0.02506988348 0.1252269444
701.875 0.01280870654 0.1766334396
702.5 0.0464226526 0.1510918289
703.125 0.07214660746 0.06439279751
703.75 0.07735348364 -0.002830533299
704.375 0.1307012874 -0.04391680817
705.0 0.1708055112 -0.004957031178
705.625 0.1034520134 0.04761436535
706.25 0.05755950594 0.07979676319
706.875 -0.03440627287 0.1354476026
707.5 -0.1476134932 0.09432428708
708.125 -0.1447405605 -0.0005306544311
708.75 -0.1224805585 -0.02733019949
709.375 -0.08496423473 -0.09507972618
710.0 -0.001370553319 -0.1240032921
710.625 0.04571861448 -0.1040566643
711.25 0.05737795146 -0.09116896565
711.875 0.04613994628 -0.07512481744
712.5 0.03002904973 -0.05912347255
713.125 -0.0002883466086 -0.08362231184
713.75 -0.0852535475 -0.09974661202
714.375 -0.1260563829 -0.05193469496
715.0 -0.1220381978 0.002989769629
715.625 -0.1360023122 0.01923840542
716.25 -0.1705492246 -0.0436410563
716.875 -0.0913806653 -0.1140184509
717.5 -0.01994018527 -0.0986752847
718.125 -0.002969479559 -0.09965960969
718.75 0.0379439993 -0.1119573431
719.375 0.07732305106 -0.07135482099
720.0 0.06746314285 -0.01716607361
720.625 0.05051417116 0.03254872982
721.25 -0.03033933553 0.05949419303
721.875 -0.08682315491 -0.01144836652
722.5 -0.09246061314 -0.04530420915
723.125 -0.1234325223 0.008837310981
723.75 -0.07977850392 0.09562335123
724.375 0.008505065177 0.1034544072
725.0 0.06172075973 0.06088522715
725.625 0.07341677904 0.02636978673
726.25 0.05597216843 0.01398108034
726.875 0.02994850038 0.02283792877
727.5 0.00412933629 0.04307852519
728.125 -0.03121686295 0.05786889592
728.75 -0.03481764557 0.05799027711
729.375 -0.006245657986 0.05359531182
730.0 0.0001199434206 0.04296793362
730.625 -0.02025992057 0.04154661234
731.25 -0.03636677564 0.02718369415
731.875 -0.04157386955 0.003513300321
732.5 -0.03707971274 -0.01505897335
733.125 -0.02482855863 -0.0157194084
733.75 -0.01023177172 -0.003166304852
734.375 0.003284362306 -0.00308052631
735.0 0.003949744767 -0.01011898155
735.625 0.004521454418 -0.01236750896
736.25 0.003265468329 -0.02287893432
736.875 -0.01192765438 -0.02961054012
737.5 -0.02611988079 -0.01767266167
738.125 -0.03028338152 0.004462754085
738.75 -0.01977943967 0.03063407398
739.375 0.004817066162 0.04108494943
740.0 0.02382393201 0.02460321782
740.625 0.0211871082 0.01527508703
741.25 0.01848476775 0.0289087105
741.875 -0.005660662498 0.04158444135
742.5 -0.0405044923 0.01641706929
743.125 -0.03948080998 -0.03174516954
743.75 -0.01239589409 -0.05932809637
744.375 -0.008007728684 -0.06495833596
745.0 -0.02763120172 -0.0642338495
745.625 -0.05915936895 -0.04064269804
746.25 -0.04309330886 -0.008761910615
746.875 -0.01960924381 -0.01143050362
747.5 -0.02795703613 -0.01838932294
748.125 -0.05058257013 -0.003573091081
748.75 -0.05229144505 0.03539684471
749.375 -0.007540446338 0.06831125203
750.0 0.06546169435 0.04939515793
