!Created with skrf (http://scikit-rf.org).
# GHz S RI R 50.0 
!freq ReS11 ImS11
500.0 -0.007688640987 -0.002834100393
500.625 -0.0006834418278 -0.001359632439
501.25 -0.01198188042 -0.01676989493
501.875 -0.04568809566 -0.02549314063
502.5 -0.03270985685 -0.0159676147
503.125 -0.01824341841 0.004767758904
503.75 -0.01494275661 0.00453236688
504.375 -0.02149376823 0.004454279156
505.0 -0.01326817117 0.004054650963
505.625 -0.009918619379 -0.005144860398
506.25 -0.03045901486 -0.004548513965
506.875 -0.06528415332 -0.03340537934
507.5 -0.06657210417 -0.008963231359
508.125 -0.05309044096 -0.02534385418
508.75 -0.07592175294 0.01923438386
509.375 -0.08578515291 0.03665671836
510.0 -0.06155230757 0.02301101857
510.625 -0.003425951148 0.03179097797
511.25 -0.01600939998 0.04464326892
511.875 0.003358538221 0.06455871749
512.5 0.03293355396 0.03699589923
513.125 0.06171412362 -0.02713297656
513.75 0.07403540118 -0.06929113289
514.375 0.03483282741 -0.07731968426
515.0 -0.003136434472 -0.06588366534
515.625 0.03285216101 -0.07197296655
516.25 0.01224367606 -0.08424177569
516.875 0.07836559936 -0.005642039496
517.5 0.06148440385 -0.05126541554
518.125 0.1853412049 -0.006038815008
518.75 0.04948467619 -0.1141884454
519.375 0.04102592968 -0.07148455937
520.0 0.00463273619 -0.06405051183
520.625 -0.005340514044 -0.1023809326
521.25 -0.02373677695 -0.1061946552
521.875 0.0131391575 -0.05712524603
522.5 -0.02422438071 -0.06739921261
523.125 -0.05861572452 -0.1929050734
523.75 -0.1228754358 -0.2777121333
524.375 -0.08643419914 -0.2721191023
525.0 -0.07897487903 -0.1212567082
525.625 -0.07477457276 -0.1055417745
526.25 -0.03664651335 -0.09815268649
526.875 -0.05201565167 -0.06587534347
527.5 -0.09681136313 -0.04315769492
528.125 -0.1028061527 -0.001859070636
528.75 -0.08650090747 0.006382017088
529.375 -0.08601720617 0.08556572137
530.0 -0.01426761074 0.1516202589
530.625 0.09274459042 0.1217387189
531.25 0.06225235234 0.08427928469
531.875 0.07122003514 0.07237419139
532.5 0.09675826365 0.1225588475
533.125 0.0719447258 0.1150145082
533.75 0.06787774855 0.06395991554
534.375 0.07403135902 0.05230998903
535.0 0.1096492389 0.08020572298
535.625 0.05286606564 0.1005426798
536.25 0.08996970974 0.02436042182
536.875 0.1073064244 0.03753302185
537.5 0.07062088135 0.07570907509
538.125 0.04477949532 0.06754403339
538.75 0.077697478 0.06689596822
539.375 0.1122546169 0.1211394042
540.0 0.09833081426 0.1111190787
540.625 0.07845287188 0.07208782064
541.25 0.08306583206 0.06942332584
541.875 0.0934178232 0.09071693224
542.5 0.03115937498 0.06665636915
543.125 0.02313268003 0.03411982352
543.75 0.06914932959 0.02993261743
544.375 0.1193837251 0.03354688068
545.0 0.105869496 -0.04792516997
545.625 0.04471890383 -0.08698154466
546.25 -0.01022904071 -0.1168468698
546.875 0.003135297799 -0.1252041547
547.5 0.02553429604 -0.1181997858
548.125 0.03301079106 -0.1315839786
548.75 0.07613162915 -0.1292014141
549.375 0.1274821368 -0.1072960401
550.0 0.1451560861 -0.0431506242
550.625 0.1636727006 -0.07346009054
551.25 0.179422922 0.02052922713
551.875 0.1269798265 -0.01582424923
552.5 0.09360367382 -0.04306769265
553.125 0.08865378476 -0.08377354663
553.75 0.1092705444 -0.0524267798
554.375 0.05873591417 -0.03441848359
555.0 0.04968345717 -0.04096006688
555.625 0.0654905585 -0.06744136467
556.25 0.09012322901 -0.04746702639
556.875 0.06445694819 -0.01384272718
557.5 0.05902042931 -0.01333036345
558.125 0.09637292214 0.00854654444
558.75 0.08969389594 0.05959874017
559.375 0.0974763777 0.04694363691
560.0 0.1181421831 0.02704036009
560.625 0.1353341621 -0.003050860422
561.25 0.09802130581 -0.03299636107
561.875 0.06387627458 -0.05746164447
562.5 0.05824143277 -0.07660045753
563.125 0.04621509397 -0.0716414086
563.75 0.02740212077 -0.05377766191
564.375 0.01566225248 -0.06002273702
565.0 0.05349720872 -0.1000470384
565.625 0.07719692161 -0.08539183828
566.25 0.07029105675 -0.06549873063
566.875 0.06707994635 -0.06874433284
567.5 0.0952969464 -0.05226505482
568.125 0.1080250096 0.007360471546
568.75 0.09819164407 0.02041307376
569.375 0.1238067144 0.01344549784
570.0 0.1335666693 0.009488154585
570.625 0.1132364879 -0.005322984372
571.25 0.09629383838 -0.02785459019
571.875 0.1032232471 -0.05525565532
572.5 0.06880953959 -0.06990128734
573.125 0.03084450921 -0.05591365747
573.75 0.02446651276 -0.06484087111
574.375 0.03749288459 -0.09406688747
575.0 0.03160641868 -0.09492254121
575.625 -0.0004540687165 -0.06599936752
576.25 -0.01126198708 -0.06727553425
576.875 0.02095813337 -0.08265131027
577.5 0.03814614032 -0.06916495305
578.125 0.03232218043 -0.06775545438
578.75 0.02225317602 -0.09312528916
579.375 0.04472497116 -0.1146625537
580.0 0.05535219279 -0.09178188076
580.625 0.02988295347 -0.107552783
581.25 -0.006554757353 -0.1313468865
581.875 -0.001859849784 -0.1108924228
582.5 0.01472548652 -0.06869808011
583.125 0.02020030612 -0.06841645655
583.75 0.04221774297 -0.09033138422
584.375 0.05244994251 -0.07366967559
585.0 0.04433058789 -0.04739037275
585.625 0.05254683415 -0.04432768892
586.25 0.0734357216 -0.05077537869
586.875 0.06073558019 -0.04682584039
587.5 0.0364057907 -0.0512864945
588.125 0.02779530805 -0.07645387678
588.75 0.05046997838 -0.08586177448
589.375 0.02337682462 -0.09918194254
590.0 -0.03708841248 -0.09453105931
590.625 -0.08087052272 -0.08222475028
591.25 -0.04653030291 -0.06233945076
591.875 -0.01939344951 -0.03436668607
592.5 -0.01749163167 -0.03752579635
593.125 -0.02175598413 -0.06600569935
593.75 0.005520037171 -0.07226922618
594.375 0.03222849313 -0.04693994333
595.0 0.04653544901 -0.04589140737
595.625 0.07243345574 -0.04722267728
596.25 0.07826587689 -0.02873188606
596.875 0.06629534501 -0.01099062848
597.5 0.0685209933 -0.003955660834
598.125 0.08228386028 -0.004447160999
598.75 0.08364521461 -0.02325708634
599.375 0.07983084764 -0.04102442224
600.0 0.07652594052 -0.04526375339
600.625 0.0610484454 -0.03938924206
601.25 0.03572626217 -0.03681397312
601.875 0.02485376405 -0.0306779829
602.5 0.02799172648 -0.01531542334
603.125 0.02135701369 0.004432611216
603.75 0.02079872945 0.01307234857
604.375 0.03406131929 0.01361215
605.0 0.04169904401 0.01370934126
605.625 0.02306339277 0.01244622315
606.25 0.001804759487 0.01657601674
606.875 -0.001576647419 0.03455579417
607.5 0.01554514085 0.0474960138
608.125 0.03319891056 0.03538668523
608.75 0.03212440857 0.02456569327
609.375 0.02941452762 0.02760988561
610.0 0.02941963903 0.02909575603
610.625 0.03115023218 0.01672344668
611.25 0.02645612464 0.003784913383
611.875 0.01723217028 -0.004592183365
612.5 0.004761748219 -0.01182690764
613.125 -0.009411180195 -0.01038515016
613.75 -0.01315732709 -7.130938825e-05
614.375 -0.004348845041 0.004000563661
615.0 0.00321708008 -0.004672760115
615.625 -0.002727189932 -0.01404214637
616.25 -0.01021180482 -0.007936040676
616.875 -0.002756087242 0.000993153773
617.5 0.009867659351 -0.004295726612
618.125 0.01465244595 -0.01447104398
618.75 0.01508178034 -0.0154821443
619.375 0.02426724849 -0.01218470712
620.0 0.04017357092 -0.02249466391
620.625 0.03870666075 -0.05069453648
621.25 0.03609297394 -0.06290858314
621.875 0.02222443171 -0.07377542308
622.5 -0.04186922762 -0.05949351904
623.125 -0.04230965862 -0.03307597918
623.75 -0.02275222416 -0.02214709692
624.375 -0.0007839712652 -0.02626811106
625.0 0.01918774771 -0.02394263583
625.625 0.01825768735 -0.01327397073
626.25 0.0248230121 -0.001061645268
626.875 0.05020956339 -0.005260507687
627.5 0.07649163066 0.002783050302
628.125 0.07220930557 0.01106567626
628.75 0.068038364 0.01058771778
629.375 0.0837570787 0.01280174828
630.0 0.09986164911 0.03455043444
630.625 0.08140690739 0.04719024987
631.25 0.07871957385 0.0330939095
631.875 0.08306498147 0.03067269799
632.5 0.07403665796 0.03425848001
633.125 0.04881681405 0.04121838438
633.75 0.05137239598 0.03209646848
634.375 0.05505665173 0.04543946121
635.0 0.04643604996 0.0437136619
635.625 0.04510288782 0.04575881121
636.25 0.06291510524 0.05735664589
636.875 0.06719696388 0.06854156765
637.5 0.04438038846 0.05219565231
638.125 0.03225524809 0.05428207991
638.75 0.0416661288 0.09862272994
639.375 -0.001772175797 0.1228710629
640.0 -0.02176496023 0.09144971615
640.625 -0.01258425806 0.07558116995
641.25 -0.03395952766 0.09116677857
641.875 -0.0775550264 0.06465581274
642.5 -0.06765516154 0.03910938301
643.125 -0.06203738733 0.04604918767
643.75 -0.08512276304 0.04561425494
644.375 -0.1043695486 0.02724119605
645.0 -0.09415487046 0.02582165656
645.625 -0.09566858192 0.05867092595
646.25 -0.1011452667 0.07452049474
646.875 -0.09599114146 0.04719376926
647.5 -0.084464548 0.03440217143
648.125 -0.09921446465 0.04542520432
648.75 -0.1141055636 0.02120887593
649.375 -0.08293977309 0.001840878575
650.0 -0.06612754918 -0.01346379703
650.625 -0.06361338456 -0.05549184675
651.25 -0.02929803063 -0.080535436
651.875 0.007365695618 -0.07116453303
652.5 0.02963739664 -0.07695257839
653.125 0.0891717801 -0.09415144081
653.75 0.1218435965 -0.05370979574
654.375 0.1156306842 -0.04520411977
655.0 0.124826366 -0.06387455213
655.625 0.1412890231 -0.06135426993
656.25 0.1100476345 -0.03669915522
656.875 0.07148508633 -0.06351237776
657.5 0.09257715423 -0.07478272762
658.125 0.1032026086 -0.0536422102
658.75 0.07535688836 -0.02378348841
659.375 0.05798219581 -0.02907555315
660.0 0.07730758349 -0.06710292217
660.625 0.09186642845 -0.07805976615
661.25 0.07659511013 -0.08543656868
661.875 0.04269954856 -0.1164998265
662.5 0.02534467462 -0.1477133627
663.125 0.04774893195 -0.1397605492
663.75 0.07708136574 -0.1031128455
664.375 0.1318253725 -0.05925079892
665.0 0.1336047646 0.0392523203
665.625 0.08688457901 0.05839786411
666.25 0.06625705639 0.05946157157
666.875 0.05216135275 0.1029857944
667.5 -0.02383344211 0.1213903256
668.125 -0.04138261581 0.08417250113
668.75 -0.01431764325 0.1011315509
669.375 -0.001849904663 0.1446184801
670.0 -0.03834337045 0.1429738894
670.625 -0.05044814016 0.09610655506
671.25 -0.004541325948 0.1149748537
671.875 0.03565011044 0.1454238153
672.5 0.08000994412 0.1172215458
673.125 0.07305602036 0.07669804523
673.75 0.06287439488 0.07639528997
674.375 0.03605922076 0.1071796652
675.0 -0.01125894082 0.1083380843
675.625 -0.03778880837 0.1031338231
676.25 -0.1005757572 0.09459667012
676.875 -0.1265449709 0.05142184128
677.5 -0.1247027494 0.04914390027
678.125 -0.121322425 0.08818238278
678.75 -0.1621018647 0.09003766291
679.375 -0.1285399702 0.02222921218
680.0 -0.08593622531 0.03356775625
680.625 -0.08338019176 0.06693680948
681.25 -0.1005752151 0.09370856632
681.875 -0.0914889279 0.05445777268
682.5 -0.05544424481 0.04937274832
683.125 -0.06224175107 0.08744802894
683.75 -0.1088883621 0.09790049523
684.375 -0.1471910414 0.008600298823
685.0 -0.09842452054 -0.07904077528
685.625 -0.04794634929 -0.1405658498
686.25 0.01864461057 -0.1652080252
686.875 0.04555691908 -0.1575455057
687.5 0.0703217508 -0.1454047083
688.125 0.09195866529 -0.1059440386
688.75 0.08682147463 -0.05873634147
689.375 0.07676218358 -0.04363838601
690.0 0.1070694363 -0.05033383464
690.625 0.134488454 -0.01104231748
691.25 0.1030652528 -0.01591688407
691.875 0.08005022876 -0.07274494937
692.5 -0.01197126995 -0.1699542518
693.125 -0.1544801425 -0.1566828503
693.75 -0.1527017128 -0.04592593483
694.375 -0.1363032704 0.009423532454
695.0 -0.1582066334 -0.04728687349
695.625 -0.06189181043 -0.1661565172
696.25 0.09813815386 -0.08481493092
696.875 0.1057879817 0.0111414922
697.5 0.06785801449 0.08854077382
698.125 0.01798999602 0.1113703705
698.75 -4.329215745e-06 0.1211873202
699.375 -0.008209780783 0.1397352911
700.0 -0.03511188244 0.1280296205
700.625 -0.06341149068 0.1032406856
701.25 -0.05960715608 0.1201019812
701.875 -0.05343724253 0.1725879807
702.5 -0.006146901028 0.1337156789
703.125 0.03674194417 0.07391182834
703.75 0.07768768107 0.03151121289
704.375 0.155723567 0.02068531296
705.0 0.1525518894 0.06057196609
705.625 0.08389494235 0.07335588693
706.25 0.03743233171 0.1034841233
706.875 -0.08534733575 0.1311278936
707.5 -0.1710178097 0.04103973165
708.125 -0.1316809025 -0.03178299324
708.75 -0.1105435328 -0.05905151816
709.375 -0.04635169394 -0.1155325711
710.0 0.04225513203 -0.1112315688
710.625 0.07220959837 -0.07723608571
711.25 0.07907308941 -0.05944575537
711.875 0.06487334013 -0.04256687831
712.5 0.0566520924 -0.03785242503
713.125 0.03967185377 -0.092616322
713.75 -0.04804366755 -0.137634906
714.375 -0.108985836 -0.08789483147
715.0 -0.1239247367 -0.02648303354
715.625 -0.1494940894 -0.01833591947
716.25 -0.1463913616 -0.100141532
716.875 -0.04696920362 -0.1216960358
717.5 0.007011295131 -0.092998789
718.125 0.03160337407 -0.0962716415
718.75 0.07799405223 -0.08679799617
719.375 0.08857672495 -0.03268024279
720.0 0.06334876894 0.006803648988
720.625 0.02984221135 0.05356136488
721.25 -0.06199112514 0.04510570227
721.875 -0.08714399714 -0.04530160007
722.5 -0.08380079487 -0.07228131361
723.125 -0.126581724 -0.02452285951
723.75 -0.1013071912 0.06892752023
724.375 -0.02160927403 0.09842658353
725.0 0.03861829909 0.07474596174
725.625 0.05571451021 0.04484692189
726.25 0.04036850765 0.0278296323
726.875 0.0129438163 0.03212607681
727.5 -0.01957788305 0.04747055249
728.125 -0.05556234393 0.04724289639
728.75 -0.05189753131 0.04630782919
729.375 -0.02192323716 0.05046735658
730.0 -0.0161629254 0.04314905998
730.625 -0.03465726099 0.03533813999
731.25 -0.04257336511 0.01663167382
731.875 -0.04090055898 -0.006379088441
732.5 -0.03035576078 -0.02227908727
733.125 -0.01578283543 -0.01772903047
733.75 -0.002435341042 -0.004269805241
734.375 0.009459477046 -0.005022726936
735.0 0.007435412012 -0.01398630715
735.625 0.005864219402 -0.01540182967
736.25 0.003341191342 -0.02417301653
736.875 -0.01203241858 -0.02922654003
737.5 -0.02688001252 -0.01615003674
738.125 -0.03278002691 0.006714411941
738.75 -0.02443976243 0.03257472019
739.375 -0.001694844711 0.04261257277
740.0 0.01645767114 0.02820570069
740.625 0.01359573056 0.0221742238
741.25 0.008547379796 0.03543539558
741.875 -0.0167973604 0.03875894817
742.5 -0.04359155596 0.005430649835
743.125 -0.02789015709 -0.04215867555
743.75 0.006079960766 -0.05762960732
744.375 0.009286543124 -0.05964622445
745.0 -0.009311468906 -0.0635880393
745.625 -0.03731310619 -0.04918752791
746.25 -0.02395380692 -0.02197320331
746.875 -0.008257814512 -0.02636731141
747.5 -0.02552938146 -0.03375016614
748.125 -0.05316875942 -0.02108389938
748.75 -0.06343241928 0.01826935439
749.375 -0.0297712976 0.06436896791
750.0 0.04993009549 0.0715205761
