!Created with skrf (http://scikit-rf.org).
# GHz S RI R 50.0 
!freq ReS11 ImS11
500.0 -0.01732150685 -0.005865407988
500.625 -0.01387641327 0.002576720207
501.25 -0.02638639285 -0.005534607678
501.875 -0.06858895642 -0.001813821211
502.5 -0.06051174143 -0.001419780368
503.125 -0.03221957387 0.01961858252
503.75 -0.01808513724 0.02402226642
504.375 -0.01804677804 0.03124232063
505.0 -0.004774701653 0.03173517501
505.625 -0.0002774972128 0.01674008495
506.25 -0.009454896216 0.01617343077
506.875 -0.05848919252 0.01799749603
507.5 -0.05659599956 0.0388007278
508.125 -0.05462194812 0.01537307021
508.75 -0.04351901123 0.05248215486
509.375 -0.04895575116 0.08442325371
510.0 -0.04549169023 0.06904773268
510.625 0.0238973798 0.02549010441
511.25 0.01828584653 0.0310979754
511.875 0.03381026876 0.04130762607
512.5 0.04340342153 0.0169135105
513.125 0.03731628809 -0.04868359927
513.75 0.02060283773 -0.1026391732
514.375 -0.01791739137 -0.09524132149
515.0 -0.04799012521 -0.06017691214
515.625 -0.02701551834 -0.07905777233
516.25 -0.06410693753 -0.05893015143
516.875 0.03282332906 -0.05321381113
517.5 0.01932885637 -0.04937783044
518.125 0.1171462347 -0.06618245717
518.75 -0.02050975653 -0.1135391177
519.375 -0.007946207158 -0.08259757646
520.0 -0.02742099757 -0.04496641627
520.625 -0.04948915381 -0.0581853973
521.25 -0.07233746958 -0.06743077704
521.875 -0.01810366597 -0.04804475299
522.5 -0.03588906145 -0.03366852162
523.125 -0.09754846532 -0.1033617631
523.75 -0.206264836 -0.1799790518
524.375 -0.1518298459 -0.2209918461
525.0 -0.1035386897 -0.07853576196
525.625 -0.1194561048 -0.06241451196
526.25 -0.08467224347 -0.07753741258
526.875 -0.0754534243 -0.03941922974
527.5 -0.1007265455 0.008172489008
528.125 -0.09449358121 0.0642495067
528.75 -0.08003293835 0.05039459046
529.375 -0.03986128928 0.1058789816
530.0 0.06138332734 0.1374729287
530.625 0.175231978 0.076692712
531.25 0.1320499372 0.07272831242
531.875 0.106326087 0.009947245221
532.5 0.1438790539 0.01323081565
533.125 0.1355384199 0.04986724557
533.75 0.09634638775 0.0203056746
534.375 0.07892685235 0.001680904875
535.0 0.1180910465 -0.005569545534
535.625 0.101721181 0.06106676142
536.25 0.09571439222 -0.01317144223
536.875 0.1171732945 -0.028551056
537.5 0.1146761436 0.0090259083
538.125 0.08179642242 0.01899769599
538.75 0.08904598238 0.01804619715
539.375 0.1494698333 0.02934334162
540.0 0.1732883408 0.0521953648
540.625 0.1222178228 0.02043773405
541.25 0.1081154493 0.01063691014
541.875 0.1389250156 0.005027587612
542.5 0.1004811342 0.02768221329
543.125 0.04138572476 -0.002399064295
543.75 0.04061288282 -0.0199362045
544.375 0.08955253472 -0.03834486814
545.0 0.06025405068 -0.09348389954
545.625 -0.00147179547 -0.0924623965
546.25 -0.06184335 -0.07311539804
546.875 -0.07353342786 -0.09595941326
547.5 -0.04076315793 -0.1094490763
548.125 -0.03214943994 -0.1072405265
548.75 -0.003966767202 -0.1265169337
549.375 0.04628440179 -0.149823668
550.0 0.1131754175 -0.09159189829
550.625 0.1063889791 -0.1099054412
551.25 0.1709191945 -0.0784400021
551.875 0.125820573 -0.08091185933
552.5 0.08083584266 -0.0878013534
553.125 0.03766760163 -0.1161486249
553.75 0.05882316885 -0.1264324895
554.375 0.0410707782 -0.08634762938
555.0 0.01610219354 -0.07079347341
555.625 0.005575189402 -0.09239434067
556.25 0.03283592309 -0.1044665361
556.875 0.04103694814 -0.06791458778
557.5 0.02693911833 -0.04403305611
558.125 0.05657468411 -0.05089869914
558.75 0.09093095735 -0.004794876876
559.375 0.09456247763 -0.002689937672
560.0 0.106961497 -0.02133497968
560.625 0.1154382387 -0.07362218523
561.25 0.08586787281 -0.08847077597
561.875 0.03181355161 -0.08922236815
562.5 -0.006841689296 -0.1021909654
563.125 -0.01762039755 -0.09894396864
563.75 -0.02500069403 -0.07167086863
564.375 -0.0283318884 -0.04616809929
565.0 -0.02739232407 -0.07876099705
565.625 0.004618481047 -0.1141173066
566.25 0.02746711317 -0.08895176361
566.875 0.01987334641 -0.08375927929
567.5 0.03605079768 -0.08775436149
568.125 0.0796051151 -0.06231837387
568.75 0.08886261096 -0.02056768078
569.375 0.09735551645 -0.03881489903
570.0 0.1190053644 -0.0569823895
570.625 0.1027190143 -0.06426873986
571.25 0.07865256953 -0.07161586247
571.875 0.058424729 -0.1009657253
572.5 0.02335980541 -0.1278102459
573.125 -0.009455333111 -0.08928234666
573.75 -0.02999728995 -0.06258195977
574.375 -0.0359046787 -0.09124188215
575.0 -0.04327121016 -0.1048591293
575.625 -0.04355103256 -0.06524195899
576.25 -0.05247460347 -0.03883329571
576.875 -0.05503686472 -0.05663567909
577.5 -0.0183541894 -0.06846172605
578.125 -0.007513304652 -0.06426360787
578.75 -0.02408774971 -0.06681243643
579.375 -0.03307535822 -0.09587780147
580.0 0.00215627907 -0.1089989203
580.625 -0.01174932421 -0.1039369035
581.25 -0.06512689863 -0.1091629617
581.875 -0.07144625581 -0.1066173556
582.5 -0.03805321898 -0.0861910718
583.125 -0.02419579057 -0.06918118256
583.75 -0.02928248711 -0.09210291606
584.375 -0.004405945989 -0.1025779326
585.0 0.006083719256 -0.07399735105
585.625 0.00675415897 -0.06366162606
586.25 0.0182824709 -0.07864525464
586.875 0.02076888182 -0.08152237249
587.5 -0.0001938224492 -0.06266914047
588.125 -0.02780343221 -0.059229412
588.75 -0.01359065317 -0.08882990232
589.375 -0.02938929853 -0.09707647689
590.0 -0.06875179925 -0.07153918423
590.625 -0.1126259632 -0.02683229699
591.25 -0.1069583045 -0.02638954112
591.875 -0.05996290895 -0.01766405878
592.5 -0.042913741 -0.008234700538
593.125 -0.05698266239 -0.01828161114
593.75 -0.05198201793 -0.04623866078
594.375 -0.007868606284 -0.05077663954
595.0 0.009132472892 -0.04637573004
595.625 0.02436051284 -0.06500427875
596.25 0.04336828335 -0.06495003677
596.875 0.04622117859 -0.04452148874
597.5 0.04613860009 -0.03445012605
598.125 0.05595276066 -0.04206779752
598.75 0.05850713621 -0.05498636987
599.375 0.05297380415 -0.06653929561
600.0 0.05176316369 -0.07744419389
600.625 0.0475122742 -0.07448743641
601.25 0.02431862828 -0.06560974619
601.875 0.004513048451 -0.05489064776
602.5 0.006211333521 -0.04755702737
603.125 0.01482330997 -0.02704538782
603.75 0.01555193824 -0.009807734839
604.375 0.02470242795 -0.008973136146
605.0 0.0367918675 -0.01674252191
605.625 0.03002532421 -0.01366378418
606.25 0.009212125218 -0.001732990572
606.875 0.004376607871 0.01538746684
607.5 0.02205520387 0.02658929227
608.125 0.03785445017 0.01662424156
608.75 0.03503731944 0.009747635017
609.375 0.0336624238 0.0142959275
610.0 0.03700402327 0.01801441509
610.625 0.03810600124 0.008465039958
611.25 0.03249859651 -0.00191912529
611.875 0.02316219941 -0.007654724379
612.5 0.009513941219 -0.01281287177
613.125 -0.006713247094 -0.01065059727
613.75 -0.01246183131 0.0001481238478
614.375 -0.005693511628 0.004481796245
615.0 -0.0001779817447 -0.003667536512
615.625 -0.008568431037 -0.01261989537
616.25 -0.01806876605 -0.006254720086
616.875 -0.01205262777 0.002987690011
617.5 -0.001640775152 -0.001489934837
618.125 -0.000540790712 -0.01284821723
618.75 -0.001535173138 -0.01602338363
619.375 0.00762227426 -0.01388770765
620.0 0.01997730513 -0.02320403712
620.625 0.01516837257 -0.04942162677
621.25 0.01252971951 -0.06794758903
621.875 -0.0007109396292 -0.08007684649
622.5 -0.06791844312 -0.04825196692
623.125 -0.07178436192 -0.02128539321
623.75 -0.05291529731 -0.01650511667
624.375 -0.03342538065 -0.02875372868
625.0 -0.01448122427 -0.04412464914
625.625 -0.01313086033 -0.03629404091
626.25 -0.004947727633 -0.01661511025
626.875 0.01295126794 -0.01893281445
627.5 0.0412618876 -0.03515942231
628.125 0.05692462991 -0.02916259431
628.75 0.05269882922 -0.02207416001
629.375 0.05899382374 -0.02376356786
630.0 0.0888561037 -0.02388864718
630.625 0.1016745642 0.003041340319
631.25 0.09037801336 -0.00338054189
631.875 0.09216945071 -0.02036858912
632.5 0.09383528345 -0.02432965642
633.125 0.08441807433 -0.001595791535
633.75 0.06917176819 -0.009421038847
634.375 0.07827630025 -0.01361436181
635.0 0.07205480389 -0.0124151263
635.625 0.05919824726 -0.00564800758
636.25 0.071001566 0.0003441783287
636.875 0.09356976772 0.005434096548
637.5 0.07982264861 0.002828330794
638.125 0.05070522132 0.009869651028
638.75 0.06604299543 0.03276055015
639.375 0.07181965718 0.09597750334
640.0 0.03468590983 0.1008457431
640.625 0.03127980832 0.07451071027
641.25 0.04022696316 0.07982224381
641.875 0.002937801578 0.1089086011
642.5 -0.03472223691 0.08136087089
643.125 -0.02267769956 0.07092745369
643.75 -0.02061738641 0.08530427053
644.375 -0.04224993926 0.09262258453
645.0 -0.06214041065 0.07887699947
645.625 -0.04570884548 0.08570446719
646.25 -0.02976739077 0.1197440318
646.875 -0.04099360218 0.1112821663
647.5 -0.04340290005 0.08767261139
648.125 -0.04783217792 0.08992766985
648.75 -0.07837939 0.1001051162
649.375 -0.08057937725 0.06929743816
650.0 -0.06401981475 0.04529593048
650.625 -0.07957208718 0.02495458165
651.25 -0.08357841785 -0.02547222153
651.875 -0.04864375858 -0.05158036585
652.5 -0.02569071574 -0.05305567529
653.125 -0.009043876715 -0.09078931006
653.75 0.05986090531 -0.1126463523
654.375 0.07969682838 -0.08851714178
655.0 0.06828060881 -0.1019007586
655.625 0.06679746363 -0.1375803147
656.25 0.07372257933 -0.1307313
656.875 0.03458892575 -0.1051924972
657.5 0.02132466454 -0.1176785149
658.125 0.03447034081 -0.1365373014
658.75 0.02726381685 -0.1066653691
659.375 0.009176174237 -0.06743449005
660.0 -0.00856174297 -0.07640424154
660.625 -0.0009491666527 -0.1065609438
661.25 -0.001311006288 -0.1055502518
661.875 -0.03075768605 -0.09818621663
662.5 -0.06782380042 -0.1142949136
663.125 -0.05040099455 -0.1371017939
663.75 0.009685245568 -0.1329580917
664.375 0.06111882605 -0.1195467605
665.0 0.138820339 -0.08516936755
665.625 0.129800207 -0.01231718057
666.25 0.1040307435 0.006120275838
666.875 0.1076392769 0.02052146816
667.5 0.1016404919 0.08072068761
668.125 0.03666159664 0.09356007043
668.75 0.03923714102 0.07458543474
669.375 0.07692403421 0.08635446564
670.0 0.08169612447 0.1217481994
670.625 0.03471875986 0.1196683282
671.25 0.05417528753 0.08936641239
671.875 0.1167242675 0.0775598357
672.5 0.1559135603 0.03021476646
673.125 0.1309441167 0.001247361022
673.75 0.1042206826 -0.001231973611
674.375 0.1019046101 0.03340405204
675.0 0.07221208694 0.08092234078
675.625 0.03943625272 0.08767875564
676.25 0.01235953992 0.1136628751
676.875 -0.05337385023 0.1188333941
677.5 -0.07076425772 0.1046661634
678.125 -0.05531574847 0.1144044617
678.75 -0.0526870138 0.162820326
679.375 -0.1063926271 0.1428667946
680.0 -0.06527615501 0.09818517976
680.625 -0.02231066008 0.1050835854
681.25 0.01748308195 0.1405446901
681.875 0.01023462723 0.1416027963
682.5 0.007871298177 0.08350695238
683.125 0.02143523816 0.07577312601
683.75 0.003557152955 0.1178812691
684.375 -0.07931912623 0.1097519717
685.0 -0.1180133707 0.00700136005
685.625 -0.1017385948 -0.06449982319
686.25 -0.08059397208 -0.129989927
686.875 -0.05188937723 -0.1528724402
687.5 -0.03073570431 -0.1608129978
688.125 -0.01024764202 -0.1732597264
688.75 0.02569638663 -0.1354501629
689.375 0.02795853002 -0.1008954357
690.0 0.02087101708 -0.1070315827
690.625 0.04815897996 -0.1356957153
691.25 0.05252693211 -0.0966474167
691.875 0.01061715001 -0.08511498727
692.5 -0.07855406335 -0.08455689534
693.125 -0.1952048299 0.007352408309
693.75 -0.1823943351 0.0724981577
694.375 -0.1129412819 0.08255960805
695.0 -0.1366868371 0.06412888314
695.625 -0.1679728266 -0.0642841364
696.25 0.004620932059 -0.1673708131
696.875 0.09829353649 -0.07359917186
697.5 0.1176660561 -0.006099634015
698.125 0.09811001055 0.04496245266
698.75 0.0799065196 0.06866126152
699.375 0.08117257422 0.08762262282
700.0 0.06069930333 0.1156087378
700.625 0.01720131365 0.1209837899
701.25 0.01776482155 0.1198578307
701.875 0.0788608259 0.1425176046
702.5 0.1317824224 0.1324719085
703.125 0.1163284341 0.03203124253
703.75 0.06922710198 -0.0427624437
704.375 0.06777896113 -0.0945171107
705.0 0.1366517412 -0.1029474896
705.625 0.1226641657 -0.002182320448
706.25 0.07553573619 0.04666804181
706.875 0.02481540794 0.1139502176
707.5 -0.08179986405 0.14091966
708.125 -0.1458557729 0.05655698098
708.75 -0.124849798 0.01299188859
709.375 -0.1183683389 -0.05077634674
710.0 -0.06041167882 -0.1121519688
710.625 -0.00539141181 -0.1234396776
711.25 0.01433937321 -0.1183008049
711.875 0.002144232809 -0.1065791196
712.5 -0.01694613803 -0.07387018099
713.125 -0.04389194255 -0.05425739641
713.75 -0.1046404757 -0.0301740336
714.375 -0.1293546941 0.009558799004
715.0 -0.1067885362 0.04494279046
715.625 -0.106458725 0.05610166272
716.25 -0.1585528736 0.03394499779
716.875 -0.1467774261 -0.06909554421
717.5 -0.06127578742 -0.09504958163
718.125 -0.04308525604 -0.08876361945
718.75 -0.02374163839 -0.1147809472
719.375 0.03315128562 -0.113570958
720.0 0.06342522036 -0.05412649961
720.625 0.06471993453 -0.001358629665
721.25 0.01537759531 0.05904889182
721.875 -0.06537657809 0.03134616303
722.5 -0.09095218857 -0.004878575855
723.125 -0.1020326918 0.04717926604
723.75 -0.0380222776 0.116792828
724.375 0.04920018004 0.09364295641
725.0 0.08313311939 0.0311938513
725.625 0.08439087334 -0.007904358217
726.25 0.06920634543 -0.01412747711
726.875 0.04816432968 0.002362033524
727.5 0.03039093261 0.02526071193
728.125 0.00609672358 0.05550610415
728.75 -0.004492156351 0.06394350094
729.375 0.01624729214 0.05085920843
730.0 0.02050591051 0.0345656529
730.625 0.001947330498 0.04062864918
731.25 -0.021438139 0.03810418847
731.875 -0.03751787724 0.01715594467
732.5 -0.04178214674 -0.00248581792
733.125 -0.03537065984 -0.008078960842
733.75 -0.02001955135 0.002507614106
734.375 -0.004065371098 0.00261800325
735.0 0.0009521577656 -0.003485286161
735.625 0.003843398497 -0.007738894783
736.25 0.003129598731 -0.02075646099
736.875 -0.01253709131 -0.02969795509
737.5 -0.02655673645 -0.01991026331
738.125 -0.02881759119 7.415254453e-05
738.75 -0.01501008512 0.02513320898
739.375 0.01241782452 0.03507521045
740.0 0.03145423909 0.01558499995
740.625 0.02624630288 0.001841898112
741.25 0.02666896023 0.0139086548
741.875 0.01092820047 0.03792486871
742.5 -0.03056083818 0.0295174058
743.125 -0.04703632551 -0.01194715926
743.75 -0.03754723394 -0.04744060911
744.375 -0.03574818978 -0.06056195216
745.0 -0.05274024403 -0.05500301713
745.625 -0.08019696693 -0.01684356081
746.25 -0.0585076362 0.02090013396
746.875 -0.02567800832 0.01659930693
747.5 -0.0235040479 0.003255581615
748.125 -0.03655281034 0.01706532626
748.75 -0.02651620558 0.05009714676
749.375 0.02480108916 0.05919685531
750.0 0.07202110937 0.01165508105
