!Created with skrf (http://scikit-rf.org).
# GHz S RI R 50.0 
!freq ReS11 ImS11
500.0 -0.01291883658 0.0005331985822
500.625 -0.002435546317 -0.003105171818
501.25 -0.01684251312 -0.01781956187
501.875 -0.04956412325 -0.02314797392
502.5 -0.0385541224 -0.01301652274
503.125 -0.02021090294 0.006450026348
503.75 -0.01666661408 0.008060394778
504.375 -0.02275580037 0.008273552802
505.0 -0.01349469592 0.009059891056
505.625 -0.007947028974 -0.001941698138
506.25 -0.02825847136 0.0005359797899
506.875 -0.06604366418 -0.02523551558
507.5 -0.06757998187 -0.001048895792
508.125 -0.05475758031 -0.01961083753
508.75 -0.07406690786 0.02615152957
509.375 -0.08324203765 0.04444173682
510.0 -0.06005551649 0.03051056841
510.625 0.002165296751 0.03019019153
511.25 -0.01043531553 0.04299081624
511.875 0.00827273312 0.06168993581
512.5 0.03630905084 0.03486490035
513.125 0.05916151956 -0.03127615742
513.75 0.06768732425 -0.07620808808
514.375 0.02877296766 -0.08259851551
515.0 -0.008816842629 -0.06604778669
515.625 0.02373581503 -0.07456101368
516.25 0.002248916146 -0.08123195754
516.875 0.07345877489 -0.01385669091
517.5 0.05494854547 -0.05138055604
518.125 0.1760638746 -0.01374236452
518.75 0.03894034059 -0.115283668
519.375 0.03368383362 -0.07451281909
520.0 0.0006372308193 -0.06115704182
520.625 -0.0139923323 -0.09959137304
521.25 -0.03081629608 -0.1025893045
521.875 0.008617123405 -0.05596076692
522.5 -0.02633697942 -0.06185413136
523.125 -0.06926572335 -0.1792822485
523.75 -0.1345137563 -0.2658587877
524.375 -0.09710868614 -0.2660612354
525.0 -0.08441596303 -0.1147772046
525.625 -0.08313276288 -0.1013598414
526.25 -0.04413027498 -0.09705097275
526.875 -0.0563902858 -0.06240663964
527.5 -0.09990045568 -0.03506669225
528.125 -0.1051816085 0.00829700673
528.75 -0.08686048664 0.01310934028
529.375 -0.07929950454 0.0906012281
530.0 -0.001523149137 0.1528501389
530.625 0.1063541772 0.1199874229
531.25 0.07158470216 0.08507968429
531.875 0.07924982123 0.06307504669
532.5 0.1092363776 0.1086448316
533.125 0.08296025395 0.108412583
533.75 0.07309751653 0.05869484717
534.375 0.07640738487 0.04425975481
535.0 0.1155275871 0.067170606
535.625 0.06216359308 0.09631096972
536.25 0.09197174147 0.01779969781
536.875 0.1123025081 0.02775295058
537.5 0.08112935069 0.06689613661
538.125 0.05246491011 0.06167394585
538.75 0.08136595655 0.05861352126
539.375 0.1244340185 0.1075390634
540.0 0.1110464173 0.1050431202
540.625 0.08717829368 0.06530795021
541.25 0.08964616567 0.06013588045
541.875 0.1053669354 0.07928621338
542.5 0.04257812556 0.06430974132
543.125 0.02708931194 0.02860370631
543.75 0.06692500253 0.01960940348
544.375 0.1184150139 0.01984155116
545.0 0.1007843342 -0.05715943292
545.625 0.03695502403 -0.08939598463
546.25 -0.02244402723 -0.1115581659
546.875 -0.01046485907 -0.1243141997
547.5 0.01454107746 -0.1194218361
548.125 0.02040905503 -0.1302336478
548.75 0.06308142219 -0.13170537
549.375 0.1182439172 -0.1166381391
550.0 0.141868042 -0.05101240967
550.625 0.1554003743 -0.08244924078
551.25 0.1841096592 0.006221975008
551.875 0.1295074179 -0.02568843643
552.5 0.09308655797 -0.0505313759
553.125 0.08103988462 -0.09181389211
553.75 0.1063336148 -0.0666470769
554.375 0.05789238126 -0.04243427556
555.0 0.0450425186 -0.04714375369
555.625 0.05660476396 -0.07426708366
556.25 0.08368729453 -0.05964445985
556.875 0.06306401146 -0.0227903882
557.5 0.0543726516 -0.01964794655
558.125 0.09297548958 -0.002727925629
558.75 0.09291960654 0.04895269023
559.375 0.09903867214 0.03852743993
560.0 0.1179731393 0.01875582948
560.625 0.1361361194 -0.01488354288
561.25 0.09830138325 -0.04162428433
561.875 0.05981960577 -0.06366118237
562.5 0.04953644052 -0.0843462418
563.125 0.0373699078 -0.0788698166
563.75 0.02034242212 -0.05814779742
564.375 0.007533235319 -0.05897789765
565.0 0.03763622909 -0.1011319701
565.625 0.06827981238 -0.09277216638
566.25 0.06420788823 -0.070704521
566.875 0.0592906534 -0.07337187066
567.5 0.08658227646 -0.06168929197
568.125 0.1077476864 -0.005263327587
568.75 0.0974994567 0.01347330972
569.375 0.1221228234 0.003338206512
570.0 0.1343067632 -0.001976999169
570.625 0.1142158976 -0.01558383469
571.25 0.09496831468 -0.03581373107
571.875 0.09796752138 -0.06617388552
572.5 0.06489787619 -0.08090026131
573.125 0.02567471616 -0.06246322653
573.75 0.01501395075 -0.06661701985
574.375 0.02645562506 -0.09680975966
575.0 0.02145750401 -0.1002966131
575.625 -0.007206671351 -0.06708065652
576.25 -0.02015004453 -0.06383336079
576.875 0.007235206482 -0.08380515148
577.5 0.02917345021 -0.07149189123
578.125 0.02569179889 -0.06847017656
578.75 0.01265529909 -0.09065349239
579.375 0.03066597118 -0.1164607547
580.0 0.04875273532 -0.09610734981
580.625 0.02279895659 -0.1084495858
581.25 -0.01705535903 -0.1307548892
581.875 -0.01251406795 -0.1137481029
582.5 0.007915714309 -0.07343905904
583.125 0.01265646559 -0.06990235972
583.75 0.03093092208 -0.09477696177
584.375 0.04504186872 -0.08057545571
585.0 0.03928688217 -0.05309904024
585.625 0.04589430689 -0.04964077598
586.25 0.06633190723 -0.05826267226
586.875 0.05662425573 -0.05320348483
587.5 0.03107024056 -0.054104758
588.125 0.01819045212 -0.07656267676
588.75 0.04105008473 -0.08912738897
589.375 0.01543657923 -0.1010656899
590.0 -0.04341369951 -0.09150447856
590.625 -0.08987424119 -0.07432222091
591.25 -0.05774546186 -0.06061301953
591.875 -0.02639904813 -0.03330050518
592.5 -0.02294625919 -0.03353697314
593.125 -0.03017364238 -0.06029227031
593.75 -0.004288171235 -0.07152816374
594.375 0.02669505678 -0.04875120532
595.0 0.04048247452 -0.04750715601
595.625 0.06580659273 -0.05257177847
596.25 0.07471140615 -0.03598861085
596.875 0.06462688573 -0.01708066585
597.5 0.06609250635 -0.009871750598
598.125 0.08011946242 -0.01170582748
598.75 0.08134541014 -0.02903502829
599.375 0.07675385404 -0.04609115856
600.0 0.07458812026 -0.05112482736
600.625 0.06086151267 -0.04504264952
601.25 0.03525607534 -0.04148752181
601.875 0.02274367046 -0.03564640045
602.5 0.02654498397 -0.02175061856
603.125 0.02186416685 -0.0006053728533
603.75 0.02083250173 0.009271435934
604.375 0.0335374838 0.009422292128
605.0 0.04263267252 0.008718896662
605.625 0.02528473527 0.009108386859
606.25 0.003489262589 0.01424276003
606.875 7.865178194e-05 0.03199498604
607.5 0.01741004906 0.04478083617
608.125 0.03468676359 0.03296368105
608.75 0.03321055737 0.02244556678
609.375 0.03073249576 0.02578480193
610.0 0.03121978615 0.02772235967
610.625 0.03270419816 0.0157966741
611.25 0.02764273359 0.003459671041
611.875 0.01836875071 -0.004569519002
612.5 0.005665976226 -0.01164482142
613.125 -0.008975965468 -0.01025963423
613.75 -0.01303963116 1.285518684e-05
614.375 -0.004572725197 0.004031636097
615.0 0.002695650345 -0.004678750872
615.625 -0.003672591437 -0.01409917667
616.25 -0.01150935138 -0.008014619304
616.875 -0.004290228863 0.0008828561655
617.5 0.008000386501 -0.00435785447
618.125 0.01234692717 -0.0149275439
618.75 0.01280042992 -0.01621645145
619.375 0.02195008465 -0.01297137169
620.0 0.03721172647 -0.02339987716
620.625 0.03522310566 -0.0515970033
621.25 0.03306573878 -0.06471011995
621.875 0.0190814441 -0.07572477494
622.5 -0.04652838258 -0.05912020187
623.125 -0.04736995172 -0.03276362497
623.75 -0.02743081561 -0.02270065727
624.375 -0.005490485006 -0.02813599376
625.0 0.01539753683 -0.02842001424
625.625 0.01487143671 -0.01781632871
626.25 0.02113541296 -0.004370788781
626.875 0.04511399294 -0.009175921872
627.5 0.07348776074 -0.004619913705
628.125 0.07167900151 0.004775091618
628.75 0.06686278788 0.005004965185
629.375 0.08155695624 0.005691360363
630.0 0.1016192724 0.02532205942
630.625 0.08581981324 0.04241979287
631.25 0.08158792754 0.02840143527
631.875 0.08688689511 0.02413174329
632.5 0.07964887756 0.02761423891
633.125 0.05526520778 0.03762415111
633.75 0.05529458811 0.0269761411
634.375 0.06180607576 0.03791267166
635.0 0.05275720966 0.03681802079
635.625 0.04942824598 0.03870787975
636.25 0.06703951284 0.04887372282
636.875 0.07450774959 0.06040535792
637.5 0.051286122 0.04708353912
638.125 0.03650115129 0.04829193548
638.75 0.04913961765 0.09002565871
639.375 0.0088078014 0.123095414
640.0 -0.0146748969 0.09507096113
640.625 -0.005839696584 0.07683447081
641.25 -0.02157676798 0.09392003757
641.875 -0.06982696327 0.07574582634
642.5 -0.0644995926 0.0459380399
643.125 -0.05672198191 0.05131713783
643.75 -0.07764027588 0.05505948013
644.375 -0.09979396432 0.03964733436
645.0 -0.09201104614 0.03343197231
645.625 -0.08881282297 0.06531648554
646.25 -0.09300906764 0.0851174543
646.875 -0.09139656244 0.05934497242
647.5 -0.08097413354 0.04390709552
648.125 -0.09322211581 0.05506785595
648.75 -0.1136524011 0.03448685392
649.375 -0.08552006193 0.01145341342
650.0 -0.06822424752 -0.004519734474
650.625 -0.07086157677 -0.04498386419
651.25 -0.03929389119 -0.0756058651
651.875 -0.000950900248 -0.07050475773
652.5 0.01966640858 -0.07542189232
653.125 0.07429112546 -0.09994415571
653.75 0.1165801689 -0.06402134914
654.375 0.1118876714 -0.05253517461
655.0 0.1176009142 -0.07270580915
655.625 0.1354621808 -0.07691763722
656.25 0.1112118724 -0.04979759631
656.875 0.06762998663 -0.06968296533
657.5 0.08433292332 -0.08530173191
658.125 0.09832848872 -0.06883448014
658.75 0.07352736423 -0.0372550773
659.375 0.05210090546 -0.03618188946
660.0 0.06392527387 -0.07386550327
660.625 0.08015633523 -0.08678647923
661.25 0.06646341341 -0.09186961933
661.875 0.03028524728 -0.1170520463
662.5 0.01076200188 -0.14777703
663.125 0.03428532663 -0.1445385523
663.75 0.06872376627 -0.1096351022
664.375 0.1242012446 -0.07286397035
665.0 0.1428694899 0.02359392771
665.625 0.09615675344 0.05025718877
666.25 0.07393110942 0.05265020375
666.875 0.06671014907 0.0926095389
667.5 -0.003511536872 0.1241513596
668.125 -0.03202556616 0.0878957406
668.75 -0.005129902773 0.09889368768
669.375 0.01386676118 0.140443975
670.0 -0.02019279554 0.147750737
670.625 -0.04107563205 0.1029711994
671.25 0.006098600519 0.112845753
671.875 0.0521805476 0.1401924836
672.5 0.09600166796 0.1092574992
673.125 0.08491146704 0.06923835951
673.75 0.07304704011 0.06674963135
674.375 0.04993849605 0.10001254
675.0 0.001534148557 0.1081844589
675.625 -0.02545351248 0.1040701974
676.25 -0.08531752964 0.1048903411
676.875 -0.1194004602 0.06338981093
677.5 -0.1195090938 0.05921567153
678.125 -0.1107921357 0.09563991833
678.75 -0.150346536 0.1101351359
679.375 -0.1332130484 0.03823263234
680.0 -0.08535521802 0.04347946758
680.625 -0.07487251271 0.07615298862
681.25 -0.08587692543 0.108828994
681.875 -0.0844319312 0.07149372867
682.5 -0.04803589485 0.05544962606
683.125 -0.0482855642 0.09010430097
683.75 -0.09289510429 0.1072479861
684.375 -0.1439856597 0.02686706741
685.0 -0.104860964 -0.0680452435
685.625 -0.06060154784 -0.1312293945
686.25 0.002431313246 -0.1652098688
686.875 0.03074801649 -0.161961249
687.5 0.05576334062 -0.1533785991
688.125 0.08300682319 -0.1205392021
688.75 0.08247141589 -0.07193236317
689.375 0.07180533128 -0.05379017226
690.0 0.09620363854 -0.06515490421
690.625 0.1321418335 -0.03478549967
691.25 0.09899336568 -0.02916851501
691.875 0.06975495139 -0.07685598468
692.5 -0.02869653553 -0.1593692812
693.125 -0.1725812731 -0.1361468313
693.75 -0.1615891737 -0.03334350858
694.375 -0.1352314968 0.02151557822
695.0 -0.1612758199 -0.02898567364
695.625 -0.083903157 -0.1584546097
696.25 0.09128348965 -0.09988541725
696.875 0.1076664136 -0.001280487069
697.5 0.08032644899 0.0777766927
698.125 0.03318954436 0.1057341373
698.75 0.01421346914 0.1175958252
699.375 0.008566703692 0.1373441138
700.0 -0.0208319749 0.1307938482
700.625 -0.05311657634 0.1090763033
701.25 -0.04698254781 0.1234601838
701.875 -0.02923947668 0.1784888817
702.5 0.01072302188 0.1417322864
703.125 0.049770029 0.07158997335
703.75 0.07891691118 0.01836726545
704.375 0.1502504505 -0.005133333123
705.0 0.1623803787 0.03874441943
705.625 0.09179137404 0.0645025438
706.25 0.04584202971 0.09537042273
706.875 -0.0671776712 0.1352289287
707.5 -0.1656188197 0.06064760179
708.125 -0.1370129919 -0.02184826845
708.75 -0.1160528667 -0.04831614795
709.375 -0.06070884116 -0.1100799932
710.0 0.02742044389 -0.1177507086
710.625 0.06393621002 -0.08808539975
711.25 0.07278623483 -0.07209907094
711.875 0.05946429729 -0.05506020725
712.5 0.04747637828 -0.04671296683
713.125 0.02416285029 -0.09118852123
713.75 -0.06331726258 -0.1261391293
714.375 -0.1160760384 -0.07609400438
715.0 -0.1241221716 -0.01602210049
715.625 -0.1462871555 -0.003867040589
716.25 -0.1584111432 -0.08151313081
716.875 -0.06256170402 -0.120977837
717.5 -0.002680455177 -0.09605613425
718.125 0.01858208543 -0.09926887513
718.75 0.06471298646 -0.09823589588
719.375 0.08654337534 -0.04646687314
720.0 0.06563089513 -0.001382955452
720.625 0.03791566049 0.04734417529
721.25 -0.05217181427 0.05113210764
721.875 -0.0885114711 -0.03386631674
722.5 -0.08812947037 -0.06315535911
723.125 -0.1270577294 -0.01231007407
723.75 -0.09469672055 0.07968494434
724.375 -0.01041683661 0.1016685027
725.0 0.04814662667 0.07070126784
725.625 0.06320654286 0.03892327304
726.25 0.04649884973 0.02346756931
726.875 0.01943869463 0.02946659037
727.5 -0.01109096906 0.04720595685
728.125 -0.0480918163 0.0519353785
728.75 -0.04687863786 0.05078518054
729.375 -0.01675525456 0.05216847409
730.0 -0.01058345524 0.04393827214
730.625 -0.03002636802 0.03818224093
731.25 -0.04090285235 0.02045221157
731.875 -0.04158067227 -0.002990140822
732.5 -0.03304116479 -0.02021202539
733.125 -0.01890457616 -0.01751685434
733.75 -0.005061630939 -0.004331630518
734.375 0.007333225736 -0.004700891414
735.0 0.00597332611 -0.01288207502
735.625 0.005264787255 -0.01446910981
736.25 0.003126212258 -0.02375702421
736.875 -0.01213609412 -0.02935696941
737.5 -0.02664124333 -0.01666617709
738.125 -0.03190890896 0.005912196544
738.75 -0.02270349864 0.03196236061
739.375 0.0005516914668 0.04216142414
740.0 0.01895929259 0.02720173748
740.625 0.01634563758 0.02021816219
741.25 0.01189447775 0.03381851824
741.875 -0.01338662425 0.03993345961
742.5 -0.04286923059 0.008870970551
743.125 -0.03213040891 -0.03918396962
743.75 4.503029958e-05 -0.05889198973
744.375 0.003682180898 -0.06196456274
745.0 -0.01554022928 -0.06443860614
745.625 -0.0453194692 -0.04707696131
746.25 -0.0308652494 -0.018188328
746.875 -0.01250898028 -0.02180052917
747.5 -0.02697616181 -0.02875951373
748.125 -0.0529918098 -0.01500714902
748.75 -0.06026632963 0.02442260041
749.375 -0.02235431914 0.06654996685
750.0 0.0564808933 0.06443728783
