!Created with skrf (http://scikit-rf.org).
# GHz S RI R 50.0 
!freq ReS11 ImS11
500.0 -0.007519343747 0.001681291241
500.625 0.001280799511 -0.002920750066
501.25 -0.01053063502 -0.01805383812
501.875 -0.03829316445 -0.02967976025
502.5 -0.02949595453 -0.01642596982
503.125 -0.01531506623 0.002278860242
503.75 -0.01381537914 0.002404046484
504.375 -0.0207226143 -0.0001844626783
505.0 -0.01324160477 0.0006493298763
505.625 -0.01034167289 -0.009137917881
506.25 -0.03233935246 -0.007929306293
506.875 -0.06353407873 -0.04081165252
507.5 -0.06622717593 -0.01589497759
508.125 -0.05242128523 -0.03126272089
508.75 -0.07978945414 0.009540020755
509.375 -0.08748818931 0.02647295246
510.0 -0.06370601459 0.01730570543
510.625 -0.008266863827 0.03062619584
511.25 -0.02237019654 0.04383246965
511.875 -0.005255001058 0.06529412955
512.5 0.02881009477 0.03882840687
513.125 0.06494241374 -0.02267170434
513.75 0.08066536638 -0.0612686603
514.375 0.04068026979 -0.07171246885
515.0 0.004322334491 -0.06477324123
515.625 0.04104353226 -0.06873926487
516.25 0.02575718122 -0.08070216396
516.875 0.08096967766 0.001812714339
517.5 0.06895216083 -0.05016417495
518.125 0.1904622971 0.01478576531
518.75 0.06024178523 -0.1085927113
519.375 0.04646284348 -0.06747016197
520.0 0.009022745364 -0.06640897364
520.625 0.002980269149 -0.1064561673
521.25 -0.01360413242 -0.1060855137
521.875 0.01763415794 -0.0568056964
522.5 -0.02054640755 -0.07278947718
523.125 -0.04843777432 -0.2059113569
523.75 -0.1033227239 -0.2881128644
524.375 -0.07209227889 -0.2765766361
525.0 -0.07146486296 -0.1271017535
525.625 -0.06543939152 -0.1092008346
526.25 -0.0284329974 -0.09898823103
526.875 -0.04739318758 -0.06876716539
527.5 -0.09304224537 -0.051172468
528.125 -0.09954156678 -0.01125229959
528.75 -0.08587487755 -0.0001651008831
529.375 -0.09312518729 0.08029781107
530.0 -0.02708585872 0.1478427209
530.625 0.07797895561 0.1234587438
531.25 0.0521446101 0.08368811316
531.875 0.06155208717 0.08166590463
532.5 0.08194203305 0.1356244719
533.125 0.05915035873 0.1204257435
533.75 0.06145030402 0.06940916723
534.375 0.07085826681 0.06089586155
535.0 0.1011181171 0.09316552728
535.625 0.04310279209 0.1032860011
536.25 0.0874972696 0.03038739584
536.875 0.1008809303 0.04741984621
537.5 0.05945076238 0.08299682252
538.125 0.03696016328 0.07242654742
538.75 0.074018237 0.07418794202
539.375 0.0998727004 0.1315839479
540.0 0.08625483375 0.1159287912
540.625 0.06940266255 0.07794049122
541.25 0.07582925724 0.07785534345
541.875 0.07952211325 0.1011036364
542.5 0.01984953285 0.06740588454
543.125 0.01879406854 0.03939417689
543.75 0.07068138338 0.04023851886
544.375 0.1193496716 0.04608277098
545.0 0.1095804788 -0.03887085602
545.625 0.05119337862 -0.08423168871
546.25 0.00118264902 -0.1201802412
546.875 0.01553966637 -0.1247767755
547.5 0.03609569469 -0.1161159994
548.125 0.04603912894 -0.1313713352
548.75 0.08998431282 -0.1249805635
549.375 0.1366477664 -0.09608697338
550.0 0.1478649125 -0.03441830564
550.625 0.1713830114 -0.06275326074
551.25 0.1731389204 0.03347183723
551.875 0.1238325879 -0.006524786655
552.5 0.09384816952 -0.03595687134
553.125 0.09551871095 -0.07482270827
553.75 0.1103862998 -0.03690843854
554.375 0.05914792272 -0.0263312913
555.0 0.05373905158 -0.03433469582
555.625 0.07379954084 -0.05900649317
556.25 0.09459414988 -0.03434510753
556.875 0.06459854798 -0.005359232032
557.5 0.06281416064 -0.006258486386
558.125 0.09801862848 0.02012835181
558.75 0.08553948254 0.0689314193
559.375 0.09478706037 0.05498076354
560.0 0.1173597124 0.03577517881
560.625 0.1327104481 0.009186492544
561.25 0.09704161641 -0.0234503222
561.875 0.06790012125 -0.04999083993
562.5 0.06646016363 -0.06686210633
563.125 0.05393969443 -0.06361141571
563.75 0.03368911714 -0.04902771363
564.375 0.02336652995 -0.06015130659
565.0 0.06749794536 -0.09698141467
565.625 0.08417858083 -0.07843176916
566.25 0.07540496704 -0.05986940493
566.875 0.07420008844 -0.06371212176
567.5 0.102509923 -0.04227342029
568.125 0.1065385816 0.01925176839
568.75 0.09816881117 0.02754167583
569.375 0.1240695669 0.02381079722
570.0 0.1315174363 0.02030173518
570.625 0.1111535228 0.004039840478
571.25 0.09680125789 -0.0205506775
571.875 0.1070314318 -0.04419245219
572.5 0.07150324144 -0.05924649573
573.125 0.03536398224 -0.04862585232
573.75 0.03415501206 -0.06167888005
574.375 0.04838463893 -0.09041578537
575.0 0.04091906973 -0.08907360262
575.625 0.005816774103 -0.06432104077
576.25 -0.002511188072 -0.06945566875
576.875 0.03291301833 -0.07967544919
577.5 0.04618914459 -0.06611930629
578.125 0.03861642942 -0.06658028922
578.75 0.03225499014 -0.09425379591
579.375 0.0581797861 -0.1106953601
580.0 0.0617266707 -0.08703180028
580.625 0.0372114437 -0.1060530833
581.25 0.004804955205 -0.1304307256
581.875 0.009253119767 -0.1065087481
582.5 0.0208782643 -0.06340956317
583.125 0.02744985452 -0.0662861907
583.75 0.05235039746 -0.08465217974
584.375 0.0590535992 -0.06638006699
585.0 0.04864857551 -0.04154808632
585.625 0.05826504936 -0.03844417038
586.25 0.08011995367 -0.04227946611
586.875 0.06457687556 -0.03956410915
587.5 0.04184992755 -0.04766139368
588.125 0.03824246125 -0.07455019569
588.75 0.05908779764 -0.08169323147
589.375 0.03074003576 -0.09638387131
590.0 -0.03104907248 -0.09685871671
590.625 -0.07123434954 -0.08828215759
591.25 -0.03636267852 -0.0624360319
591.875 -0.01275973167 -0.03474245192
592.5 -0.01179880948 -0.04104432634
593.125 -0.01256173808 -0.07069541177
593.75 0.01528389852 -0.07150012017
594.375 0.03746569125 -0.04454353441
595.0 0.05257725059 -0.04367888435
595.625 0.07832805888 -0.04130518093
596.25 0.08065673493 -0.02118756305
596.875 0.06718759832 -0.005054884203
597.5 0.07020182099 0.002236355861
598.125 0.08349870125 0.002908518535
598.75 0.08540140557 -0.01666303205
599.375 0.082209509 -0.03494274336
600.0 0.07792823701 -0.03869084927
600.625 0.06092781761 -0.03313143974
601.25 0.03593406118 -0.0318200324
601.875 0.02659207438 -0.02557679931
602.5 0.02861537355 -0.009149764206
603.125 0.02037191324 0.009058094555
603.75 0.02036773869 0.01674169738
604.375 0.03408926449 0.01787787932
605.0 0.03999931606 0.01869318037
605.625 0.02022209223 0.01565320836
606.25 -0.0004521106928 0.01896750484
606.875 -0.003925625995 0.037192357
607.5 0.01283501284 0.05012961958
608.125 0.03104133971 0.03780232291
608.75 0.03068475908 0.02659226257
609.375 0.02776869452 0.02939567656
610.0 0.02747551262 0.03019525008
610.625 0.02948480641 0.01748595246
611.25 0.02505542046 0.004306705626
611.875 0.01604483537 -0.004516042851
612.5 0.003919255719 -0.01200939636
613.125 -0.009864968554 -0.01056133696
613.75 -0.01330616167 -0.0002403572483
614.375 -0.00415764593 0.003916379146
615.0 0.003747772726 -0.004702496379
615.625 -0.001804120222 -0.01395907431
616.25 -0.009031786099 -0.007742698498
616.875 -0.001352249358 0.001184487025
617.5 0.01177553403 -0.0040099023
618.125 0.01698638447 -0.01370313499
618.75 0.01746136908 -0.01429747178
619.375 0.02663593769 -0.01085925524
620.0 0.04324328854 -0.0210043428
620.625 0.04225712912 -0.04922452095
621.25 0.03929338565 -0.0605482858
621.875 0.02529719802 -0.07145942189
622.5 -0.03707957994 -0.05951516859
623.125 -0.0371099912 -0.03285785996
623.75 -0.01771643486 -0.02116211846
624.375 0.004232143403 -0.02362743816
625.0 0.02271711035 -0.01858346274
625.625 0.02122891644 -0.008026270342
626.25 0.02848597356 0.002949265169
626.875 0.05512562535 -0.00053029533
627.5 0.07822584046 0.0103667982
628.125 0.07200900656 0.017398781
628.75 0.06855265396 0.01628631415
629.375 0.08506979619 0.02062653311
630.0 0.09638030735 0.04401894743
630.625 0.07596101681 0.05211822363
631.25 0.07462332084 0.03853719312
631.875 0.07764297599 0.03836380825
632.5 0.06635713283 0.04174595573
633.125 0.04110713274 0.0449094622
633.75 0.04631464152 0.03790368877
634.375 0.04717936082 0.05223489452
635.0 0.03899207908 0.05014617035
635.625 0.03966211986 0.05267524969
636.25 0.05738237091 0.06587570899
636.875 0.05809535916 0.07620787621
637.5 0.03612990175 0.05700260454
638.125 0.02651803024 0.06058075644
638.75 0.03136939347 0.1070630863
639.375 -0.01335040314 0.1213824346
640.0 -0.02879068457 0.086834967
640.625 -0.01994258843 0.0737390216
641.25 -0.04665434419 0.08634834413
641.875 -0.0837302773 0.05239482641
642.5 -0.07030568115 0.03133897035
643.125 -0.0675831931 0.03922596832
643.75 -0.09252206773 0.03362253698
644.375 -0.1076318126 0.01232178284
645.0 -0.09568175686 0.01695912642
645.625 -0.1028053257 0.0503340763
646.25 -0.1081834851 0.06194208972
646.875 -0.09917469891 0.03360194958
647.5 -0.08687531679 0.02421449899
648.125 -0.1045326469 0.03460888238
648.75 -0.112772904 0.006976244656
649.375 -0.07907460872 -0.008511979054
650.0 -0.06260175152 -0.02333083651
650.625 -0.0539811675 -0.06592447593
651.25 -0.01737233941 -0.08473614666
651.875 0.01654934071 -0.07101166886
652.5 0.04073918271 -0.07724616892
653.125 0.1039528788 -0.08520408766
653.75 0.1261006972 -0.04302614901
654.375 0.1187224641 -0.03706505398
655.0 0.1318380306 -0.05260224998
655.625 0.1453959282 -0.04223552471
656.25 0.1072429142 -0.02222883563
656.875 0.07611571909 -0.05504405323
657.5 0.1008521841 -0.06089242717
658.125 0.1063403773 -0.03533987579
658.75 0.07537368808 -0.008863325362
659.375 0.06353765834 -0.02098832771
660.0 0.09062614108 -0.05799256753
660.625 0.1032172412 -0.06700354473
661.25 0.08661910401 -0.07735939725
661.875 0.05614662068 -0.1144245482
662.5 0.04173522679 -0.1460020952
663.125 0.06208434599 -0.132820574
663.75 0.08558790952 -0.09446785855
664.375 0.1382432035 -0.04279758032
665.0 0.1221756173 0.05356909701
665.625 0.07642631136 0.06610671587
666.25 0.05764829613 0.06584194042
666.875 0.03504329045 0.1116962905
667.5 -0.04423182722 0.1147695547
668.125 -0.0515595883 0.07944624916
668.75 -0.02534182686 0.1028676707
669.375 -0.02093572326 0.1471840567
670.0 -0.05797891483 0.1344468253
670.625 -0.05992673322 0.08746793915
671.25 -0.01686476552 0.1163651862
671.875 0.01729335531 0.1485256301
672.5 0.06179351298 0.1233506462
673.125 0.05928500142 0.08304669236
673.75 0.0508749837 0.08513495705
674.375 0.02006883851 0.1127824818
675.0 -0.02562653647 0.1066983909
675.625 -0.05224052727 0.09970331574
676.25 -0.1154918059 0.08015432386
676.875 -0.1328669782 0.03710291436
677.5 -0.1293013908 0.0375645451
678.125 -0.1319778493 0.07833874892
678.75 -0.171031142 0.06635592882
679.375 -0.1219251967 0.006483137779
680.0 -0.08541110864 0.02206543461
680.625 -0.09227508438 0.05476228051
681.25 -0.1149565353 0.07326034502
681.875 -0.0962766496 0.03434348013
682.5 -0.06334716922 0.04200949573
683.125 -0.07794847989 0.08232259689
683.75 -0.1252533585 0.0851279418
684.375 -0.1475702575 -0.01190811009
685.0 -0.09032531685 -0.08997717537
685.625 -0.03279962049 -0.1488310941
686.25 0.03604769219 -0.1627166622
686.875 0.06131170209 -0.1506471742
687.5 0.08576666965 -0.1337049794
688.125 0.09989783273 -0.0884849422
688.75 0.08997035769 -0.0429801437
689.375 0.08152190248 -0.03152221169
690.0 0.1168045866 -0.03177878195
690.625 0.1326141898 0.01343057894
691.25 0.1059014563 -0.00165627101
691.875 0.09073672624 -0.06713470431
692.5 0.008463258438 -0.1790469486
693.125 -0.1300704043 -0.1757972517
693.75 -0.1414183645 -0.05907185931
694.375 -0.1362639615 -0.005177361006
695.0 -0.1515970038 -0.06912369524
695.625 -0.03438869051 -0.171335998
696.25 0.10404118 -0.06695838658
696.875 0.1021576463 0.02548876862
697.5 0.05231754084 0.09864562979
698.125 0.0001710542256 0.1154807003
698.75 -0.01713745371 0.1232726113
699.375 -0.02729739992 0.1393825281
700.0 -0.05096685163 0.122658049
700.625 -0.07452530086 0.09524800639
701.25 -0.07377552428 0.1148979873
701.875 -0.0780416524 0.161142402
702.5 -0.02252765482 0.1236427804
703.125 0.02306440645 0.07485092867
703.75 0.07495397887 0.0459804025
704.375 0.1564656358 0.04934201137
705.0 0.1386791723 0.08081335533
705.625 0.07412045821 0.08211360814
706.25 0.02625253224 0.1121584444
706.875 -0.1064810285 0.1228178733
707.5 -0.1732383811 0.01709128627
708.125 -0.124090845 -0.04283291181
708.75 -0.1020440248 -0.07122031849
709.375 -0.028680361 -0.1196097741
710.0 0.05800619976 -0.1013185109
710.625 0.07940663234 -0.06445130696
711.25 0.08427009649 -0.04517067027
711.875 0.06931338479 -0.02825475384
712.5 0.06565770957 -0.02647443582
713.125 0.0579932451 -0.09128428211
713.75 -0.02835716387 -0.1473521204
714.375 -0.09887335026 -0.1005163431
715.0 -0.122325588 -0.03892212644
715.625 -0.1506640485 -0.03622417447
716.25 -0.1292093632 -0.1183062214
716.875 -0.03039210759 -0.1202974989
717.5 0.01713671927 -0.08900276029
718.125 0.04578428052 -0.09110232026
718.75 0.09101665291 -0.07155698598
719.375 0.08834699516 -0.01701858775
720.0 0.05947459247 0.01612808967
720.625 0.01869566883 0.06004471963
721.25 -0.073134602 0.03554090354
721.875 -0.08325920858 -0.0583552109
722.5 -0.07792609586 -0.08168593545
723.125 -0.1242737942 -0.03753788282
723.75 -0.1067465329 0.05656837991
724.375 -0.03300459673 0.09302266123
725.0 0.02749684236 0.07747440175
725.625 0.04651643619 0.05007354973
726.25 0.03258103159 0.03192821706
726.875 0.004743119205 0.03426026762
727.5 -0.03008798776 0.04618174614
728.125 -0.06371949831 0.03993532865
728.75 -0.05718746411 0.03997037055
729.375 -0.02799100845 0.04760048205
730.0 -0.02295781341 0.04116195972
730.625 -0.03954261839 0.03092439132
731.25 -0.04375778797 0.01159908103
731.875 -0.03948179079 -0.01052948545
732.5 -0.02654608509 -0.02457779238
733.125 -0.01165235041 -0.01740550291
733.75 0.0008963092579 -0.003665492537
734.375 0.01231643646 -0.005017732126
735.0 0.009485395163 -0.01486172492
735.625 0.006969808577 -0.01631727698
736.25 0.003930146754 -0.02465313751
736.875 -0.01181610629 -0.02917145445
737.5 -0.0271172738 -0.01564474841
738.125 -0.03378593087 0.007385767667
738.75 -0.02649047294 0.0329518668
739.375 -0.004448942003 0.04269214961
740.0 0.0130127195 0.02899984827
740.625 0.009873272501 0.02436510052
741.25 0.004102127073 0.03708008994
741.875 -0.02084207446 0.03691882576
742.5 -0.0438020366 0.0004908626751
743.125 -0.02234584012 -0.04512329451
743.75 0.01332563224 -0.0553322412
744.375 0.01562345311 -0.05616480515
745.0 -0.00137867219 -0.06179465299
745.625 -0.02738215435 -0.05048746684
746.25 -0.01451883355 -0.02512799008
746.875 -0.002198380567 -0.0312026769
747.5 -0.02295486537 -0.03971267164
748.125 -0.05236399508 -0.02841633784
748.75 -0.06613689436 0.01029395811
749.375 -0.03849905002 0.06017615088
750.0 0.04109971906 0.07883437243
