!Created with skrf (http://scikit-rf.org).
# GHz S RI R 50.0 
!freq ReS11 ImS11
500.0 -0.009755970578 -0.003900568751
500.625 -0.002354727179 -0.002014742337
501.25 -0.01875636858 -0.01642459975
501.875 -0.04975636031 -0.02253838398
502.5 -0.03997205372 -0.01708268919
503.125 -0.01975118377 0.006595887271
503.75 -0.01672801933 0.008477463142
504.375 -0.02246837103 0.009733101805
505.0 -0.01287153845 0.009112739731
505.625 -0.007583152212 -0.0007285933139
506.25 -0.02534214659 0.0004730007422
506.875 -0.06694462118 -0.02306191547
507.5 -0.06671638859 -0.0008037881728
508.125 -0.05529365913 -0.01842994556
508.75 -0.07192645952 0.02538673924
509.375 -0.08174561018 0.04530248546
510.0 -0.0622082953 0.03228843474
510.625 0.002015411207 0.03016404076
511.25 -0.009625755754 0.04398156999
511.875 0.008291890041 0.06104915801
512.5 0.03227210203 0.03469587328
513.125 0.0570758761 -0.03188391011
513.75 0.06648908209 -0.07886552555
514.375 0.02740157398 -0.08247282084
515.0 -0.0126684051 -0.06594469426
515.625 0.02072794067 -0.0753856131
516.25 -0.002943084272 -0.08433286393
516.875 0.07357455465 -0.01431485595
517.5 0.05363622374 -0.05064630798
518.125 0.1724928529 -0.01608979692
518.75 0.0372558417 -0.1173610319
519.375 0.03251436303 -0.074910943
520.0 -0.001844552375 -0.06067004907
520.625 -0.01568744306 -0.09745359559
521.25 -0.034409192 -0.1031150483
521.875 0.007475379716 -0.05553018405
522.5 -0.0278355769 -0.06115095848
523.125 -0.07179108026 -0.1765225686
523.75 -0.1433235909 -0.2696275995
524.375 -0.09940328775 -0.2627821819
525.0 -0.08684579145 -0.1126139775
525.625 -0.08568123336 -0.09999157589
526.25 -0.04621248268 -0.09668285554
526.875 -0.05751883624 -0.06140605024
527.5 -0.1004766579 -0.03285673194
528.125 -0.1056693324 0.01107838028
528.75 -0.0868867278 0.0148180884
529.375 -0.07774646054 0.09182598635
530.0 0.0015641773 0.153120105
530.625 0.1099801762 0.1193469067
531.25 0.0742740816 0.08469006246
531.875 0.08118277317 0.06058852701
532.5 0.1124575225 0.1042714047
533.125 0.08625302638 0.1061542085
533.75 0.07416821698 0.05707673495
534.375 0.07685310988 0.04211790987
535.0 0.1167043011 0.06366860549
535.625 0.06448304073 0.09508794118
536.25 0.0924161586 0.01639319881
536.875 0.1132844711 0.02525843323
537.5 0.08345286926 0.06480298859
538.125 0.05416524949 0.06028272793
538.75 0.08197067641 0.0568245812
539.375 0.1268670952 0.1042840784
540.0 0.1143235687 0.1034632237
540.625 0.089265623 0.06357925229
541.25 0.09108645623 0.05777159505
541.875 0.108167781 0.07625576668
542.5 0.04553698124 0.06362675394
543.125 0.02790384343 0.02721725239
543.75 0.06609339503 0.01729558191
544.375 0.1179528112 0.01698004724
545.0 0.09952111806 -0.05892080015
545.625 0.03539406215 -0.08985040306
546.25 -0.02478286508 -0.110324644
546.875 -0.01336632224 -0.1240147582
547.5 0.012265915 -0.1193726936
548.125 0.01778122221 -0.1297080943
548.75 0.05985676485 -0.1322441983
549.375 0.1158360654 -0.1191790584
550.0 0.1408754449 -0.05298638456
550.625 0.1531982874 -0.08431722367
551.25 0.1853003456 0.002268388372
551.875 0.1303327178 -0.02801650725
552.5 0.09267857077 -0.05223142845
553.125 0.07904148873 -0.09361500569
553.75 0.1053477715 -0.07037024279
554.375 0.05779904151 -0.04439057751
555.0 0.04398625928 -0.04844487645
555.625 0.05474112405 -0.07581287302
556.25 0.08259479633 -0.06232839123
556.875 0.06309631347 -0.0247949812
557.5 0.05339102866 -0.02110423657
558.125 0.09235823993 -0.005440668802
558.75 0.09366431488 0.04665819011
559.375 0.09942026557 0.03642690459
560.0 0.1179933798 0.01644097928
560.625 0.1364442399 -0.0184754945
561.25 0.098439295 -0.04418272943
561.875 0.05845186474 -0.06558212948
562.5 0.04656423823 -0.08673588696
563.125 0.03488144886 -0.08092228652
563.75 0.0186180371 -0.05933787219
564.375 0.005556837961 -0.05864998443
565.0 0.03390249774 -0.1010842872
565.625 0.06604758692 -0.0944429921
566.25 0.0625858469 -0.07196072185
566.875 0.0573814418 -0.07426194687
567.5 0.08441201772 -0.06376736502
568.125 0.1074921621 -0.008291782895
568.75 0.09730275978 0.01175285592
569.375 0.1214348728 0.0005592139879
570.0 0.1345135472 -0.005109995336
570.625 0.1144580356 -0.01850550624
571.25 0.09434273096 -0.03806062176
571.875 0.09620243909 -0.06900205987
572.5 0.06369324691 -0.08407432309
573.125 0.02403282618 -0.06437408123
573.75 0.01216202289 -0.0670836624
574.375 0.02306644528 -0.09740653621
575.0 0.01849080847 -0.1016012337
575.625 -0.008870769533 -0.06727576626
576.25 -0.02218763569 -0.06290568917
576.875 0.003358023018 -0.08373629809
577.5 0.02667561794 -0.07206141999
578.125 0.02385548663 -0.06843079464
578.75 0.009942857909 -0.08978061948
579.375 0.02646189631 -0.1166884039
580.0 0.04650606275 -0.09747998763
580.625 0.0206822693 -0.108646369
581.25 -0.02046500018 -0.1303394084
581.875 -0.01614467888 -0.1144143941
582.5 0.005526854175 -0.07487779865
583.125 0.01025542509 -0.07026003879
583.75 0.02714718394 -0.09584612325
584.375 0.04271848245 -0.08256036737
585.0 0.03763067745 -0.05475097045
585.625 0.04373215846 -0.05113642734
586.25 0.06375431875 -0.06056508846
586.875 0.05516809251 -0.05547068497
587.5 0.02914220924 -0.05489351506
588.125 0.01473654257 -0.07645173607
588.75 0.03789938741 -0.09002450258
589.375 0.01273410021 -0.1017695358
590.0 -0.04525980205 -0.09043399379
590.625 -0.09250604504 -0.07167894568
591.25 -0.06140587987 -0.05975206161
591.875 -0.02865703594 -0.03284381003
592.5 -0.02454002778 -0.03218629836
593.125 -0.03283270055 -0.05808755686
593.75 -0.007668934198 -0.07093037335
594.375 0.0247522211 -0.04930284017
595.0 0.03840562263 -0.0478471179
595.625 0.06343482322 -0.05421299128
596.25 0.073174783 -0.03860409754
596.875 0.06383173355 -0.01925750875
597.5 0.06505715199 -0.01213154665
598.125 0.07907299607 -0.01450577716
598.75 0.08027962811 -0.03134631581
599.375 0.07545358872 -0.04793146713
600.0 0.0735921678 -0.0534412197
600.625 0.06053137164 -0.04717705825
601.25 0.03503990003 -0.04327894102
601.875 0.02176128183 -0.0373750396
602.5 0.02570364658 -0.02394980705
603.125 0.02190925244 -0.002477930149
603.75 0.02074507784 0.007806366715
604.375 0.0332140666 0.007808829685
605.0 0.04278861854 0.006555376145
605.625 0.0261490721 0.007525408215
606.25 0.004245691482 0.01307874808
606.875 0.0008331635759 0.03067289514
607.5 0.01835406318 0.04338702036
608.125 0.03532269907 0.03178687185
608.75 0.0336306398 0.02152280368
609.375 0.03120310192 0.02494049662
610.0 0.03188662418 0.02711440139
610.625 0.03326893555 0.01536746223
611.25 0.02815379747 0.003135518806
611.875 0.01877462837 -0.004718257513
612.5 0.005973819659 -0.01166770956
613.125 -0.008791627482 -0.01023908209
613.75 -0.01301528392 4.430089868e-05
614.375 -0.004680297615 0.004029054653
615.0 0.002457019844 -0.004639447303
615.625 -0.004118987342 -0.01408776192
616.25 -0.01208691352 -0.00801373914
616.875 -0.004995967449 0.0009082138054
617.5 0.007083129184 -0.00432798645
618.125 0.01118006855 -0.01508367616
618.75 0.01162683524 -0.01653914026
619.375 0.02077724488 -0.01338525503
620.0 0.0358745496 -0.0237408161
620.625 0.03362235148 -0.05184904935
621.25 0.03158644965 -0.06547224248
621.875 0.01770579213 -0.07644317246
622.5 -0.04851659883 -0.05863227074
623.125 -0.04958269898 -0.03243220493
623.75 -0.02969972644 -0.02274986121
624.375 -0.00798211128 -0.028885597
625.0 0.01319490181 -0.03059804164
625.625 0.01288616262 -0.02016973844
626.25 0.01901889682 -0.006006974771
626.875 0.04236372356 -0.01093180526
627.5 0.07174987732 -0.008229839234
628.125 0.07124815707 0.001615384815
628.75 0.06613588577 0.002332452747
629.375 0.08018353487 0.00231873531
630.0 0.1020620485 0.02049319307
630.625 0.08802206798 0.03960252836
631.25 0.08303403703 0.02564609025
631.875 0.08847567295 0.02028647469
632.5 0.08230431223 0.02353764769
633.125 0.05858324351 0.03518787212
633.75 0.05713414342 0.02403118984
634.375 0.0647547631 0.03392892424
635.0 0.05560764882 0.03311435571
635.625 0.05134091965 0.03502552603
636.25 0.06862710016 0.04445688014
636.875 0.07782736875 0.05585029466
637.5 0.05487659209 0.04388820839
638.125 0.0386286168 0.04486218905
638.75 0.0528315191 0.08487021192
639.375 0.01487284756 0.1226492885
640.0 -0.01058170908 0.09670707639
640.625 -0.00214659927 0.07726335872
641.25 -0.0151062526 0.09455326942
641.875 -0.06508264926 0.08119068117
642.5 -0.06270776622 0.04938301873
643.125 -0.0536973245 0.0537977873
643.75 -0.07296339327 0.05978407409
644.375 -0.09616835087 0.04649004742
645.0 -0.09047805281 0.03781104458
645.625 -0.08464176699 0.06856948668
646.25 -0.08836823009 0.09033587175
646.875 -0.08834611243 0.06547079194
647.5 -0.07886153513 0.04864045826
648.125 -0.08986884981 0.05942228086
648.75 -0.1126085279 0.04138371273
649.375 -0.08642931525 0.01680805881
650.0 -0.06896916689 0.000445381875
650.625 -0.07416302468 -0.03861734159
651.25 -0.04488615321 -0.0721909509
651.875 -0.005723853723 -0.0697557078
652.5 0.01432377115 -0.07426581899
653.125 0.06567228621 -0.1023134555
653.75 0.1132608528 -0.06943187984
654.375 0.1098858999 -0.05627870927
655.0 0.1135124129 -0.07686419766
655.625 0.1308457808 -0.08483090635
656.25 0.1110037957 -0.05771584252
656.875 0.06517122688 -0.07351167787
657.5 0.07894250528 -0.09088495518
658.125 0.094676436 -0.07735912042
658.75 0.07170946386 -0.04470944825
659.375 0.04880446796 -0.03965808049
660.0 0.05689883604 -0.07647845757
660.625 0.07366439858 -0.09101510687
661.25 0.06061219938 -0.094818595
661.875 0.02378589435 -0.1167595894
662.5 0.002338372041 -0.1468107839
663.125 0.02628059602 -0.1466271827
663.75 0.06373970016 -0.1131565355
664.375 0.1190408207 -0.08000222195
665.0 0.146616064 0.0141221377
665.625 0.1007455225 0.04538208792
666.25 0.07750684634 0.04893967276
666.875 0.0732448641 0.08675979991
667.5 0.007011836165 0.1245453876
668.125 -0.0267441892 0.08964129447
668.75 -0.0001395763827 0.09722567353
669.375 0.02219963876 0.136925061
670.0 -0.00938280426 0.1493944481
670.625 -0.03523771278 0.1064505514
671.25 0.01155954382 0.1111876277
671.875 0.06059924753 0.1364262856
672.5 0.104244089 0.103919988
673.125 0.09118532304 0.06430568288
673.75 0.0779679242 0.06117685183
674.375 0.05696601773 0.09552786265
675.0 0.008582333806 0.107613471
675.625 -0.01831462324 0.1040533597
676.25 -0.07610938588 0.109517301
676.875 -0.1148553583 0.06966201403
677.5 -0.1164511597 0.0643619039
678.125 -0.1054935255 0.09858882292
678.75 -0.1433777166 0.119271915
679.375 -0.1347345014 0.0468178737
680.0 -0.08462647933 0.04876077836
680.625 -0.06978070409 0.08059726776
681.25 -0.07653924825 0.1163439247
681.875 -0.07925942423 0.08097519535
682.5 -0.04371344056 0.05856918841
683.125 -0.0407222461 0.09058324618
683.75 -0.08360451794 0.1115122817
684.375 -0.1410439191 0.03686811739
685.0 -0.1078883033 -0.06159042565
685.625 -0.06663670215 -0.1256501947
686.25 -0.006349523092 -0.1645843578
686.875 0.0223805207 -0.1635561723
687.5 0.04706450225 -0.1567227695
688.125 0.07670852878 -0.128859329
688.75 0.07909344409 -0.07955195228
689.375 0.06849009168 -0.05924270499
690.0 0.08990600426 -0.07186362022
690.625 0.1292472316 -0.04664381026
691.25 0.0964920584 -0.03538266952
691.875 0.0645714684 -0.07842780893
692.5 -0.03614321168 -0.1531869072
693.125 -0.1807010431 -0.123904099
693.75 -0.1661156811 -0.02578943054
694.375 -0.1341022424 0.02796608916
695.0 -0.1617664568 -0.01850251289
695.625 -0.09589007044 -0.1523063328
696.25 0.08595682108 -0.108309676
696.875 0.1084140636 -0.008403993393
697.5 0.08678209202 0.0710649253
698.125 0.04100004852 0.1019289035
698.75 0.02140827963 0.114958255
699.375 0.01700858674 0.1351535296
700.0 -0.01298576884 0.1316577909
700.625 -0.04709046581 0.1121864513
701.25 -0.04017688333 0.1244542991
701.875 -0.01649821505 0.1795552021
702.5 0.02014853092 0.1450342576
703.125 0.05612868432 0.0698571015
703.75 0.07896855958 0.01221409701
704.375 0.1459860126 -0.0167249148
705.0 0.1660200328 0.02699409526
705.625 0.09552653965 0.05964174882
706.25 0.0499009546 0.09088294599
706.875 -0.05704288669 0.1363880592
707.5 -0.1608707617 0.07146144368
708.125 -0.1398161172 -0.01516508073
708.75 -0.1187354477 -0.04171020676
709.375 -0.06864239029 -0.1061454256
710.0 0.01882373774 -0.1203223697
710.625 0.0591321288 -0.0932902584
711.25 0.06896151308 -0.0777102633
711.875 0.05605333282 -0.06099215561
712.5 0.04256736489 -0.05068679829
713.125 0.01624317086 -0.08963939722
713.75 -0.07110903933 -0.1187670255
714.375 -0.1197193607 -0.06879178104
715.0 -0.1238942355 -0.009798778364
715.625 -0.1437730813 0.003893339737
716.25 -0.1636060721 -0.07017810574
716.875 -0.07127471638 -0.1196136451
717.5 -0.007911541876 -0.09709611428
718.125 0.012135876 -0.099979805
718.75 0.05707638496 -0.1031190898
719.375 0.08453886691 -0.05424658071
720.0 0.06661054432 -0.00626354929
720.625 0.04243448267 0.04291570345
721.25 -0.04521475636 0.05461407736
721.875 -0.08879343552 -0.02663822996
722.5 -0.08991891021 -0.05779552255
723.125 -0.1264941913 -0.005910363279
723.75 -0.09055207571 0.08484880122
724.375 -0.004718007325 0.1026939779
725.0 0.0526660853 0.06798428323
725.625 0.06674856611 0.03541584475
726.25 0.04968492669 0.02074374805
726.875 0.02311194205 0.02759882885
727.5 -0.005749214022 0.04637605501
728.125 -0.04258297026 0.05466997352
728.75 -0.04291208564 0.05386288203
729.375 -0.01313819601 0.05302394107
730.0 -0.006770617683 0.04397497223
730.625 -0.02688142762 0.03965804095
731.25 -0.0397495049 0.02278346274
731.875 -0.04182963956 -0.0008038386623
732.5 -0.03460628169 -0.01862179429
733.125 -0.02104966587 -0.01718942715
733.75 -0.006903730684 -0.004196802881
734.375 0.005797352045 -0.004409151575
735.0 0.005150317876 -0.01205130909
735.625 0.004730353971 -0.01383159925
736.25 0.00302094583 -0.02340304992
736.875 -0.01220815349 -0.02938132312
737.5 -0.0265862254 -0.01694324375
738.125 -0.03140764 0.005445330657
738.75 -0.0218170958 0.0315486301
739.375 0.00195071616 0.04189854788
740.0 0.02059315956 0.02637884262
740.625 0.01810390476 0.01854800853
741.25 0.01423977084 0.03212859713
741.875 -0.01075082835 0.04063400411
742.5 -0.04217636532 0.01164185896
743.125 -0.03481811581 -0.03677487705
743.75 -0.004354333599 -0.05926434083
744.375 -0.0001826321856 -0.06326076147
745.0 -0.01974882405 -0.06444780756
745.625 -0.0500404076 -0.04517580371
746.25 -0.03519445466 -0.01534903177
746.875 -0.01533459197 -0.01849919635
747.5 -0.02760796734 -0.02511999965
748.125 -0.05250443405 -0.01114817632
748.75 -0.05781532436 0.02832575473
749.375 -0.01736654102 0.06763163953
750.0 0.05989585202 0.05962550739
