!Created with skrf (http://scikit-rf.org).
# GHz S RI R 50.0 
!freq ReS11 ImS11
500.0 -0.006284765967 -0.0002141485799
500.625 0.004374949256 0.0003171637321
501.25 -0.009899347704 -0.0199238495
501.875 -0.03869849317 -0.02960393627
502.5 -0.02998128054 -0.0156833042
503.125 -0.01551552669 0.003736552379
503.75 -0.01352530783 0.001270931869
504.375 -0.0207749691 -0.0001591191954
505.0 -0.01295978139 -0.0003272999796
505.625 -0.008573379176 -0.008900452892
506.25 -0.03167645406 -0.008865023076
506.875 -0.06292316789 -0.04152214646
507.5 -0.06631698028 -0.01555492334
508.125 -0.05209319982 -0.03105752636
508.75 -0.08200046678 0.01117546779
509.375 -0.08905104085 0.0257414665
510.0 -0.06330378975 0.01560273799
510.625 -0.008895696826 0.02951800914
511.25 -0.02267115288 0.04387386072
511.875 -0.005922918608 0.06500953724
512.5 0.02888768106 0.03727764068
513.125 0.06577370385 -0.0228087262
513.75 0.0794539748 -0.06085008213
514.375 0.0426482304 -0.07007605253
515.0 0.00357578742 -0.06473206605
515.625 0.04246948987 -0.06957534561
516.25 0.02774842464 -0.08128127806
516.875 0.08053697492 0.000533243177
517.5 0.07022712502 -0.0481230687
518.125 0.1904704448 0.01731880301
518.75 0.05958055565 -0.1105123711
519.375 0.04637046385 -0.06703482156
520.0 0.0104213348 -0.06576635953
520.625 0.003828578768 -0.1093563732
521.25 -0.01259801795 -0.1067233922
521.875 0.01789747383 -0.05668148793
522.5 -0.02074608385 -0.07265736017
523.125 -0.04906249925 -0.2036698286
523.75 -0.1036479566 -0.290788763
524.375 -0.07242867114 -0.2765654737
525.0 -0.07151223038 -0.1271171615
525.625 -0.06594853643 -0.109275858
526.25 -0.02798584138 -0.09896906804
526.875 -0.04705065675 -0.06898352463
527.5 -0.09294089661 -0.05159707449
528.125 -0.0992357934 -0.01158093355
528.75 -0.08581204018 -0.0004375746541
529.375 -0.09320711626 0.08014515076
530.0 -0.02690199784 0.1484060786
530.625 0.07850275293 0.1234026638
531.25 0.05193295058 0.08362372223
531.875 0.06154485261 0.08166428746
532.5 0.08132656361 0.1361807502
533.125 0.05892781333 0.1199870058
533.75 0.06139175033 0.06972764141
534.375 0.07100877301 0.06074432278
535.0 0.1014880063 0.09360126726
535.625 0.04350513886 0.1029179683
536.25 0.08760412698 0.03007005774
536.875 0.1010831503 0.04730151689
537.5 0.05973756138 0.08277634227
538.125 0.03681374972 0.07261010126
538.75 0.07418185637 0.07444923484
539.375 0.0994426049 0.1319445967
540.0 0.0855271695 0.1163713554
540.625 0.06923076688 0.07809895193
541.25 0.07594575627 0.0778567026
541.875 0.07948178219 0.1013903968
542.5 0.02011635222 0.06730169105
543.125 0.01881467061 0.03929862465
543.75 0.07080706517 0.04019945703
544.375 0.1195926574 0.04599478605
545.0 0.1097419693 -0.03839176573
545.625 0.05122261689 -0.08412962514
546.25 0.001264094441 -0.1203653456
546.875 0.01581850386 -0.1248505376
547.5 0.03612095693 -0.1161457139
548.125 0.045623657 -0.1314240268
548.75 0.08936369526 -0.1253388074
549.375 0.1368776734 -0.0961953785
550.0 0.1478102732 -0.03487191059
550.625 0.1715601011 -0.06305870119
551.25 0.1732001517 0.03305182972
551.875 0.1237026301 -0.006523566816
552.5 0.09375223482 -0.03603939851
553.125 0.09537987654 -0.07512951312
553.75 0.1098959421 -0.03769379938
554.375 0.05904762787 -0.02670450676
555.0 0.05341762975 -0.03478730612
555.625 0.07360527998 -0.05911505498
556.25 0.09426693329 -0.03435411234
556.875 0.0643795126 -0.005227500316
557.5 0.06293519442 -0.005939646632
558.125 0.0979430001 0.02088172328
558.75 0.08525366032 0.06922251344
559.375 0.0948396831 0.05483472592
560.0 0.1174412017 0.03549318781
560.625 0.132718305 0.008690063795
561.25 0.09699140769 -0.02402830958
561.875 0.06774038329 -0.05035346902
562.5 0.06635995603 -0.06696805246
563.125 0.05390229314 -0.06361378255
563.75 0.03379021475 -0.04891506622
564.375 0.02355268769 -0.06025063456
565.0 0.0682634416 -0.09692017564
565.625 0.08446825057 -0.07837929368
566.25 0.07554460473 -0.05989976562
566.875 0.07420196221 -0.06366121557
567.5 0.102733896 -0.04213753724
568.125 0.1065968329 0.01912410673
568.75 0.09827050326 0.02739418171
569.375 0.124234481 0.02392990206
570.0 0.1315475993 0.02025095975
570.625 0.1110453032 0.004082353621
571.25 0.0967764334 -0.02089487156
571.875 0.107001021 -0.04437640481
572.5 0.07116880946 -0.05982575114
573.125 0.03513615891 -0.04900144538
573.75 0.03396847776 -0.06169374851
574.375 0.0484179699 -0.09036798363
575.0 0.04093825241 -0.08875444983
575.625 0.005981405482 -0.06417402222
576.25 -0.002000149243 -0.06954298724
576.875 0.03323038233 -0.07958647432
577.5 0.04631995512 -0.06605042487
578.125 0.03859824836 -0.0665554729
578.75 0.03208249379 -0.09442747831
579.375 0.05784501857 -0.1107425055
580.0 0.06151296428 -0.08717769345
580.625 0.03684609483 -0.1062167078
581.25 0.004349120045 -0.1304322944
581.875 0.00902028208 -0.106505455
582.5 0.02079833898 -0.06322008409
583.125 0.02741378482 -0.06643297474
583.75 0.05210865471 -0.08482693941
584.375 0.05897291736 -0.06641652406
585.0 0.04855186997 -0.04166188887
585.625 0.05810531768 -0.03873199983
586.25 0.07997454589 -0.04259695915
586.875 0.06436754175 -0.0397091143
587.5 0.04177697752 -0.04774951813
588.125 0.03832955269 -0.07457827915
588.75 0.05934329844 -0.08182375877
589.375 0.03052355913 -0.09624699084
590.0 -0.03131494584 -0.09672719194
590.625 -0.07168581566 -0.08807583103
591.25 -0.03678835384 -0.06228262856
591.875 -0.01308793692 -0.03471725761
592.5 -0.0122011028 -0.04090337247
593.125 -0.01290331703 -0.0706394305
593.75 0.01508953552 -0.07155930271
594.375 0.03746913915 -0.04468580142
595.0 0.05242557111 -0.04391358311
595.625 0.07832474368 -0.04155924215
596.25 0.08071891916 -0.02146392209
596.875 0.06714508486 -0.005353187748
597.5 0.07019518237 0.002039008038
598.125 0.08349725516 0.002610454955
598.75 0.08540305546 -0.01699659101
599.375 0.08210541889 -0.03521259589
600.0 0.07796192299 -0.03867454856
600.625 0.06094723658 -0.03315841964
601.25 0.03593944723 -0.03180360635
601.875 0.02655218423 -0.02555089958
602.5 0.02867301788 -0.009199811855
603.125 0.02043715435 0.008880047156
603.75 0.02040779386 0.01658185453
604.375 0.0340908202 0.01763163209
605.0 0.0400899138 0.01836784814
605.625 0.02035063178 0.01546742439
606.25 -0.0004010290947 0.01886256486
606.875 -0.003826382269 0.03716475217
607.5 0.01302300713 0.05007807258
608.125 0.03112830463 0.0376769727
608.75 0.03073357581 0.02652986793
609.375 0.02787075887 0.02933182339
610.0 0.02767504672 0.03006312592
610.625 0.02963789023 0.01739477147
611.25 0.02510446932 0.00423794982
611.875 0.01610867811 -0.004549084632
612.5 0.003909652218 -0.01201852746
613.125 -0.009902805426 -0.01052599679
613.75 -0.01330999246 -0.000225238414
614.375 -0.0041621179 0.003904985379
615.0 0.003730683306 -0.004737721231
615.625 -0.001889306656 -0.01398092117
616.25 -0.009132576397 -0.007734305514
616.875 -0.001384396273 0.001164521505
617.5 0.01163545469 -0.004067716867
618.125 0.01679364784 -0.01376519151
618.75 0.01730113328 -0.01442401452
619.375 0.02645116368 -0.01101862919
620.0 0.04317566956 -0.02107498836
620.625 0.04218945508 -0.04932647423
621.25 0.03915056523 -0.06080290903
621.875 0.02515767698 -0.07166878152
622.5 -0.03742534197 -0.05950464703
623.125 -0.03740131568 -0.03284536592
623.75 -0.01796139044 -0.0212137923
624.375 0.003971692105 -0.02383052202
625.0 0.02248324475 -0.01889335236
625.625 0.02105272065 -0.008262459427
626.25 0.02829899564 0.002733637714
626.875 0.05500034652 -0.0008522714872
627.5 0.07825071128 0.009904791254
628.125 0.07206056201 0.01697397193
628.75 0.06859701277 0.01584449803
629.375 0.08511342518 0.02011877139
630.0 0.09676322774 0.04333923796
630.625 0.07642150897 0.05163450602
631.25 0.07491105797 0.03820925975
631.875 0.07809536465 0.0378708643
632.5 0.06690884033 0.04125032142
633.125 0.04167332106 0.0446525079
633.75 0.04670480722 0.03746706879
634.375 0.04779062686 0.05179625736
635.0 0.03948175416 0.04977987429
635.625 0.03998240904 0.05237659376
636.25 0.05787790893 0.06541419014
636.875 0.05878910428 0.07572605864
637.5 0.03667488159 0.0566132497
638.125 0.02705243988 0.06018528006
638.75 0.03246535239 0.1065714853
639.375 -0.01225194222 0.1214416717
640.0 -0.02806381276 0.08716750027
640.625 -0.01915964893 0.07398523566
641.25 -0.04587962649 0.0868937518
641.875 -0.08322308712 0.05333567196
642.5 -0.07008775198 0.03189003544
643.125 -0.06728015108 0.03985812042
643.75 -0.09215056623 0.03454063968
644.375 -0.1075321839 0.01341271201
645.0 -0.09555768106 0.01784218841
645.625 -0.1022326829 0.05118581394
646.25 -0.1076889152 0.06333173503
646.875 -0.09890376 0.03508072289
647.5 -0.08667037853 0.02524130804
648.125 -0.1041158716 0.03563539172
648.75 -0.1128336881 0.008360107219
649.375 -0.07927793472 -0.007774691497
650.0 -0.06291668416 -0.02268438312
650.625 -0.05474890857 -0.06523938261
651.25 -0.01840748931 -0.08446047426
651.875 0.01564375021 -0.07111984213
652.5 0.03962078288 -0.07745791369
653.125 0.102585298 -0.08650620555
653.75 0.1257118948 -0.04424362184
654.375 0.118441903 -0.03787686067
655.0 0.1312905678 -0.05388947237
655.625 0.1451418432 -0.0437020268
656.25 0.1073723824 -0.0232982377
656.875 0.07549027958 -0.05607845713
657.5 0.1001460166 -0.06243716452
658.125 0.1060751009 -0.03718352863
658.75 0.07541699521 -0.01040668883
659.375 0.06281756847 -0.02229189385
660.0 0.08889658301 -0.05958710218
660.625 0.1017980791 -0.06835730307
661.25 0.08572814003 -0.07808291656
661.875 0.05488678847 -0.1147217108
662.5 0.04051315969 -0.1461288288
663.125 0.0606589245 -0.1332422599
663.75 0.0845849337 -0.09550551716
664.375 0.1376988596 -0.04492911835
665.0 0.1236113156 0.05184283661
665.625 0.07783286802 0.06508603879
666.25 0.05889009835 0.0649407979
666.875 0.03691111642 0.1111083521
667.5 -0.04239778874 0.1155174055
668.125 -0.05040058902 0.08007836306
668.75 -0.02412082526 0.1027974315
669.375 -0.01874534432 0.1470814451
670.0 -0.05591458369 0.135392043
670.625 -0.05875815792 0.08856743458
671.25 -0.01509800518 0.1164240847
671.875 0.01956890702 0.1483163697
672.5 0.06399728942 0.1226911628
673.125 0.06067260585 0.08235919205
673.75 0.0520426713 0.08444942091
674.375 0.02162693647 0.1124221699
675.0 -0.02385583636 0.1070486088
675.625 -0.05067780288 0.1003135535
676.25 -0.1138130043 0.08232733035
676.875 -0.1322900782 0.03937845863
677.5 -0.1286539824 0.03926233775
678.125 -0.1309947086 0.07996869296
678.75 -0.1702168402 0.06930110151
679.375 -0.1225745239 0.00835026534
680.0 -0.08550212001 0.02329433121
680.625 -0.09168509069 0.05624633064
681.25 -0.1136946267 0.0754450952
681.875 -0.09570082324 0.03651171005
682.5 -0.06243539122 0.04296452359
683.125 -0.07613506829 0.08338267639
683.75 -0.1230189625 0.08739039076
684.375 -0.1477676297 -0.008939770026
685.0 -0.09151308597 -0.08846154589
685.625 -0.03490655062 -0.1481919987
686.25 0.03380226788 -0.1634197724
686.875 0.05938705602 -0.1514418709
687.5 0.08418006976 -0.1350446352
688.125 0.09898059546 -0.09067659194
688.75 0.08974642168 -0.04509086174
689.375 0.08086565061 -0.03314206849
690.0 0.1159011201 -0.03431057126
690.625 0.1329985197 0.01067588649
691.25 0.1056356017 -0.003168590164
691.875 0.08969289035 -0.0679270452
692.5 0.006176828755 -0.1786116934
693.125 -0.1323504074 -0.1743517572
693.75 -0.1424558817 -0.05786077211
694.375 -0.1363195348 -0.003776710413
695.0 -0.1524923317 -0.0671397404
695.625 -0.03743110068 -0.1711554661
696.25 0.1033045259 -0.06912766745
696.875 0.102876871 0.02358292019
697.5 0.05457349859 0.09739230597
698.125 0.002778913497 0.1152591108
698.75 -0.01488588021 0.12318135
699.375 -0.02463487939 0.1395725719
700.0 -0.04909825746 0.1233539704
700.625 -0.07334182986 0.09602315414
701.25 -0.07210094022 0.1158426268
701.875 -0.0754308057 0.1626873839
702.5 -0.02068361606 0.1246661058
703.125 0.02458616476 0.07465928018
703.75 0.07556310034 0.04437941709
704.375 0.1570202157 0.045880423
705.0 0.1404047038 0.07872056972
705.625 0.07528362689 0.08110692199
706.25 0.02767783659 0.1112926661
706.875 -0.1040203523 0.1240379607
707.5 -0.1731660435 0.01999128476
708.125 -0.1250683956 -0.04134313222
708.75 -0.103398539 -0.06961278592
709.375 -0.03124896032 -0.1192163647
710.0 0.05609990729 -0.1028211371
710.625 0.07866818987 -0.06598381785
711.25 0.08375623428 -0.04690451028
711.875 0.06888783467 -0.02977875319
712.5 0.06500968911 -0.02760978574
713.125 0.05628952628 -0.09175164453
713.75 -0.03037567912 -0.1466709568
714.375 -0.09978157038 -0.09945577261
715.0 -0.1225714986 -0.03779960061
715.625 -0.15077643 -0.03445024554
716.25 -0.1310368001 -0.1165688989
716.875 -0.0321167706 -0.1204240068
717.5 0.01596754001 -0.08948921316
718.125 0.04397034835 -0.09203900494
718.75 0.08949362387 -0.07376354428
719.375 0.08840813751 -0.01924184115
720.0 0.05995300109 0.01484371229
720.625 0.02027640211 0.05932499107
721.25 -0.07166096191 0.0368964655
721.875 -0.08387131704 -0.05696308755
722.5 -0.0791074363 -0.08046344677
723.125 -0.1245765165 -0.03579336384
723.75 -0.1059598865 0.05822333398
724.375 -0.03176782433 0.0935060896
725.0 0.02896434703 0.07703342442
725.625 0.0476549552 0.04932325866
726.25 0.03353830757 0.03138827869
726.875 0.005833046083 0.03398148441
727.5 -0.02862861468 0.04647320517
728.125 -0.06273194796 0.04107661275
728.75 -0.05654212362 0.04105044107
729.375 -0.027262531 0.04790134678
730.0 -0.02215915208 0.04136002754
730.625 -0.039038855 0.0315238911
731.25 -0.04363304212 0.01217453996
731.875 -0.03965576025 -0.0100794937
732.5 -0.02701878295 -0.02425974052
733.125 -0.01220686106 -0.01736578063
733.75 0.000474650071 -0.003732792365
734.375 0.01199258843 -0.005040376671
735.0 0.009298966587 -0.01472898629
735.625 0.006912112329 -0.016222286
736.25 0.003911380035 -0.02464188015
736.875 -0.01181097883 -0.02919251531
737.5 -0.02709263465 -0.01559389688
738.125 -0.03361141347 0.007456476931
738.75 -0.0261468102 0.03292822434
739.375 -0.004009256622 0.04264887814
740.0 0.01340605099 0.02886612128
740.625 0.01041365216 0.02421194526
741.25 0.004662122822 0.03684491188
741.875 -0.02045987769 0.0372282087
742.5 -0.04360162391 0.0009765895469
743.125 -0.02281071997 -0.04505183247
743.75 0.01267947609 -0.05567763823
744.375 0.01490734526 -0.05648773194
745.0 -0.002413320617 -0.06199379921
745.625 -0.02885508098 -0.05032179955
746.25 -0.01596085165 -0.02461959292
746.875 -0.003218099903 -0.03051976298
747.5 -0.0235614999 -0.03886034793
748.125 -0.05265278937 -0.02719787958
748.75 -0.06582061079 0.01143414852
749.375 -0.03746273093 0.06091792306
750.0 0.0421074151 0.07809006626
