!Created with skrf (http://scikit-rf.org).
# GHz S RI R 50.0 
!freq ReS11 ImS11
500.0 -0.0106260455 -0.001866118145
500.625 -0.006064996839 0.0005173749748
501.25 -0.01957526468 -0.01488200571
501.875 -0.05761597176 -0.01885188437
502.5 -0.04670054858 -0.01227586079
503.125 -0.02592387242 0.0092431513
503.75 -0.01724191375 0.01159411352
504.375 -0.02198750813 0.01562921786
505.0 -0.01188644173 0.01498162399
505.625 -0.00590124371 0.002688449412
506.25 -0.02255931958 0.00537604692
506.875 -0.06632384546 -0.01202485874
507.5 -0.06574397194 0.009996853629
508.125 -0.05562436932 -0.01061805839
508.75 -0.06492451897 0.03543894472
509.375 -0.07541652181 0.05751039467
510.0 -0.05948580101 0.04154671315
510.625 0.009591292701 0.02963857534
511.25 -0.00229794402 0.04235322351
511.875 0.01534230621 0.0569804926
512.5 0.03704176549 0.02978279035
513.125 0.05295716934 -0.03788753772
513.75 0.05364007828 -0.08497677801
514.375 0.01565012316 -0.08572675689
515.0 -0.02130020208 -0.06561100592
515.625 0.008072869401 -0.07960102147
516.25 -0.01851534312 -0.08078809006
516.875 0.06583618802 -0.02499226704
517.5 0.04515417123 -0.05180605735
518.125 0.1600935606 -0.03218749668
518.75 0.02257441669 -0.1198264163
519.375 0.02255667653 -0.07793328041
520.0 -0.008359500486 -0.05736834887
520.625 -0.02716751314 -0.0896192061
521.25 -0.04323986315 -0.09327442698
521.875 0.001129818056 -0.05461720888
522.5 -0.03073819639 -0.05413154161
523.125 -0.08192449311 -0.1587780626
523.75 -0.1594063192 -0.2479219357
524.375 -0.1140178742 -0.2560757315
525.0 -0.09224331086 -0.1053208073
525.625 -0.09506069775 -0.09232252266
526.25 -0.05664868191 -0.09377525834
526.875 -0.06305108854 -0.05656392519
527.5 -0.1026514728 -0.02226877322
528.125 -0.1061430215 0.02442202462
528.75 -0.08632372287 0.02358496948
529.375 -0.06810606451 0.09687687745
530.0 0.01784670409 0.1525646487
530.625 0.1286526222 0.1121774041
531.25 0.08850587469 0.08398560543
531.875 0.09007573743 0.04773568162
532.5 0.1261383375 0.08361348864
533.125 0.100492066 0.09501425791
533.75 0.08075291785 0.04912770588
534.375 0.07899111939 0.0322799477
535.0 0.1207795747 0.04761569806
535.625 0.07439348166 0.08904057834
536.25 0.09410491721 0.009363726718
536.875 0.1175396445 0.01192577817
537.5 0.09396294799 0.05246542497
538.125 0.06267869528 0.05135049794
538.75 0.0850326636 0.04719871145
539.375 0.1373963996 0.08669603449
540.0 0.1290946205 0.09439699796
540.625 0.0987484083 0.05437107101
541.25 0.09718168696 0.04682140676
541.875 0.1197346668 0.06057255607
542.5 0.05950177302 0.05886060235
543.125 0.03193279513 0.02041026715
543.75 0.06157972368 0.006613391379
544.375 0.1138520362 0.00251980475
545.0 0.09210108884 -0.06911383105
545.625 0.0269261491 -0.0917898214
546.25 -0.03589777152 -0.1030216823
546.875 -0.02816292103 -0.1205516149
547.5 -0.0004417740652 -0.1193474344
548.125 0.00420984208 -0.1265449074
548.75 0.04451091578 -0.1334056852
549.375 0.101301209 -0.1293839578
550.0 0.1357888952 -0.06324573795
550.625 0.1422011174 -0.09329465571
551.25 0.1880096123 -0.01715062533
551.875 0.1315013803 -0.04036720592
552.5 0.09117249171 -0.06093647664
553.125 0.0695510158 -0.1013241334
553.75 0.09800440328 -0.0862364041
554.375 0.0555298896 -0.05392956766
555.0 0.03819418051 -0.05485021708
555.625 0.04360573018 -0.08216626944
556.25 0.07299774163 -0.0749710004
556.875 0.0601661207 -0.03539039425
557.5 0.04758617425 -0.02764351656
558.125 0.08646112959 -0.01764538179
558.75 0.09518940014 0.03481401726
559.375 0.1000833675 0.02722818617
560.0 0.117091134 0.007696872684
560.625 0.1348742867 -0.03158312453
561.25 0.09708420676 -0.05431067668
561.875 0.05304285145 -0.07205099738
562.5 0.03520293152 -0.09350335961
563.125 0.02372386158 -0.08727779397
563.75 0.009467372664 -0.06353431701
564.375 -0.002878385865 -0.05691619282
565.0 0.01808343182 -0.09935978619
565.625 0.05496084425 -0.1015015905
566.25 0.05558874685 -0.07694073667
566.875 0.04924561333 -0.07805325484
567.5 0.07458945402 -0.07158529737
568.125 0.1046267477 -0.02161143933
568.75 0.09625174374 0.004453379902
569.375 0.1182081201 -0.009429902249
570.0 0.1336699555 -0.01674133142
570.625 0.1140472712 -0.02882883852
571.25 0.09244961576 -0.04568603814
571.875 0.08945674671 -0.07818542979
572.5 0.05756387536 -0.09475334733
573.125 0.01750492025 -0.07119788184
573.75 0.00212606385 -0.06793750654
574.375 0.01052901608 -0.09899996448
575.0 0.00571191642 -0.1054169842
575.625 -0.01670033765 -0.06795218815
576.25 -0.0304372119 -0.05863640305
576.875 -0.01059025254 -0.08192182626
577.5 0.01735733819 -0.07303543123
578.125 0.01713864011 -0.06868245251
578.75 0.001355693162 -0.08632339504
579.375 0.01269575574 -0.1159878075
580.0 0.03874418603 -0.1013836561
580.625 0.01347978706 -0.1088524598
581.25 -0.03110343324 -0.1280963743
581.875 -0.02803835017 -0.1154899445
582.5 -0.002523045119 -0.07911438728
583.125 0.002843530221 -0.07102990068
583.75 0.01522132838 -0.09826657925
584.375 0.03409017646 -0.08861005156
585.0 0.03187881554 -0.05997878733
585.625 0.03645336316 -0.05565929563
586.25 0.05518949138 -0.06672409496
586.875 0.04940463436 -0.06211968907
587.5 0.02308918957 -0.05766399353
588.125 0.004544575547 -0.07512409034
588.75 0.02823955876 -0.09213828291
589.375 0.004757784926 -0.1025394493
590.0 -0.05067699229 -0.08743782187
590.625 -0.09914885663 -0.06350402097
591.25 -0.07162565376 -0.05606655167
591.875 -0.03524075776 -0.03088907202
592.5 -0.02929936081 -0.02786187826
593.125 -0.04025741587 -0.05088252595
593.75 -0.01809334216 -0.06839538146
594.375 0.018312821 -0.05090296188
595.0 0.0319690995 -0.04890001453
595.625 0.05589908791 -0.05853167027
596.25 0.0686129335 -0.04518699966
596.875 0.06163445304 -0.0248880051
597.5 0.06224926825 -0.01733315338
598.125 0.07598386133 -0.02101864808
598.75 0.07693243367 -0.03712345539
599.375 0.07170096924 -0.05293387556
600.0 0.0704980043 -0.05933576756
600.625 0.05915744225 -0.05299869762
601.25 0.03372419695 -0.04801207677
601.875 0.01904835452 -0.04159953923
602.5 0.02333995135 -0.02944619919
603.125 0.02167868258 -0.007081435823
603.75 0.02042894544 0.004398954181
604.375 0.03231070442 0.004211722935
605.0 0.04291873766 0.00179188418
605.625 0.02793250782 0.003815674278
606.25 0.005813423012 0.01049513942
606.875 0.002260462005 0.02783381423
607.5 0.01995270499 0.04035823529
608.125 0.036609163 0.02909340929
608.75 0.03447263189 0.01941746255
609.375 0.03222686763 0.02307229821
610.0 0.03327082586 0.02565464264
610.625 0.03451875293 0.01425868269
611.25 0.02924140039 0.002403706109
611.875 0.01978653642 -0.005059082839
612.5 0.00675486562 -0.01165573926
613.125 -0.008349785995 -0.01016051339
613.75 -0.01285972786 0.0001467000183
614.375 -0.004823834236 0.004153539172
615.0 0.00201440252 -0.004510915606
615.625 -0.004872448732 -0.01394263247
616.25 -0.01309567318 -0.007904403886
616.875 -0.006203104795 0.001071628716
617.5 0.005488945722 -0.004124008236
618.125 0.009042614107 -0.01515974246
618.75 0.009327836411 -0.01699464485
619.375 0.01845659725 -0.0139462929
620.0 0.0328678587 -0.02431857628
620.625 0.03020113621 -0.05228081931
621.25 0.02833751036 -0.06662052975
621.875 0.0146022726 -0.07779154388
622.5 -0.05225613259 -0.0575823514
623.125 -0.05378579167 -0.0314022001
623.75 -0.03381849869 -0.02250692673
624.375 -0.01234001679 -0.02983348051
625.0 0.009085365307 -0.03404599483
625.625 0.009240872232 -0.02378324675
626.25 0.01537307885 -0.008618755649
626.875 0.03758909449 -0.01353855994
627.5 0.06817108753 -0.01401959082
628.125 0.07007437556 -0.003733113025
628.75 0.06476075686 -0.002076450305
629.375 0.07760763266 -0.003145053803
630.0 0.1020311329 0.01232167367
630.625 0.09158629596 0.03431311613
631.25 0.08531392289 0.02062781509
631.875 0.09109416724 0.01301460077
632.5 0.08656880023 0.01574081225
633.125 0.06428579862 0.03032194079
633.75 0.06018117582 0.01888487813
634.375 0.06900362648 0.02708980654
635.0 0.05966824041 0.02683159956
635.625 0.05396480038 0.0290157655
636.25 0.07076208064 0.03760616273
636.875 0.08246230795 0.04846533521
637.5 0.06019991986 0.03844344186
638.125 0.04188574234 0.03929620927
638.75 0.05787695208 0.07630702478
639.375 0.02482326696 0.1212982322
640.0 -0.003450989433 0.09909645394
640.625 0.00349866856 0.0777356847
641.25 -0.004921714612 0.09475295731
641.875 -0.05624759553 0.08905217319
642.5 -0.05921902156 0.05505936174
643.125 -0.04891741486 0.05772418844
643.75 -0.06530532568 0.06656160328
644.375 -0.08967222927 0.0566903974
645.0 -0.08765720082 0.04506038411
645.625 -0.07825532578 0.07285808652
646.25 -0.08033009396 0.09752171795
646.875 -0.08293979739 0.07435302073
647.5 -0.0750353173 0.05566864213
648.125 -0.08463560985 0.06565660798
648.75 -0.1104487471 0.05123239459
649.375 -0.08725509353 0.02472957422
650.0 -0.06974149644 0.007822997156
650.625 -0.07830330179 -0.02862687492
651.25 -0.05282799896 -0.0662505506
651.875 -0.01311882168 -0.06829013347
652.5 0.006674702567 -0.07210137488
653.125 0.05296255001 -0.1042539348
653.75 0.1078417359 -0.07701574106
654.375 0.1062094396 -0.06185280721
655.0 0.1070795488 -0.08288389628
655.625 0.1238945642 -0.09585472844
656.25 0.1093640685 -0.06935460903
656.875 0.06116893184 -0.07896569769
657.5 0.07055402146 -0.09790913514
658.125 0.08836165512 -0.08887686707
658.75 0.06786629411 -0.05565892829
659.375 0.04379178479 -0.04483689939
660.0 0.04651267296 -0.07933375856
660.625 0.06380242918 -0.09602175385
661.25 0.05239296301 -0.09839465995
661.875 0.01510255093 -0.1160662193
662.5 -0.00881434386 -0.145226369
663.125 0.01449381159 -0.1483082889
663.75 0.05627201868 -0.1180407557
664.375 0.1111303763 -0.08929646469
665.0 0.1509646915 -0.0002673208898
665.625 0.1064797719 0.0382258261
666.25 0.08244767852 0.04379920622
666.875 0.08105164592 0.07860328
667.5 0.02132963919 0.1233511761
668.125 -0.01900419017 0.09180180186
668.75 0.006323080301 0.09496424047
669.375 0.03288771633 0.1317992953
670.0 0.004899133316 0.1497992514
670.625 -0.02649331644 0.1111728104
671.25 0.0186305858 0.1089572885
671.875 0.07116851874 0.1306310326
672.5 0.1142910936 0.09608715255
673.125 0.09901186898 0.05756767609
673.75 0.08378152471 0.05384829766
674.375 0.06563109924 0.0887162408
675.0 0.0182992233 0.1060508246
675.625 -0.008756236658 0.1035814815
676.25 -0.0630679556 0.1146477228
676.875 -0.1082669317 0.07804154345
677.5 -0.1114364309 0.07126948296
678.125 -0.09836169549 0.1025147105
678.75 -0.1328176671 0.1300151416
679.375 -0.1357391184 0.05888382253
680.0 -0.08347949695 0.05569553046
680.625 -0.06378243476 0.08559963456
681.25 -0.06451369372 0.1241181743
681.875 -0.07062600051 0.09284592648
682.5 -0.03752850369 0.06301810621
683.125 -0.03059606586 0.09097439595
683.75 -0.0715943944 0.115879598
684.375 -0.1357637221 0.04929997
685.0 -0.1114686226 -0.05325313113
685.625 -0.07324165238 -0.1187737365
686.25 -0.01659123636 -0.1629849217
686.875 0.012071259 -0.1646414067
687.5 0.03650373136 -0.160440371
688.125 0.06793354702 -0.1384347853
688.75 0.07397195661 -0.08894275617
689.375 0.06397617614 -0.06633034375
690.0 0.08067522367 -0.08038798403
690.625 0.1234336842 -0.06243606555
691.25 0.09259510458 -0.0438018802
691.875 0.0578134992 -0.08052070348
692.5 -0.04419200145 -0.1456671528
693.125 -0.1884325119 -0.1093687794
693.75 -0.1708270083 -0.01619713276
694.375 -0.1326657777 0.03561701302
695.0 -0.1615980973 -0.006230160992
695.625 -0.1097281681 -0.1434844075
696.25 0.07816680565 -0.1190769566
696.875 0.1088615121 -0.01759532726
697.5 0.09428240839 0.06185948157
698.125 0.05050518034 0.09635428628
698.75 0.03045708474 0.1112385923
699.375 0.02673432221 0.1320679595
700.0 -0.004189514775 0.1318466462
700.625 -0.03988668621 0.1148238203
701.25 -0.03208442158 0.1254949507
701.875 -0.001248247169 0.1793772168
702.5 0.0331481632 0.1485977404
703.125 0.06485311927 0.06707944055
703.75 0.07879997954 0.004227986887
704.375 0.1393437126 -0.03087497912
705.0 0.1689182609 0.01180204256
705.625 0.09982715087 0.05367511627
706.25 0.05397462734 0.08597020849
706.875 -0.04607643952 0.1364951717
707.5 -0.1547816494 0.08288578099
708.125 -0.1428504245 -0.007549226981
708.75 -0.1212492705 -0.03437103423
709.375 -0.07762853878 -0.1005836388
710.0 0.007694558394 -0.1225569652
710.625 0.05210558514 -0.09977186959
711.25 0.06385917277 -0.08480826449
711.875 0.05173031611 -0.06786285699
712.5 0.03648545192 -0.05506925409
713.125 0.007699421057 -0.08754080254
713.75 -0.07864322534 -0.1102355996
714.375 -0.1231848626 -0.06064829325
715.0 -0.1232776705 -0.002808561403
715.625 -0.1404984484 0.0124848879
716.25 -0.1683933794 -0.05658440099
716.875 -0.08184199574 -0.1171884669
717.5 -0.01435692806 -0.0984060613
718.125 0.004338489046 -0.1003975058
718.75 0.04778908876 -0.1080161987
719.375 0.08138248351 -0.06256683142
720.0 0.06755812102 -0.01153566458
720.625 0.04668185028 0.03828886568
721.25 -0.03798903088 0.05742848221
721.875 -0.08805649723 -0.01849411412
722.5 -0.09197711617 -0.05118879579
723.125 -0.1254703141 0.001882587975
723.75 -0.0855877874 0.09076200674
724.375 0.002175303834 0.1036985329
725.0 0.05764822215 0.06498812335
725.625 0.07036536278 0.03142147544
726.25 0.05291357246 0.01777524537
726.875 0.02668902349 0.02557232753
727.5 -0.0005966085635 0.04524437249
728.125 -0.03705152022 0.05680787265
728.75 -0.03913395536 0.05621360143
729.375 -0.009479020241 0.05373381393
730.0 -0.003027962787 0.04393592598
730.625 -0.02340477111 0.0411678971
731.25 -0.03822258439 0.02530820865
731.875 -0.04204456643 0.001422859479
732.5 -0.03603342999 -0.01701305628
733.125 -0.02310433135 -0.01675893139
733.75 -0.008691967397 -0.003947348963
734.375 0.004273271027 -0.003942315419
735.0 0.004184200905 -0.01122415424
735.625 0.004303491818 -0.0130663542
736.25 0.002786425023 -0.02307326837
736.875 -0.01231088386 -0.02940636188
737.5 -0.02659010646 -0.01727621428
738.125 -0.03099510171 0.004902226782
738.75 -0.0209990816 0.03096785817
739.375 0.003238784415 0.04139529056
740.0 0.0221878932 0.02547785948
740.625 0.01961088895 0.01685382344
741.25 0.01643422247 0.03044449896
741.875 -0.008194294077 0.04103159823
742.5 -0.0413380541 0.01422766667
743.125 -0.03702055316 -0.03414100124
743.75 -0.008475611823 -0.05912383613
744.375 -0.004051710514 -0.06407152671
745.0 -0.02357486949 -0.06449049551
745.625 -0.05448265571 -0.04315726372
746.25 -0.0393303332 -0.01213274073
746.875 -0.01751484027 -0.01494069401
747.5 -0.02795881467 -0.02168203805
748.125 -0.05162527713 -0.007328523316
748.75 -0.0548693358 0.03190109771
749.375 -0.01214625076 0.06807503456
750.0 0.06290713738 0.05446622512
