!Created with skrf (http://scikit-rf.org).
# GHz S RI R 50.0 
!freq ReS11 ImS11
500.0 -0.01331609065 -0.003518971984
500.625 -0.008088942468 0.0004871652505
501.25 -0.02192838945 -0.01256648265
501.875 -0.05611198869 -0.01433883679
502.5 -0.04845711822 -0.005062272828
503.125 -0.02613432906 0.01044422323
503.75 -0.01706097233 0.01549999507
504.375 -0.0221874997 0.01872625472
505.0 -0.01122360259 0.01764711329
505.625 -0.00415720029 0.005328130898
506.25 -0.02064486148 0.007701104265
506.875 -0.06597060307 -0.007207939459
507.5 -0.06433175362 0.01542335058
508.125 -0.05584170349 -0.005937275017
508.75 -0.06027810387 0.03789104145
509.375 -0.07202161951 0.06250947645
510.0 -0.05719367771 0.04619146965
510.625 0.01249607231 0.0281247405
511.25 0.002071350834 0.03889708675
511.875 0.01920163438 0.05625486433
512.5 0.03843007482 0.02929155084
513.125 0.05091239485 -0.03889127234
513.75 0.04786510674 -0.0895186546
514.375 0.01022333769 -0.08787287303
515.0 -0.02572820151 -0.06442616143
515.625 0.002006877634 -0.07778725661
516.25 -0.028265133 -0.0773646421
516.875 0.05907634819 -0.03112796828
517.5 0.04163789663 -0.05085814197
518.125 0.1554418194 -0.0375973992
518.75 0.01417828445 -0.1204097487
519.375 0.01822748723 -0.07798562177
520.0 -0.01147459643 -0.05510611881
520.625 -0.03451678295 -0.08109728746
521.25 -0.05045138035 -0.09144761754
521.875 -0.002328053709 -0.05346589766
522.5 -0.0315323018 -0.04972533247
523.125 -0.08762997919 -0.1479272963
523.75 -0.1706070882 -0.2417520929
524.375 -0.1156164237 -0.2508865892
525.0 -0.09286923847 -0.09958583419
525.625 -0.100065075 -0.08703793679
526.25 -0.06054121439 -0.0922450128
526.875 -0.06392552643 -0.05398346709
527.5 -0.1017526262 -0.01651290379
528.125 -0.104807369 0.03133637566
528.75 -0.08545614706 0.02738666602
529.375 -0.06370343292 0.09766950733
530.0 0.02570989852 0.1501624887
530.625 0.1367730292 0.1072018671
531.25 0.09396789278 0.08047919419
531.875 0.0925200597 0.03938067934
532.5 0.1325008472 0.07070625331
533.125 0.1068371703 0.08861942834
533.75 0.08166680689 0.04414741409
534.375 0.07829239363 0.02500354435
535.0 0.1229642855 0.03690356995
535.625 0.07824789105 0.08620682287
536.25 0.09302122403 0.006241853277
536.875 0.1170392515 0.003427334161
537.5 0.1001487266 0.04403343879
538.125 0.0657690363 0.04800280005
538.75 0.08442926147 0.04242246114
539.375 0.1396407592 0.07555712536
540.0 0.1373205504 0.08871975964
540.625 0.1018306025 0.05006442572
541.25 0.09828227446 0.03970143185
541.875 0.1240318138 0.05149960144
542.5 0.06667717447 0.05469155434
543.125 0.03257080119 0.01671950504
543.75 0.05662374211 0.00120361917
544.375 0.1109074924 -0.005476435587
545.0 0.08806198892 -0.07169799693
545.625 0.02255229382 -0.09049411362
546.25 -0.04193824515 -0.0959569181
546.875 -0.03759321035 -0.1186756192
547.5 -0.005150472891 -0.1176480816
548.125 -0.00194440753 -0.1211058791
548.75 0.03237175993 -0.1314629219
549.375 0.09228005671 -0.1366328896
550.0 0.1322526844 -0.06680007616
550.625 0.1338278252 -0.09592117148
551.25 0.1849184666 -0.03207629889
551.875 0.1320098019 -0.04916046863
552.5 0.0886305024 -0.0653760079
553.125 0.06215922372 -0.1043805248
553.75 0.08795112226 -0.097663577
554.375 0.05267026663 -0.06078379467
555.0 0.03290459124 -0.05762768413
555.625 0.03503626002 -0.08482164903
556.25 0.0651351165 -0.08165691884
556.875 0.0561884371 -0.04100870862
557.5 0.04174681014 -0.03055911303
558.125 0.08045498252 -0.02568322145
558.75 0.09531626087 0.02820925888
559.375 0.09759183325 0.02268171649
560.0 0.1134315821 0.001319745233
560.625 0.1320138068 -0.04269187219
561.25 0.09683002731 -0.06012817077
561.875 0.04824675158 -0.07424112583
562.5 0.02462475491 -0.09552284741
563.125 0.01343881184 -0.09148702485
563.75 0.003865300006 -0.06640233132
564.375 -0.007868161825 -0.05342925433
565.0 0.005978221577 -0.09417496619
565.625 0.0440998747 -0.1053152003
566.25 0.05020951977 -0.07944860584
566.875 0.0423374544 -0.07837733371
567.5 0.06553754256 -0.07564881565
568.125 0.1003286874 -0.03068012724
568.75 0.09392563948 -0.0001753975563
569.375 0.1130743825 -0.0172803333
570.0 0.1316175677 -0.02684504312
570.625 0.1119532295 -0.03583932245
571.25 0.08836245824 -0.05091687455
571.875 0.08093381074 -0.08534935545
572.5 0.05171600846 -0.1044358105
573.125 0.01304559577 -0.07365683857
573.75 -0.005448593972 -0.06518481217
574.375 -0.00124671098 -0.09747831659
575.0 -0.005692379984 -0.1083276509
575.625 -0.0209759412 -0.06696606451
576.25 -0.03589183479 -0.05212569054
576.875 -0.02369653422 -0.07623155957
577.5 0.00799029799 -0.07341813408
578.125 0.01237562509 -0.06722252926
578.75 -0.005584070502 -0.08018526718
579.375 -0.0003645103982 -0.1118702299
580.0 0.03088068129 -0.1037887575
580.625 0.007751208012 -0.1069280186
581.25 -0.04086824785 -0.1231690769
581.875 -0.0392635244 -0.1144544232
582.5 -0.009724633374 -0.08053516391
583.125 -0.003909547529 -0.06963445383
583.75 0.002663671119 -0.09780947073
584.375 0.02569338749 -0.09304325098
585.0 0.02582709704 -0.06216353926
585.625 0.02800421847 -0.05739327605
586.25 0.0443993254 -0.07145147281
586.875 0.04329670017 -0.06801495223
587.5 0.01715257339 -0.05769990483
588.125 -0.005818566414 -0.07014026935
588.75 0.01660999798 -0.09227803394
589.375 -0.003599523124 -0.1026778831
590.0 -0.05446585882 -0.08237025092
590.625 -0.1034811965 -0.05236513589
591.25 -0.08209390008 -0.04963072537
591.875 -0.04096339523 -0.02841742122
592.5 -0.03218185513 -0.02213541915
593.125 -0.04546782502 -0.04169486058
593.75 -0.02737861322 -0.06360404926
594.375 0.01220991232 -0.05043207989
595.0 0.02506577219 -0.04746969671
595.625 0.04658794545 -0.06112937737
596.25 0.0624227858 -0.05069524901
596.875 0.05696330159 -0.02965547782
597.5 0.05685566344 -0.02213163984
598.125 0.07062429501 -0.0275575864
598.75 0.07263474176 -0.041476118
599.375 0.06611349121 -0.05591519652
600.0 0.06477654912 -0.06464246558
600.625 0.05630028731 -0.05923079799
601.25 0.03147638014 -0.05216819991
601.875 0.01443542323 -0.04499926228
602.5 0.018139994 -0.03507338451
603.125 0.01995681808 -0.01280845259
603.75 0.01887278516 0.0007534229031
604.375 0.02951064255 0.0004310868224
605.0 0.04087514007 -0.00386573324
605.625 0.02838671348 -0.001104444332
606.25 0.006211186294 0.006938095932
606.875 0.002477239297 0.02395032526
607.5 0.02029109346 0.03621195075
608.125 0.03652895813 0.02554909739
608.75 0.03399298833 0.01666100577
609.375 0.03212506157 0.02042036007
610.0 0.03398610745 0.02330521314
610.625 0.03499600438 0.01251752604
611.25 0.02960742904 0.000621387099
611.875 0.02030231601 -0.006314672926
612.5 0.00698652298 -0.01255618882
613.125 -0.008220381445 -0.0107451625
613.75 -0.01309100094 -0.0003614168218
614.375 -0.005385093257 0.003666404908
615.0 0.0009350403101 -0.004844507599
615.625 -0.006481836272 -0.01415423228
616.25 -0.01503172473 -0.007995011654
616.875 -0.008344170354 0.001037036812
617.5 0.002849744234 -0.003926351702
618.125 0.005645288408 -0.01523335045
618.75 0.005826744264 -0.01748248674
619.375 0.01504214948 -0.01450614423
620.0 0.02855006556 -0.02465261868
620.625 0.02516322883 -0.05228029662
621.25 0.02350941499 -0.06796489259
621.875 0.00981446263 -0.07914636457
622.5 -0.05804500323 -0.05527598253
623.125 -0.06017709148 -0.02941827807
623.75 -0.0399930458 -0.02158445493
624.375 -0.01939094516 -0.03021583248
625.0 0.00164391208 -0.0386796836
625.625 0.002786568169 -0.02912219837
626.25 0.009284817708 -0.01153149946
626.875 0.02907815459 -0.01593521866
627.5 0.06021559433 -0.02265595198
628.125 0.06727892385 -0.0122674283
628.75 0.06128222242 -0.008243942555
629.375 0.07158213411 -0.01052069325
630.0 0.09967029217 -0.0001644603238
630.625 0.096025112 0.02579705443
631.25 0.0868055804 0.01342860208
631.875 0.09262278003 0.001501021478
632.5 0.09122596778 0.002747767533
633.125 0.07180508273 0.02100826208
633.75 0.0633310938 0.008944001478
634.375 0.0743535708 0.01318232155
635.0 0.06590960536 0.01503199049
635.625 0.05602711639 0.01853594047
636.25 0.07140707055 0.02447516483
636.875 0.08835642706 0.03389883615
637.5 0.06788625238 0.02922136497
638.125 0.04404974379 0.03043829724
638.75 0.06179198746 0.06126360379
639.375 0.04093096423 0.1162027021
640.0 0.007036133173 0.1016572671
640.625 0.01198771845 0.07591289989
641.25 0.01158443037 0.09131434687
641.875 -0.03881424204 0.09958943813
642.5 -0.05341674388 0.06302358577
643.125 -0.0398317751 0.06152166234
643.75 -0.05061509785 0.07500511769
644.375 -0.07695288641 0.07115831886
645.0 -0.08185406464 0.05480859975
645.625 -0.06610249029 0.07723807935
646.25 -0.06385021368 0.1081625626
646.875 -0.07222943078 0.08835410131
647.5 -0.06620079097 0.06538366254
648.125 -0.07161564047 0.07481027743
648.75 -0.1027710803 0.07033920789
649.375 -0.08770629593 0.03774402448
650.0 -0.06768053433 0.01916570766
650.625 -0.08064108818 -0.009994650194
651.25 -0.06519738751 -0.05419727539
651.875 -0.02320974666 -0.06511690513
652.5 -0.004014072131 -0.06512871252
653.125 0.03029573983 -0.1023494243
653.75 0.09495538432 -0.09079421168
654.375 0.09893001923 -0.07039005458
655.0 0.09271721366 -0.09038608327
655.625 0.1053785297 -0.114617314
656.25 0.1022036386 -0.09111891317
656.875 0.05223058944 -0.08654547537
657.5 0.05352027097 -0.1069149226
658.125 0.07321268601 -0.1083901857
658.75 0.05880040224 -0.07290188487
659.375 0.03258382057 -0.05094178122
660.0 0.02585800155 -0.08052100578
660.625 0.04365420623 -0.1036524552
661.25 0.03749124315 -0.1022135233
661.875 -1.501061721e-05 -0.1093570109
662.5 -0.03043248301 -0.1375287107
663.125 -0.006751253714 -0.149772217
663.75 0.04328979413 -0.1220377615
664.375 0.09337682482 -0.1012817862
665.0 0.152892281 -0.0304930635
665.625 0.1172750118 0.02335015695
666.25 0.08815162931 0.0320459599
666.875 0.09331082673 0.05699491628
667.5 0.05229309305 0.1145623567
668.125 -0.003116021026 0.09497844896
668.75 0.01682524881 0.08747245655
669.375 0.05121009156 0.1164413845
670.0 0.03293109698 0.1460652583
670.625 -0.009434621495 0.1163444754
671.25 0.03058068894 0.1012746049
671.875 0.09044273281 0.1141411265
672.5 0.1328213288 0.0776038253
673.125 0.1096184227 0.04156320415
673.75 0.09193178707 0.03491128668
674.375 0.08157234363 0.07136391193
675.0 0.03632564783 0.1012666886
675.625 0.006766505108 0.09787350151
676.25 -0.03554957048 0.1176837491
676.875 -0.0926347592 0.09378045908
677.5 -0.1013938494 0.08277270937
678.125 -0.08223870652 0.1057418697
678.75 -0.1047057116 0.1472254691
679.375 -0.1335573932 0.08797877603
680.0 -0.07965741911 0.06876321827
680.625 -0.04814212073 0.09263680686
681.25 -0.03523337191 0.1355693576
681.875 -0.04907830587 0.1149370619
682.5 -0.02526213329 0.06875504223
683.125 -0.01033076345 0.08613124476
683.75 -0.04418491034 0.1208370568
684.375 -0.1212818662 0.07284976865
685.0 -0.1140748359 -0.03454573805
685.625 -0.08558277838 -0.09888617127
686.25 -0.04096699354 -0.1553744745
686.875 -0.008989224853 -0.1636366781
687.5 0.0127503392 -0.1615435536
688.125 0.04228320579 -0.1555609567
688.75 0.06075013382 -0.107862835
689.375 0.05315543622 -0.0770050641
690.0 0.05844816711 -0.09189854977
690.625 0.1022729346 -0.09476188365
691.25 0.08276397062 -0.06256562753
691.875 0.04326464978 -0.08091658701
692.5 -0.05953796314 -0.1223615585
693.125 -0.2004947212 -0.06676791999
693.75 -0.1811380991 0.009331555865
694.375 -0.1247837668 0.05136111264
695.0 -0.1548018358 0.02207258421
695.625 -0.1372218786 -0.1185581342
696.25 0.0592153016 -0.1388404539
696.875 0.1044422096 -0.03693209732
697.5 0.1064950975 0.03780564149
698.125 0.07024899531 0.08108735826
698.75 0.04828494297 0.09913345539
699.375 0.04864215528 0.1165060333
700.0 0.02027118639 0.1289110635
700.625 -0.02065847742 0.1202500834
701.25 -0.01416449893 0.1237922949
701.875 0.03327853799 0.168768997
702.5 0.06853433578 0.151277536
703.125 0.08338023474 0.05851089522
703.75 0.07426636879 -0.01290994839
704.375 0.1143700445 -0.06111708282
705.0 0.1682254944 -0.03204170931
705.625 0.1085729149 0.03732561458
706.25 0.06182333208 0.07036351612
706.875 -0.01669383931 0.1312718136
707.5 -0.1332428315 0.1102462534
708.125 -0.1462740859 0.01170909722
708.75 -0.1229402341 -0.01559014973
709.375 -0.0959871473 -0.08364114422
710.0 -0.01747569092 -0.1237368015
710.625 0.03374188871 -0.1097251368
711.25 0.04560009115 -0.0994505916
711.875 0.03532283506 -0.08535863962
712.5 0.01868122333 -0.06442140169
713.125 -0.01238770313 -0.07577805315
713.75 -0.09317754265 -0.08032059483
714.375 -0.1290486797 -0.03548808766
715.0 -0.1191646826 0.01400471523
715.625 -0.1270399748 0.03055608871
716.25 -0.1705104399 -0.01917737474
716.875 -0.1084544251 -0.1047060346
717.5 -0.03046264916 -0.09809932545
718.125 -0.01525835547 -0.09645440449
718.75 0.01976499755 -0.1152866525
719.375 0.06780736043 -0.08433538134
720.0 0.06652958931 -0.02633686723
720.625 0.05509384976 0.02240735054
721.25 -0.016865334 0.06086794451
721.875 -0.08252482377 0.0007700168262
722.5 -0.0920669291 -0.03477441166
723.125 -0.117449132 0.02030588298
723.75 -0.0682165211 0.1031976319
724.375 0.02017035313 0.1016165319
725.0 0.06829265965 0.05212529402
725.625 0.07742034436 0.01601423087
726.25 0.06047969553 0.005953428394
726.875 0.03526497944 0.01710206238
727.5 0.01221154186 0.03777898917
728.125 -0.01993773323 0.05793833447
728.75 -0.02616219121 0.06015439765
729.375 0.0002160757994 0.05266633028
730.0 0.00632535352 0.04036297477
730.625 -0.01366923479 0.04150746482
731.25 -0.0320562864 0.03029916306
731.875 -0.04010112931 0.007312611364
732.5 -0.03822915489 -0.01128657665
733.125 -0.02777960217 -0.01334391298
733.75 -0.01278190114 -0.001245403346
734.375 0.001463735653 -0.0009705201551
735.0 0.003688808291 -0.007899246426
735.625 0.005134152435 -0.0109707836
736.25 0.004024148486 -0.02240966329
736.875 -0.01128370085 -0.02989690213
737.5 -0.02534366655 -0.01839757277
738.125 -0.02884298219 0.003458763711
738.75 -0.01730989282 0.02965058337
739.375 0.008042895984 0.04013183262
740.0 0.02704544702 0.02258664003
740.625 0.02403899398 0.01153031967
741.25 0.02253464022 0.02509527027
741.875 -0.0004353350384 0.04186991092
742.5 -0.03851500305 0.02103373027
743.125 -0.04327752741 -0.02599509213
743.75 -0.02128506275 -0.05775372296
744.375 -0.01669263937 -0.06564897164
745.0 -0.0359679749 -0.06252376908
745.625 -0.06768477443 -0.03401365485
746.25 -0.05040697503 -0.0005252391401
746.875 -0.02318092118 -0.003457156872
747.5 -0.02755686378 -0.01145441755
748.125 -0.0472357566 0.004038080096
748.75 -0.04494408451 0.04188273712
749.375 0.002733477146 0.06739133732
750.0 0.06898403555 0.03748056685
