!Created with skrf (http://scikit-rf.org).
# GHz S RI R 50.0 
!freq ReS11 ImS11
500.0 -0.005370123972 -0.0007705661542
500.625 0.003478687757 -0.0001122342199
501.25 -0.009915079121 -0.01998518115
501.875 -0.03731941858 -0.02869008753
502.5 -0.02899050076 -0.019122312
503.125 -0.01440353617 0.002075481617
503.75 -0.01255677908 3.818749216e-05
504.375 -0.02002656163 -0.002196013981
505.0 -0.012605512 -0.001342192364
505.625 -0.01036944526 -0.01198665188
506.25 -0.03357510347 -0.01112300567
506.875 -0.06204379213 -0.04493844006
507.5 -0.0653748095 -0.01930196476
508.125 -0.0508957926 -0.03378702521
508.75 -0.08228601048 0.007122941727
509.375 -0.08808360066 0.02277567194
510.0 -0.06353069577 0.01346038476
510.625 -0.01195639927 0.02980367797
511.25 -0.02487953158 0.0436662401
511.875 -0.006820839693 0.06604449024
512.5 0.02744921765 0.04030707863
513.125 0.06212835637 -0.01927719262
513.75 0.08395960623 -0.05783255282
514.375 0.0452841496 -0.06750338381
515.0 0.006241841055 -0.06445260238
515.625 0.04641792856 -0.06707159343
516.25 0.03134991869 -0.07677514388
516.875 0.08466739035 0.006049161708
517.5 0.07144917629 -0.04874348839
518.125 0.1975803594 0.02244823259
518.75 0.06470775674 -0.1077282041
519.375 0.04977279594 -0.06489356462
520.0 0.01235910087 -0.06764917618
520.625 0.008454762901 -0.107866521
521.25 -0.009459513082 -0.1098768085
521.875 0.02084633884 -0.05575585906
522.5 -0.0188753097 -0.07395240083
523.125 -0.0403136927 -0.2115971738
523.75 -0.09760908608 -0.2946131316
524.375 -0.06817692035 -0.2773938421
525.0 -0.0682054623 -0.1290177934
525.625 -0.06187387106 -0.1105725497
526.25 -0.02484826295 -0.09886658924
526.875 -0.04472996246 -0.07024485222
527.5 -0.09053771788 -0.05526976112
528.125 -0.09742266689 -0.01572355427
528.75 -0.08525932556 -0.003648772202
529.375 -0.09603811646 0.07702308487
530.0 -0.03222686268 0.146095161
530.625 0.07171499548 0.1233178043
531.25 0.04775605952 0.08326834046
531.875 0.05698926274 0.08548607973
532.5 0.07461139096 0.1413686565
533.125 0.05383653379 0.1226392367
533.75 0.05860470503 0.07204649793
534.375 0.06888794197 0.06526477948
535.0 0.09736477069 0.09876061828
535.625 0.03911388678 0.1040882906
536.25 0.08637785515 0.03291995889
536.875 0.09796303281 0.05103254217
537.5 0.05426825428 0.08574433556
538.125 0.03336995728 0.07427597688
538.75 0.07210975713 0.07772013255
539.375 0.09298680868 0.136381738
540.0 0.08014894293 0.117868379
540.625 0.06499964144 0.08039011263
541.25 0.07217157805 0.0817775376
541.875 0.07327987736 0.1048208035
542.5 0.01549343469 0.06739927989
543.125 0.01709371267 0.04145977437
543.75 0.07100135146 0.04447434277
544.375 0.1189710122 0.05121981903
545.0 0.1109090555 -0.03528115273
545.625 0.05395086769 -0.08311924809
546.25 0.006782234343 -0.1215870333
546.875 0.02114800919 -0.1242097276
547.5 0.04029015027 -0.1149657966
548.125 0.05145254605 -0.1311327466
548.75 0.09572599929 -0.123053586
549.375 0.1396989199 -0.09163891254
550.0 0.1489552533 -0.0309501048
550.625 0.1746780071 -0.05769673824
551.25 0.1699922947 0.03921371403
551.875 0.1218897731 -0.002414093943
552.5 0.09364792587 -0.03259411303
553.125 0.09851440908 -0.0701656143
553.75 0.1101290168 -0.02991657229
554.375 0.05914507199 -0.023059339
555.0 0.05520563815 -0.03174130629
555.625 0.07663384321 -0.05571388079
556.25 0.09586380674 -0.02930120559
556.875 0.06456011246 -0.001941831054
557.5 0.06451459139 -0.003233962373
558.125 0.09851010972 0.02502491383
558.75 0.0834897653 0.07288051353
559.375 0.0936795621 0.05810515009
560.0 0.1169738528 0.03917136058
560.625 0.1312781071 0.013773436
561.25 0.09626424036 -0.02010709299
561.875 0.06931741271 -0.04701948388
562.5 0.06930724453 -0.06272097188
563.125 0.0569881342 -0.05972647982
563.75 0.03639023526 -0.04688296521
564.375 0.02715304947 -0.06018890947
565.0 0.07448968371 -0.09485713693
565.625 0.08733817169 -0.07526008066
566.25 0.07764170859 -0.05760257267
566.875 0.07688850394 -0.06141307589
567.5 0.1050783327 -0.03819340696
568.125 0.1055874583 0.02339378678
568.75 0.09808633451 0.03007593018
569.375 0.1239464637 0.02802546938
570.0 0.1301219491 0.02500033758
570.625 0.1097438567 0.008503899334
571.25 0.09694707345 -0.01706585067
571.875 0.1080408464 -0.03871912379
572.5 0.07203414374 -0.05483121885
573.125 0.03702855161 -0.04574936154
573.75 0.03788668818 -0.06012725825
574.375 0.05248428898 -0.08878354723
575.0 0.04417883996 -0.08641783735
575.625 0.008554755026 -0.06354286315
576.25 0.001790291753 -0.07035652874
576.875 0.03833311817 -0.07791506618
577.5 0.04967244694 -0.06434997795
578.125 0.0412263183 -0.06599348051
578.75 0.03651542389 -0.09462791623
579.375 0.06304463665 -0.1086257417
580.0 0.06378751866 -0.08524767435
580.625 0.03972204626 -0.1052574704
581.25 0.009085079986 -0.1297338495
581.875 0.01336418775 -0.1044035367
582.5 0.02316199485 -0.0610436001
583.125 0.03087370321 -0.06502907803
583.75 0.0568559547 -0.08153486118
584.375 0.06171391553 -0.06282610018
585.0 0.05046715111 -0.03878059842
585.625 0.06056146176 -0.03581322287
586.25 0.08213054538 -0.03877886986
586.875 0.06564389185 -0.03694814253
587.5 0.0439469571 -0.04622432164
588.125 0.04206902942 -0.07354375855
588.75 0.06263943819 -0.07975845623
589.375 0.03354904411 -0.09499455573
590.0 -0.02824527241 -0.09767900698
590.625 -0.06698875512 -0.09051411228
591.25 -0.03251267096 -0.06216933352
591.875 -0.01028011094 -0.0346935037
592.5 -0.009454753161 -0.04227835648
593.125 -0.008866144998 -0.07213370651
593.75 0.01910278695 -0.07103182153
594.375 0.03964666608 -0.04348376619
595.0 0.05515700295 -0.0424171291
595.625 0.08070573892 -0.0385052941
596.25 0.08155279541 -0.01792318962
596.875 0.06743975031 -0.002450142517
597.5 0.07078194847 0.004854852804
598.125 0.08369685765 0.005866288561
598.75 0.08580030385 -0.01454792443
599.375 0.08287580084 -0.03279288767
600.0 0.07826882486 -0.03623770877
600.625 0.06060068423 -0.03110851125
601.25 0.03587510515 -0.03007528678
601.875 0.02700661128 -0.02343966635
602.5 0.02869407335 -0.006714585392
603.125 0.01994370301 0.01076616622
603.75 0.02016049713 0.01812779125
604.375 0.03397481481 0.0194729193
605.0 0.03924309465 0.02047407803
605.625 0.0192245166 0.01667285865
606.25 -0.001218265447 0.01973927716
606.875 -0.004859767954 0.03806147075
607.5 0.01184171105 0.05104398925
608.125 0.03027914705 0.03860381587
608.75 0.03018135923 0.02725708629
609.375 0.02721503678 0.02987033969
610.0 0.02680642793 0.03049017935
610.625 0.02901159514 0.01766275494
611.25 0.02465845248 0.004437805683
611.875 0.0156983047 -0.004535978003
612.5 0.00367379089 -0.01206546248
613.125 -0.009998241451 -0.01063628407
613.75 -0.01333679324 -0.0002821093232
614.375 -0.004082622533 0.003896112274
615.0 0.00397435063 -0.004624731001
615.625 -0.00145490374 -0.01387395048
616.25 -0.008612145159 -0.007686927179
616.875 -0.0008427782273 0.001318072105
617.5 0.01239411849 -0.003848416675
618.125 0.0176966527 -0.0133725479
618.75 0.01820063682 -0.01388697455
619.375 0.02746498991 -0.01044144947
620.0 0.04425041884 -0.02040234121
620.625 0.04349461229 -0.04860486389
621.25 0.04022691505 -0.05967865035
621.875 0.02632042831 -0.07061554578
622.5 -0.03553151944 -0.05924188146
623.125 -0.03560509664 -0.03265336746
623.75 -0.01630657292 -0.02071303084
624.375 0.005618496509 -0.02275554415
625.0 0.02370743733 -0.01683820097
625.625 0.02214090872 -0.006245038401
626.25 0.02961705587 0.004363587284
626.875 0.05678233827 0.001283171768
627.5 0.07871959355 0.01313048763
628.125 0.0718721367 0.01949151211
628.75 0.06872745737 0.01809825683
629.375 0.08532806047 0.0230896291
630.0 0.09527127187 0.04658922348
630.625 0.0744335773 0.0533082665
631.25 0.07340613873 0.04006445807
631.875 0.07577960021 0.04056126259
632.5 0.06376715028 0.04379984343
633.125 0.0386881423 0.04582693378
633.75 0.04454772823 0.0396226436
634.375 0.04461568345 0.05415538069
635.0 0.03664858398 0.05186318593
635.625 0.03797650956 0.05463892988
636.25 0.05563829818 0.06810455572
636.875 0.05548270948 0.07806308081
637.5 0.03401588868 0.05811161519
638.125 0.02499487567 0.06224941559
638.75 0.02841191521 0.1091588502
639.375 -0.01660451259 0.1205409441
640.0 -0.03090650565 0.08514703377
640.625 -0.02230507172 0.07295478364
641.25 -0.05076643617 0.08428486909
641.875 -0.08508990613 0.04857894655
642.5 -0.0708748878 0.02928739849
643.125 -0.06899750727 0.0375514792
643.75 -0.09409734421 0.03039499517
644.375 -0.1080909528 0.008495447191
645.0 -0.09598440201 0.01482434946
645.625 -0.1047480321 0.04788318611
646.25 -0.1099293286 0.05824829698
646.875 -0.09973274942 0.02989492215
647.5 -0.08741249173 0.02151801136
648.125 -0.1056916499 0.03148124344
648.75 -0.1120728482 0.003406855615
649.375 -0.07781438823 -0.01103258186
650.0 -0.06149047515 -0.02594421243
650.625 -0.05107259338 -0.06844348374
651.25 -0.01401238838 -0.08550257401
651.875 0.019027056 -0.07095296725
652.5 0.04402022949 -0.0771692978
653.125 0.1080121435 -0.08246577341
653.75 0.1272195314 -0.04009881077
654.375 0.1194126603 -0.03465888201
655.0 0.1335134895 -0.04933084683
655.625 0.1460275462 -0.03704916866
656.25 0.1062124529 -0.01876153699
656.875 0.07715689815 -0.05282634598
657.5 0.1025969506 -0.05732903545
658.125 0.1066449333 -0.03085077241
658.75 0.07509963274 -0.005437639262
659.375 0.06495372045 -0.01904504567
660.0 0.09366337048 -0.05556338576
660.625 0.1055398675 -0.06420322001
661.25 0.08882757932 -0.07531108632
661.875 0.05953566742 -0.1135304257
662.5 0.04623284607 -0.1450928479
663.125 0.06517774825 -0.1306268868
663.75 0.08755143062 -0.09232093365
664.375 0.1394313415 -0.03824972204
665.0 0.1189944461 0.05688767066
665.625 0.07370495791 0.06770253183
666.25 0.05545948489 0.06740231636
666.875 0.03036691172 0.1135007744
667.5 -0.04894782105 0.1125495403
668.125 -0.05371405503 0.07823072996
668.75 -0.02805334474 0.103147779
669.375 -0.02553312399 0.1472548172
670.0 -0.06193849773 0.1320296342
670.625 -0.06161656864 0.08556279733
671.25 -0.01949614994 0.116472604
671.875 0.01323676136 0.1488090387
672.5 0.0578099808 0.1242482458
673.125 0.05621546174 0.08422752409
673.75 0.04776124727 0.08711941213
674.375 0.01603426971 0.1138320717
675.0 -0.02872827569 0.1061463202
675.625 -0.05544400948 0.09893153535
676.25 -0.1187033328 0.07677407858
676.875 -0.1342444859 0.03401047773
677.5 -0.1300985938 0.03556307862
678.125 -0.1341010506 0.07655110446
678.75 -0.1720643562 0.06136347379
679.375 -0.1203294377 0.003790331719
680.0 -0.08523918724 0.0203065334
680.625 -0.09381026677 0.05242298255
681.25 -0.1171283758 0.06883976936
681.875 -0.09680086342 0.03054589925
682.5 -0.06486231 0.04055260337
683.125 -0.08117621493 0.08101802343
683.75 -0.1286401054 0.08192982259
684.375 -0.1473654401 -0.01610762166
685.0 -0.08848099678 -0.09227896228
685.625 -0.02926655357 -0.1504815896
686.25 0.03991134507 -0.1620111047
686.875 0.06466750113 -0.1486791829
687.5 0.0887619765 -0.1308984166
688.125 0.1012264527 -0.08497297931
688.75 0.090282771 -0.04004939449
689.375 0.08218789447 -0.02936833348
690.0 0.1181548396 -0.02845095162
690.625 0.1319541957 0.01739179935
691.25 0.1062520547 0.0006996659748
691.875 0.09275691079 -0.06646458674
692.5 0.01247864924 -0.180581034
693.125 -0.1252852388 -0.1786491106
693.75 -0.139400314 -0.06104080521
694.375 -0.13616879 -0.008019832315
695.0 -0.1499832931 -0.07315985141
695.625 -0.02905452833 -0.1716726813
696.25 0.1047471492 -0.06355243554
696.875 0.101268342 0.02836849469
697.5 0.04909145054 0.1003513402
698.125 -0.003152572252 0.1159829028
698.75 -0.01975347561 0.1234987598
699.375 -0.0301404161 0.1392391253
700.0 -0.05338981102 0.12172869
700.625 -0.07613994565 0.09369317617
701.25 -0.0761630974 0.1138416007
701.875 -0.08244457295 0.1583853387
702.5 -0.025193978 0.1216097014
703.125 0.02064789228 0.07481138923
703.75 0.0743149105 0.04871442352
704.375 0.1561927738 0.05459701049
705.0 0.1360087544 0.0840343493
705.625 0.07261324804 0.08350334408
706.25 0.02427252337 0.1136578816
706.875 -0.1100543815 0.1212064127
707.5 -0.1731940497 0.01320542227
708.125 -0.1229302352 -0.04454267718
708.75 -0.1004322472 -0.07315359833
709.375 -0.02541714329 -0.1199452719
710.0 0.06063957446 -0.0991649383
710.625 0.08053807225 -0.06210334033
711.25 0.08494579804 -0.04251322398
711.875 0.06983341987 -0.02585162816
712.5 0.06699279685 -0.02468923861
713.125 0.06090727407 -0.09087404525
713.75 -0.02518873634 -0.1486718074
714.375 -0.09715490462 -0.1024258766
715.0 -0.1220667239 -0.04086102993
715.625 -0.150633896 -0.03925649523
716.25 -0.1257804127 -0.1210717998
716.875 -0.02757510727 -0.1197798495
717.5 0.01889507714 -0.0880478154
718.125 0.04815684399 -0.08988186349
718.75 0.09281155883 -0.06882656193
719.375 0.0881555634 -0.01476267831
720.0 0.05892732757 0.01757016473
720.625 0.01680823175 0.06100699078
721.25 -0.07484192941 0.03368225998
721.875 -0.08257629478 -0.06066541557
722.5 -0.07670557768 -0.08355916164
723.125 -0.1235442341 -0.03994816123
723.75 -0.1076843267 0.05418522897
724.375 -0.03484702529 0.09195761144
725.0 0.02587622941 0.07780344895
725.625 0.04522378736 0.05064837783
726.25 0.03161512436 0.03235514846
726.875 0.003735249823 0.03448672255
727.5 -0.03130801372 0.04588224306
728.125 -0.06491228016 0.03896764285
728.75 -0.05818626933 0.03914453163
729.375 -0.02891431299 0.04714052764
730.0 -0.02414152589 0.04071197071
730.625 -0.04045447224 0.02995789601
731.25 -0.04394135818 0.01063955684
731.875 -0.03915532793 -0.01124006214
732.5 -0.02589242606 -0.02482144579
733.125 -0.01108019668 -0.01726468251
733.75 0.001371938406 -0.003575475679
734.375 0.01271325339 -0.005006084092
735.0 0.009793239577 -0.01502582728
735.625 0.007042955384 -0.01648196954
736.25 0.003932672022 -0.02471647474
736.875 -0.0118308801 -0.02914010979
737.5 -0.0271893648 -0.01551241563
738.125 -0.03395987577 0.007514228122
738.75 -0.02677912301 0.03299148826
739.375 -0.004791886299 0.04265459515
740.0 0.01260099169 0.02907646562
740.625 0.009381490192 0.02463523879
741.25 0.003391457988 0.03718742928
741.875 -0.0216487887 0.03652540458
742.5 -0.04369521003 -0.000187067127
743.125 -0.02106561936 -0.04569102467
743.75 0.01460174303 -0.05462931681
744.375 0.01657850374 -0.05534002224
745.0 -0.0002898230131 -0.06128540309
745.625 -0.02586204972 -0.05056866796
746.25 -0.01339364383 -0.02550866769
746.875 -0.001522972358 -0.03172680991
747.5 -0.02274029625 -0.04049510279
748.125 -0.05223840298 -0.0292543271
748.75 -0.06651404247 0.009221453143
749.375 -0.03998238815 0.05958288763
750.0 0.03952048438 0.08002725478
