!Created with skrf (http://scikit-rf.org).
# GHz S RI R 50.0 
!freq ReS11 ImS11
500.0 -0.0124077729 -0.0001436819311
500.625 -0.000274891557 -0.003582622531
501.25 -0.01321896803 -0.01807537978
501.875 -0.04467633351 -0.02482178533
502.5 -0.03626460844 -0.01523512375
503.125 -0.01817009908 0.003297291587
503.75 -0.01488825319 0.004637916339
504.375 -0.02122402366 0.004412122072
505.0 -0.01293824765 0.004390312753
505.625 -0.009974994552 -0.004785908927
506.25 -0.02993863346 -0.004519629313
506.875 -0.06528701096 -0.03337697847
507.5 -0.06729975765 -0.008266694439
508.125 -0.05372723907 -0.02485271068
508.75 -0.07620265125 0.01920420791
509.375 -0.08632228731 0.03468405602
510.0 -0.06136461749 0.02406526247
510.625 -0.003534023578 0.03144528937
511.25 -0.01578064264 0.04411272887
511.875 0.001485948446 0.06070638142
512.5 0.03257198287 0.03696894576
513.125 0.0613229541 -0.02710025407
513.75 0.07425931485 -0.06947452016
514.375 0.03493165251 -0.07526257928
515.0 -0.00364093143 -0.06615244299
515.625 0.03156890453 -0.07340985985
516.25 0.01276118116 -0.08256448457
516.875 0.07768959674 -0.006881699804
517.5 0.06164499024 -0.04886989594
518.125 0.184874392 -0.002333892422
518.75 0.05039513846 -0.1138254867
519.375 0.04000258648 -0.07079717631
520.0 0.004292786562 -0.06303848757
520.625 -0.005955787012 -0.1037379416
521.25 -0.02204454279 -0.1062800387
521.875 0.01293582352 -0.05661855393
522.5 -0.02377030158 -0.06748098337
523.125 -0.0590221643 -0.1922580822
523.75 -0.1227484729 -0.2784576267
524.375 -0.08747432725 -0.2706914211
525.0 -0.07811240281 -0.1211143874
525.625 -0.07437356803 -0.1060282991
526.25 -0.03659326954 -0.09822704423
526.875 -0.05192621178 -0.06582558874
527.5 -0.09667676939 -0.04355916408
528.125 -0.1028512395 -0.002115495032
528.75 -0.08648391062 0.006104209518
529.375 -0.08629157371 0.08536325968
530.0 -0.01513741896 0.1508508857
530.625 0.09215962009 0.1217538523
531.25 0.06206401409 0.08437973176
531.875 0.0706920497 0.07276658917
532.5 0.09643009651 0.1228704097
533.125 0.07191977094 0.1149590864
533.75 0.06743333367 0.0641603965
534.375 0.0738541643 0.05280321723
535.0 0.1090323005 0.08076623197
535.625 0.05184388803 0.1008130493
536.25 0.08969442541 0.02492363848
536.875 0.1066989232 0.03842647091
537.5 0.06973732536 0.07637312909
538.125 0.04420890943 0.06784606001
538.75 0.07739605669 0.06724163701
539.375 0.1118324992 0.1213728844
540.0 0.09827615411 0.1110642738
540.625 0.07814206991 0.07231170792
541.25 0.08277634484 0.06965209677
541.875 0.09274163518 0.09120118702
542.5 0.03021979884 0.06679879483
543.125 0.02281867829 0.03447560693
543.75 0.06922792772 0.03065027444
544.375 0.1193511805 0.03465971671
545.0 0.1062251185 -0.04726590915
545.625 0.04497983305 -0.08669849613
546.25 -0.009947442519 -0.1168274298
546.875 0.003604833923 -0.1252195917
547.5 0.02644068507 -0.1179201019
548.125 0.0345450552 -0.1315671769
548.75 0.07790839713 -0.1288692538
549.375 0.1286465646 -0.1060350557
550.0 0.145550036 -0.04178195112
550.625 0.1641886494 -0.0723939984
551.25 0.1789878519 0.02158911389
551.875 0.1268911953 -0.01540055015
552.5 0.09349877298 -0.04271318579
553.125 0.08895896193 -0.08335271449
553.75 0.1093998331 -0.0511630594
554.375 0.0587990935 -0.03367470384
555.0 0.05009949597 -0.04017989107
555.625 0.06667325849 -0.06617192389
556.25 0.09086717146 -0.0455407303
556.875 0.06446154028 -0.01269934711
557.5 0.05935297125 -0.01243279189
558.125 0.0964508338 0.009687060897
558.75 0.08935479946 0.0602236687
559.375 0.09724424726 0.04754234822
560.0 0.1179669432 0.02780464078
560.625 0.1350755424 -0.00164464643
561.25 0.09803093262 -0.03166730574
561.875 0.06447949481 -0.05636740043
562.5 0.05946028381 -0.07552483798
563.125 0.04691457102 -0.07081976056
563.75 0.02783837019 -0.05352152119
564.375 0.01604375536 -0.05998664066
565.0 0.05404967292 -0.09984711166
565.625 0.07760561893 -0.08486672578
566.25 0.07085553113 -0.06492419973
566.875 0.0679008771 -0.06810496718
567.5 0.09610685241 -0.05112589727
568.125 0.1079047723 0.008936115738
568.75 0.09806689139 0.02166960747
569.375 0.1237232254 0.01506975482
570.0 0.1333682291 0.01091509778
570.625 0.1130887578 -0.004320901957
571.25 0.09620926212 -0.02739384424
571.875 0.1033900213 -0.05468760398
572.5 0.06901763379 -0.06939416359
573.125 0.03120696431 -0.05535889706
573.75 0.02535806628 -0.06452673802
574.375 0.03855787476 -0.09375347251
575.0 0.03233971076 -0.09477088178
575.625 4.857174872e-06 -0.06580780615
576.25 -0.01103989693 -0.06729052117
576.875 0.02123220156 -0.08260883901
577.5 0.03835008955 -0.06896443998
578.125 0.03277385549 -0.06762993492
578.75 0.02316697475 -0.09315057271
579.375 0.04611974908 -0.1143408008
580.0 0.05630065142 -0.09120303906
580.625 0.03090126461 -0.1074585899
581.25 -0.004924473017 -0.1311769138
581.875 -0.0004797442146 -0.1105322553
582.5 0.01518130303 -0.06826822322
583.125 0.02057768794 -0.06824329569
583.75 0.04249136264 -0.08996062657
584.375 0.05270158063 -0.07349363971
585.0 0.04455606432 -0.04712464072
585.625 0.05274012402 -0.04401139249
586.25 0.07412550262 -0.05033088442
586.875 0.06112882562 -0.04621821473
587.5 0.03668860294 -0.05114434193
588.125 0.02835872454 -0.07629807318
588.75 0.05076861531 -0.08567357716
589.375 0.02350972061 -0.09913136142
590.0 -0.03706380766 -0.09460370032
590.625 -0.08069169982 -0.08225662413
591.25 -0.04624151685 -0.06237178934
591.875 -0.01911913152 -0.03434735463
592.5 -0.01713972952 -0.03777081219
593.125 -0.02117022054 -0.06631415229
593.75 0.006155039552 -0.07220976406
594.375 0.03241344113 -0.04680518327
595.0 0.04672469739 -0.04580241168
595.625 0.07243630267 -0.04722068158
596.25 0.07818646595 -0.02868041214
596.875 0.06623535057 -0.0110549484
597.5 0.0684437103 -0.00389744603
598.125 0.08225390341 -0.004302948885
598.75 0.08366989969 -0.02299623247
599.375 0.07976462095 -0.04068543597
600.0 0.07669946628 -0.04491732442
600.625 0.06112487266 -0.03914653166
601.25 0.03575276868 -0.03666995269
601.875 0.02484596866 -0.03052733
602.5 0.02802654027 -0.01526632524
603.125 0.02132918269 0.0045132297
603.75 0.02075905902 0.0131674158
604.375 0.03402489888 0.0137766597
605.0 0.04162946927 0.01396713206
605.625 0.02294556314 0.01259678561
606.25 0.001681799885 0.01666781427
606.875 -0.001736589552 0.03460888784
607.5 0.01533220322 0.04756452716
608.125 0.0331062537 0.03544999043
608.75 0.03212399895 0.02458810083
609.375 0.02939843064 0.02757645439
610.0 0.02931842533 0.02912127234
610.625 0.03112479747 0.01678688546
611.25 0.02639664036 0.003836304496
611.875 0.01724149045 -0.004552297382
612.5 0.004753885736 -0.01182311811
613.125 -0.009407949476 -0.01042053407
613.75 -0.01318605822 -0.0001095667315
614.375 -0.00437099526 0.003954788039
615.0 0.0032626099 -0.004677186791
615.625 -0.002624010592 -0.01406999837
616.25 -0.01012562416 -0.007979985135
616.875 -0.002727413039 0.0009504901266
617.5 0.009953382018 -0.004255472718
618.125 0.01475400787 -0.0144524664
618.75 0.01514897108 -0.01546136781
619.375 0.02417749884 -0.0121377706
620.0 0.04013680589 -0.02249336244
620.625 0.03878566975 -0.05061169193
621.25 0.03621453153 -0.06278519247
621.875 0.02244738995 -0.07356844226
622.5 -0.04157352501 -0.05950767701
623.125 -0.04202051438 -0.03309782689
623.75 -0.02237734279 -0.02212230346
624.375 -0.000401221657 -0.02606113993
625.0 0.01944152318 -0.02357248535
625.625 0.01842249758 -0.01307407572
626.25 0.024961085 -0.0009258836418
626.875 0.05044536528 -0.005139920492
627.5 0.07649801696 0.0030502924
628.125 0.07228640622 0.01130586817
628.75 0.06810093829 0.01085661796
629.375 0.08383466627 0.01337044125
630.0 0.09964932888 0.03515106426
630.625 0.08107509502 0.04752407943
631.25 0.07852677759 0.03339640916
631.875 0.08296907488 0.030811495
632.5 0.07387908391 0.03446070274
633.125 0.04863591639 0.04136850491
633.75 0.05110948702 0.03240040418
634.375 0.05459157888 0.04588320367
635.0 0.04578952979 0.04432372396
635.625 0.04457400078 0.04646059102
636.25 0.06232385213 0.05829005497
636.875 0.06649117129 0.06928720348
637.5 0.04384951912 0.05258852716
638.125 0.0318771126 0.0545831311
638.75 0.04120146133 0.09878747256
639.375 -0.002142755293 0.1228205999
640.0 -0.02201830654 0.09139674521
640.625 -0.01290323796 0.07562349456
641.25 -0.03455412042 0.09091979802
641.875 -0.07819857506 0.06382093228
642.5 -0.06791080945 0.03843220113
643.125 -0.06250355509 0.04544238126
643.75 -0.08570737169 0.04507915137
644.375 -0.1045166852 0.02671875771
645.0 -0.09419108351 0.02555663581
645.625 -0.09586335575 0.05851499079
646.25 -0.1013320623 0.07426460148
646.875 -0.09611189713 0.04663001755
647.5 -0.0846945957 0.03369385254
648.125 -0.09975955806 0.04436977264
648.75 -0.1140821465 0.01967439364
649.375 -0.08268041463 0.0006663355654
650.0 -0.06581774772 -0.01423730394
650.625 -0.06301922032 -0.05614112273
651.25 -0.02873726204 -0.08071122045
651.875 0.007736321719 -0.0712318669
652.5 0.02996188301 -0.07687230427
653.125 0.08994973513 -0.09368583878
653.75 0.1222534051 -0.05288994703
654.375 0.1160644874 -0.04418641262
655.0 0.1255594845 -0.06274877849
655.625 0.141716609 -0.05943089225
656.25 0.1100181976 -0.03534213897
656.875 0.07206417361 -0.06262642225
657.5 0.09302078709 -0.07410336362
658.125 0.1034844005 -0.05286394194
658.75 0.07538792743 -0.02326871759
659.375 0.05817657621 -0.02871572572
660.0 0.07813607414 -0.06660116309
660.625 0.09298685501 -0.07703551023
661.25 0.07795986855 -0.08441454296
661.875 0.04425281609 -0.1163399086
662.5 0.02718795563 -0.1476405522
663.125 0.04886783005 -0.1394718183
663.75 0.07755161753 -0.1024922463
664.375 0.13191987 -0.05886430748
665.0 0.1331567411 0.03999992458
665.625 0.08628580279 0.0590596199
666.25 0.06544889199 0.06011981098
666.875 0.0504592971 0.1038942806
667.5 -0.02609897549 0.1207350953
668.125 -0.04257299069 0.08366555604
668.75 -0.01548626449 0.1012034849
669.375 -0.003619436773 0.1450040647
670.0 -0.03982219047 0.1425545948
670.625 -0.05132071561 0.0954561436
671.25 -0.00560823256 0.1150518347
671.875 0.03362563508 0.1457563664
672.5 0.0776705613 0.1181798
673.125 0.07104219369 0.07780301319
673.75 0.06123283795 0.07764059773
674.375 0.034284714 0.1078668747
675.0 -0.01275354428 0.1082562579
675.625 -0.03890987423 0.1027798902
676.25 -0.1013858321 0.0939760405
676.875 -0.1269326093 0.05046111991
677.5 -0.1253482708 0.04806463105
678.125 -0.1222167261 0.08711348842
678.75 -0.1634226781 0.08739109617
679.375 -0.1277356178 0.01963769421
680.0 -0.08603736736 0.03155405616
680.625 -0.08486183669 0.06506205971
681.25 -0.1028628339 0.09084115229
681.875 -0.09245421186 0.05174981078
682.5 -0.05651872739 0.04838486801
683.125 -0.06382465712 0.08676447853
683.75 -0.110343009 0.09679465789
684.375 -0.1472927378 0.006467772593
685.0 -0.09751594527 -0.08043062665
685.625 -0.04596526924 -0.1418121174
686.25 0.0213654668 -0.1649648987
686.875 0.04799579385 -0.1565903672
687.5 0.07263430075 -0.143644482
688.125 0.09308579906 -0.1037576306
688.75 0.0873081529 -0.05695038881
689.375 0.07731076065 -0.04228579663
690.0 0.1080687004 -0.04855695026
690.625 0.1345394505 -0.008049628348
691.25 0.1036584972 -0.01367594133
691.875 0.08200223656 -0.07175993134
692.5 -0.007822883828 -0.1719513892
693.125 -0.1498113901 -0.160930628
693.75 -0.1504506548 -0.04877563436
694.375 -0.1363297734 0.006621024046
695.0 -0.1573651893 -0.05083964547
695.625 -0.05831919662 -0.1672611379
696.25 0.09895764262 -0.08272965892
696.875 0.10543335 0.012957335
697.5 0.06605157754 0.08983280502
698.125 0.01560508061 0.1119709985
698.75 -0.003037687103 0.1217282922
699.375 -0.01171419554 0.1397990613
700.0 -0.03807980019 0.1272344839
700.625 -0.06548798281 0.101855124
701.25 -0.06203339145 0.1193801378
701.875 -0.05702959019 0.1710120402
702.5 -0.008838497629 0.1325314472
703.125 0.03473421951 0.07415451239
703.75 0.07720908795 0.03373284058
704.375 0.1562144422 0.02533997304
705.0 0.1501994244 0.06466430029
705.625 0.08191097691 0.0753298551
706.25 0.03512760863 0.1053254498
706.875 -0.08947973261 0.1297148022
707.5 -0.1718591806 0.03626378221
708.125 -0.1304366564 -0.0338904227
708.75 -0.1093032046 -0.06085143046
709.375 -0.04409288968 -0.1161699479
710.0 0.04455085228 -0.1098791628
710.625 0.07331742268 -0.07535113368
711.25 0.08005697547 -0.05718061393
711.875 0.06594603034 -0.03984782627
712.5 0.05853003584 -0.03560095982
713.125 0.04320116596 -0.09238844088
713.75 -0.04463329584 -0.139603589
714.375 -0.1072285336 -0.09027062084
715.0 -0.1237433257 -0.02863793973
715.625 -0.1498272173 -0.02104094438
716.25 -0.1439268456 -0.103199815
716.875 -0.04413624323 -0.1216461779
717.5 0.00894032588 -0.09231072154
718.125 0.03431495092 -0.09540869076
718.75 0.08086949772 -0.08382779519
719.375 0.08879607782 -0.02927666929
720.0 0.06257074082 0.008858780812
720.625 0.027735661 0.05496868485
721.25 -0.06403090558 0.04350285703
721.875 -0.08663573026 -0.04750444135
722.5 -0.08277044044 -0.07401689751
723.125 -0.1261812726 -0.0269252673
723.75 -0.102474485 0.06666364265
724.375 -0.02378368761 0.09766454541
725.0 0.03658209059 0.07534703714
725.625 0.05408471086 0.04593109993
726.25 0.03885546301 0.02871711794
726.875 0.01131046043 0.03264414441
727.5 -0.02162339924 0.04731037292
728.125 -0.05734668159 0.04588110965
728.75 -0.05308741276 0.04510849142
729.375 -0.02315715588 0.04999075886
730.0 -0.01751754105 0.04282936817
730.625 -0.0356577828 0.03449734987
731.25 -0.04282473426 0.01556904364
731.875 -0.04061298671 -0.007229184049
732.5 -0.02961064165 -0.02281405714
733.125 -0.01501398605 -0.01769963076
733.75 -0.001854485581 -0.004198307919
734.375 0.009934547197 -0.005064223676
735.0 0.0077975718 -0.01412103928
735.625 0.006028169246 -0.01555798089
736.25 0.003442443579 -0.02418042381
736.875 -0.011952188 -0.02917842943
737.5 -0.0269161741 -0.01602868302
738.125 -0.03296002372 0.006929224026
738.75 -0.02489841132 0.03261041489
739.375 -0.002297152241 0.04267001375
740.0 0.01561742752 0.02841372462
740.625 0.01290194933 0.02273030401
741.25 0.00764746135 0.03574924234
741.875 -0.01752026567 0.03850687674
742.5 -0.04350954865 0.004357824919
743.125 -0.02686309883 -0.04273776634
743.75 0.00754209559 -0.05723029098
744.375 0.01037836594 -0.05905208295
745.0 -0.007685596199 -0.06329454051
745.625 -0.03571279758 -0.04955166652
746.25 -0.02239376829 -0.02257222385
746.875 -0.007225603324 -0.027315771
747.5 -0.02513689107 -0.03483506915
748.125 -0.05313632727 -0.02252701046
748.75 -0.06407270585 0.01668596517
749.375 -0.03167720856 0.06372570686
750.0 0.0483884657 0.07299905047
