!Created with skrf (http://scikit-rf.org).
# GHz S RI R 50.0 
!freq ReS11 ImS11
500.0 -0.004134511292 -0.00336972063
500.625 0.002828210812 -0.001530766942
501.25 -0.008264680893 -0.01991202363
501.875 -0.03819264084 -0.03050423747
502.5 -0.02815778022 -0.01805451802
503.125 -0.01318883556 0.003576237218
503.75 -0.01240504629 2.672268869e-05
504.375 -0.01984249389 -0.002197181735
505.0 -0.0120505874 -0.002467051261
505.625 -0.01013735615 -0.01179588984
506.25 -0.03265232161 -0.01190737632
506.875 -0.06202464042 -0.04611265281
507.5 -0.0652941257 -0.02002923036
508.125 -0.05043612147 -0.03459941232
508.75 -0.08321021419 0.005164859852
509.375 -0.08910065287 0.01905592591
510.0 -0.06396724673 0.01143338903
510.625 -0.01114318445 0.0287979652
511.25 -0.02779670695 0.04425615348
511.875 -0.009532459215 0.065954807
512.5 0.02678422831 0.03811087769
513.125 0.06674791411 -0.01823956863
513.75 0.08463291391 -0.05618236226
514.375 0.04722127874 -0.06597888121
515.0 0.007853060535 -0.0646579388
515.625 0.04723908649 -0.06428690943
516.25 0.03400654286 -0.08151869542
516.875 0.08713926183 0.01260589149
517.5 0.07214696845 -0.05025303013
518.125 0.1968418906 0.02506042447
518.75 0.06545124939 -0.1060114507
519.375 0.05041374975 -0.0638210671
520.0 0.01361620407 -0.06763009105
520.625 0.01017687173 -0.1077994591
521.25 -0.007667656953 -0.1101507397
521.875 0.0214385213 -0.05618391776
522.5 -0.01801471565 -0.07511956003
523.125 -0.03740723179 -0.2121708577
523.75 -0.09550118161 -0.2947637271
524.375 -0.06217354766 -0.2789290576
525.0 -0.06632487542 -0.1299611915
525.625 -0.06013692001 -0.111341782
526.25 -0.02298984023 -0.09886383658
526.875 -0.0439617899 -0.07061527787
527.5 -0.08982401652 -0.05650812456
528.125 -0.09657666895 -0.01717336959
528.75 -0.08513309098 -0.004624022383
529.375 -0.09744720923 0.07580809532
530.0 -0.03441120684 0.1452704478
530.625 0.069134955 0.123758118
531.25 0.04574007461 0.08283193238
531.875 0.05477567577 0.08741291677
532.5 0.07116620004 0.1433218973
533.125 0.05136682514 0.1230755188
533.75 0.05738994836 0.07268621878
534.375 0.06869764515 0.06586169873
535.0 0.09632514454 0.1008250811
535.625 0.03795979683 0.1042590997
536.25 0.08603810605 0.03367424589
536.875 0.09676453245 0.05261984801
537.5 0.05221782565 0.08678457478
538.125 0.03149764412 0.07530275675
538.75 0.07132604101 0.07933851196
539.375 0.09022237188 0.1380642881
540.0 0.07737877751 0.1189380585
540.625 0.06325380222 0.08139306353
541.25 0.0709831777 0.08295166478
541.875 0.0704938942 0.1065011983
542.5 0.01372135681 0.06724103301
543.125 0.01607799553 0.04239648645
543.75 0.07112193319 0.04666919869
544.375 0.1187665947 0.05376304921
545.0 0.1114321152 -0.03297252635
545.625 0.05526124672 -0.08237336411
546.25 0.008939355708 -0.1220553111
546.875 0.02352432284 -0.1239139793
547.5 0.04196932522 -0.1144667718
548.125 0.05342695854 -0.1307192548
548.75 0.09785587741 -0.1219619512
549.375 0.1417464019 -0.08892939438
550.0 0.1491762461 -0.02938823259
550.625 0.1760397912 -0.05558446253
551.25 0.168422116 0.04102640196
551.875 0.1211711541 -0.000747188092
552.5 0.09368583181 -0.03149042831
553.125 0.09955320278 -0.06871576281
553.75 0.1096988582 -0.02810268675
554.375 0.05915932376 -0.02182001379
555.0 0.05579980637 -0.03063255536
555.625 0.07840655877 -0.0536962505
556.25 0.09627698334 -0.02603227007
556.875 0.06416488822 -2.945255106e-05
557.5 0.06522468231 -0.001334896853
558.125 0.09845474314 0.02817095398
558.75 0.08224440258 0.07475630824
559.375 0.09287269672 0.05956671949
560.0 0.1167763354 0.04080544981
560.625 0.1306481489 0.0157264392
561.25 0.09596795854 -0.0185336778
561.875 0.06982050768 -0.04574631432
562.5 0.07054523553 -0.06068604572
563.125 0.05831141596 -0.05806143836
563.75 0.03757815858 -0.0456735292
564.375 0.02886275826 -0.06010986417
565.0 0.07728461835 -0.09380918498
565.625 0.08869362706 -0.07385888259
566.25 0.07846842865 -0.05631892514
566.875 0.07826893921 -0.06010469905
567.5 0.1064870893 -0.03568783219
568.125 0.1049836748 0.02587905416
568.75 0.09823869363 0.03164343556
569.375 0.1238196859 0.03028207831
570.0 0.1296080496 0.02700252171
570.625 0.1092079656 0.009944853143
571.25 0.09689330527 -0.01603970098
571.875 0.1084863291 -0.03683208318
572.5 0.07234043385 -0.05306993214
573.125 0.03772176965 -0.04434857582
573.75 0.03984737328 -0.05930666814
574.375 0.05494202677 -0.08760670676
575.0 0.04633264915 -0.08461644243
575.625 0.009953354335 -0.06298917616
576.25 0.004010838149 -0.07055622343
576.875 0.04066362787 -0.07687975338
577.5 0.05137025871 -0.0635867092
578.125 0.04246639074 -0.06554531027
578.75 0.03857608574 -0.0945046394
579.375 0.06594619815 -0.1076036883
580.0 0.06515855454 -0.08423354682
580.625 0.04102871898 -0.1050774451
581.25 0.01085421648 -0.1292718812
581.875 0.01527536008 -0.1033067466
582.5 0.02420083594 -0.05988923982
583.125 0.03224643644 -0.06468561413
583.75 0.05854066017 -0.08030500703
584.375 0.06299378813 -0.06104591782
585.0 0.05109729022 -0.03748032039
585.625 0.06167629343 -0.03460358025
586.25 0.08341281573 -0.0367319634
586.875 0.06620413235 -0.03514460598
587.5 0.04509545292 -0.04513899173
588.125 0.04476456101 -0.07272318768
588.75 0.0645781028 -0.078541111
589.375 0.03496720289 -0.09442666078
590.0 -0.02705219385 -0.09807699683
590.625 -0.06465357285 -0.09157420175
591.25 -0.03022399941 -0.06188354867
591.875 -0.008683582818 -0.03464547612
592.5 -0.008123167198 -0.04295523983
593.125 -0.006498036884 -0.07295889699
593.75 0.02123624505 -0.07048793166
594.375 0.04078368947 -0.04292956255
595.0 0.05644512982 -0.04180536288
595.625 0.08173884737 -0.03705597063
596.25 0.08179968316 -0.01634270905
596.875 0.06736981948 -0.001192840081
597.5 0.07107261925 0.006374111938
598.125 0.08383654336 0.007666823065
598.75 0.08615141337 -0.01263279876
599.375 0.08341006329 -0.03128990351
600.0 0.07846013933 -0.03469736087
600.625 0.06046315034 -0.02956982466
601.25 0.03575512502 -0.02875024858
601.875 0.02734120306 -0.02206543038
602.5 0.02872439309 -0.005157222655
603.125 0.01953570337 0.01192937675
603.75 0.01990370661 0.01910569907
604.375 0.03382721422 0.02062541992
605.0 0.03863047169 0.02160124633
605.625 0.0183588282 0.01731553301
606.25 -0.001900659616 0.02025182236
606.875 -0.005486035593 0.03863327477
607.5 0.0111720563 0.05149298379
608.125 0.02970264954 0.03907842997
608.75 0.02967161216 0.02778943334
609.375 0.02662191735 0.03043905466
610.0 0.02625281299 0.03080414848
610.625 0.028420392 0.01788718669
611.25 0.02415570887 0.0045597653
611.875 0.01538360071 -0.004529469465
612.5 0.003443358477 -0.01218643488
613.125 -0.01014022507 -0.01070031238
613.75 -0.01338719271 -0.0003431936729
614.375 -0.00403136506 0.003882641682
615.0 0.004089340358 -0.004695619625
615.625 -0.001296931807 -0.01392219425
616.25 -0.008352229021 -0.007536390922
616.875 -0.0004542939034 0.001356327738
617.5 0.01287448684 -0.003784294337
618.125 0.01828071 -0.01312485008
618.75 0.01871763222 -0.01350768655
619.375 0.02800080716 -0.01007427559
620.0 0.04498640123 -0.02002402477
620.625 0.04430617657 -0.04824045157
621.25 0.04102089892 -0.05916279246
621.875 0.0271016068 -0.0698260506
622.5 -0.0341141787 -0.05919042902
623.125 -0.03398889252 -0.03247620322
623.75 -0.01482620682 -0.02032241213
624.375 0.007015279811 -0.02185225124
625.0 0.02447732049 -0.01531902118
625.625 0.02269769485 -0.004833767233
626.25 0.03041288896 0.005490061701
626.875 0.05792037656 0.002609888178
627.5 0.07889994074 0.01497146439
628.125 0.07158534712 0.0211410704
628.75 0.06870752566 0.01979826007
629.375 0.0854870343 0.02563741268
630.0 0.09377802056 0.0494345916
630.625 0.0726803336 0.05459204812
631.25 0.07207208825 0.04163552203
631.875 0.07419567762 0.04237780479
632.5 0.06168886755 0.04539992707
633.125 0.03670713134 0.04657802299
633.75 0.04317092638 0.04098671531
634.375 0.04232668467 0.05574436741
635.0 0.03431137372 0.05346589934
635.625 0.03604669742 0.05656456919
636.25 0.05362462085 0.07066349649
636.875 0.05223443069 0.08017461546
637.5 0.03123602426 0.0592741746
638.125 0.02302429503 0.06408149401
638.75 0.025181933 0.1113147684
639.375 -0.01948823387 0.1198471154
640.0 -0.03236751672 0.08391389297
640.625 -0.02411519022 0.07232573454
641.25 -0.05378979545 0.0826857089
641.875 -0.08623582472 0.04511205061
642.5 -0.07146797406 0.02683522563
643.125 -0.07058948985 0.03523576203
643.75 -0.0959917359 0.02634195379
644.375 -0.1085297032 0.003741205256
645.0 -0.09626687085 0.01220503847
645.625 -0.1065611642 0.04494748818
646.25 -0.1116234786 0.0546111966
646.875 -0.1000439666 0.02591733186
647.5 -0.08785219197 0.01863375839
648.125 -0.107131306 0.02802803379
648.75 -0.1111675951 -0.0008726940694
649.375 -0.07614002943 -0.01430622481
650.0 -0.06011434779 -0.02897173442
650.625 -0.04792305745 -0.07112984485
651.25 -0.01070493011 -0.08629248299
651.875 0.02143610591 -0.07059318047
652.5 0.04686461983 -0.07697180552
653.125 0.1117606936 -0.07930631047
653.75 0.128265562 -0.03670473551
654.375 0.1202313328 -0.0319814197
655.0 0.1355275703 -0.04530559093
655.625 0.1465174704 -0.03086652346
656.25 0.1048160886 -0.01466430845
656.875 0.0781102484 -0.05042647819
657.5 0.1044453891 -0.05307206118
658.125 0.1068664908 -0.02574969172
658.75 0.07457364477 -0.001485070383
659.375 0.06621642786 -0.01701813749
660.0 0.09695638122 -0.05269096855
660.625 0.1082471019 -0.06095278147
661.25 0.09159210898 -0.07248091276
661.875 0.06370057744 -0.1124527112
662.5 0.05097634158 -0.144126307
663.125 0.06912478254 -0.128195959
663.75 0.08969766391 -0.08977288777
664.375 0.1406600211 -0.03378163393
665.0 0.1154771872 0.06014388436
665.625 0.07041228795 0.0696909564
666.25 0.05279476291 0.06909714421
666.875 0.02452857172 0.1156549536
667.5 -0.05484344298 0.109689081
668.125 -0.05658798579 0.07663843711
668.75 -0.03130154742 0.103400674
669.375 -0.03093446593 0.147287907
670.0 -0.06675944333 0.128945141
670.625 -0.06388113827 0.08319717864
671.25 -0.02293528679 0.1166991015
671.875 0.007942224768 0.1491495363
672.5 0.05205036913 0.12542435
673.125 0.05153128627 0.08566227212
673.75 0.04366437461 0.08954945027
674.375 0.01080423427 0.1149133852
675.0 -0.03292923949 0.1052619965
675.625 -0.05972206235 0.09742881428
676.25 -0.122411125 0.07194879175
676.875 -0.1356394225 0.02963535396
677.5 -0.1310308913 0.03190966805
678.125 -0.1374232046 0.07289538293
678.75 -0.1737754339 0.0537718285
679.375 -0.1179115442 -0.0005659151773
680.0 -0.08472503305 0.01640214736
680.625 -0.09660922622 0.04781496306
681.25 -0.1208452989 0.06155901548
681.875 -0.09730901765 0.02453004986
682.5 -0.06701077305 0.03820658318
683.125 -0.08562850486 0.07925745772
683.75 -0.1325831135 0.07800007732
684.375 -0.1465731868 -0.02167672997
685.0 -0.08592320031 -0.09496859486
685.625 -0.02434024236 -0.1525070617
686.25 0.04496264201 -0.1609184718
686.875 0.06915821437 -0.1459544624
687.5 0.09321138947 -0.1266191035
688.125 0.1029700448 -0.07971028228
688.75 0.09091910502 -0.03522880702
689.375 0.08336435305 -0.0255597505
690.0 0.1204918619 -0.02200543275
690.625 0.1301480773 0.02458319249
691.25 0.1067424676 0.005524485646
691.875 0.09619296488 -0.06408275936
692.5 0.01987861835 -0.1830727275
693.125 -0.1158792985 -0.1838331366
693.75 -0.1351608804 -0.06505433942
694.375 -0.1357249841 -0.01298876047
695.0 -0.1469258241 -0.0802089647
695.625 -0.02040321118 -0.1720986846
696.25 0.105748356 -0.05822451661
696.875 0.09993241575 0.03239571686
697.5 0.04443403658 0.1026832425
698.125 -0.008656177094 0.1165745466
698.75 -0.02542015009 0.1233979481
699.375 -0.03593231457 0.1380465132
700.0 -0.05848840217 0.1191898073
700.625 -0.07974853101 0.09056529256
701.25 -0.08094205533 0.1116551152
701.875 -0.08989613633 0.1535441453
702.5 -0.02965122319 0.1180866457
703.125 0.01644836717 0.07460078428
703.75 0.07314648451 0.05347724122
704.375 0.1551475813 0.06357719361
705.0 0.1310239155 0.08941862151
705.625 0.06913481345 0.08597462607
706.25 0.02018655311 0.1162883398
706.875 -0.1165354722 0.117567256
707.5 -0.1727620054 0.00631477168
708.125 -0.1204065968 -0.04735025966
708.75 -0.09767889398 -0.07641474847
709.375 -0.02048786696 -0.1206194351
710.0 0.06489478251 -0.09575683019
710.625 0.08209790329 -0.05810464734
711.25 0.08603039821 -0.03812841819
711.875 0.07066078719 -0.02107845037
712.5 0.06967044135 -0.0204300642
713.125 0.0670877293 -0.08953432515
713.75 -0.01807138583 -0.1508925214
714.375 -0.09324392775 -0.1062230772
715.0 -0.1211351953 -0.0450088436
715.625 -0.1503850813 -0.0453237844
716.25 -0.1196953786 -0.1257641275
716.875 -0.02271032286 -0.1188181907
717.5 0.02185756545 -0.0866842959
718.125 0.05256525933 -0.0879032701
718.75 0.09617140086 -0.06351428074
719.375 0.08746788157 -0.0101984681
720.0 0.05740830408 0.02026786928
720.625 0.01323112793 0.06244487674
721.25 -0.07783374035 0.03044548567
721.875 -0.08084607905 -0.06449254635
722.5 -0.07495851349 -0.08583923301
723.125 -0.1225718956 -0.04352802465
723.75 -0.1086462414 0.05040764006
724.375 -0.03815774726 0.08960187951
725.0 0.02234833879 0.07806497257
725.625 0.04198598108 0.05176046084
726.25 0.02880098895 0.03338353385
726.875 0.0007659460122 0.0348130052
727.5 -0.03485134395 0.04491783072
728.125 -0.06714396328 0.03601504523
728.75 -0.05950414559 0.03685738474
729.375 -0.03084636504 0.04587362731
730.0 -0.02618407126 0.03975663173
730.625 -0.04161458998 0.02857662332
731.25 -0.04412864291 0.009178113865
731.875 -0.03859153785 -0.01242892349
732.5 -0.024730246 -0.02533538888
733.125 -0.009875940326 -0.01691738593
733.75 0.002404586866 -0.003226960229
734.375 0.01357158372 -0.00484232201
735.0 0.01057401864 -0.01517878907
735.625 0.007634101205 -0.01665809595
736.25 0.004281190038 -0.02488629617
736.875 -0.01167558047 -0.0291736257
737.5 -0.02725271061 -0.01530646115
738.125 -0.0342829281 0.007764036423
738.75 -0.0273746657 0.03307153831
739.375 -0.005524078759 0.04258459787
740.0 0.01143642369 0.02915566774
740.625 0.007995327972 0.02525409373
741.25 0.001768506632 0.03748353084
741.875 -0.02275214542 0.03566916887
742.5 -0.04368855499 -0.002021964454
743.125 -0.01915811395 -0.04649902456
743.75 0.01653341346 -0.05364567867
744.375 0.01829493742 -0.05425340913
745.0 0.001874478691 -0.06064342688
745.625 -0.02287391023 -0.05053789387
746.25 -0.01033679982 -0.02592172671
746.875 0.0006311535996 -0.03301334953
747.5 -0.02178647862 -0.04232398833
748.125 -0.0517544205 -0.03157966009
748.75 -0.06686610744 0.006499429578
749.375 -0.04240724186 0.05792394493
750.0 0.03637665024 0.081953485
