!Created with skrf (http://scikit-rf.org).
# GHz S RI R 50.0 
!freq ReS11 ImS11
500.0 -0.002472172363 0.000308845366
500.625 0.004951829194 0.0001952842057
501.25 -0.009466104189 -0.01927793329
501.875 -0.03934595905 -0.02809433231
502.5 -0.02970237855 -0.01562501406
503.125 -0.01434213464 0.004693294037
503.75 -0.01351128569 0.001313330188
504.375 -0.02055061931 -0.001334898172
505.0 -0.01219593329 -0.001350033312
505.625 -0.01010823963 -0.01080633516
506.25 -0.03340129024 -0.009520933482
506.875 -0.06229756211 -0.04400510256
507.5 -0.06615775594 -0.0179259289
508.125 -0.0513344974 -0.03236761316
508.75 -0.0821959242 0.007757809748
509.375 -0.08888064248 0.02382258335
510.0 -0.06274226938 0.01364790351
510.625 -0.01058463279 0.02884794015
511.25 -0.02428072792 0.04443552765
511.875 -0.005490765896 0.06488527723
512.5 0.03052941168 0.03986412591
513.125 0.06557503166 -0.02061014084
513.75 0.08108538813 -0.05861318371
514.375 0.04402525664 -0.06875201856
515.0 0.005664607087 -0.06517082829
515.625 0.04355477994 -0.06578748459
516.25 0.02976745249 -0.07910859633
516.875 0.08293608742 0.007252296736
517.5 0.07139640641 -0.04809425953
518.125 0.194796384 0.01811087879
518.75 0.06257685725 -0.1082951002
519.375 0.04833849254 -0.06601454121
520.0 0.01149083813 -0.0660542006
520.625 0.005785551419 -0.1099332554
521.25 -0.009714729003 -0.1088828336
521.875 0.01966734446 -0.05665673307
522.5 -0.01971581847 -0.07331426683
523.125 -0.04263782148 -0.206620005
523.75 -0.1001307979 -0.2912924411
524.375 -0.06902818702 -0.2749980552
525.0 -0.06950387055 -0.1280189485
525.625 -0.06366204364 -0.1099711342
526.25 -0.0262977849 -0.09905415657
526.875 -0.04583477194 -0.06966745906
527.5 -0.09163108279 -0.05350043215
528.125 -0.09845817436 -0.01381575144
528.75 -0.08561567505 -0.00213944664
529.375 -0.09495008841 0.07836052768
530.0 -0.02998794005 0.146956692
530.625 0.07467444623 0.1236143836
531.25 0.04982122909 0.08367758368
531.875 0.05915985709 0.08369997171
532.5 0.07833270153 0.1381253643
533.125 0.05667993814 0.1214473286
533.75 0.06025159596 0.07067294374
534.375 0.06994990958 0.0627414957
535.0 0.09952329358 0.09606475314
535.625 0.04117871905 0.1037051901
536.25 0.08690228184 0.03186685578
536.875 0.09920040077 0.04954272584
537.5 0.05653920491 0.0846243047
538.125 0.03496312612 0.07349772868
538.75 0.07311883395 0.07593812065
539.375 0.09676302616 0.1338346613
540.0 0.08346696216 0.1168982589
540.625 0.0674345577 0.07908101225
541.25 0.07421269344 0.07966456234
541.875 0.07644855622 0.1030905979
542.5 0.01760413111 0.06739536549
543.125 0.017865176 0.04050037717
543.75 0.07085380212 0.04257988064
544.375 0.1191379105 0.04894844043
545.0 0.1103575748 -0.03684009638
545.625 0.05248454368 -0.08373483186
546.25 0.003749778355 -0.1209531798
546.875 0.0181215321 -0.1246255384
547.5 0.0380301736 -0.1156947413
548.125 0.0485350244 -0.1311959682
548.75 0.09297528646 -0.1238803766
549.375 0.1383029888 -0.09335224042
550.0 0.1485509193 -0.0325061237
550.625 0.173009622 -0.06041388144
551.25 0.1716934832 0.03615886627
551.875 0.1229961185 -0.004843137814
552.5 0.09365417918 -0.03454883993
553.125 0.09702959984 -0.07276627722
553.75 0.1102840007 -0.03358687469
554.375 0.05924311929 -0.02471579585
555.0 0.05457636448 -0.03293228108
555.625 0.075604847 -0.05705468857
556.25 0.09539196396 -0.03133724731
556.875 0.06459787725 -0.003455764156
557.5 0.06375774254 -0.004736053834
558.125 0.09833489363 0.022485954
558.75 0.08472428637 0.07051885116
559.375 0.09440112348 0.05611659766
560.0 0.1172415659 0.03708384669
560.625 0.1322304266 0.01114254536
561.25 0.09670171756 -0.02187254188
561.875 0.06866580537 -0.04845679512
562.5 0.06806621124 -0.06445537778
563.125 0.05567454922 -0.06157594131
563.75 0.0351538498 -0.04797463637
564.375 0.02518910097 -0.0601762684
565.0 0.07067138714 -0.09619146799
565.625 0.08571429371 -0.07699532245
566.25 0.07640029504 -0.05887246492
566.875 0.07551632507 -0.06260653475
567.5 0.1038243675 -0.04035804676
568.125 0.1060912988 0.02140312951
568.75 0.09827279424 0.02890605999
569.375 0.1241153348 0.02610537499
570.0 0.1309787011 0.02258817013
570.625 0.1104527734 0.005965374562
571.25 0.09677386073 -0.01923246805
571.875 0.1072743041 -0.04197361386
572.5 0.07173888339 -0.05740726749
573.125 0.03614020088 -0.04728138627
573.75 0.03610098959 -0.0610048357
574.375 0.05099612647 -0.08928246306
575.0 0.04286647266 -0.08722844762
575.625 0.007434733435 -0.06397422117
576.25 -0.000425784581 -0.06987138605
576.875 0.03541110972 -0.0788721107
577.5 0.04772297906 -0.06525798693
578.125 0.03971253313 -0.06625250318
578.75 0.03405367105 -0.09441961092
579.375 0.0605672564 -0.109825925
580.0 0.06284894932 -0.08628694169
580.625 0.03855646298 -0.10566598
581.25 0.00688413428 -0.1300615926
581.875 0.01129949778 -0.1054898962
582.5 0.02201281835 -0.06221596221
583.125 0.02913768919 -0.06573359107
583.75 0.05449835635 -0.08320655705
584.375 0.06029994217 -0.06468829084
585.0 0.0495112572 -0.04032308156
585.625 0.05934506854 -0.0372742853
586.25 0.08106826089 -0.04040587131
586.875 0.06503451497 -0.03809151427
587.5 0.04301889758 -0.0468796331
588.125 0.04042029574 -0.07411183377
588.75 0.06086568175 -0.08083382298
589.375 0.03184981317 -0.0957712969
590.0 -0.03001373849 -0.09716736959
590.625 -0.06953627029 -0.08928343154
591.25 -0.03455878009 -0.06234246723
591.875 -0.01155661859 -0.03473819776
592.5 -0.01058785977 -0.04170398203
593.125 -0.01060513273 -0.07155673331
593.75 0.01714549419 -0.0712405357
594.375 0.03859672379 -0.04415534039
595.0 0.05374488772 -0.0432081557
595.625 0.07934320858 -0.04008605781
596.25 0.08108843605 -0.01978413948
596.875 0.06728943682 -0.003899564649
597.5 0.07048587072 0.003561579899
598.125 0.08359781904 0.004486337538
598.75 0.08568537619 -0.01530041865
599.375 0.08270092294 -0.03369505467
600.0 0.07825469746 -0.03725506798
600.625 0.06070195645 -0.03213694108
601.25 0.03589030192 -0.03093164731
601.875 0.02677649271 -0.02457290463
602.5 0.02870550017 -0.008140171468
603.125 0.02019042881 0.009819179804
603.75 0.02025134488 0.0174009723
604.375 0.03406046897 0.01869343244
605.0 0.03963441717 0.01958296214
605.625 0.01969304226 0.0161786545
606.25 -0.0008674778928 0.01936971136
606.875 -0.004408767963 0.03763979709
607.5 0.012312993 0.0506442809
608.125 0.03067129767 0.03819442545
608.75 0.03045040454 0.02694236717
609.375 0.02754720646 0.02969011537
610.0 0.02718102903 0.03032305345
610.625 0.02922675107 0.01759430663
611.25 0.02482184153 0.004391795404
611.875 0.01584459601 -0.004535662278
612.5 0.003773932628 -0.01200825103
613.125 -0.00994301512 -0.010581289
613.75 -0.01332442439 -0.0002465027897
614.375 -0.004105071936 0.003921331994
615.0 0.003844214425 -0.004660264973
615.625 -0.00164850081 -0.01396139514
616.25 -0.008840120881 -0.007698937201
616.875 -0.001084544251 0.001233801288
617.5 0.0120990796 -0.003933968813
618.125 0.01741075247 -0.01352329879
618.75 0.01785097581 -0.01406160847
619.375 0.02706234224 -0.01063638139
620.0 0.04381875855 -0.02063875669
620.625 0.04298644861 -0.04896710652
621.25 0.03976638337 -0.06017646674
621.875 0.02590425433 -0.07093875775
622.5 -0.03618262436 -0.05939996576
623.125 -0.03629469521 -0.03279413068
623.75 -0.01696143187 -0.02096260616
624.375 0.004961806824 -0.02316297801
625.0 0.02322024156 -0.01773076947
625.625 0.02168755832 -0.007073100094
626.25 0.02907369455 0.003706490749
626.875 0.05601999374 0.0004140411918
627.5 0.07846981509 0.01171105126
628.125 0.07193260432 0.01845980982
628.75 0.06869966471 0.01722752425
629.375 0.08523572976 0.02198584593
630.0 0.09577526109 0.04549895666
630.625 0.07499972251 0.05286397448
631.25 0.07390287099 0.03951309882
631.875 0.0767278432 0.03950028187
632.5 0.06515216461 0.04274369342
633.125 0.03994395497 0.04537629456
633.75 0.04549342343 0.03875957391
634.375 0.04591637251 0.0532356486
635.0 0.03777006464 0.05103597969
635.625 0.03874391695 0.05379621872
636.25 0.0564565622 0.06715941337
636.875 0.05667692314 0.07717555992
637.5 0.03498804555 0.05754505641
638.125 0.02574588749 0.0615156489
638.75 0.02989646412 0.1081776332
639.375 -0.01494289385 0.1209536063
640.0 -0.02984559069 0.08602410997
640.625 -0.02107292391 0.07339884588
641.25 -0.04879059514 0.08525855064
641.875 -0.08438872403 0.05022845264
642.5 -0.07054056382 0.03012696076
643.125 -0.06844299429 0.03831048619
643.75 -0.09351252109 0.03200555072
644.375 -0.1079655609 0.01018695772
645.0 -0.09586319923 0.01582104035
645.625 -0.103871856 0.04905806413
646.25 -0.1092509291 0.06003479533
646.875 -0.09944655275 0.03137757458
647.5 -0.08727548787 0.02271064893
648.125 -0.1051905056 0.03298727242
648.75 -0.1123432798 0.004995785585
649.375 -0.07835964875 -0.01001098567
650.0 -0.06205019022 -0.0247874511
650.625 -0.052387701 -0.0673540753
651.25 -0.01548222791 -0.08516472837
651.875 0.01782488554 -0.07100925928
652.5 0.04233633086 -0.07723100822
653.125 0.106027651 -0.08377162203
653.75 0.1265475964 -0.04127456518
654.375 0.1190950549 -0.03559387186
655.0 0.1329919741 -0.05073312743
655.625 0.1458421432 -0.03911015833
656.25 0.1067274232 -0.02019892445
656.875 0.07654878126 -0.05379186989
657.5 0.1018552911 -0.0589700203
658.125 0.1065768644 -0.03283844961
658.75 0.07522885053 -0.006924264351
659.375 0.06421244762 -0.0201070467
660.0 0.0920383288 -0.05665161652
660.625 0.1044055231 -0.06568556288
661.25 0.0880459478 -0.07591221193
661.875 0.05833174385 -0.1138018436
662.5 0.04477537629 -0.1453942127
663.125 0.06399670367 -0.1314562203
663.75 0.08672658334 -0.09331045947
664.375 0.1390263228 -0.04053453875
665.0 0.1206328622 0.05530359515
665.625 0.07501701974 0.0670976601
666.25 0.05647206208 0.06670903851
666.875 0.03240454852 0.1127592696
667.5 -0.04706704955 0.1135378576
668.125 -0.05287380924 0.07865391087
668.75 -0.02708621816 0.1029996971
669.375 -0.0237884625 0.1471825773
670.0 -0.06030307058 0.1330237968
670.625 -0.06091684439 0.08642830246
671.25 -0.01841421497 0.1164502706
671.875 0.01515719097 0.1486094786
672.5 0.05962444177 0.1238659971
673.125 0.05750784785 0.08376048248
673.75 0.04918511252 0.08625487612
674.375 0.01783027646 0.1133604679
675.0 -0.02730779582 0.106469906
675.625 -0.05414846741 0.09925727719
676.25 -0.1173954697 0.0783155902
676.875 -0.1336402902 0.03510077398
677.5 -0.1296590708 0.03606255474
678.125 -0.1332279098 0.07723082302
678.75 -0.1716459293 0.06382379262
679.375 -0.1211108117 0.005085376559
680.0 -0.08540592631 0.02100488034
680.625 -0.09329675248 0.05337228168
681.25 -0.1163376195 0.07084849499
681.875 -0.09659191401 0.03218639315
682.5 -0.06430585512 0.04097799107
683.125 -0.07987870914 0.0815919988
683.75 -0.1269130086 0.08343314702
684.375 -0.1473274797 -0.01405676793
685.0 -0.08925380636 -0.09115718721
685.625 -0.03089562457 -0.1497927198
686.25 0.03812478236 -0.1623990509
686.875 0.06318172516 -0.1496031901
687.5 0.08759208862 -0.1320555935
688.125 0.1007162697 -0.086400708
688.75 0.09034298657 -0.04108493288
689.375 0.08196952167 -0.02995357044
690.0 0.1177361739 -0.0294712685
690.625 0.1321465713 0.01599086978
691.25 0.1061237942 -3.625230141e-05
691.875 0.09201633857 -0.06656993628
692.5 0.01077675206 -0.1799089074
693.125 -0.1273269157 -0.1775260679
693.75 -0.14020264 -0.06030175152
694.375 -0.1362687805 -0.006803881209
695.0 -0.1507339521 -0.07130275089
695.625 -0.03163258062 -0.1716108197
696.25 0.1045490005 -0.06506472767
696.875 0.1017622417 0.02712986261
697.5 0.05047392746 0.09965030891
698.125 -0.002002855952 0.1159297288
698.75 -0.0190202156 0.1233795984
699.375 -0.0291320707 0.1392734755
700.0 -0.05238720206 0.1218789656
700.625 -0.0758545205 0.09409517603
701.25 -0.07540948903 0.1142308422
701.875 -0.08059322519 0.1595200637
702.5 -0.02414219308 0.1223976029
703.125 0.02166903943 0.07484065969
703.75 0.07464960145 0.04754349015
704.375 0.1564329662 0.05196711198
705.0 0.1372360266 0.08262116215
705.625 0.07328459356 0.08297225172
706.25 0.0249944432 0.1129849091
706.875 -0.1085256626 0.1217952522
707.5 -0.1733525738 0.01481512709
708.125 -0.1234094797 -0.04402947549
708.75 -0.1010252811 -0.0725389314
709.375 -0.02653012526 -0.1199022156
710.0 0.0599095074 -0.09984466097
710.625 0.08022875785 -0.06273808865
711.25 0.08462177512 -0.04365335177
711.875 0.06963308615 -0.02688714643
712.5 0.06639696693 -0.02546990035
713.125 0.05954086605 -0.09099543009
713.75 -0.02646543196 -0.1481543586
714.375 -0.09774592508 -0.1017613502
715.0 -0.1221620864 -0.04022557914
715.625 -0.1507072853 -0.03818446671
716.25 -0.1270416963 -0.1201654807
716.875 -0.02851023226 -0.1200705968
717.5 0.01823668432 -0.08840619224
718.125 0.04711876063 -0.09047446555
718.75 0.09182404659 -0.06993507954
719.375 0.08839595113 -0.01573713388
720.0 0.0592222207 0.01689561039
720.625 0.01769182202 0.06051412451
721.25 -0.0742748797 0.03436753485
721.875 -0.08279415902 -0.05998819231
722.5 -0.07722383592 -0.08285674398
723.125 -0.1239155327 -0.03901661489
723.75 -0.1072843621 0.05538479383
724.375 -0.03402161389 0.09251306471
725.0 0.02678180449 0.07766373562
725.625 0.04589620813 0.05038913574
726.25 0.03201717258 0.03218436253
726.875 0.004098035723 0.03438716149
727.5 -0.03091697842 0.0460063667
728.125 -0.06467122461 0.03912823138
728.75 -0.05784025124 0.03931866015
729.375 -0.02874180132 0.04717585881
730.0 -0.02372719177 0.04085260973
730.625 -0.0400913319 0.03038125217
731.25 -0.04392817628 0.01109468108
731.875 -0.03931066438 -0.01087111164
732.5 -0.02629383906 -0.02467230543
733.125 -0.01143392442 -0.0173477922
733.75 0.001092257591 -0.003644831975
734.375 0.01254744576 -0.004948924056
735.0 0.009743177866 -0.0149611731
735.625 0.00713193185 -0.01640529944
736.25 0.003990832363 -0.0246782957
736.875 -0.01179373904 -0.02920257702
737.5 -0.02712669519 -0.01557948493
738.125 -0.03391516581 0.00741119552
738.75 -0.02666308806 0.03289405726
739.375 -0.004765931313 0.04263551632
740.0 0.01267786508 0.02904217943
740.625 0.009524331882 0.0245270005
741.25 0.003414627031 0.03714681119
741.875 -0.02157903802 0.03658925667
742.5 -0.04357993159 -0.0002693626006
743.125 -0.02153644434 -0.04550195141
743.75 0.01408579605 -0.05492387909
744.375 0.01601862283 -0.05574033135
745.0 -0.00094666437 -0.0616978452
745.625 -0.02658568569 -0.05066380458
746.25 -0.01375260186 -0.02532066317
746.875 -0.001572019593 -0.0315574852
747.5 -0.02273449226 -0.0404194864
748.125 -0.05228156297 -0.02922664795
748.75 -0.06636467074 0.009028293237
749.375 -0.03988845482 0.05966971393
750.0 0.03972551821 0.07986832174
