!Created with skrf (http://scikit-rf.org).
# GHz S RI R 50.0 
!freq ReS11 ImS11
500.0 -0.006182490168 0.002724904983
500.625 -0.001053187905 -0.001953304463
501.25 -0.01208697186 -0.01646841419
501.875 -0.04274961512 -0.0273371115
502.5 -0.0344816725 -0.01695142887
503.125 -0.01712966548 0.004012468909
503.75 -0.01563633765 0.004189348659
504.375 -0.02169300883 0.00381965182
505.0 -0.01309400497 0.003499699496
505.625 -0.00905327263 -0.008255724176
506.25 -0.02954426272 -0.005582680519
506.875 -0.06486396195 -0.03413318278
507.5 -0.06698748934 -0.01001150435
508.125 -0.0541817359 -0.02553888265
508.75 -0.07668049353 0.01679007831
509.375 -0.08837037889 0.03425505214
510.0 -0.06335123442 0.0224775738
510.625 -0.004152103258 0.02956805521
511.25 -0.01677057175 0.04398705561
511.875 0.0006244819183 0.0660038422
512.5 0.03322123704 0.0373248572
513.125 0.06120978264 -0.02644494949
513.75 0.07456704332 -0.06647517411
514.375 0.03674363192 -0.07698167362
515.0 -0.003139451019 -0.06595103319
515.625 0.03294060902 -0.07291783666
516.25 0.01401720199 -0.08176891222
516.875 0.08127030983 -0.005021482735
517.5 0.06348262413 -0.04997455098
518.125 0.1875846388 0.003235226208
518.75 0.0514481199 -0.1131260801
519.375 0.04161183373 -0.07055326136
520.0 0.004675732763 -0.06550212944
520.625 -0.004431185833 -0.1031418878
521.25 -0.02202247484 -0.1042815084
521.875 0.01326730409 -0.05646003721
522.5 -0.02304467551 -0.06775175705
523.125 -0.05771696986 -0.1936647519
523.75 -0.1189847918 -0.2794828871
524.375 -0.08384577662 -0.271962229
525.0 -0.07692628514 -0.1222666339
525.625 -0.07284782477 -0.1064962449
526.25 -0.03507205716 -0.09860489341
526.875 -0.05120903049 -0.06614632943
527.5 -0.09627117381 -0.0442832805
528.125 -0.1026404031 -0.003059972899
528.75 -0.08641713446 0.005521315056
529.375 -0.08715661239 0.08496503641
530.0 -0.01662354386 0.1506161354
530.625 0.09010695609 0.1223072606
531.25 0.06033532574 0.08428064296
531.875 0.06955249683 0.07390421704
532.5 0.09496043723 0.1246533328
533.125 0.0698670966 0.115609584
533.75 0.06675527135 0.06500146639
534.375 0.07335013186 0.05367362652
535.0 0.108239472 0.08207943067
535.625 0.05108132555 0.101039762
536.25 0.08946678591 0.02541052649
536.875 0.1062007791 0.03935980208
537.5 0.06859411464 0.07717312021
538.125 0.04334232979 0.06853468315
538.75 0.07711370336 0.06803930966
539.375 0.1107335124 0.1224983458
540.0 0.09702094014 0.1117219457
540.625 0.07740992225 0.07277217935
541.25 0.08226629212 0.07034859327
541.875 0.09156600033 0.09232993236
542.5 0.02899805983 0.06694764119
543.125 0.02237901241 0.03508419466
543.75 0.06956499717 0.03168646422
544.375 0.1194898212 0.03581815712
545.0 0.1066933216 -0.04637608706
545.625 0.04568339275 -0.08653551441
546.25 -0.008667087035 -0.1174143783
546.875 0.004959700334 -0.1253111475
547.5 0.02722212928 -0.1180049543
548.125 0.03521427365 -0.1315455542
548.75 0.07859757657 -0.1287587016
549.375 0.1293011222 -0.1053901103
550.0 0.145804049 -0.04122355444
550.625 0.1650413143 -0.07163857104
551.25 0.1785301699 0.02313728881
551.875 0.1267602671 -0.01448475466
552.5 0.09352508862 -0.042184651
553.125 0.08948385819 -0.08278356893
553.75 0.1094286405 -0.0502525246
554.375 0.05888038216 -0.03325266692
555.0 0.05040053452 -0.03985508045
555.625 0.06715245394 -0.06589711837
556.25 0.09126579634 -0.04500751719
556.875 0.06461621056 -0.01230404915
557.5 0.0598179728 -0.01200021635
558.125 0.09687724591 0.01046428194
558.75 0.08926457311 0.0609085997
559.375 0.09723413344 0.04790107305
560.0 0.1180305543 0.02811030508
560.625 0.1351033811 -0.001402065079
561.25 0.09787841528 -0.03135839074
561.875 0.06460096332 -0.05620258771
562.5 0.05975085657 -0.07495006265
563.125 0.04747286847 -0.07043732074
563.75 0.02837953542 -0.05309723717
564.375 0.01671880998 -0.06010680993
565.0 0.05528374805 -0.09969740983
565.625 0.07805034595 -0.08450217404
566.25 0.07118081875 -0.06455422931
566.875 0.06824976762 -0.06810036501
567.5 0.09649774451 -0.05088441212
568.125 0.1078369228 0.0095626282
568.75 0.09815489917 0.02164183721
569.375 0.1238032719 0.01529699212
570.0 0.1333122992 0.01127140111
570.625 0.1129784946 -0.003687372081
571.25 0.09632929587 -0.0269592787
571.875 0.1037359777 -0.05371700308
572.5 0.06919382033 -0.06837049643
573.125 0.03156007122 -0.05468110571
573.75 0.02606514947 -0.06425034177
574.375 0.0393599155 -0.09352499815
575.0 0.03325198754 -0.09409906897
575.625 0.0005972562386 -0.06571409048
576.25 -0.009940700077 -0.0676248939
576.875 0.02280387395 -0.08235496366
577.5 0.03930863486 -0.0687393845
578.125 0.03326117648 -0.06749546057
578.75 0.02353764379 -0.09326079216
579.375 0.04686150268 -0.1142425812
580.0 0.05644118939 -0.09101674534
580.625 0.03103810464 -0.1074159474
581.25 -0.004332542871 -0.1311748748
581.875 0.0003642694303 -0.1101828212
582.5 0.01587489264 -0.0676608647
583.125 0.02141116385 -0.06798979384
583.75 0.04393805844 -0.08931616898
584.375 0.05363828704 -0.07258374354
585.0 0.04507547944 -0.04647170432
585.625 0.05331954201 -0.04350580312
586.25 0.07469659381 -0.04949619537
586.875 0.06135973692 -0.04549267836
587.5 0.03739138164 -0.05062955849
588.125 0.02991901948 -0.07614356151
588.75 0.05219056017 -0.08509121651
589.375 0.02475880437 -0.09860045094
590.0 -0.03607799156 -0.09495053668
590.625 -0.07951865774 -0.08319002411
591.25 -0.04500367593 -0.06239162991
591.875 -0.01836608643 -0.03445646786
592.5 -0.01656896226 -0.03809827104
593.125 -0.02017327384 -0.06688677304
593.75 0.007327415388 -0.07212846247
594.375 0.03335363986 -0.04646106466
595.0 0.04780002393 -0.04538632646
595.625 0.07363090369 -0.04608059843
596.25 0.07883356536 -0.02732732871
596.875 0.06644210435 -0.009997995232
597.5 0.06882979905 -0.002932134141
598.125 0.08242379001 -0.00345061569
598.75 0.08403049394 -0.02213011469
599.375 0.08013075249 -0.03990964109
600.0 0.07691724166 -0.04403084504
600.625 0.06106743579 -0.03826391469
601.25 0.03578522556 -0.03583816034
601.875 0.0252246645 -0.02972506429
602.5 0.02808721348 -0.01430742324
603.125 0.02124775551 0.005190673261
603.75 0.02073418846 0.01367557637
604.375 0.03409160155 0.01426771099
605.0 0.04146989347 0.01449751636
605.625 0.02262900835 0.01298261761
606.25 0.001410486036 0.01701231729
606.875 -0.002005639261 0.03503967916
607.5 0.01495242409 0.04797533805
608.125 0.03273408535 0.03586622104
608.75 0.03185495555 0.0249501239
609.375 0.02916646454 0.02790116885
610.0 0.02909440448 0.02923467395
610.625 0.03089075462 0.01686023458
611.25 0.02619640308 0.003892976326
611.875 0.0170255522 -0.00456639623
612.5 0.004583893672 -0.01187578901
613.125 -0.009516803838 -0.01041083067
613.75 -0.01318433985 -0.000129672826
614.375 -0.004323323075 0.003962574925
615.0 0.003318408604 -0.004692530607
615.625 -0.002539578616 -0.01405364819
616.25 -0.01002311011 -0.007938024144
616.875 -0.002539622595 0.001000530711
617.5 0.01016204604 -0.004272722626
618.125 0.01503034541 -0.01438219685
618.75 0.01551533096 -0.01529027288
619.375 0.02466580791 -0.01195837686
620.0 0.04076172692 -0.02221933683
620.625 0.03941279641 -0.05047633331
621.25 0.03676865768 -0.06245970005
621.875 0.02283590119 -0.07328772953
622.5 -0.04093321321 -0.05955440985
623.125 -0.04129593346 -0.03308166555
623.75 -0.02169729362 -0.02197456376
624.375 0.0002779108232 -0.02574512608
625.0 0.01997810865 -0.02286632554
625.625 0.01891037584 -0.0122428588
626.25 0.02561119258 -0.0002513104517
626.875 0.05118701754 -0.004448997378
627.5 0.0768161863 0.004105343339
628.125 0.07225656284 0.01208192012
628.75 0.06813770077 0.01144526464
629.375 0.0840402422 0.01397142183
630.0 0.09937643003 0.03614238722
630.625 0.08036174056 0.04820498381
631.25 0.07788291797 0.03423559823
631.875 0.08212821721 0.03228699222
632.5 0.07242924666 0.03599014022
633.125 0.04713064159 0.04213975389
633.75 0.05025869246 0.03336325881
634.375 0.05345530476 0.04696809203
635.0 0.04482725368 0.04520899591
635.625 0.04397104139 0.0473428633
636.25 0.0618716385 0.05907359522
636.875 0.06561216289 0.07017100654
637.5 0.04286408464 0.05327669405
638.125 0.03116302356 0.05548640862
638.75 0.03999085421 0.10013063
639.375 -0.003826095527 0.1226435164
640.0 -0.02313351988 0.09061029014
640.625 -0.01396082063 0.07529133605
641.25 -0.03625495645 0.09038135469
641.875 -0.07880401354 0.06245924246
642.5 -0.06814071285 0.03757004933
643.125 -0.0631393687 0.04477328882
643.75 -0.08677857891 0.04337841183
644.375 -0.1053059727 0.02406496585
645.0 -0.0945791457 0.02385204155
645.625 -0.09713238328 0.05723163997
646.25 -0.1025868614 0.07204564039
646.875 -0.09672286481 0.04447938887
647.5 -0.08483878568 0.0324892846
648.125 -0.1001786531 0.04345060234
648.75 -0.114007831 0.01840739896
649.375 -0.08228362341 -0.0002663362492
650.0 -0.06543598675 -0.01532737736
650.625 -0.06186513565 -0.0575581416
651.25 -0.02688324366 -0.08153344127
651.875 0.009277206886 -0.07121660484
652.5 0.03181432955 -0.07706042763
653.125 0.09224138608 -0.09245084056
653.75 0.1228145293 -0.05172535956
654.375 0.1163504841 -0.04352474459
655.0 0.1263226067 -0.06166532126
655.625 0.1422068402 -0.05740398498
656.25 0.109559635 -0.03355359552
656.875 0.07252705982 -0.0616373398
657.5 0.09440561076 -0.07193798703
658.125 0.1041387851 -0.04952151745
658.75 0.07559141734 -0.02039115404
659.375 0.05912578471 -0.02742344109
660.0 0.0801113181 -0.06562315748
660.625 0.09445884336 -0.07578684437
661.25 0.07881210167 -0.08383463109
661.875 0.04540751189 -0.1162871275
662.5 0.02875881427 -0.147519395
663.125 0.05069291543 -0.1386680867
663.75 0.07882784251 -0.1009836467
664.375 0.1332447303 -0.05604337207
665.0 0.13140302 0.04231258408
665.625 0.08493818101 0.06007455812
666.25 0.06458727085 0.06071994839
666.875 0.04902276999 0.1047824273
667.5 -0.02799653559 0.1203313028
668.125 -0.04360960885 0.0831498224
668.75 -0.01685232379 0.1015134598
669.375 -0.006136113773 0.1453002306
670.0 -0.04292589668 0.1413349027
670.625 -0.05280628966 0.0941173952
671.25 -0.007395141505 0.115392227
671.875 0.03167521143 0.1462285999
672.5 0.0760344019 0.1187666992
673.125 0.06998794098 0.07820732344
673.75 0.06048129933 0.07821030236
674.375 0.03311715016 0.1083952398
675.0 -0.01420073883 0.1081259517
675.625 -0.040613141 0.1023870448
676.25 -0.103721101 0.09199776984
676.875 -0.1280217206 0.04853717979
677.5 -0.1257452433 0.04663650355
678.125 -0.1236432516 0.08635059599
678.75 -0.1642958548 0.08521382945
679.375 -0.1270966345 0.01858704386
680.0 -0.08585480591 0.03100561575
680.625 -0.08534365939 0.06423011268
681.25 -0.104040431 0.08940219647
681.875 -0.09293982361 0.04977883318
682.5 -0.05735230542 0.0476331915
683.125 -0.06598424764 0.08650464216
683.75 -0.112547035 0.09542569389
684.375 -0.1476278682 0.00416606547
685.0 -0.09671338669 -0.08145416856
685.625 -0.04509967495 -0.1423866336
686.25 0.02237781213 -0.1648302575
686.875 0.04863760306 -0.1563161469
687.5 0.07344462637 -0.1428339943
688.125 0.09373177477 -0.1025063198
688.75 0.08763897793 -0.0553991169
689.375 0.07785549474 -0.04099699439
690.0 0.1094008351 -0.04644087117
690.625 0.134508184 -0.005480793368
691.25 0.103891472 -0.01262985419
691.875 0.08256201008 -0.07147545383
692.5 -0.007458286214 -0.1721695878
693.125 -0.1492197392 -0.1614342418
693.75 -0.1500919643 -0.0492447871
694.375 -0.136244513 0.005957403584
695.0 -0.1570405648 -0.05212155447
695.625 -0.05611891863 -0.1677053465
696.25 0.09966346798 -0.08079386227
696.875 0.1050866873 0.01427323163
697.5 0.06459070867 0.09090474447
698.125 0.01420237617 0.1124218697
698.75 -0.003972018358 0.121884294
699.375 -0.01220337577 0.1398907494
700.0 -0.03854157977 0.127061826
700.625 -0.06600584079 0.1013708391
701.25 -0.06273102043 0.1190009373
701.875 -0.05885706382 0.1704702486
702.5 -0.01010064716 0.1316246411
703.125 0.03355820396 0.07427979475
703.75 0.07721158177 0.0345913548
704.375 0.1562842703 0.02660156997
705.0 0.1497101572 0.06541986234
705.625 0.08157444429 0.07551308735
706.25 0.03487662074 0.1055657036
706.875 -0.09009935392 0.1294632283
707.5 -0.1718571347 0.03579267254
708.125 -0.1301185148 -0.03438307257
708.75 -0.1088388173 -0.06158681878
709.375 -0.04256927737 -0.116583948
710.0 0.04605963559 -0.109201684
710.625 0.07418318078 -0.07413578397
711.25 0.0804149725 -0.05603810987
711.875 0.06618933932 -0.03906961522
712.5 0.05885563831 -0.0352478187
713.125 0.04369014609 -0.09245594213
713.75 -0.04375396649 -0.1399487488
714.375 -0.106696498 -0.09093747238
715.0 -0.1236930269 -0.029315334
715.625 -0.149828966 -0.02208607639
716.25 -0.142823548 -0.1043547039
716.875 -0.04317765276 -0.1215751211
717.5 0.009411587149 -0.09217301672
718.125 0.03476407417 -0.09526119958
718.75 0.08139130017 -0.08336263863
719.375 0.08870447842 -0.02861429024
720.0 0.06236746699 0.009172454039
720.625 0.02723522778 0.05525387038
721.25 -0.06470175768 0.04284238212
721.875 -0.0862228898 -0.04845395519
722.5 -0.08243185462 -0.07447627953
723.125 -0.1261192587 -0.02738725423
723.75 -0.1027959587 0.06630308706
724.375 -0.02417654358 0.09740917499
725.0 0.03615607907 0.07547082154
725.625 0.05370202184 0.04621471199
726.25 0.03855455476 0.02889461013
726.875 0.01107777047 0.03269557986
727.5 -0.02186250303 0.04731288857
728.125 -0.0574684471 0.04564108556
728.75 -0.05319458459 0.04498255241
729.375 -0.02322349048 0.04991413175
730.0 -0.01771949766 0.04277960683
730.625 -0.03580158613 0.03438797113
731.25 -0.04284464433 0.01540624497
731.875 -0.0405874922 -0.007394120681
732.5 -0.02942836076 -0.02294303107
733.125 -0.01474300719 -0.01770497967
733.75 -0.001679753688 -0.004147002844
734.375 0.0101144799 -0.005063164589
735.0 0.007907507772 -0.01419190986
735.625 0.006083716146 -0.01558139562
736.25 0.003499647837 -0.02425968436
736.875 -0.01198144727 -0.02919231985
737.5 -0.02692248647 -0.01601962242
738.125 -0.03300254667 0.006863531426
738.75 -0.02494015748 0.0327073207
739.375 -0.002419523738 0.04265912605
740.0 0.01551175169 0.02843542958
740.625 0.01278435118 0.02274269931
741.25 0.007453105632 0.03585828459
741.875 -0.01778255067 0.03845391636
742.5 -0.04344983845 0.004247604782
743.125 -0.02689402336 -0.04287153437
743.75 0.007823875908 -0.05720235745
744.375 0.01069681815 -0.0588986247
745.0 -0.007305659013 -0.06321562238
745.625 -0.03510272508 -0.04966230125
746.25 -0.02180855722 -0.02293498398
746.875 -0.00688886255 -0.02754541101
747.5 -0.0249534363 -0.03519011105
748.125 -0.05317311345 -0.02273271623
748.75 -0.06420166236 0.01647044726
749.375 -0.03206448386 0.06349264001
750.0 0.04798336831 0.07357096802
