!Created with skrf (http://scikit-rf.org).
# GHz S RI R 50.0 
!freq ReS11 ImS11
500.0 -0.006373313588 0.001281396235
500.625 0.002186695282 -0.001636718241
501.25 -0.009671786892 -0.02039726368
501.875 -0.03921975736 -0.02849612858
502.5 -0.02974320461 -0.01665815433
503.125 -0.01513846743 0.003788089146
503.75 -0.01405023397 0.001649186057
504.375 -0.02064863335 0.0001431795664
505.0 -0.01296201801 -0.0004587786607
505.625 -0.008254925183 -0.0100590979
506.25 -0.03306655154 -0.009112509375
506.875 -0.06279335234 -0.04164131051
507.5 -0.06610363356 -0.01636843918
508.125 -0.05122778814 -0.03170393309
508.75 -0.08155256442 0.01178564215
509.375 -0.08866199547 0.02564983307
510.0 -0.06273797909 0.01645979845
510.625 -0.008069039187 0.03024047372
511.25 -0.02299599601 0.04496992975
511.875 -0.003442003971 0.06505444204
512.5 0.02762944311 0.04042025749
513.125 0.06551032126 -0.02191494167
513.75 0.08128372313 -0.06075342193
514.375 0.04431362421 -0.06852729543
515.0 0.003956856987 -0.06572127358
515.625 0.04055112653 -0.06900761818
516.25 0.02395542056 -0.08056393406
516.875 0.08105472734 0.002393058327
517.5 0.0682324633 -0.05009672517
518.125 0.1926023641 0.01618478339
518.75 0.06057720286 -0.1095408519
519.375 0.04707236828 -0.06683972353
520.0 0.01053768643 -0.06621316915
520.625 0.004312565119 -0.1081385429
521.25 -0.01259800055 -0.1070849826
521.875 0.01775561444 -0.05662805326
522.5 -0.02037371788 -0.07212382877
523.125 -0.04566696608 -0.2042975805
523.75 -0.1075701235 -0.2883462009
524.375 -0.07331159229 -0.2769052075
525.0 -0.07105419397 -0.1268409779
525.625 -0.06532151465 -0.1098425658
526.25 -0.02831994189 -0.09870255003
526.875 -0.0469904917 -0.06916884163
527.5 -0.09274719414 -0.05149707976
528.125 -0.0993295539 -0.01154842134
528.75 -0.08582866745 -0.0004773374112
529.375 -0.09319709019 0.07996879144
530.0 -0.02717033595 0.1481857295
530.625 0.07751370691 0.1231541594
531.25 0.05168702034 0.08373370228
531.875 0.06088201083 0.08216466906
532.5 0.08102252626 0.1362000626
533.125 0.05944301627 0.120455859
533.75 0.06151871568 0.06952984148
534.375 0.07083949843 0.06074628604
535.0 0.1013193565 0.09318331068
535.625 0.04337905522 0.1032920636
536.25 0.08759703526 0.030405402
536.875 0.100725732 0.04754863978
537.5 0.05892995791 0.08323746719
538.125 0.03658427042 0.07258485334
538.75 0.07389206713 0.07453385631
539.375 0.09955580872 0.1318821975
540.0 0.08617303729 0.1158966823
540.625 0.06951212974 0.07790749811
541.25 0.07589089961 0.07787540229
541.875 0.07960056655 0.10106337
542.5 0.01970795977 0.06745038277
543.125 0.01877585955 0.03957472231
543.75 0.07078242465 0.04049481578
544.375 0.1193941664 0.04631038595
545.0 0.1096277359 -0.03898011129
545.625 0.05116653234 -0.08436068304
546.25 0.001083164458 -0.1203275442
546.875 0.01535226643 -0.1249555302
547.5 0.03591756985 -0.1160175445
548.125 0.04584779087 -0.1314541351
548.75 0.09008604375 -0.1251173952
549.375 0.136560715 -0.09610129982
550.0 0.1478111917 -0.03441257152
550.625 0.1715895102 -0.06267444047
551.25 0.1732146823 0.03349764035
551.875 0.1237435159 -0.006676637282
552.5 0.09369625484 -0.03609823347
553.125 0.09546751189 -0.07508979891
553.75 0.1105296473 -0.03672741354
554.375 0.05923661948 -0.02623254772
555.0 0.05383342455 -0.03430045435
555.625 0.07395093073 -0.05907145768
556.25 0.09480897613 -0.03405832424
556.875 0.06477122943 -0.00507194347
557.5 0.06313600075 -0.006295855272
558.125 0.09822763169 0.02002955287
558.75 0.08579288877 0.06870253658
559.375 0.09518968121 0.05438835663
560.0 0.1175577313 0.03511223711
560.625 0.1328906931 0.008462759446
561.25 0.096992745 -0.02406635307
561.875 0.0678707247 -0.05022755559
562.5 0.06652596556 -0.06670819201
563.125 0.05404412504 -0.06342401982
563.75 0.03375821367 -0.04912487523
564.375 0.02342162801 -0.06020521944
565.0 0.06793064435 -0.09703388192
565.625 0.08441197335 -0.07850246189
566.25 0.07534093297 -0.06026067365
566.875 0.07430989251 -0.06372219852
567.5 0.1027415597 -0.04222281922
568.125 0.106568946 0.01928847251
568.75 0.09826626215 0.02756591564
569.375 0.1241659221 0.02393221635
570.0 0.1314883275 0.02040243256
570.625 0.1110897901 0.003821894499
571.25 0.09666618287 -0.02097432822
571.875 0.1066935967 -0.04472369166
572.5 0.07123014556 -0.05984199959
573.125 0.03520860309 -0.04902045638
573.75 0.03389800321 -0.06174305198
574.375 0.04843402036 -0.09031568198
575.0 0.04087088185 -0.0889021436
575.625 0.006038152322 -0.06425433725
576.25 -0.00220384959 -0.06956022689
576.875 0.03311975401 -0.07981765805
577.5 0.04603438625 -0.06614469234
578.125 0.03848589305 -0.06662992578
578.75 0.03201781888 -0.09434802461
579.375 0.05764801089 -0.1108397387
580.0 0.06145032856 -0.08709858308
580.625 0.03702304174 -0.1060471543
581.25 0.00459505935 -0.1303771555
581.875 0.009011950464 -0.1065703056
582.5 0.0207008845 -0.06337559756
583.125 0.02741800417 -0.06631219736
583.75 0.05205527131 -0.08478362601
584.375 0.05867991476 -0.0666188587
585.0 0.04852170913 -0.0419011851
585.625 0.05803081947 -0.03873958695
586.25 0.07968771624 -0.04270187605
586.875 0.06428773439 -0.03979787861
587.5 0.04187346679 -0.04769319988
588.125 0.03861678404 -0.07457730303
588.75 0.05938916673 -0.08160063406
589.375 0.03076475614 -0.09635219685
590.0 -0.030965178 -0.09681176006
590.625 -0.07136972854 -0.08824024066
591.25 -0.03666193009 -0.06246667464
591.875 -0.01297604184 -0.03466737355
592.5 -0.01183552646 -0.04101663146
593.125 -0.01283465888 -0.07054716654
593.75 0.01529113439 -0.07156247442
594.375 0.0376230913 -0.0445272881
595.0 0.0525993099 -0.04365478857
595.625 0.07827855365 -0.04130568711
596.25 0.08068376072 -0.02135151273
596.875 0.0672149662 -0.005221986454
597.5 0.07017536687 0.001829918382
598.125 0.08345049841 0.002657148431
598.75 0.08541147011 -0.01710316635
599.375 0.08212111506 -0.03516966546
600.0 0.07798516417 -0.0387055121
600.625 0.06085428846 -0.0333176026
601.25 0.03585772477 -0.03194806832
601.875 0.02644261349 -0.02562907086
602.5 0.0286171591 -0.00924492923
603.125 0.02046229701 0.008915173125
603.75 0.02041771296 0.01657496683
604.375 0.03411780268 0.01768917057
605.0 0.0400992373 0.01848349427
605.625 0.02038066943 0.0155235987
606.25 -0.000277522216 0.01886971329
606.875 -0.003824210798 0.03710837231
607.5 0.01292126599 0.05004977562
608.125 0.03121671249 0.0376485251
608.75 0.03080703923 0.02648155985
609.375 0.02793247422 0.02924240374
610.0 0.02762646199 0.03013216581
610.625 0.02964123591 0.01740416818
611.25 0.02512991542 0.004281399023
611.875 0.01609244191 -0.004529366127
612.5 0.003956903101 -0.01198721897
613.125 -0.00985944486 -0.01056780382
613.75 -0.01328576868 -0.0002044711671
614.375 -0.004143275415 0.003926259259
615.0 0.003759872725 -0.004676929044
615.625 -0.001829684882 -0.01397671713
616.25 -0.009054815396 -0.007759153736
616.875 -0.001397124619 0.001145390812
617.5 0.01167040512 -0.004048311396
618.125 0.01683295269 -0.01374363615
618.75 0.01736589767 -0.01439623531
619.375 0.02649827999 -0.01101379256
620.0 0.04313426371 -0.02108951606
620.625 0.04214439825 -0.04931117571
621.25 0.03906848708 -0.06083328885
621.875 0.02514082179 -0.07161144227
622.5 -0.03730934323 -0.05947943704
623.125 -0.0374288783 -0.03285173621
623.75 -0.01808080579 -0.02122055583
624.375 0.003961149535 -0.02378632748
625.0 0.02262885316 -0.01878598096
625.625 0.02118714161 -0.00817371189
626.25 0.0283746057 0.002780185913
626.875 0.05503177568 -0.0007542972867
627.5 0.07823020816 0.01005074085
628.125 0.07205923199 0.01700522435
628.75 0.06862746307 0.01583589874
629.375 0.08506225676 0.02011081078
630.0 0.0966830018 0.04348458479
630.625 0.07627640589 0.05180939202
631.25 0.0748716808 0.03835925977
631.875 0.0779360422 0.03798790446
632.5 0.06689432937 0.04124683069
633.125 0.041649533 0.04466563439
633.75 0.04661407772 0.03753294208
634.375 0.04772461564 0.05184919947
635.0 0.03952566235 0.04971126846
635.625 0.04004555858 0.05228024004
636.25 0.05778346695 0.06540115744
636.875 0.0587736132 0.07575059535
637.5 0.03678922412 0.0567338027
638.125 0.0270012218 0.06023820862
638.75 0.0321218108 0.1066284774
639.375 -0.01260087126 0.1213534008
640.0 -0.02832549605 0.08715576844
640.625 -0.01942722683 0.07390881771
641.25 -0.04613943113 0.08656554402
641.875 -0.08335050676 0.05314263576
642.5 -0.07008916926 0.03188862911
643.125 -0.06737880255 0.0398093014
643.75 -0.09211078941 0.03458239758
644.375 -0.1075586718 0.01334566812
645.0 -0.09560575188 0.01778969176
645.625 -0.1023799268 0.05099997896
646.25 -0.1077421319 0.06303249801
646.875 -0.09883458481 0.03494290914
647.5 -0.08672032703 0.02526410126
648.125 -0.104087578 0.03541691639
648.75 -0.11289725 0.008196159175
649.375 -0.07939249303 -0.007789419781
650.0 -0.06281365918 -0.0228840554
650.625 -0.05432337819 -0.06554162627
651.25 -0.01788646854 -0.08451724196
651.875 0.01607025027 -0.07108482268
652.5 0.04016268067 -0.07726651525
653.125 0.1031769602 -0.08588966124
653.75 0.1259960056 -0.0438367106
654.375 0.118514217 -0.03737101096
655.0 0.1314670242 -0.05336770834
655.625 0.1452654025 -0.04358369917
656.25 0.1074838017 -0.02321179463
656.875 0.0757043821 -0.05564800994
657.5 0.1002058649 -0.0617648996
658.125 0.1062074108 -0.03656207801
658.75 0.07544755652 -0.0101309848
659.375 0.0630672047 -0.02190172887
660.0 0.089072895 -0.05922855487
660.625 0.1017224573 -0.06840106089
661.25 0.08572719652 -0.07821914323
661.875 0.05510414309 -0.1146699879
662.5 0.0410148238 -0.1459902986
663.125 0.0614040704 -0.1329716993
663.75 0.08526807957 -0.09497333368
664.375 0.1378874586 -0.0437701676
665.0 0.1230640093 0.05261241653
665.625 0.0773817268 0.06543273146
666.25 0.05853409255 0.06531861223
666.875 0.03648292485 0.1110466824
667.5 -0.04280613818 0.1153281823
668.125 -0.05077472914 0.07979444026
668.75 -0.02449895007 0.1027093908
669.375 -0.01943343998 0.1469235865
670.0 -0.05627814312 0.1353224259
670.625 -0.05893634053 0.08828570359
671.25 -0.01555047054 0.1163633772
671.875 0.01925712098 0.1482329571
672.5 0.06383348022 0.1228171783
673.125 0.06072763527 0.08251924824
673.75 0.05186358289 0.08453666781
674.375 0.020965708 0.1125059014
675.0 -0.02467525594 0.1069871252
675.625 -0.05150367065 0.1000084998
676.25 -0.1145936606 0.08144779027
676.875 -0.1323469761 0.03828726161
677.5 -0.1288537404 0.03882645939
678.125 -0.1306621072 0.07960820715
678.75 -0.1701835555 0.06955527345
679.375 -0.1227035582 0.008377522902
680.0 -0.08560267257 0.02354381322
680.625 -0.09131644113 0.05612395072
681.25 -0.1135052715 0.07526496764
681.875 -0.09590729591 0.03617824865
682.5 -0.06257424482 0.04260350454
683.125 -0.07624082799 0.08296131314
683.75 -0.1234071112 0.08670893486
684.375 -0.1477249084 -0.009238314989
685.0 -0.09132663563 -0.08878087904
685.625 -0.03457129382 -0.1481596964
686.25 0.03443641653 -0.1631403522
686.875 0.0599605026 -0.151357477
687.5 0.08452610722 -0.1347865127
688.125 0.09931478731 -0.08995667125
688.75 0.08974844363 -0.04422683724
689.375 0.08108553124 -0.03249983905
690.0 0.1159754359 -0.03352218958
690.625 0.1330697441 0.01081989123
691.25 0.1056970435 -0.00342388978
691.875 0.08936427143 -0.06806956858
692.5 0.005757935497 -0.1781962461
693.125 -0.1333008958 -0.1736345366
693.75 -0.142769294 -0.05762606077
694.375 -0.1363873259 -0.003968368735
695.0 -0.1523750966 -0.06721219992
695.625 -0.03706107435 -0.1711639725
696.25 0.1035301008 -0.06878847699
696.875 0.1026188975 0.02387541403
697.5 0.05439200098 0.09748225364
698.125 0.002766853238 0.1150345362
698.75 -0.01459641711 0.1231161923
699.375 -0.02463102312 0.1398651639
700.0 -0.04921987494 0.1233049551
700.625 -0.07343939585 0.09597604711
701.25 -0.0728095664 0.1152852123
701.875 -0.07661901928 0.1621966722
702.5 -0.02120934595 0.1245023413
703.125 0.0244671167 0.07481766332
703.75 0.07541320018 0.0443206829
704.375 0.1568047929 0.04518283088
705.0 0.1409941487 0.0780693826
705.625 0.07570965129 0.08091407429
706.25 0.02790853524 0.1109437437
706.875 -0.103399172 0.1242343082
707.5 -0.1731482575 0.02042486571
708.125 -0.1251614481 -0.04161690463
708.75 -0.1031201329 -0.06985521743
709.375 -0.03084412665 -0.1192521527
710.0 0.05616593563 -0.1026611711
710.625 0.07863901185 -0.06593933479
711.25 0.08373281134 -0.04719030367
711.875 0.06872608781 -0.03023325513
712.5 0.06462519375 -0.0280487161
713.125 0.05590681187 -0.09155171481
713.75 -0.03057613489 -0.1465515088
714.375 -0.09994368278 -0.09936211794
715.0 -0.1226101754 -0.03771914013
715.625 -0.150638403 -0.03435047556
716.25 -0.1314023607 -0.1163167726
716.875 -0.03268480629 -0.1206586119
717.5 0.01573870785 -0.0896852954
718.125 0.04352438277 -0.09206437945
718.75 0.08898464886 -0.07421913747
719.375 0.08855993956 -0.01952663303
720.0 0.06017522684 0.0148064468
720.625 0.02028521317 0.0593463593
721.25 -0.07190035785 0.03671177841
721.875 -0.08383733975 -0.05711196478
722.5 -0.07862929085 -0.08080127817
723.125 -0.1245888208 -0.03585912833
723.75 -0.1061219293 0.05826000177
724.375 -0.03150555939 0.09384513322
725.0 0.02924843782 0.0772056237
725.625 0.04800311463 0.04937013402
726.25 0.03377087325 0.03134571615
726.875 0.005879793177 0.03401960417
727.5 -0.0287214539 0.04648304769
728.125 -0.06286203274 0.04085054611
728.75 -0.0566338534 0.04076396943
729.375 -0.02725355997 0.04802327054
730.0 -0.02218337965 0.04146613891
730.625 -0.03894094315 0.03157639507
731.25 -0.04354757557 0.01236762986
731.875 -0.03977028917 -0.009844852602
732.5 -0.02721920533 -0.02421496557
733.125 -0.01239316246 -0.01744877505
733.75 0.0003766341625 -0.003767611542
734.375 0.01194685292 -0.005010972795
735.0 0.009210145085 -0.01479429973
735.625 0.006775395321 -0.01621706587
736.25 0.003884807802 -0.02456383504
736.875 -0.01187116828 -0.02915481536
737.5 -0.02708925023 -0.0156599208
738.125 -0.0336479442 0.007346146131
738.75 -0.02618169745 0.03295278607
739.375 -0.004036417986 0.04274836855
740.0 0.01351177834 0.02889888768
740.625 0.01037586166 0.0241278906
741.25 0.00467164841 0.03682802723
741.875 -0.02044926209 0.03715725587
742.5 -0.04369381017 0.001257537083
743.125 -0.02319800757 -0.04489433158
743.75 0.01206435066 -0.05565295862
744.375 0.01448322161 -0.05683328729
745.0 -0.002841176508 -0.06224043073
745.625 -0.02914973926 -0.05032864167
746.25 -0.01610304273 -0.02459862988
746.875 -0.003242174996 -0.03045630854
747.5 -0.02346164635 -0.03898539644
748.125 -0.05256077713 -0.02752854935
748.75 -0.06594823356 0.01118920103
749.375 -0.03756951724 0.06098099135
750.0 0.04247276106 0.0780105417
