!Created with skrf (http://scikit-rf.org).
# GHz S RI R 50.0 
!freq ReS11 ImS11
500.0 -0.004600198837 -0.005574675376
500.625 0.004350757876 -0.002548259465
501.25 -0.009473939978 -0.02058914281
501.875 -0.03800525328 -0.02984717868
502.5 -0.02800714328 -0.01757567311
503.125 -0.01400952729 0.001656388939
503.75 -0.01255713093 0.0006316272411
504.375 -0.01986489481 -0.001721871665
505.0 -0.01243864757 -0.001884884371
505.625 -0.01064673219 -0.01105160043
506.25 -0.03244160745 -0.01125941252
506.875 -0.06155378519 -0.04391050668
507.5 -0.06524624219 -0.01841255584
508.125 -0.05086040449 -0.03315630191
508.75 -0.08329986386 0.006841849242
509.375 -0.0898399231 0.02357395079
510.0 -0.06257253435 0.01382281185
510.625 -0.009485970117 0.02940839287
511.25 -0.02482824603 0.04449256632
511.875 -0.006689491759 0.06483515415
512.5 0.02687427875 0.04130511412
513.125 0.06567480248 -0.01899069989
513.75 0.08339732594 -0.05858666914
514.375 0.04480113334 -0.06965485944
515.0 0.006046973895 -0.06351369349
515.625 0.04545837145 -0.06694322313
516.25 0.02941828929 -0.08169361474
516.875 0.08403258506 0.006749748735
517.5 0.07135659599 -0.04937112424
518.125 0.1958645724 0.02130440644
518.75 0.06400801463 -0.1074673471
519.375 0.04939616317 -0.06534341357
520.0 0.01240310616 -0.06647993248
520.625 0.006713081019 -0.1100089984
521.25 -0.01008594604 -0.1081596971
521.875 0.0198841609 -0.05692201988
522.5 -0.01890492316 -0.07390282695
523.125 -0.04255919633 -0.207635956
523.75 -0.09700795113 -0.2921928148
524.375 -0.06983570896 -0.2780310964
525.0 -0.06842239964 -0.1290628026
525.625 -0.06222042876 -0.1108224796
526.25 -0.02575096448 -0.09898351507
526.875 -0.04514612676 -0.07000843954
527.5 -0.09099045101 -0.05449816542
528.125 -0.09769007031 -0.01488077665
528.75 -0.08541822145 -0.002931830732
529.375 -0.09566999609 0.07752785464
530.0 -0.03171767188 0.146368915
530.625 0.07274394246 0.1230746495
531.25 0.04825097237 0.08322674676
531.875 0.05766652124 0.08493406494
532.5 0.07669442892 0.1397200835
533.125 0.05476099037 0.1218329248
533.75 0.05948822896 0.07130430392
534.375 0.06944011116 0.06382537658
535.0 0.09805517022 0.0973976318
535.625 0.03990358627 0.1040963654
536.25 0.08654307266 0.03252379997
536.875 0.098314928 0.05060091748
537.5 0.05482893643 0.0854266025
538.125 0.03373851603 0.07409344177
538.75 0.07231233175 0.07720521952
539.375 0.09423172949 0.1354751906
540.0 0.08136947641 0.1175653281
540.625 0.06590737391 0.07991525747
541.25 0.07296045788 0.08091348521
541.875 0.07462862378 0.1040323491
542.5 0.01621094607 0.06739167583
543.125 0.01735379134 0.04111853418
543.75 0.07088515722 0.04374717432
544.375 0.1188963018 0.05054171335
545.0 0.1106829872 -0.03582459166
545.625 0.05333041634 -0.0833435891
546.25 0.005530016702 -0.1213448674
546.875 0.02001685362 -0.1242853081
547.5 0.03951829849 -0.1151911867
548.125 0.05055555078 -0.1310603297
548.75 0.09510194677 -0.1231085511
549.375 0.1392574456 -0.0922065751
550.0 0.148600701 -0.03150312431
550.625 0.173888367 -0.05909244006
551.25 0.1705067442 0.03787760807
551.875 0.1223564518 -0.00338201709
552.5 0.09364863551 -0.03342025269
553.125 0.09785210609 -0.0713616299
553.75 0.1103338277 -0.03118423877
554.375 0.05909958364 -0.02361849834
555.0 0.05493565552 -0.03196692907
555.625 0.07642539002 -0.0558913827
556.25 0.09562163314 -0.02966732756
556.875 0.06447557155 -0.002388010924
557.5 0.06430674657 -0.003726477454
558.125 0.0984946661 0.02416238794
558.75 0.0838316908 0.07213910631
559.375 0.09389624423 0.05753974107
560.0 0.1170197372 0.03872521965
560.625 0.1314171983 0.01311345796
561.25 0.09636265536 -0.02064931074
561.875 0.0690196285 -0.04760276723
562.5 0.06876269827 -0.06332349441
563.125 0.05634445953 -0.06064877396
563.75 0.03573541959 -0.04732691801
564.375 0.02632550961 -0.06014384685
565.0 0.07336507661 -0.09519844217
565.625 0.08698397971 -0.07572663494
566.25 0.07749068553 -0.05786502822
566.875 0.07676876467 -0.06164721209
567.5 0.1050150987 -0.03840139481
568.125 0.1057189986 0.02311984719
568.75 0.09809231381 0.02993284095
569.375 0.1239562273 0.02759378512
570.0 0.1304184254 0.02405356756
570.625 0.1100407806 0.007531286249
571.25 0.09686141741 -0.01774605243
571.875 0.1077938406 -0.03956473235
572.5 0.07187210401 -0.0554229233
573.125 0.03678990677 -0.04614084613
573.75 0.03749518907 -0.06030021299
574.375 0.05212454773 -0.08885138176
575.0 0.04368008867 -0.08687288208
575.625 0.008083835757 -0.06376585974
576.25 0.001143390051 -0.07013354403
576.875 0.03747640383 -0.07817969105
577.5 0.04931042297 -0.06462086629
578.125 0.04116805788 -0.06605776077
578.75 0.03630487226 -0.09459263849
579.375 0.06328934846 -0.1088011558
580.0 0.06400924983 -0.08527536059
580.625 0.03970587181 -0.1053569452
581.25 0.008726094028 -0.1297468819
581.875 0.01272063106 -0.1046964029
582.5 0.02276000205 -0.06138617586
583.125 0.03014890201 -0.0653110397
583.75 0.05591741372 -0.0821936935
584.375 0.06102916229 -0.0632857004
585.0 0.05021869046 -0.03922958017
585.625 0.06029689646 -0.0361299987
586.25 0.08213621492 -0.03890361938
586.875 0.06553027324 -0.03696826103
587.5 0.0438470009 -0.04630343771
588.125 0.04201494267 -0.07364838827
588.75 0.06226681025 -0.07987874606
589.375 0.03329877508 -0.09531957875
590.0 -0.02847052766 -0.09759155846
590.625 -0.06712456999 -0.09046244472
591.25 -0.03251900031 -0.06215404957
591.875 -0.01025270654 -0.0346640146
592.5 -0.009454202944 -0.04230229357
593.125 -0.008835813992 -0.07217014531
593.75 0.01885484467 -0.07101604431
594.375 0.03947284757 -0.04364856904
595.0 0.05485839853 -0.04266158638
595.625 0.08024677127 -0.03894667601
596.25 0.081494713 -0.01833806434
596.875 0.06740523714 -0.002825257136
597.5 0.07070567753 0.004706201472
598.125 0.08371549448 0.005800658692
598.75 0.08583773813 -0.01444601402
599.375 0.08300149746 -0.03281472032
600.0 0.07823167973 -0.03625895218
600.625 0.06059811376 -0.03122799074
601.25 0.03581986635 -0.03010812748
601.875 0.02701297441 -0.0234587284
602.5 0.0287379019 -0.006618941806
603.125 0.01992048321 0.0108716616
603.75 0.02013921614 0.01822154629
604.375 0.033994851 0.01959923698
605.0 0.03922496877 0.02055334159
605.625 0.0192185995 0.01673602816
606.25 -0.001262431728 0.0197451011
606.875 -0.004784031099 0.03803420893
607.5 0.01192707869 0.05098859436
608.125 0.03033842875 0.03853511935
608.75 0.03021532795 0.0272603306
609.375 0.02719144583 0.02992832814
610.0 0.02677269942 0.0305636355
610.625 0.02892559848 0.01772578397
611.25 0.02458081272 0.00445585268
611.875 0.0156518283 -0.004547170883
612.5 0.003661174694 -0.01207846252
613.125 -0.01000627523 -0.01062474848
613.75 -0.01333235108 -0.0002866563548
614.375 -0.004085021899 0.003933190963
615.0 0.00398114124 -0.004637242075
615.625 -0.001416041662 -0.01388068571
616.25 -0.008569455299 -0.007636631005
616.875 -0.0007796548441 0.001298685584
617.5 0.01248638295 -0.003843662121
618.125 0.01780018773 -0.0133521662
618.75 0.01820207494 -0.01389118875
619.375 0.0273856311 -0.01041015765
620.0 0.04421218585 -0.02046180731
620.625 0.04343818414 -0.04862860455
621.25 0.04029189208 -0.0597131932
621.875 0.02634987572 -0.07048192605
622.5 -0.03530822217 -0.05926044752
623.125 -0.03525479245 -0.03257769686
623.75 -0.01594428776 -0.02061537424
624.375 0.005997673378 -0.02247833321
625.0 0.02391303687 -0.01642996346
625.625 0.02225276575 -0.005951925402
626.25 0.02978576285 0.004572290402
626.875 0.05695802121 0.001517889108
627.5 0.07874083683 0.01331699248
628.125 0.0718529208 0.01970626841
628.75 0.0687661601 0.01837357858
629.375 0.0854099372 0.02347300614
630.0 0.09503684064 0.04708849179
630.625 0.07415946541 0.05349565938
631.25 0.07320469193 0.04029812232
631.875 0.07567592592 0.04063997317
632.5 0.06357148738 0.04389993955
633.125 0.03841175532 0.04594741149
633.75 0.04431890858 0.03987254478
634.375 0.04411788851 0.0544699211
635.0 0.03613239618 0.05220340825
635.625 0.03748269985 0.05516273568
636.25 0.05513495422 0.06887560571
636.875 0.05467854519 0.07860473154
637.5 0.03330954758 0.0584253184
638.125 0.02458490094 0.06271538597
638.75 0.02781110163 0.1095849634
639.375 -0.01683363955 0.1204075678
640.0 -0.0310696076 0.08515089805
640.625 -0.02244708505 0.07295551199
641.25 -0.05102468217 0.08403097805
641.875 -0.08527052552 0.04814181798
642.5 -0.07097057967 0.02885190438
643.125 -0.0693903598 0.03702113878
643.75 -0.09453777651 0.02956790918
644.375 -0.108091898 0.007427253844
645.0 -0.09599714912 0.01425406396
645.625 -0.1050059247 0.04735700312
646.25 -0.1101155627 0.0575969422
646.875 -0.09981941188 0.02916617329
647.5 -0.08758938903 0.02088515894
648.125 -0.1059723825 0.03078457618
648.75 -0.1118519069 0.002550929535
649.375 -0.0774723511 -0.01182073253
650.0 -0.06125334963 -0.02659688911
650.625 -0.05040249192 -0.06904593021
651.25 -0.01323991058 -0.08568717209
651.875 0.01954367797 -0.07091176274
652.5 0.04466393602 -0.07715518769
653.125 0.1087238023 -0.08183317512
653.75 0.1274594625 -0.0394519887
654.375 0.1196488467 -0.03413337862
655.0 0.1340134108 -0.04849842542
655.625 0.1462295612 -0.03581190128
656.25 0.1059634075 -0.01785145101
656.875 0.07733619091 -0.05229780672
657.5 0.1027931761 -0.05660423394
658.125 0.1067279334 -0.02999444971
658.75 0.0749547216 -0.004730122983
659.375 0.06514501705 -0.01863700931
660.0 0.09428574413 -0.05501209994
660.625 0.1061882202 -0.06332169606
661.25 0.08977108099 -0.07453749055
661.875 0.06077995805 -0.1131919302
662.5 0.0474709719 -0.144755259
663.125 0.06624226747 -0.1298513561
663.75 0.08806198608 -0.09194988998
664.375 0.1396434351 -0.03756894932
665.0 0.1183677412 0.05739694191
665.625 0.07319816 0.06804000708
666.25 0.05500478835 0.06774467942
666.875 0.02906873564 0.1138838322
667.5 -0.05019443282 0.1120242031
668.125 -0.05428563768 0.07783867018
668.75 -0.02887132328 0.1031095734
669.375 -0.0268124367 0.1472802523
670.0 -0.06295845571 0.131424392
670.625 -0.06216500756 0.08521595782
671.25 -0.0205073647 0.1164011006
671.875 0.01177554368 0.1488861467
672.5 0.05634568311 0.124557029
673.125 0.05509812362 0.08465305235
673.75 0.04690240893 0.08759522181
674.375 0.01508076459 0.1139621012
675.0 -0.02948730851 0.1059453078
675.625 -0.05618277537 0.09873015552
676.25 -0.1189938363 0.07608295886
676.875 -0.1344268077 0.03346066663
677.5 -0.1300592004 0.03489417807
678.125 -0.134709692 0.07571165927
678.75 -0.1724159172 0.05993532623
679.375 -0.1196848487 0.002707021454
680.0 -0.08507771684 0.01914577572
680.625 -0.09478712501 0.05084397122
681.25 -0.118165712 0.06673331484
681.875 -0.09685773752 0.02883733283
682.5 -0.06554753113 0.03985345209
683.125 -0.08245638295 0.0807365533
683.75 -0.1290054201 0.08155944501
684.375 -0.1471790801 -0.01689113127
685.0 -0.08812102456 -0.09271882009
685.625 -0.0284127149 -0.1507886113
686.25 0.04077946152 -0.1619063597
686.875 0.06564420899 -0.1480031119
687.5 0.08970623985 -0.1301211438
688.125 0.1015431568 -0.0837801144
688.75 0.09050449047 -0.03867409727
689.375 0.08247713271 -0.0281672308
690.0 0.1188797941 -0.02652167637
690.625 0.1314214517 0.01940885853
691.25 0.1063683305 0.002033526064
691.875 0.09366036274 -0.06579608979
692.5 0.01452890258 -0.1811614916
693.125 -0.1232002201 -0.1798361623
693.75 -0.1384341669 -0.06197429785
694.375 -0.1360774951 -0.009292632238
695.0 -0.14916349 -0.07484109966
695.625 -0.0270934103 -0.1717845141
696.25 0.1049746131 -0.06237882561
696.875 0.1010874888 0.02904709471
697.5 0.0484689191 0.1007225599
698.125 -0.003806897789 0.1160601069
698.75 -0.02072911763 0.1234706227
699.375 -0.03156066464 0.1388514368
700.0 -0.05477160719 0.1209091124
700.625 -0.0773338966 0.09283164722
701.25 -0.07785981543 0.1129844114
701.875 -0.08488424293 0.156850178
702.5 -0.0267555451 0.1203821678
703.125 0.0192777439 0.07478338828
703.75 0.07391976378 0.05014788954
704.375 0.1559353905 0.05674608166
705.0 0.1348500959 0.08537040571
705.625 0.0718638159 0.08413853662
706.25 0.02315525181 0.1143725989
706.875 -0.1114849472 0.1203496863
707.5 -0.1733196813 0.01146112169
708.125 -0.1222643943 -0.0454227579
708.75 -0.09970106373 -0.07411066616
709.375 -0.02411401619 -0.1201578154
710.0 0.06172435908 -0.09825340765
710.625 0.08090802226 -0.06103799858
711.25 0.08509104933 -0.0417554745
711.875 0.07001947766 -0.02470462698
712.5 0.06776898118 -0.02359556713
713.125 0.06258757976 -0.09065806993
713.75 -0.02314972826 -0.149506948
714.375 -0.09601049278 -0.103701088
715.0 -0.1218630288 -0.0422597439
715.625 -0.1505879211 -0.04137579368
716.25 -0.1237763033 -0.1226847344
716.875 -0.02606081537 -0.1194809458
717.5 0.01989165228 -0.08767668823
718.125 0.04929247017 -0.08945735506
718.75 0.09351388504 -0.06756788383
719.375 0.08804409943 -0.01326008016
720.0 0.05852964184 0.018327192
720.625 0.01592828238 0.06140978656
721.25 -0.07558113232 0.03288722724
721.875 -0.08222326411 -0.06174316263
722.5 -0.07629906499 -0.08413272651
723.125 -0.12344403 -0.04087668234
723.75 -0.108065626 0.0532991981
724.375 -0.03571949685 0.09136930717
725.0 0.02467052234 0.07790158818
725.625 0.04417516405 0.05106092418
726.25 0.03061462046 0.03273987104
726.875 0.002571498369 0.03466952496
727.5 -0.03278678083 0.0455857719
728.125 -0.06580052222 0.03771774588
728.75 -0.05867892777 0.03832630181
729.375 -0.02965802191 0.04665676742
730.0 -0.02472169158 0.0404867144
730.625 -0.04065627417 0.02980460313
731.25 -0.04399250772 0.01037947408
731.875 -0.03908336498 -0.01143222058
732.5 -0.02570907301 -0.0249225668
733.125 -0.01081487939 -0.01721032222
733.75 0.001646867638 -0.003514757917
734.375 0.01292821916 -0.004989268671
735.0 0.009976736847 -0.0151450039
735.625 0.007213396389 -0.01658761981
736.25 0.003987096754 -0.02473891039
736.875 -0.01181305084 -0.02908832725
737.5 -0.02725249964 -0.01546462914
738.125 -0.03413463924 0.007593936679
738.75 -0.02706227237 0.03298289122
739.375 -0.005211875642 0.04262354169
740.0 0.01213478459 0.02913718631
740.625 0.008813980718 0.02483436769
741.25 0.002641508414 0.03723763078
741.875 -0.02190743016 0.03628449174
742.5 -0.04367331295 -0.0006610326334
743.125 -0.02063260848 -0.04583671649
743.75 0.01484183695 -0.05436794664
744.375 0.01683625579 -0.05513503707
745.0 0.0002399578454 -0.06112270962
745.625 -0.02499585976 -0.05057430217
746.25 -0.01242392446 -0.02564650837
746.875 -0.0008103122125 -0.03220759541
747.5 -0.02230935733 -0.04113601747
748.125 -0.05200639723 -0.03012468185
748.75 -0.06662001228 0.00829276496
749.375 -0.04077259885 0.05916576532
750.0 0.03857303969 0.08066136849
