!Created with skrf (http://scikit-rf.org).
# GHz S RI R 50.0 
!freq ReS11 ImS11
500.0 -0.009350799465 -0.0007438420718
500.625 0.0002860060264 -0.000653480946
501.25 -0.0150232847 -0.01675542767
501.875 -0.04597048945 -0.02605784095
502.5 -0.03747340659 -0.01480837408
503.125 -0.01713886212 0.004401429825
503.75 -0.01607080111 0.00597396819
504.375 -0.02178864531 0.006329564113
505.0 -0.01360155896 0.006145851979
505.625 -0.008421559433 -0.004954512878
506.25 -0.02906997907 -0.002780741556
506.875 -0.06547033389 -0.03183649464
507.5 -0.06684936237 -0.006276978508
508.125 -0.05431773635 -0.02341277878
508.75 -0.0744489687 0.02036717585
509.375 -0.0856195955 0.03765963525
510.0 -0.06292479126 0.02453452137
510.625 -0.00198986895 0.03049858616
511.25 -0.01539002785 0.04433982995
511.875 0.002371585504 0.06091417212
512.5 0.03198900691 0.03724947987
513.125 0.060832051 -0.02729129249
513.75 0.07280105227 -0.07218719062
514.375 0.03369702925 -0.07824161172
515.0 -0.004823169845 -0.06636864765
515.625 0.02934995136 -0.07272286864
516.25 0.01045103334 -0.08329204371
516.875 0.0760797006 -0.01185822472
517.5 0.06019265625 -0.05136050505
518.125 0.1855822377 -0.005177095123
518.75 0.04751951755 -0.1145929662
519.375 0.03928551106 -0.07226813203
520.0 0.003431107033 -0.06407904681
520.625 -0.01028280478 -0.1027979896
521.25 -0.0243242733 -0.1034510092
521.875 0.01177874297 -0.05647826706
522.5 -0.02485098231 -0.0656651699
523.125 -0.06279512431 -0.1895280098
523.75 -0.1266901453 -0.2787855648
524.375 -0.08927285214 -0.270292096
525.0 -0.0801043673 -0.120206445
525.625 -0.07628059148 -0.1040477853
526.25 -0.03884394771 -0.09798607261
526.875 -0.05329646539 -0.06487821175
527.5 -0.09785967096 -0.04085476873
528.125 -0.1036797404 0.001027989821
528.75 -0.08664219823 0.008195339578
529.375 -0.0843782501 0.08707663329
530.0 -0.01172371178 0.1515948133
530.625 0.09615988863 0.1210400616
531.25 0.06501422654 0.08434976994
531.875 0.07342193907 0.06986293556
532.5 0.1007924223 0.1187661157
533.125 0.07568078101 0.1127872734
533.75 0.06925665497 0.0624939726
534.375 0.07466694654 0.05023207832
535.0 0.1107823144 0.07692035926
535.625 0.05469592186 0.09978617324
536.25 0.09035931527 0.02312909481
536.875 0.1084120319 0.03532528922
537.5 0.07309795927 0.07388167121
538.125 0.04672336222 0.06606371137
538.75 0.07848384762 0.06471686018
539.375 0.1158240766 0.1174072359
540.0 0.1021683884 0.1094186735
540.625 0.08085974195 0.07035082081
541.25 0.08471435796 0.06711170598
541.875 0.09629064712 0.08819850797
542.5 0.03339192713 0.0664195233
543.125 0.02395924006 0.0329833215
543.75 0.06857181103 0.02774314774
544.375 0.1190633909 0.03057304752
545.0 0.1047873422 -0.05031870843
545.625 0.04281004019 -0.08753021238
546.25 -0.01365588016 -0.1152948464
546.875 -0.0006766270974 -0.1249974498
547.5 0.02288913143 -0.1184983601
548.125 0.03016941178 -0.1312456798
548.75 0.07340717915 -0.1300958558
549.375 0.1251396805 -0.1096034628
550.0 0.1443728269 -0.04473225235
550.625 0.1614807185 -0.07556573092
551.25 0.1810545933 0.01705152131
551.875 0.1278541363 -0.01852516486
552.5 0.09335776314 -0.04500632287
553.125 0.08658587616 -0.08595880895
553.75 0.1085019933 -0.05612299338
554.375 0.05846284904 -0.03632751756
555.0 0.0486423805 -0.04220653999
555.625 0.06351155589 -0.06886607284
556.25 0.08878841656 -0.05045210487
556.875 0.06429949624 -0.01596978838
557.5 0.05787622785 -0.01480459174
558.125 0.09551825925 0.005575723174
558.75 0.09054416182 0.05679921733
559.375 0.09787772941 0.0448163572
560.0 0.1180787799 0.02488214022
560.625 0.1355183636 -0.005979925532
561.25 0.09826608118 -0.03495961698
561.875 0.0630907255 -0.05870169899
562.5 0.05649806194 -0.0784121576
563.125 0.04429445308 -0.07345788517
563.75 0.02571806878 -0.05497608559
564.375 0.01349823884 -0.05970807199
565.0 0.04898944799 -0.1004178653
565.625 0.07499348944 -0.08743343103
566.25 0.06876682379 -0.06671851972
566.875 0.06526375302 -0.06994670169
567.5 0.09329698768 -0.05442023953
568.125 0.1080079513 0.004749970641
568.75 0.09791600451 0.01917511363
569.375 0.123385608 0.01134170737
570.0 0.1337492051 0.007144264711
570.625 0.1137375496 -0.007674288241
571.25 0.09602305776 -0.02990405584
571.875 0.101903346 -0.05810362744
572.5 0.06788796071 -0.07283259229
573.125 0.02953830308 -0.05771234112
573.75 0.02193690968 -0.06536313025
574.375 0.0347880138 -0.09472917255
575.0 0.02913513388 -0.09634548951
575.625 -0.002108035254 -0.0663197604
576.25 -0.01339469069 -0.06652708813
576.875 0.01775370145 -0.08312022912
577.5 0.03588883341 -0.06977513194
578.125 0.03069787078 -0.06795324412
578.75 0.01961663035 -0.09236154731
579.375 0.04102831199 -0.1153140088
580.0 0.05385841751 -0.09288864571
580.625 0.02826763526 -0.1077853667
581.25 -0.008595385429 -0.1311500479
581.875 -0.004213793837 -0.1117508153
582.5 0.01312679272 -0.06988216363
583.125 0.01834632359 -0.06868290183
583.75 0.03950210845 -0.09142659532
584.375 0.05061379985 -0.07549295122
585.0 0.04307275973 -0.04904522023
585.625 0.05081107605 -0.04586468475
586.25 0.07165009141 -0.05276779224
586.875 0.05966304035 -0.04860298563
587.5 0.0350817811 -0.05190927032
588.125 0.02548355268 -0.07656997016
588.75 0.04857817198 -0.0866202805
589.375 0.02161492063 -0.09958344707
590.0 -0.03868605775 -0.09383668282
590.625 -0.08345522432 -0.08008727077
591.25 -0.04979234686 -0.06200987967
591.875 -0.02144599222 -0.03406248521
592.5 -0.01901372849 -0.03642581528
593.125 -0.02407659513 -0.06450096921
593.75 0.003134308698 -0.07212498383
594.375 0.03093456733 -0.04741962876
595.0 0.04514592597 -0.04630135814
595.625 0.07087361459 -0.04868557802
596.25 0.07743101297 -0.03052945198
596.875 0.06597173527 -0.01250901767
597.5 0.06788739686 -0.005577315444
598.125 0.08169696311 -0.006533627701
598.75 0.08304422094 -0.02479076862
599.375 0.07899209905 -0.04232098974
600.0 0.07623088379 -0.04675282542
600.625 0.06100713383 -0.04076644902
601.25 0.03552309732 -0.03792603222
601.875 0.0243470099 -0.03189844243
602.5 0.02770183314 -0.01699040487
603.125 0.02153693504 0.003135821021
603.75 0.02083703115 0.01206717272
604.375 0.03395932565 0.01247042104
605.0 0.04203924954 0.01235036385
605.625 0.02371117037 0.01161033533
606.25 0.00229448028 0.0159831845
606.875 -0.001166447892 0.03387138657
607.5 0.01595056561 0.04683247166
608.125 0.03355872981 0.03479999906
608.75 0.03247102707 0.02399376053
609.375 0.02979512777 0.0270761562
610.0 0.02991942509 0.02870319513
610.625 0.03160824408 0.01646013598
611.25 0.02682483044 0.003606629269
611.875 0.01749699091 -0.00463539189
612.5 0.004956705134 -0.01178945107
613.125 -0.009294765756 -0.01036451305
613.75 -0.01316323221 -7.344212303e-05
614.375 -0.004407441651 0.003983862754
615.0 0.003112780781 -0.004668994339
615.625 -0.002915551556 -0.01406056912
616.25 -0.01052836531 -0.008000402549
616.875 -0.003163529606 0.0009475523136
617.5 0.009352926215 -0.004298357029
618.125 0.01404039609 -0.01458894225
618.75 0.014544776 -0.0156782607
619.375 0.02368556555 -0.01237154102
620.0 0.03945013551 -0.0227834885
620.625 0.03793791513 -0.05093278637
621.25 0.03554170722 -0.06334533604
621.875 0.02158485234 -0.07420117706
622.5 -0.04292942007 -0.05939868108
623.125 -0.04350389935 -0.03304417321
623.75 -0.02382485343 -0.02230356422
624.375 -0.001862001356 -0.02670239566
625.0 0.01838794481 -0.02497743435
625.625 0.01758437001 -0.01428723515
626.25 0.0240353299 -0.001789535701
626.875 0.04908352534 -0.006169361735
627.5 0.0758392079 0.001009223183
628.125 0.07218837181 0.009511586283
628.75 0.06781995051 0.009129972303
629.375 0.08332327731 0.01087866061
630.0 0.100363217 0.03221678023
630.625 0.08232839819 0.04625967299
631.25 0.07928539074 0.03213321523
631.875 0.08395074916 0.02919692458
632.5 0.07537217807 0.03286832181
633.125 0.05029378479 0.0404211576
633.75 0.05228141419 0.03086591066
634.375 0.05674335469 0.04377373096
635.0 0.04793747907 0.04217159033
635.625 0.0461707774 0.04413933684
636.25 0.06391503181 0.0554612158
636.875 0.06892965558 0.06679453302
637.5 0.04608143782 0.05112846873
638.125 0.03319340467 0.05299444678
638.75 0.04330242672 0.09676461711
639.375 0.0001677899971 0.1230191559
640.0 -0.02038974922 0.09225787108
640.625 -0.01125306683 0.07594880007
641.25 -0.03125227747 0.09185127793
641.875 -0.07598830882 0.06714414266
642.5 -0.06703296154 0.0405292767
643.125 -0.06084446009 0.04725127628
643.75 -0.08351194427 0.04792836559
644.375 -0.103446717 0.03026742591
645.0 -0.09367529537 0.02750717687
645.625 -0.09410300705 0.06027587025
646.25 -0.09953443474 0.07682626316
646.875 -0.09506647322 0.04977229456
647.5 -0.0837979738 0.03654635276
648.125 -0.09805046148 0.04743729509
648.75 -0.114169806 0.02378548367
649.375 -0.08358143467 0.003855390803
650.0 -0.06661262657 -0.01170401504
650.625 -0.06500444048 -0.05362411902
651.25 -0.03106760184 -0.07969322294
651.875 0.005666108064 -0.07118908263
652.5 0.02747320765 -0.07668340706
653.125 0.0862448979 -0.09537272886
653.75 0.1209805949 -0.05583827519
654.375 0.1148731237 -0.04670789891
655.0 0.1234035567 -0.06590400217
655.625 0.1401417832 -0.06452190078
656.25 0.1104521671 -0.03945996951
656.875 0.07090114929 -0.06466263179
657.5 0.09115177974 -0.07671744208
658.125 0.1026227026 -0.05623879351
658.75 0.0752801451 -0.02618193762
659.375 0.05691913949 -0.03033936112
660.0 0.07489222153 -0.06852275686
660.625 0.0900860369 -0.07966570803
661.25 0.07485847154 -0.08663756691
661.875 0.04065973498 -0.116626155
662.5 0.02299318871 -0.1475851075
663.125 0.04524743339 -0.140907733
663.75 0.07573815961 -0.104140693
664.375 0.1304502606 -0.06189934584
665.0 0.1355046148 0.03631523082
665.625 0.08856636103 0.05707099845
666.25 0.06760557587 0.05841213442
666.875 0.0548970474 0.1011351506
667.5 -0.02037959973 0.1219821588
668.125 -0.03991102139 0.08483260671
668.75 -0.01285602055 0.10066547
669.375 0.0009002658046 0.1438785107
670.0 -0.03508027996 0.1440048069
670.625 -0.04883311553 0.09740035203
671.25 -0.002492532058 0.1145191685
671.875 0.03881308126 0.1444344005
672.5 0.0828533994 0.1159589926
673.125 0.07497161429 0.07567797945
673.75 0.06458887903 0.07480971798
674.375 0.03820236499 0.1061301399
675.0 -0.009457452489 0.1082828049
675.625 -0.03571587588 0.1031917231
676.25 -0.09801634209 0.09641200248
676.875 -0.1252824665 0.05345082021
677.5 -0.1239215952 0.05089650082
678.125 -0.1193156184 0.08947200754
678.75 -0.1604839636 0.09398753942
679.375 -0.1293608683 0.02464939171
680.0 -0.08588228227 0.03500140195
680.625 -0.08202930627 0.06831081473
681.25 -0.09851719649 0.09617917557
681.875 -0.09063237136 0.05708042143
682.5 -0.05438076695 0.05022742122
683.125 -0.05984643983 0.0878061094
683.75 -0.1059051185 0.09967746952
684.375 -0.146780476 0.01186507507
685.0 -0.09964144698 -0.07719215113
685.625 -0.05004681549 -0.1391924859
686.25 0.01619927872 -0.1653108998
686.875 0.04320832961 -0.1583292881
687.5 0.06815621639 -0.1465889108
688.125 0.09076362085 -0.108095748
688.75 0.08625431732 -0.06059797408
689.375 0.07598393204 -0.0452918742
690.0 0.1051961447 -0.05311422444
690.625 0.1343794417 -0.01562540169
691.25 0.1023171538 -0.01844987472
691.875 0.07804758216 -0.07354634192
692.5 -0.0149353686 -0.1681390856
693.125 -0.1575008896 -0.1535748508
693.75 -0.1539970398 -0.0442140343
694.375 -0.136192124 0.01120563295
695.0 -0.1588187281 -0.04420974631
695.625 -0.06569576552 -0.1650646348
696.25 0.09702325313 -0.08746924903
696.875 0.1062196838 0.009034126552
697.5 0.07032290211 0.08663381493
698.125 0.02063025383 0.1103810229
698.75 0.002106392986 0.1207884733
699.375 -0.005517415812 0.1394663691
700.0 -0.03299763442 0.1285300406
700.625 -0.06183992737 0.1040841245
701.25 -0.05785637045 0.1206430566
701.875 -0.04962605764 0.1737697087
702.5 -0.003570707914 0.1352485337
703.125 0.03897618747 0.07366969528
703.75 0.07781683178 0.02919902975
704.375 0.1549809306 0.01642007914
705.0 0.1541136126 0.05757653455
705.625 0.0849406566 0.07227219456
706.25 0.03862435995 0.1024686741
706.875 -0.0826653529 0.1317429606
707.5 -0.1703972822 0.04364937727
708.125 -0.1325637459 -0.03051181143
708.75 -0.1114490276 -0.05720437394
709.375 -0.04894455631 -0.114639945
710.0 0.03957519907 -0.1124646994
710.625 0.07085510563 -0.07918748782
711.25 0.07824958215 -0.06145575432
711.875 0.06431806968 -0.04428203253
712.5 0.05542560094 -0.03898667975
713.125 0.03761166457 -0.092456562
713.75 -0.05028002979 -0.13609584
714.375 -0.1101037485 -0.08618331983
715.0 -0.1240751549 -0.02463304509
715.625 -0.1488804534 -0.01574851324
716.25 -0.1486232482 -0.09698392692
716.875 -0.04980517358 -0.1217257674
717.5 0.00538462294 -0.09359540238
718.125 0.02938986701 -0.09672003831
718.75 0.07620570718 -0.08855736199
719.375 0.0884153824 -0.0344684894
720.0 0.06359523328 0.005731156839
720.625 0.03092927443 0.05285721293
721.25 -0.06056959626 0.04600111419
721.875 -0.08744304897 -0.04304001495
722.5 -0.08453951951 -0.0707019745
723.125 -0.1266469839 -0.02242078712
723.75 -0.1005137469 0.07066985289
724.375 -0.01985031239 0.09910015132
725.0 0.03986797066 0.07423697985
725.625 0.05669770833 0.04422282421
726.25 0.04115999447 0.02740722402
726.875 0.01381653148 0.03183533276
727.5 -0.01829677091 0.04744830678
728.125 -0.05439533524 0.04811740111
728.75 -0.0509666139 0.0470672369
729.375 -0.02096985243 0.0508162139
730.0 -0.01512404394 0.04335942868
730.625 -0.03380533058 0.03576250416
731.25 -0.04231264389 0.0172111999
731.875 -0.04098993195 -0.005943313081
732.5 -0.03069048762 -0.02205371325
733.125 -0.01619799154 -0.0177837312
733.75 -0.0028813575 -0.00428397913
734.375 0.00906895909 -0.005016423807
735.0 0.007163749818 -0.0137771164
735.625 0.005637286122 -0.01520922256
736.25 0.00331222937 -0.0240107525
736.875 -0.01206877657 -0.02919537496
737.5 -0.02684416389 -0.01620523703
738.125 -0.03263168852 0.006572509885
738.75 -0.02422438891 0.03250007486
739.375 -0.001458902916 0.04253151536
740.0 0.01677940432 0.02810158842
740.625 0.0141521434 0.02188575167
741.25 0.009075397701 0.03515296421
741.875 -0.01617214681 0.03905777079
742.5 -0.04323413954 0.006232489626
743.125 -0.0289335246 -0.04147743201
743.75 0.00506586205 -0.0578289788
744.375 0.008094470641 -0.0601436126
745.0 -0.01003825732 -0.06353810687
745.625 -0.03852101022 -0.04898061296
746.25 -0.02512358812 -0.02155194404
746.875 -0.009029244707 -0.02566149262
747.5 -0.02587171028 -0.03277024182
748.125 -0.05309424443 -0.01986808279
748.75 -0.06284076742 0.01941330082
749.375 -0.02849543023 0.06485034318
750.0 0.05118394768 0.07017519832
