!Created with skrf (http://scikit-rf.org).
# GHz S RI R 50.0 
!freq ReS11 ImS11
500.0 -0.01356471597 -0.006025179335
500.625 -0.008836655738 -0.002037851541
501.25 -0.02197120187 -0.01125091508
501.875 -0.0606905094 -0.01143056803
502.5 -0.05090979019 -0.01101353343
503.125 -0.02683341101 0.01122036345
503.75 -0.01772473117 0.01636902984
504.375 -0.02173992331 0.02109984528
505.0 -0.01039067257 0.02026441257
505.625 -0.004687533915 0.007541559397
506.25 -0.01772282822 0.00814310987
506.875 -0.06490768631 -0.003321491571
507.5 -0.06430769367 0.01833930394
508.125 -0.05555797863 -0.003612619061
508.75 -0.05817507963 0.04165323039
509.375 -0.06882601173 0.06644395858
510.0 -0.05467618059 0.04920108209
510.625 0.01247692956 0.0271025827
511.25 0.005651425055 0.03720852796
511.875 0.024321566 0.05327213479
512.5 0.0401007128 0.02493814556
513.125 0.0480036219 -0.04063391005
513.75 0.04542836896 -0.0922250275
514.375 0.006245112945 -0.09007122762
515.0 -0.02893621286 -0.06414709951
515.625 -0.0001727110408 -0.08075162382
516.25 -0.03328992758 -0.07497540766
516.875 0.05502445999 -0.03237475721
517.5 0.03860593266 -0.05086000105
518.125 0.1484063065 -0.0449212949
518.75 0.009285226591 -0.1196347076
519.375 0.01538319015 -0.0798000559
520.0 -0.01366481786 -0.05490245669
520.625 -0.03668227786 -0.07863947363
521.25 -0.05386132584 -0.08734558633
521.875 -0.004985709836 -0.05279339706
522.5 -0.03281619485 -0.04826033307
523.125 -0.08990589692 -0.1425316146
523.75 -0.1783601167 -0.2353539174
524.375 -0.1214520353 -0.2465678469
525.0 -0.09524132829 -0.09742906601
525.625 -0.1019446335 -0.08582074843
526.25 -0.06328349605 -0.09123366377
526.875 -0.06543403203 -0.05249709262
527.5 -0.1022860624 -0.01390729502
528.125 -0.1043966351 0.03504398861
528.75 -0.08528866531 0.0299200227
529.375 -0.0611543105 0.09881319412
530.0 0.02963423293 0.1496417756
530.625 0.1419500423 0.1049176686
531.25 0.09783959202 0.08080990183
531.875 0.09432350182 0.03687243112
532.5 0.1345176529 0.06573421582
533.125 0.1097383328 0.08624526705
533.75 0.08359437583 0.04236565744
534.375 0.07856219654 0.02334833714
535.0 0.123254121 0.03299116721
535.625 0.08059588846 0.08469047122
536.25 0.09364999706 0.004953639131
536.875 0.1178098118 0.0007765135787
537.5 0.1018566046 0.04127357122
538.125 0.06758326249 0.04600395262
538.75 0.08509719415 0.04064140726
539.375 0.141391174 0.07205083044
540.0 0.1401559336 0.08682954829
540.625 0.103695767 0.04844432526
541.25 0.09931766378 0.03805840654
541.875 0.125726332 0.04893644787
542.5 0.06891961869 0.05392212482
543.125 0.03331556147 0.01579800131
543.75 0.05594431476 -0.0001093332749
544.375 0.1100103783 -0.007177767089
545.0 0.08703520791 -0.07321682786
545.625 0.0216842334 -0.09083243386
546.25 -0.04310142174 -0.09518362634
546.875 -0.03922753919 -0.1179878198
547.5 -0.006755270787 -0.1175634323
548.125 -0.003606101557 -0.1209328338
548.75 0.03132110987 -0.1315695133
549.375 0.0902535935 -0.1374383322
550.0 0.1318039826 -0.06786282841
550.625 0.1327587924 -0.09688965057
551.25 0.1853290334 -0.03336775829
551.875 0.1320654284 -0.04999187565
552.5 0.08895570146 -0.06594739251
553.125 0.06161503335 -0.104869355
553.75 0.08785928911 -0.0986806689
554.375 0.05287683028 -0.06138255657
555.0 0.03274165951 -0.05808069072
555.625 0.03457938789 -0.08514204612
556.25 0.06491376269 -0.08218970848
556.875 0.05638705829 -0.0414961722
557.5 0.04193127631 -0.03080757515
558.125 0.08051001313 -0.02576953637
558.75 0.09537217907 0.02805311744
559.375 0.0979630339 0.02241132147
560.0 0.11386527 0.00150580054
560.625 0.1323295023 -0.04235480914
561.25 0.09694447068 -0.0602659105
561.875 0.04829905291 -0.07455388739
562.5 0.02479665211 -0.09581954325
563.125 0.01384456713 -0.09144956845
563.75 0.00397480447 -0.06642517951
564.375 -0.007759434252 -0.05372845835
565.0 0.006684334969 -0.09466253634
565.625 0.04507154136 -0.1052236133
566.25 0.05084292351 -0.07943816917
566.875 0.04319250544 -0.0784751027
567.5 0.06654423446 -0.07529257407
568.125 0.1009392892 -0.02975361608
568.75 0.09429468565 0.000388365628
569.375 0.1137833679 -0.01628128809
570.0 0.1320913865 -0.02548080263
570.625 0.1123312217 -0.03508230623
571.25 0.08892210262 -0.05036185475
571.875 0.0821881879 -0.08460941639
572.5 0.05271096463 -0.1035062133
573.125 0.01361154437 -0.07362331089
573.75 -0.004683411887 -0.06568692409
574.375 0.0001978305186 -0.09790906199
575.0 -0.004084003082 -0.1082110957
575.625 -0.02017323107 -0.06713705589
576.25 -0.03505574544 -0.05320018508
576.875 -0.02154005943 -0.07740536622
577.5 0.009832680446 -0.07355209378
578.125 0.01353502822 -0.06743312256
578.75 -0.004278620983 -0.08131776991
579.375 0.002168819258 -0.1127287261
580.0 0.03275628609 -0.1034511149
580.625 0.009128081579 -0.1071236355
581.25 -0.03900512506 -0.1240974094
581.875 -0.03713252993 -0.1149161699
582.5 -0.008178166537 -0.08044062986
583.125 -0.002721352272 -0.06983687233
583.75 0.004738091192 -0.0981295977
584.375 0.02745225126 -0.09237713432
585.0 0.02708774255 -0.06175623495
585.625 0.02974106256 -0.05695411579
586.25 0.04689502622 -0.07060116241
586.875 0.04517897213 -0.06661131192
587.5 0.01868520836 -0.05747328682
588.125 -0.003257240427 -0.07135475825
588.75 0.01965070209 -0.09234400307
589.375 -0.00105495809 -0.1028934656
590.0 -0.05303531381 -0.08353606576
590.625 -0.1023867831 -0.05513577613
591.25 -0.07958615085 -0.05150407693
591.875 -0.03936935256 -0.02919794365
592.5 -0.03137914303 -0.02346881013
593.125 -0.04423284821 -0.04400016256
593.75 -0.02480753923 -0.06496379418
594.375 0.01417082684 -0.05045441458
595.0 0.02694505782 -0.04767494882
595.625 0.04939356368 -0.0603252448
596.25 0.06438477688 -0.04891040521
596.875 0.05829700626 -0.02788947541
597.5 0.05834037302 -0.02057777966
598.125 0.07239341157 -0.02538679013
598.75 0.07432556809 -0.03960014275
599.375 0.0680083318 -0.05462450299
600.0 0.0665303361 -0.06284312872
600.625 0.05740036122 -0.05725691105
601.25 0.03231392324 -0.05064802024
601.875 0.01586280507 -0.04378188741
602.5 0.01972292777 -0.0332750333
603.125 0.02055823004 -0.01088821928
603.75 0.01931544521 0.002147878376
604.375 0.030350759 0.001819781678
605.0 0.04147210572 -0.001904768497
605.625 0.02816564942 0.0006947993568
606.25 0.005921166262 0.008222514236
606.875 0.002221299162 0.0252692101
607.5 0.01996150187 0.03767131143
608.125 0.03631642809 0.02690327457
608.75 0.03393821972 0.0177212866
609.375 0.03200081399 0.0214550121
610.0 0.03358164167 0.02419311629
610.625 0.0346512281 0.01324077562
611.25 0.02935508658 0.001173219007
611.875 0.02001349956 -0.005931010673
612.5 0.006746633103 -0.01230232704
613.125 -0.008330299679 -0.01061398267
613.75 -0.0130634316 -0.0002835253671
614.375 -0.005208172676 0.003742774553
615.0 0.001280317533 -0.004815148755
615.625 -0.005938672825 -0.01421432475
616.25 -0.01432607343 -0.008061587162
616.875 -0.007569725465 0.0009489687667
617.5 0.00381641551 -0.004100641768
618.125 0.006872970387 -0.01528978266
618.75 0.007115355409 -0.01736766607
619.375 0.01631433198 -0.01433780438
620.0 0.03026575414 -0.02446301234
620.625 0.02716446989 -0.05237123752
621.25 0.02554813922 -0.06748610658
621.875 0.01181387605 -0.07854419247
622.5 -0.05553013767 -0.0564423326
623.125 -0.05742085305 -0.0305826383
623.75 -0.03723446652 -0.02218641432
624.375 -0.01638501259 -0.0301237578
625.0 0.004856880851 -0.03689126968
625.625 0.00568778385 -0.02703471449
626.25 0.01187583805 -0.01018354046
626.875 0.03242394118 -0.01490657032
627.5 0.06345541858 -0.01933585152
628.125 0.06858497575 -0.008778987234
628.75 0.06252449543 -0.005455398759
629.375 0.07393857935 -0.00736277697
630.0 0.1007584092 0.005038726477
630.625 0.0941209449 0.02978424713
631.25 0.08590495759 0.01674621687
631.875 0.09206599672 0.006301768403
632.5 0.08954525678 0.008323484207
633.125 0.06848609494 0.02510126475
633.75 0.06180242384 0.01297633256
634.375 0.07231319142 0.0190901021
635.0 0.06344102832 0.02045435309
635.625 0.05477817545 0.0233128605
636.25 0.07087001222 0.03012400626
636.875 0.08601423003 0.04035116951
637.5 0.0643794866 0.03398816566
638.125 0.04255295019 0.03444009384
638.75 0.05988385612 0.06762518547
639.375 0.0339692965 0.1186984204
640.0 0.001980973415 0.1008118883
640.625 0.00819109174 0.07624438999
641.25 0.004744538162 0.09281762466
641.875 -0.04686916601 0.09555925641
642.5 -0.05656549889 0.05896350356
643.125 -0.04375208002 0.05929786783
643.75 -0.05738253078 0.07129143008
644.375 -0.08381822462 0.06424354993
645.0 -0.08499641319 0.04919243143
645.625 -0.07155150297 0.0748921142
646.25 -0.0714165521 0.1036820815
646.875 -0.07796781111 0.08173618418
647.5 -0.07035751675 0.06014933549
648.125 -0.07708790453 0.07075768913
648.75 -0.1066569535 0.06205552688
649.375 -0.08788339133 0.03089403264
650.0 -0.06800484297 0.01357454092
650.625 -0.07959776448 -0.01828910849
651.25 -0.05988963508 -0.06008285534
651.875 -0.01761792884 -0.06683595684
652.5 0.001199088373 -0.06775832578
653.125 0.04046563953 -0.103465403
653.75 0.1015508637 -0.0844599285
654.375 0.1025058694 -0.0657399148
655.0 0.09892980534 -0.08686030984
655.625 0.1139939736 -0.1067993515
656.25 0.1062125931 -0.08065362292
656.875 0.05613344772 -0.08249122207
657.5 0.06150041112 -0.1027116626
658.125 0.08089886877 -0.0996107337
658.75 0.06409137442 -0.06393740402
659.375 0.03759895622 -0.04725310667
660.0 0.0351090088 -0.08027625394
660.625 0.05371031126 -0.1007334332
661.25 0.04567789484 -0.09998551679
661.875 0.007396682761 -0.1116980926
662.5 -0.02016664494 -0.1413542742
663.125 0.004524748348 -0.1500089063
663.75 0.05035451523 -0.1189780191
664.375 0.1014425215 -0.09530822266
665.0 0.1528214315 -0.01580506113
665.625 0.1124259788 0.03145921274
666.25 0.08430610736 0.0376788315
666.875 0.08773267464 0.06690638041
667.5 0.03734133952 0.119837818
668.125 -0.01217069903 0.09363726727
668.75 0.01081842549 0.09066762326
669.375 0.04226288882 0.1240410954
670.0 0.01829945422 0.1489922399
670.625 -0.01941087534 0.1133425915
671.25 0.02439803237 0.1045423909
671.875 0.08114757114 0.1225380054
672.5 0.1238577088 0.08808266126
673.125 0.1029734714 0.05021552174
673.75 0.08750194903 0.04415812109
674.375 0.07384082309 0.08060672732
675.0 0.02629529689 0.1043957343
675.625 -0.001844108219 0.09999996423
676.25 -0.0494711943 0.1161363154
676.875 -0.1011723985 0.08558513574
677.5 -0.1076623121 0.07571562028
678.125 -0.09019976818 0.1031254197
678.75 -0.1192920351 0.1389789199
679.375 -0.1360389141 0.0723061229
680.0 -0.08205759955 0.06025329
680.625 -0.05576481264 0.08847734411
681.25 -0.05101999708 0.1301132611
681.875 -0.06237929004 0.1031204589
682.5 -0.03264513616 0.06439843789
683.125 -0.02087898809 0.08809569419
683.75 -0.05862620182 0.1187633636
684.375 -0.1301660414 0.0599978638
685.0 -0.1114959534 -0.04513450431
685.625 -0.07927278055 -0.1089684019
686.25 -0.02802516011 -0.1600628989
686.875 0.003550361212 -0.1640024648
687.5 0.02595307181 -0.1598475855
688.125 0.05668799079 -0.1463412726
688.75 0.06924215624 -0.09727575813
689.375 0.05944484484 -0.06959456101
690.0 0.07025281272 -0.08514310051
690.625 0.1146161325 -0.07777538324
691.25 0.08923768064 -0.05183344651
691.875 0.05195406056 -0.07928001075
692.5 -0.05139873835 -0.1343190944
693.125 -0.1952120279 -0.09057952979
693.75 -0.1757916691 -0.007183996196
694.375 -0.1281479715 0.04146453779
695.0 -0.1585788125 0.006379364176
695.625 -0.1221154356 -0.1339770336
696.25 0.0722518855 -0.126401967
696.875 0.10600685 -0.02586533129
697.5 0.09990041214 0.0514446575
698.125 0.05942203791 0.09030008739
698.75 0.03724302698 0.1061639626
699.375 0.03650045492 0.1243756629
700.0 0.006802718382 0.1309030586
700.625 -0.0325507533 0.117395777
701.25 -0.02525368176 0.1239344515
701.875 0.01419637985 0.1746311668
702.5 0.04779069766 0.150823059
703.125 0.07160649299 0.06434901883
703.75 0.07586381217 -0.002836508042
704.375 0.1284234891 -0.04485582341
705.0 0.1703638989 -0.006535738197
705.625 0.1025607104 0.04804438792
706.25 0.05667171745 0.0786671687
706.875 -0.03323644081 0.1344203235
707.5 -0.1472452297 0.09468194313
708.125 -0.1434179225 -0.001344326703
708.75 -0.1214208658 -0.02638172961
709.375 -0.08549156893 -0.09378608186
710.0 -0.001902708751 -0.1238235521
710.625 0.04502911172 -0.1027865915
711.25 0.05563490967 -0.09113265915
711.875 0.04507744334 -0.07578884786
712.5 0.02989126532 -0.058909982
713.125 -7.365383007e-05 -0.08196672051
713.75 -0.08471237638 -0.09760448967
714.375 -0.125795404 -0.05103413703
715.0 -0.1216662728 0.002483911811
715.625 -0.1342407481 0.01927183567
716.25 -0.1696510975 -0.04141064991
716.875 -0.09211945215 -0.1131746216
717.5 -0.01993366169 -0.09778204255
718.125 -0.003869432198 -0.09842562463
718.75 0.03599862466 -0.1116350318
719.375 0.07654446067 -0.07151541364
720.0 0.06641646882 -0.01725932282
720.625 0.05024586116 0.03122965161
721.25 -0.02916000991 0.05917464683
721.875 -0.0860888474 -0.01130339507
722.5 -0.09115804046 -0.04481865724
723.125 -0.1218158061 0.009495097882
723.75 -0.07864157301 0.09602956615
724.375 0.008795692577 0.1026419767
725.0 0.06151341155 0.05940498384
725.625 0.07311950415 0.02488925171
726.25 0.05587794611 0.01303731824
726.875 0.02966838125 0.02208297719
727.5 0.004207422042 0.04184370324
728.125 -0.03026435291 0.0570089448
728.75 -0.03412884793 0.05745649269
729.375 -0.006083420596 0.05276443624
730.0 0.0003740108709 0.04207229235
730.625 -0.01954095788 0.0409529946
731.25 -0.03568109584 0.02684003683
731.875 -0.04091031371 0.003574866224
732.5 -0.03659424973 -0.01457650234
733.125 -0.02470813129 -0.01506408642
733.75 -0.00998626765 -0.002517335518
734.375 0.003493799531 -0.002402547131
735.0 0.004526841069 -0.009642233464
735.625 0.005242722696 -0.01216000568
736.25 0.003915220526 -0.02289908519
736.875 -0.01135065642 -0.0296623234
737.5 -0.02561179712 -0.01768038351
738.125 -0.02975133997 0.004678841567
738.75 -0.01925875617 0.03090325295
739.375 0.005278251061 0.0413602367
740.0 0.02424803948 0.02481407864
740.625 0.02168061666 0.01529775746
741.25 0.01900585339 0.02896108753
741.875 -0.005450715517 0.04179715349
742.5 -0.04069772822 0.01677704121
743.125 -0.03988884065 -0.03141117747
743.75 -0.01334022537 -0.0596044894
744.375 -0.008223961857 -0.06534207123
745.0 -0.02809256679 -0.06414870329
745.625 -0.05982631873 -0.04024030914
746.25 -0.04397717517 -0.00846505714
746.875 -0.0197729325 -0.01112853917
747.5 -0.02787562175 -0.01786939268
748.125 -0.05022965024 -0.002853462354
748.75 -0.05171193672 0.03619180863
749.375 -0.00715526117 0.06807688101
750.0 0.06531278948 0.04828350472
