!Created with skrf (http://scikit-rf.org).
# GHz S RI R 50.0 
!freq ReS11 ImS11
500.0 -0.01263096592 -0.0053711838
500.625 -0.00614941616 9.769290854e-05
501.25 -0.01918817795 -0.01641646292
501.875 -0.0547699722 -0.0170231831
502.5 -0.04582121448 -0.01570392402
503.125 -0.02341237573 0.008999502633
503.75 -0.01659074744 0.01095653315
504.375 -0.02299487946 0.01299897689
505.0 -0.0121606183 0.01235551926
505.625 -0.008208088016 0.001468657518
506.25 -0.02398667153 0.003628531282
506.875 -0.06575278142 -0.01627509543
507.5 -0.06661515376 0.007057050022
508.125 -0.05627084366 -0.01291785928
508.75 -0.06747028737 0.0325335048
509.375 -0.07899996201 0.05374091966
510.0 -0.05972942841 0.0382063951
510.625 0.006992084836 0.02949800979
511.25 -0.004466546885 0.04114369595
511.875 0.01281501085 0.05912188314
512.5 0.03596319259 0.02839846749
513.125 0.05509095768 -0.03516831617
513.75 0.05872679612 -0.08356332693
514.375 0.01958882189 -0.08571484998
515.0 -0.01712161933 -0.06556920133
515.625 0.01352592309 -0.07821652039
516.25 -0.01324904067 -0.0817853866
516.875 0.0652001853 -0.02375154647
517.5 0.04909951443 -0.05159268231
518.125 0.1701727315 -0.02749843663
518.75 0.02737454848 -0.1188442633
519.375 0.02543561724 -0.07767719152
520.0 -0.006978790622 -0.05824803742
520.625 -0.02342182519 -0.08950117383
521.25 -0.04104253394 -0.09700231513
521.875 0.003508469675 -0.05591251863
522.5 -0.03006942146 -0.05713695696
523.125 -0.07917014923 -0.1663247975
523.75 -0.1558466646 -0.2562386375
524.375 -0.1059301405 -0.259747907
525.0 -0.08897018573 -0.1084454817
525.625 -0.09016551925 -0.09637550134
526.25 -0.05097018652 -0.09567956438
526.875 -0.05992978858 -0.05922228493
527.5 -0.1014737633 -0.02736429911
528.125 -0.1060204628 0.01766304393
528.75 -0.08675230184 0.01895924785
529.375 -0.07288261406 0.09411922989
530.0 0.01001075185 0.1531195778
530.625 0.1211549182 0.1142228001
531.25 0.08195708254 0.08344915088
531.875 0.08617831715 0.05287613554
532.5 0.1207828132 0.09324617196
533.125 0.09367045395 0.1008632302
533.75 0.07715057459 0.05265286919
534.375 0.07784468102 0.03642090031
535.0 0.119557377 0.05582743205
535.625 0.06748530184 0.0938191732
536.25 0.0925682326 0.01443057594
536.875 0.1154234076 0.01839922129
537.5 0.08931867537 0.05890942857
538.125 0.05774023816 0.05706840618
538.75 0.08255064632 0.05295589977
539.375 0.1309483733 0.09710323636
540.0 0.1203921703 0.1011490592
540.625 0.09283116815 0.06081963378
541.25 0.09329054771 0.05337496064
541.875 0.1127408174 0.07107349914
542.5 0.05112925607 0.06254690215
543.125 0.02905193851 0.02465124602
543.75 0.0633629122 0.01340023632
544.375 0.1161342886 0.01227561124
545.0 0.09761988166 -0.06138686433
545.625 0.03349180667 -0.08962098502
546.25 -0.0283353744 -0.1072662909
546.875 -0.0180690316 -0.1235751325
547.5 0.008776078375 -0.1191573252
548.125 0.01280095586 -0.1276802282
548.75 0.05176989664 -0.1327728591
549.375 0.1096819994 -0.124805985
550.0 0.1384934742 -0.05728897011
550.625 0.1477843298 -0.08829655745
551.25 0.1867889782 -0.00732294681
551.875 0.1314680223 -0.03386706489
552.5 0.09199278018 -0.05587484732
553.125 0.07466159705 -0.09720832919
553.75 0.09952915614 -0.08121394612
554.375 0.05657013849 -0.0492908112
555.0 0.0413982145 -0.05115103622
555.625 0.05001564109 -0.07861361569
556.25 0.07882931512 -0.06771180961
556.875 0.06180678575 -0.02903331062
557.5 0.05049749057 -0.02373323694
558.125 0.08982956064 -0.0103178169
558.75 0.09408146735 0.04300682188
559.375 0.09885238674 0.03401021964
560.0 0.1171263279 0.01350201981
560.625 0.1361771483 -0.0245059052
561.25 0.09840847296 -0.04795600198
561.875 0.05582505078 -0.06807191953
562.5 0.04126282128 -0.08970577647
563.125 0.02961213849 -0.08441966237
563.75 0.01508874289 -0.06129060822
564.375 0.001894302669 -0.05741677217
565.0 0.02663254022 -0.1001965343
565.625 0.06155718441 -0.09736112183
566.25 0.06024106569 -0.07359369646
566.875 0.05448267887 -0.07506567381
567.5 0.08089509736 -0.06612394376
568.125 0.1064819592 -0.01269044546
568.75 0.09661513712 0.009483815455
569.375 0.1199840411 -0.003329925129
570.0 0.1345773901 -0.009543369935
570.625 0.1143461245 -0.02170047034
571.25 0.09344922765 -0.0407809041
571.875 0.09326332731 -0.07320815292
572.5 0.06188827602 -0.08865831263
573.125 0.02175096661 -0.06662309428
573.75 0.008059825617 -0.06697355614
574.375 0.01770178688 -0.09801412001
575.0 0.01343870866 -0.1038512304
575.625 -0.01165356963 -0.06728127715
576.25 -0.02570739598 -0.0606396436
576.875 -0.002498085105 -0.08298358199
577.5 0.02309925285 -0.0728374368
578.125 0.02176732613 -0.06825606436
578.75 0.00671322434 -0.0880223193
579.375 0.02115423093 -0.1163381138
580.0 0.04387516151 -0.09889139585
580.625 0.01821348645 -0.1082258501
581.25 -0.0249154114 -0.1292471549
581.875 -0.02091591844 -0.1150785862
582.5 0.002960160249 -0.07626210181
583.125 0.007341638407 -0.07027975175
583.75 0.02193271633 -0.097007849
584.375 0.03949520738 -0.08509811698
585.0 0.0352306965 -0.05639766177
585.625 0.04062580208 -0.05272679151
586.25 0.06000235171 -0.06339065996
586.875 0.0528196723 -0.05831723575
587.5 0.02626481436 -0.05567272943
588.125 0.009461905119 -0.07583239022
588.75 0.03434364654 -0.09085918472
589.375 0.01042912578 -0.102092428
590.0 -0.04677740347 -0.08908737444
590.625 -0.09466032336 -0.06873155011
591.25 -0.06493011938 -0.05876698455
591.875 -0.03053610806 -0.03242524348
592.5 -0.02597463757 -0.0304744885
593.125 -0.03538838255 -0.05544726209
593.75 -0.01113328953 -0.07018720949
594.375 0.02267649382 -0.04955854341
595.0 0.03583582998 -0.04791284801
595.625 0.0605641429 -0.05577127335
596.25 0.07166238395 -0.04069369225
596.875 0.06285032065 -0.02072040511
597.5 0.06384752483 -0.013679829
598.125 0.07811866443 -0.01632817884
598.75 0.07940206781 -0.03251181131
599.375 0.07420933071 -0.0490408017
600.0 0.07263462154 -0.05521076159
600.625 0.06022351454 -0.04896648191
601.25 0.03468633187 -0.04444329057
601.875 0.02075764505 -0.0386335747
602.5 0.02478150123 -0.02577529829
603.125 0.02177639646 -0.003928965897
603.75 0.02046403481 0.006926420398
604.375 0.03267860618 0.00686511562
605.0 0.04263761023 0.005215548255
605.625 0.02650007072 0.006519847075
606.25 0.004429429777 0.01226571713
606.875 0.001002908687 0.0296865236
607.5 0.01851403857 0.04245268142
608.125 0.03539235187 0.0310674149
608.75 0.03355627596 0.02097835326
609.375 0.03122690727 0.02447488784
610.0 0.03207005306 0.02669854429
610.625 0.03335320084 0.01514206189
611.25 0.028333443 0.002392009825
611.875 0.01889729425 -0.005187286894
612.5 0.005738053428 -0.01195288656
613.125 -0.008743120472 -0.01033494904
613.75 -0.01302495845 -8.280431332e-05
614.375 -0.004731120382 0.003910244645
615.0 0.002227825595 -0.004760699524
615.625 -0.004408536307 -0.01420174836
616.25 -0.01239685025 -0.00809817923
616.875 -0.00532984612 0.0008482031868
617.5 0.006605152372 -0.004386899048
618.125 0.01054106838 -0.01522205478
618.75 0.01099864564 -0.01672096675
619.375 0.02015025497 -0.01349459509
620.0 0.03506633759 -0.02389450986
620.625 0.03277260035 -0.05194459977
621.25 0.03089487213 -0.06580002611
621.875 0.01709735273 -0.07675758484
622.5 -0.04934470717 -0.05862092822
623.125 -0.05050846532 -0.03259121325
623.75 -0.03044493996 -0.022952374
624.375 -0.008857229801 -0.02919625499
625.0 0.01233881575 -0.03147124085
625.625 0.01226267804 -0.02099298091
626.25 0.01826352311 -0.006430380637
626.875 0.04107313591 -0.01136062574
627.5 0.07088120799 -0.00947348461
628.125 0.07110712456 0.0007667181471
628.75 0.06566208259 0.001771252064
629.375 0.07943702767 0.001473906525
630.0 0.1020586873 0.01903643755
630.625 0.08866428861 0.03893840035
631.25 0.08324255465 0.02481204549
631.875 0.08931053065 0.01792088285
632.5 0.08374108098 0.02111501573
633.125 0.06013269271 0.03349763412
633.75 0.05800701866 0.02186356411
634.375 0.06575535744 0.03270546498
635.0 0.05631135169 0.03238278039
635.625 0.05128900521 0.03427872676
636.25 0.06870613946 0.04336682433
636.875 0.07850293695 0.05492843778
637.5 0.05538175317 0.04362218131
638.125 0.0386275115 0.0440937825
638.75 0.053348044 0.08331030082
639.375 0.01632988397 0.1226721387
640.0 -0.009961685299 0.09721309897
640.625 -0.001306862313 0.07697723447
641.25 -0.01314985146 0.09456612727
641.875 -0.06403613233 0.08245640533
642.5 -0.06254268324 0.0496674351
643.125 -0.05296401359 0.05395832896
643.75 -0.07205431147 0.06058356538
644.375 -0.09588180149 0.04747035391
645.0 -0.09038604608 0.03811088871
645.625 -0.08355573818 0.06871743138
646.25 -0.08740515024 0.09132243278
646.875 -0.0882006593 0.06620332778
647.5 -0.07830104432 0.04867551612
648.125 -0.08912626113 0.05997608451
648.75 -0.1127634036 0.04217703768
649.375 -0.08661639126 0.01667236522
650.0 -0.06859349259 0.000739010819
650.625 -0.07444065849 -0.03742972422
651.25 -0.04595468041 -0.07168557712
651.875 -0.00593375802 -0.06959152256
652.5 0.01355207527 -0.07341379592
653.125 0.06391894585 -0.1024120991
653.75 0.1129965847 -0.07003415886
654.375 0.109078326 -0.05718905854
655.0 0.1119314228 -0.07815397198
655.625 0.1294791337 -0.08726918426
656.25 0.110484059 -0.05944721374
656.875 0.06345024391 -0.07445712337
657.5 0.07817148419 -0.09115189
658.125 0.09451128917 -0.07815265666
658.75 0.07174646561 -0.04497262984
659.375 0.04798050157 -0.03960568897
660.0 0.05578954557 -0.07674020768
660.625 0.07315987912 -0.09149070782
661.25 0.06089318468 -0.09431422416
661.875 0.02384866684 -0.1161499939
662.5 0.002044866327 -0.1468250136
663.125 0.02651689599 -0.1470906374
663.75 0.06396894998 -0.1124309439
664.375 0.1183922017 -0.08027841248
665.0 0.1472136316 0.01303472394
665.625 0.1012110936 0.0457799279
666.25 0.07697599988 0.04854544217
666.875 0.07353726747 0.08601738731
667.5 0.007463028942 0.1245608188
668.125 -0.02726362754 0.08966915551
668.75 -0.0006968869111 0.09677461277
669.375 0.02211930967 0.1367130322
670.0 -0.01010837302 0.1494257574
670.625 -0.0359583424 0.1060297292
671.25 0.01138763066 0.1108033558
671.875 0.06074512678 0.1362442549
672.5 0.1043066236 0.104432573
673.125 0.09026139931 0.06445446675
673.75 0.07766151536 0.06099542056
674.375 0.05685095876 0.09568154206
675.0 0.007877006034 0.1079054551
675.625 -0.01880062671 0.1033367111
676.25 -0.07591756083 0.1091147312
676.875 -0.1152311048 0.06964211107
677.5 -0.1171195138 0.06333138065
678.125 -0.1054481872 0.09790927552
678.75 -0.1435366787 0.1184490449
679.375 -0.1352678102 0.04602309541
680.0 -0.0848636332 0.04735666747
680.625 -0.06999534458 0.0797621132
681.25 -0.07743822963 0.1155591978
681.875 -0.08030079424 0.08008974574
682.5 -0.04422605499 0.05756670331
683.125 -0.040968553 0.0902425016
683.75 -0.08425102475 0.1111579324
684.375 -0.1416800926 0.03549663032
685.0 -0.1067043999 -0.06236329721
685.625 -0.06594269357 -0.1258604826
686.25 -0.005252301373 -0.1647844823
686.875 0.02391291284 -0.1630349197
687.5 0.0479131663 -0.1557120471
688.125 0.07744781426 -0.1279534386
688.75 0.08008796558 -0.0786526992
689.375 0.06871237267 -0.05785748435
690.0 0.09022631398 -0.07086932837
690.625 0.1296744997 -0.0448977123
691.25 0.0973861199 -0.03394060226
691.875 0.06572478219 -0.0771480934
692.5 -0.03468508638 -0.1538134211
693.125 -0.1792864453 -0.1266184491
693.75 -0.165252609 -0.02847323216
694.375 -0.1336853057 0.02643327602
695.0 -0.1613188911 -0.01997320969
695.625 -0.09418065185 -0.1536747743
696.25 0.08776812045 -0.1064068288
696.875 0.1076006892 -0.007539969912
697.5 0.08591284606 0.07180188917
698.125 0.0397422852 0.1027530353
698.75 0.01951786589 0.1152879904
699.375 0.0153579592 0.1349918791
700.0 -0.01468673746 0.1315514053
700.625 -0.04879760018 0.1115038973
701.25 -0.04177611478 0.123814073
701.875 -0.01877277456 0.1789808917
702.5 0.0182455715 0.1447150346
703.125 0.05426129102 0.07054812832
703.75 0.07832250098 0.01352675691
704.375 0.1466444639 -0.01415343283
705.0 0.1653284249 0.03004880677
705.625 0.09387204117 0.06157127462
706.25 0.04834759197 0.09164207001
706.875 -0.05945580319 0.13575813
707.5 -0.1626506657 0.06884690319
708.125 -0.1386580036 -0.01733463132
708.75 -0.1178859457 -0.04294171845
709.375 -0.06711663446 -0.1069522689
710.0 0.02100858654 -0.1200851858
710.625 0.06026415783 -0.09154869175
711.25 0.06965315294 -0.07648796914
711.875 0.05708633305 -0.059544481
712.5 0.04417987485 -0.0492691346
713.125 0.01897433952 -0.08945851769
713.75 -0.06844039439 -0.120654864
714.375 -0.118577159 -0.07115796703
715.0 -0.123738435 -0.01207267081
715.625 -0.1439137536 0.001649875582
716.25 -0.162105056 -0.07288157646
716.875 -0.06882047475 -0.1202531804
717.5 -0.00622540937 -0.09656246357
718.125 0.01368819102 -0.0994500635
718.75 0.05913460176 -0.1016984637
719.375 0.08525193281 -0.05168464564
720.0 0.06597249657 -0.004902333154
720.625 0.04121881736 0.04370237285
721.25 -0.04673802621 0.05376448104
721.875 -0.08852817882 -0.02863438201
722.5 -0.08899777061 -0.05887174707
723.125 -0.1263264872 -0.00726812779
723.75 -0.09158323608 0.08367381365
724.375 -0.006442251807 0.1022122274
725.0 0.05103579604 0.06847014344
725.625 0.065482085 0.0362291785
726.25 0.04865892988 0.02148890674
726.875 0.02179449513 0.02795728856
727.5 -0.007412416594 0.04613712096
728.125 -0.04399745404 0.05356293373
728.75 -0.04383015291 0.05278373942
729.375 -0.01423823378 0.05239434769
730.0 -0.00801238557 0.04360793028
730.625 -0.02782292236 0.03904032362
731.25 -0.03997388411 0.02196928051
731.875 -0.04154675805 -0.001571316567
732.5 -0.03400446158 -0.01891296458
733.125 -0.02045036291 -0.01710787231
733.75 -0.006429038286 -0.003996529363
734.375 0.006216202464 -0.00416316326
735.0 0.005617530754 -0.01203827218
735.625 0.005207820653 -0.01382585997
736.25 0.003458403987 -0.02353537573
736.875 -0.01177077487 -0.02946936519
737.5 -0.0263415046 -0.01688393496
738.125 -0.03131568485 0.005758481579
738.75 -0.02187682355 0.03184262595
739.375 0.00177444903 0.04216443615
740.0 0.02026049471 0.02674121055
740.625 0.01785086354 0.01914171035
741.25 0.01391472771 0.03273974057
741.875 -0.01143404629 0.04064475261
742.5 -0.04259813509 0.01078231166
743.125 -0.0342040978 -0.03750529022
743.75 -0.003097654457 -0.05950548659
744.375 0.0009510892217 -0.06305252124
745.0 -0.01861819663 -0.06473390461
745.625 -0.04917123382 -0.04582590549
746.25 -0.03445051498 -0.01617557798
746.875 -0.01466473279 -0.01939462095
747.5 -0.02729697026 -0.02585411395
748.125 -0.05277145144 -0.0119905735
748.75 -0.05873748801 0.02749755568
749.375 -0.01905545056 0.06729684219
750.0 0.05878840754 0.0612010964
