!Created with skrf (http://scikit-rf.org).
# GHz S RI R 50.0 
!freq ReS11 ImS11
500.0 -0.0084195124 -0.001915049014
500.625 0.001222938918 -0.002629457285
501.25 -0.009913492665 -0.01908505011
501.875 -0.04050882294 -0.02924208336
502.5 -0.02978360386 -0.01693142769
503.125 -0.01483025025 0.002281400661
503.75 -0.01292625063 0.0002969249671
504.375 -0.02061254861 -0.00127812751
505.0 -0.01257938104 -0.001244441128
505.625 -0.009436240374 -0.01148428722
506.25 -0.03193279839 -0.01143959989
506.875 -0.06183387794 -0.04401346312
507.5 -0.06553314858 -0.01745958907
508.125 -0.05160241424 -0.03282298676
508.75 -0.08100091992 0.008917765277
509.375 -0.0889908151 0.02367204253
510.0 -0.06309046891 0.01564037033
510.625 -0.008969490032 0.02988794715
511.25 -0.02448227856 0.0436408549
511.875 -0.004803860836 0.06466316027
512.5 0.02605679061 0.03858424894
513.125 0.06650833025 -0.021090074
513.75 0.0820004539 -0.05791242818
514.375 0.04445488958 -0.07059335152
515.0 0.005036427891 -0.06525680688
515.625 0.04466682527 -0.06804579909
516.25 0.02881716175 -0.08120740045
516.875 0.08392416843 0.002062226859
517.5 0.06905114001 -0.05053191176
518.125 0.1937719682 0.0165979307
518.75 0.06267026943 -0.1090435478
519.375 0.04773462623 -0.06608240644
520.0 0.01154867981 -0.06693395162
520.625 0.008173599939 -0.1079791997
521.25 -0.009978303358 -0.1101478907
521.875 0.01864132723 -0.05704831869
522.5 -0.01957226305 -0.07350286568
523.125 -0.04453333169 -0.206359446
523.75 -0.1012601001 -0.2924847793
524.375 -0.06963879254 -0.2787703481
525.0 -0.06986345674 -0.1278537288
525.625 -0.06347291636 -0.1103261201
526.25 -0.02664564847 -0.09867460474
526.875 -0.04594796981 -0.06955997675
527.5 -0.09165346584 -0.05339831606
528.125 -0.09848336414 -0.01358156185
528.75 -0.08549432963 -0.001931160249
529.375 -0.09462579985 0.07858462327
530.0 -0.02945979034 0.1473286803
530.625 0.07528634876 0.1230716103
531.25 0.05021852259 0.08344390156
531.875 0.05940984397 0.08346123171
532.5 0.0783974978 0.1376873554
533.125 0.05689202074 0.1211387079
533.75 0.06039280602 0.07052667802
534.375 0.07017918445 0.06268561229
535.0 0.09953839357 0.0954092446
535.625 0.04130552044 0.1038132175
536.25 0.08705242909 0.03155709569
536.875 0.09943081676 0.04917872281
537.5 0.05680461703 0.08439826128
538.125 0.0350932152 0.0734084184
538.75 0.07308638528 0.0759260006
539.375 0.09682760126 0.1337636339
540.0 0.0835637027 0.1167696553
540.625 0.06762296928 0.07891229978
541.25 0.07437729059 0.07944079243
541.875 0.07706977513 0.1025640095
542.5 0.01799122556 0.06739656852
543.125 0.01811329135 0.04028022361
543.75 0.0708314315 0.04200969611
544.375 0.1191922622 0.04832599218
545.0 0.1101744818 -0.03733271457
545.625 0.05224482638 -0.08375576643
546.25 0.003421708133 -0.1208829925
546.875 0.01808205666 -0.1245248418
547.5 0.03785006332 -0.115624849
548.125 0.04841897899 -0.131124424
548.75 0.09259807324 -0.1242941256
549.375 0.138085664 -0.09412474449
550.0 0.1483153803 -0.03281283354
550.625 0.1727650017 -0.06083512821
551.25 0.1716755389 0.03612767274
551.875 0.1228789804 -0.004747137203
552.5 0.0935828157 -0.03462981695
553.125 0.09671109335 -0.07281826178
553.75 0.1102303014 -0.03393290215
554.375 0.05910464951 -0.02496465592
555.0 0.05444025274 -0.0331773383
555.625 0.07510956126 -0.05737310909
556.25 0.09512655599 -0.03185349069
556.875 0.06453307755 -0.003757070355
557.5 0.06365213598 -0.004753090396
558.125 0.09827313926 0.02233850982
558.75 0.08466119602 0.07052497972
559.375 0.09445991514 0.05599015267
560.0 0.1172652932 0.03692618417
560.625 0.1322041018 0.01080048783
561.25 0.0966533128 -0.02214647892
561.875 0.068631914 -0.04861822134
562.5 0.06779919687 -0.06471546103
563.125 0.05532739644 -0.0617216065
563.75 0.03497347361 -0.04797731603
564.375 0.02520969943 -0.06019830944
565.0 0.0708843919 -0.09602984653
565.625 0.08552514079 -0.0770018137
566.25 0.07634853921 -0.05901763473
566.875 0.0752352747 -0.06273361717
567.5 0.1039161665 -0.04050173672
568.125 0.1062086281 0.02120469144
568.75 0.09822963778 0.0287277883
569.375 0.1241072157 0.02594781611
570.0 0.1309162739 0.0224655609
570.625 0.110521873 0.005980649942
571.25 0.09679807645 -0.01926705282
571.875 0.1074417298 -0.04183906298
572.5 0.07163715272 -0.05750258153
573.125 0.03617784904 -0.04739252955
573.75 0.03586796557 -0.06087055396
574.375 0.05067457894 -0.08943294194
575.0 0.04263187936 -0.0876035304
575.625 0.007455164709 -0.06386022933
576.25 -0.0002408152108 -0.06996170518
576.875 0.03547862089 -0.07896923085
577.5 0.04764082354 -0.0652978813
578.125 0.03956266307 -0.06628455235
578.75 0.03382228365 -0.09434220388
579.375 0.06023029304 -0.1099944116
580.0 0.06267352343 -0.08620866135
580.625 0.0384592033 -0.105784741
581.25 0.006982686164 -0.1300650281
581.875 0.01149058864 -0.1054940072
582.5 0.02208346524 -0.06203595817
583.125 0.02928765834 -0.0656206782
583.75 0.05462151064 -0.08308728609
584.375 0.060184119 -0.06480862691
585.0 0.04945720962 -0.04037050232
585.625 0.0591433746 -0.0374249384
586.25 0.08090209534 -0.04076429453
586.875 0.06496020422 -0.03835376863
587.5 0.04289434391 -0.04704168077
588.125 0.04054744209 -0.07397423295
588.75 0.06118557823 -0.08055429984
589.375 0.0322023611 -0.09564064919
590.0 -0.02962718356 -0.097339551
590.625 -0.06923964081 -0.08933376358
591.25 -0.03467114573 -0.06231284914
591.875 -0.01176658636 -0.03475547136
592.5 -0.01076738365 -0.04159943262
593.125 -0.01074645047 -0.07151225346
593.75 0.01724792329 -0.07131824247
594.375 0.0387472193 -0.04399881505
595.0 0.05406606413 -0.04296589498
595.625 0.07965898372 -0.03981884116
596.25 0.08114970208 -0.01971664256
596.875 0.067258372 -0.004017315425
597.5 0.07037545206 0.003233470169
598.125 0.08360833905 0.003976683867
598.75 0.08560058669 -0.01579466308
599.375 0.08245938412 -0.03403753296
600.0 0.0781272963 -0.03748007795
600.625 0.0606333876 -0.03216158205
601.25 0.03585824121 -0.03087464527
601.875 0.02678279903 -0.02436294173
602.5 0.02871524667 -0.007848930095
603.125 0.02016499971 0.01000969224
603.75 0.02027623672 0.01745012957
604.375 0.03406111333 0.018612897
605.0 0.03973575884 0.01941474197
605.625 0.0198307066 0.01607331766
606.25 -0.0007746975321 0.01932264922
606.875 -0.0043065406 0.0376184423
607.5 0.01240101079 0.05055596969
608.125 0.03075931968 0.03816438404
608.75 0.03051631299 0.02689181822
609.375 0.02755570046 0.02958299209
610.0 0.0272457784 0.03029637396
610.625 0.02928748348 0.01754356115
611.25 0.02489079217 0.004375903248
611.875 0.01589128172 -0.004527187949
612.5 0.003779464 -0.01205807367
613.125 -0.009953718703 -0.01058598627
613.75 -0.01333080128 -0.0002565052687
614.375 -0.004093956704 0.00393872772
615.0 0.003866227743 -0.004676200536
615.625 -0.001635641881 -0.01391071531
616.25 -0.008830739562 -0.007688409944
616.875 -0.001093219286 0.001253712748
617.5 0.01203887607 -0.003956702255
618.125 0.01727920291 -0.01353874452
618.75 0.01776089484 -0.01416012556
619.375 0.02697278154 -0.01073609287
620.0 0.04368867748 -0.02077337049
620.625 0.04284387257 -0.04903980022
621.25 0.03977258652 -0.06020514442
621.875 0.02581381276 -0.07097443791
622.5 -0.0364253039 -0.05933521761
623.125 -0.03644838483 -0.03272088933
623.75 -0.01708310221 -0.02090439751
624.375 0.004918806209 -0.02315452781
625.0 0.02325781044 -0.0176876375
625.625 0.02175033857 -0.007000044133
626.25 0.02919814744 0.003788471474
626.875 0.05619301327 0.0004744536805
627.5 0.07864802793 0.01183397578
628.125 0.07199499228 0.01843649956
628.75 0.06872476131 0.0171472567
629.375 0.08533135484 0.02167522262
630.0 0.09598397216 0.04517173192
630.625 0.07525836755 0.05264995716
631.25 0.07403919854 0.03928945047
631.875 0.07679564743 0.0393289955
632.5 0.06510631129 0.04271864831
633.125 0.03981848815 0.0453359821
633.75 0.04538539693 0.03880699719
634.375 0.04585675202 0.05321487121
635.0 0.03785158173 0.05103912571
635.625 0.03882844419 0.05370046019
636.25 0.05664416242 0.06694589875
636.875 0.05691033398 0.07707343739
637.5 0.03516060496 0.05750117285
638.125 0.02569438961 0.06161637681
638.75 0.02969960561 0.1084077282
639.375 -0.01518026975 0.1208110277
640.0 -0.03005353832 0.08582736176
640.625 -0.02138005444 0.07333548182
641.25 -0.04898363884 0.08528749561
641.875 -0.08442348715 0.05055598862
642.5 -0.0704793476 0.03034874316
643.125 -0.06832271855 0.03849836786
643.75 -0.09336610373 0.03226504154
644.375 -0.1078442092 0.01045153315
645.0 -0.09584627106 0.01586838922
645.625 -0.1038557326 0.04894509212
646.25 -0.1092295092 0.06000794268
646.875 -0.09948581797 0.03148896782
647.5 -0.08717678714 0.02274084723
648.125 -0.1050812327 0.03284181063
648.75 -0.112348455 0.005020656154
649.375 -0.07830630461 -0.01008268708
650.0 -0.06189281386 -0.02504120562
650.625 -0.05205079773 -0.06762235475
651.25 -0.01510971443 -0.08528986196
651.875 0.01825445313 -0.07103854568
652.5 0.04296572024 -0.07734765105
653.125 0.1068312045 -0.08339247356
653.75 0.1267484471 -0.04113631938
654.375 0.1191877517 -0.03565343766
655.0 0.1325925648 -0.0510690249
655.625 0.1457499713 -0.03987958103
656.25 0.1067262194 -0.02068349302
656.875 0.07643201283 -0.0539407553
657.5 0.1017742678 -0.05893642598
658.125 0.1065647178 -0.03257001228
658.75 0.07519863173 -0.006622424792
659.375 0.06442183584 -0.01984559491
660.0 0.09258897602 -0.05640078056
660.625 0.1045379033 -0.06516753432
661.25 0.08808775423 -0.0760137602
661.875 0.05837670244 -0.1138619501
662.5 0.04430915869 -0.1453334526
663.125 0.06375357118 -0.1318088848
663.75 0.08666907452 -0.09355441231
664.375 0.1390376 -0.04033036988
665.0 0.1202853471 0.05547980055
665.625 0.07485657097 0.06694392098
666.25 0.05662471966 0.06660152531
666.875 0.03282390056 0.11264532
667.5 -0.04635605063 0.1138586485
668.125 -0.0525007473 0.07893391209
668.75 -0.02670853197 0.1029772662
669.375 -0.02348215397 0.147265749
670.0 -0.06037009022 0.1329827306
670.625 -0.06102265175 0.08623286067
671.25 -0.01860441751 0.1164806061
671.875 0.01468380537 0.148785038
672.5 0.05915351151 0.1238777726
673.125 0.05744027068 0.08377420077
673.75 0.04929713735 0.08618961891
674.375 0.01805684932 0.113320724
675.0 -0.02722564162 0.1065008036
675.625 -0.05392385728 0.09946810518
676.25 -0.1173130681 0.07836276534
676.875 -0.1334471838 0.03548189501
677.5 -0.1296885863 0.03660883674
678.125 -0.1331887345 0.07750065842
678.75 -0.1716704277 0.06378448057
679.375 -0.1209797432 0.00515683228
680.0 -0.08535072695 0.02120574751
680.625 -0.09306476457 0.05351083727
681.25 -0.1160653594 0.07098759678
681.875 -0.09649528131 0.03211642271
682.5 -0.06430549124 0.04125564841
683.125 -0.07950293846 0.08176615028
683.75 -0.1268365294 0.08355364486
684.375 -0.1473979665 -0.0140425936
685.0 -0.08930521432 -0.09115579339
685.625 -0.03116928078 -0.1496807106
686.25 0.03763039477 -0.1625536648
686.875 0.06283406077 -0.1496338928
687.5 0.08699269493 -0.1324816008
688.125 0.1002881781 -0.08699568912
688.75 0.09017197159 -0.04143921475
689.375 0.08187169495 -0.0303167783
690.0 0.1175266803 -0.02974145666
690.625 0.1320150766 0.01587049703
691.25 0.1061158959 -8.158006702e-05
691.875 0.09207044417 -0.06678015523
692.5 0.01069037099 -0.1800160578
693.125 -0.127494571 -0.1772851105
693.75 -0.1403055838 -0.06002707946
694.375 -0.1362541667 -0.006554722917
695.0 -0.1509447341 -0.07078681059
695.625 -0.03196089084 -0.1714325599
696.25 0.1043303179 -0.06536929064
696.875 0.1018705199 0.02680882427
697.5 0.05077287747 0.09945770664
698.125 -0.001421470953 0.1157261847
698.75 -0.01854432891 0.1234043314
699.375 -0.02852944239 0.1392076353
700.0 -0.05216673522 0.1220047814
700.625 -0.07540650947 0.09429540034
701.25 -0.07526052294 0.1143709927
701.875 -0.08030627759 0.1598097217
702.5 -0.02393776745 0.1224162626
703.125 0.02163141285 0.07486763049
703.75 0.07462691606 0.04756209859
704.375 0.1564080323 0.05213720073
705.0 0.1372584922 0.08263398325
705.625 0.07329313705 0.08294836804
706.25 0.02520807141 0.1129653729
706.875 -0.108025917 0.1222413883
707.5 -0.1732846154 0.01562536266
708.125 -0.1235490809 -0.04364839672
708.75 -0.1014001648 -0.07202533649
709.375 -0.02734627948 -0.1197241858
710.0 0.05926224055 -0.1002505908
710.625 0.07995618399 -0.06313370082
711.25 0.08463610157 -0.04398472143
711.875 0.06949251407 -0.02714900026
712.5 0.06643841948 -0.0257072159
713.125 0.05944597437 -0.09110507027
713.75 -0.02686999936 -0.1481163037
714.375 -0.09797230096 -0.1016279469
715.0 -0.1222510861 -0.0400200649
715.625 -0.1506975801 -0.03792288306
716.25 -0.1272970791 -0.1199024803
716.875 -0.02872788305 -0.1199429848
717.5 0.01821434849 -0.08846499075
718.125 0.04707206307 -0.09046391443
718.75 0.09193657766 -0.0698712581
719.375 0.08822723325 -0.01575717506
720.0 0.05917341452 0.01702649618
720.625 0.01783007324 0.06047266977
721.25 -0.07378995849 0.03476691867
721.875 -0.08300858464 -0.05935504075
722.5 -0.07742659027 -0.0824457616
723.125 -0.1238933213 -0.03857279683
723.75 -0.1072787196 0.05522944759
724.375 -0.03415918865 0.09223612471
725.0 0.02649259572 0.07763343848
725.625 0.04565289565 0.05039039992
726.25 0.03192080579 0.03220605033
726.875 0.004081324374 0.03438216306
727.5 -0.03074568354 0.04601937057
728.125 -0.06430808284 0.0394195524
728.75 -0.05769090457 0.03941209717
729.375 -0.02864291088 0.04728148406
730.0 -0.02363121626 0.04095924645
730.625 -0.04001200935 0.03045309188
731.25 -0.04389204895 0.01106138729
731.875 -0.03923801142 -0.01091889189
732.5 -0.0262223363 -0.02466825293
733.125 -0.01136645449 -0.01733124078
733.75 0.001134652551 -0.003629512417
734.375 0.01246792549 -0.005029311153
735.0 0.009625484755 -0.01497316515
735.625 0.007027536138 -0.01641041073
736.25 0.003935507252 -0.02465429722
736.875 -0.01182389735 -0.02915300766
737.5 -0.02716408746 -0.01551079369
738.125 -0.03394185196 0.007507736873
738.75 -0.02670819361 0.03298686742
739.375 -0.004722935464 0.04267234011
740.0 0.01266938403 0.02900209534
740.625 0.009548496385 0.02453053342
741.25 0.003639426917 0.03714528692
741.875 -0.02143199174 0.03665450522
742.5 -0.04375314144 -5.554462053e-06
743.125 -0.02162389416 -0.04547758051
743.75 0.01406422116 -0.05483026877
744.375 0.01607036804 -0.05578984177
745.0 -0.0008240484601 -0.06155139713
745.625 -0.0265020232 -0.05062354315
746.25 -0.01388290714 -0.02524832988
746.875 -0.001764698811 -0.03141290267
747.5 -0.0229055678 -0.04013087708
748.125 -0.05229625286 -0.0288212241
748.75 -0.06631239759 0.009766747206
749.375 -0.0394338743 0.05998838095
750.0 0.04009247361 0.07954791587
