!Created with skrf (http://scikit-rf.org).
# GHz S RI R 50.0 
!freq ReS11 ImS11
500.0 -0.01004835574 -0.001053664976
500.625 -2.699183614e-05 -0.001783409586
501.25 -0.0129636629 -0.01792948578
501.875 -0.04360682811 -0.02684671128
502.5 -0.03282631647 -0.01820309556
503.125 -0.01523867665 0.005250335496
503.75 -0.01444205136 0.003917558187
504.375 -0.02130304391 0.003294034451
505.0 -0.01287064669 0.002889820549
505.625 -0.009875720938 -0.006737110173
506.25 -0.0298107974 -0.005088731783
506.875 -0.06504800393 -0.03491953825
507.5 -0.0663545081 -0.01081531142
508.125 -0.05302523939 -0.02699372002
508.75 -0.07862665972 0.01646584558
509.375 -0.08550158988 0.03275047531
510.0 -0.06163020702 0.02075781863
510.625 -0.004011762264 0.0301501308
511.25 -0.01866506739 0.04528269113
511.875 -0.003702179508 0.06379475393
512.5 0.02856610923 0.03692023011
513.125 0.06248652992 -0.0253580882
513.75 0.07599884188 -0.06726398519
514.375 0.03753078787 -0.0764362419
515.0 -0.001896915597 -0.06638493161
515.625 0.03524408611 -0.07091510533
516.25 0.02027608623 -0.08318160746
516.875 0.08052074677 -0.00564106586
517.5 0.06558651156 -0.04834664938
518.125 0.1873209781 0.003732043205
518.75 0.05270632175 -0.1126029772
519.375 0.04213218215 -0.07026643685
520.0 0.006428424339 -0.06517377947
520.625 -0.004366970316 -0.1049634571
521.25 -0.02051061204 -0.1051271478
521.875 0.01398532639 -0.0565460765
522.5 -0.02282069976 -0.06837290619
523.125 -0.05540403454 -0.1976792273
523.75 -0.1186493428 -0.2833830112
524.375 -0.08275167181 -0.2750449564
525.0 -0.07727311322 -0.1228409476
525.625 -0.07255950654 -0.1069585743
526.25 -0.03446165505 -0.09862585341
526.875 -0.05056324784 -0.06678214996
527.5 -0.09556800619 -0.0458390717
528.125 -0.101825596 -0.005057153109
528.75 -0.08626227594 0.004096146969
529.375 -0.0884044212 0.08395941346
530.0 -0.01828673618 0.1505721409
530.625 0.08896085038 0.1223152357
531.25 0.05987672018 0.08410247145
531.875 0.06894662088 0.07469474261
532.5 0.09312702181 0.1259777869
533.125 0.06893028434 0.1165339228
533.75 0.06577540162 0.06586920919
534.375 0.0727708911 0.05531908984
535.0 0.1070787726 0.08425925198
535.625 0.04938477422 0.1016376134
536.25 0.08923262383 0.02638050302
536.875 0.1055995201 0.04043520365
537.5 0.06764094968 0.07789683772
538.125 0.04264923295 0.06890161631
538.75 0.07668741229 0.06884485374
539.375 0.108795842 0.1243043932
540.0 0.09478228167 0.1127283967
540.625 0.07565829469 0.07406972655
541.25 0.08102009927 0.07194974241
541.875 0.0897801102 0.09378859333
542.5 0.02804627003 0.06709334994
543.125 0.0221024598 0.03541660772
543.75 0.0695066938 0.03227439442
544.375 0.1193814276 0.03667451154
545.0 0.1068899066 -0.04569250805
545.625 0.04651657275 -0.0861078422
546.25 -0.00711712969 -0.1178159813
546.875 0.006982535692 -0.1252103751
547.5 0.02887102577 -0.1176140858
548.125 0.03701972717 -0.1317244304
548.75 0.0803291621 -0.1281826657
549.375 0.1301245889 -0.1044916252
550.0 0.1460385695 -0.04085769866
550.625 0.1657554991 -0.07079139943
551.25 0.1779077457 0.02428213729
551.875 0.1262682874 -0.0131226389
552.5 0.09357517232 -0.04103578204
553.125 0.09065640372 -0.08104875733
553.75 0.1099903412 -0.04794528028
554.375 0.05893472022 -0.03210351528
555.0 0.05089579856 -0.03907165275
555.625 0.06778005019 -0.06517319445
556.25 0.09144302688 -0.04415157602
556.875 0.06464792323 -0.01168617706
557.5 0.06005280904 -0.0115012973
558.125 0.09690050408 0.01160686875
558.75 0.08865077651 0.06232832117
559.375 0.09674373829 0.04935500815
560.0 0.1179621557 0.02966672289
560.625 0.1346713776 0.0005834661907
561.25 0.09793253179 -0.03029831601
561.875 0.06521444331 -0.05534981304
562.5 0.06064473177 -0.07411540338
563.125 0.04817617669 -0.06976841967
563.75 0.02906493761 -0.05267370042
564.375 0.01775970284 -0.06010313876
565.0 0.05732121675 -0.09930161049
565.625 0.07926021253 -0.0834625206
566.25 0.0717472858 -0.0639631786
566.875 0.0690985944 -0.06737784497
567.5 0.09731244639 -0.04964601701
568.125 0.1077540364 0.0106358282
568.75 0.09824697264 0.02239608209
569.375 0.1239178702 0.01658340183
570.0 0.1329749593 0.01288488644
570.625 0.1126561173 -0.002258692817
571.25 0.09650750526 -0.02559825795
571.875 0.1042603936 -0.05219243263
572.5 0.06967572512 -0.06693828288
573.125 0.03222339131 -0.05400042621
573.75 0.0270997324 -0.06393294772
574.375 0.04054267436 -0.09315444006
575.0 0.03419677102 -0.09352698138
575.625 0.001265886688 -0.06562584511
576.25 -0.008878153689 -0.06791290639
576.875 0.02448620908 -0.08194235451
577.5 0.04056679174 -0.06826465821
578.125 0.0343061326 -0.06739019067
578.75 0.02529043978 -0.09350640096
579.375 0.04852453773 -0.1138287384
580.0 0.05723370595 -0.09038633857
580.625 0.03209813094 -0.1072054651
581.25 -0.002861617758 -0.1311028145
581.875 0.001722071275 -0.1097433751
582.5 0.01666499202 -0.06708301321
583.125 0.02238488698 -0.06778865881
583.75 0.04537252589 -0.08868455
584.375 0.05451749213 -0.07165740973
585.0 0.04571738907 -0.04588111076
585.625 0.05419930391 -0.04279732253
586.25 0.07542996845 -0.04853067094
586.875 0.06190959875 -0.04496408348
587.5 0.03800808184 -0.05041410593
588.125 0.03099330667 -0.07586022046
588.75 0.05311571715 -0.0844113779
589.375 0.02585647454 -0.09831346288
590.0 -0.03524684945 -0.09532896151
590.625 -0.0781674822 -0.08403286027
591.25 -0.04360840184 -0.06251592036
591.875 -0.01761751461 -0.03452407139
592.5 -0.01593310925 -0.0385570804
593.125 -0.01937754112 -0.06734194332
593.75 0.008288896123 -0.07212005747
594.375 0.03380342529 -0.04626609814
595.0 0.0484939502 -0.04526990916
595.625 0.07432538101 -0.04553481571
596.25 0.07919901475 -0.02644820193
596.875 0.06669693157 -0.009189408771
597.5 0.06899311778 -0.002125667606
598.125 0.08260121878 -0.002552954052
598.75 0.08412883075 -0.02162566278
599.375 0.08044869927 -0.0393163138
600.0 0.0770807903 -0.04340365789
600.625 0.06109115049 -0.03748290155
601.25 0.03585210698 -0.03527204174
601.875 0.02547581759 -0.02905576013
602.5 0.02825873092 -0.01346240283
603.125 0.02111727017 0.005857280471
603.75 0.02070426436 0.01422926817
604.375 0.03410779477 0.01491047736
605.0 0.04129549236 0.01513861715
605.625 0.02233295109 0.01340732126
606.25 0.001181975188 0.01730150109
606.875 -0.002281830522 0.03528802362
607.5 0.01469997122 0.04835142969
608.125 0.03258856758 0.03615171699
608.75 0.03175180926 0.02518362432
609.375 0.02904897935 0.02805135677
610.0 0.02890712956 0.02942078145
610.625 0.03074526867 0.01694107749
611.25 0.02610666415 0.003942075954
611.875 0.01693343857 -0.004533682732
612.5 0.00451922481 -0.01187933306
613.125 -0.009532002112 -0.01043822494
613.75 -0.01319610761 -0.0001429567135
614.375 -0.004299472916 0.003955033922
615.0 0.003401724533 -0.004655762068
615.625 -0.002365299233 -0.01402350048
616.25 -0.009847729051 -0.007910158355
616.875 -0.002335331212 0.001033210611
617.5 0.01042532221 -0.004242500276
618.125 0.01532365957 -0.01428513564
618.75 0.01578825713 -0.01516328638
619.375 0.02487056398 -0.01187115984
620.0 0.04101126014 -0.02209946452
620.625 0.0396726645 -0.05030665132
621.25 0.03704979332 -0.06229051776
621.875 0.02321102879 -0.07312076116
622.5 -0.04042776819 -0.05953626774
623.125 -0.0407747483 -0.03307900484
623.75 -0.02114348086 -0.02189149254
624.375 0.0009016053059 -0.02541055143
625.0 0.0204316986 -0.02221807093
625.625 0.01932927157 -0.0115561915
626.25 0.02610626884 0.0002394824713
626.875 0.05195540501 -0.0037204493
627.5 0.07718283126 0.005180210342
628.125 0.07225673131 0.01295656855
628.75 0.06830276407 0.01224967922
629.375 0.08424952075 0.014927913
630.0 0.09905902626 0.03719687865
630.625 0.07992370837 0.04864577546
631.25 0.07760208251 0.03473485249
631.875 0.08166906312 0.03283432403
632.5 0.07187932189 0.03665495122
633.125 0.04644579625 0.04246940502
633.75 0.0497921835 0.03396210586
634.375 0.05267223501 0.04774336778
635.0 0.0440553081 0.04591810023
635.625 0.04339199355 0.04816236238
636.25 0.06127763932 0.06022102544
636.875 0.06450541843 0.07112786072
637.5 0.04190869837 0.05377218267
638.125 0.03056265938 0.05628076259
638.75 0.03860261308 0.1013036316
639.375 -0.0054054913 0.1224967507
640.0 -0.02411325938 0.09006804029
640.625 -0.0149115813 0.07517266546
641.25 -0.03794448975 0.08987360477
641.875 -0.07959826099 0.06106386551
642.5 -0.0685715822 0.0367499978
643.125 -0.0637425668 0.04409691925
643.75 -0.08747782554 0.04230919667
644.375 -0.1055584135 0.02287927253
645.0 -0.09465245686 0.02307238868
645.625 -0.09802894444 0.05624931954
646.25 -0.1036739225 0.07084953221
646.875 -0.09714868793 0.04285703997
647.5 -0.08529094301 0.03113755519
648.125 -0.1010814532 0.0420086155
648.75 -0.1138475593 0.01644656279
649.375 -0.08185638618 -0.001571681767
650.0 -0.0651744568 -0.01654943513
650.625 -0.0607937706 -0.05884550197
651.25 -0.02558955543 -0.08202145319
651.875 0.01023009214 -0.07130590351
652.5 0.03298228217 -0.07717243386
653.125 0.09396226077 -0.09168776995
653.75 0.1234460554 -0.05027112312
654.375 0.1167246082 -0.04238209151
655.0 0.1272748914 -0.06039714174
655.625 0.1428963168 -0.05514558612
656.25 0.1094644287 -0.0320950744
656.875 0.07301031379 -0.06087624521
657.5 0.09522592612 -0.07081899014
658.125 0.1045007251 -0.04806198973
658.75 0.0756327863 -0.01919965156
659.375 0.05976086385 -0.0265948304
660.0 0.08168130375 -0.06465607591
660.625 0.09577843726 -0.0743912032
661.25 0.08009046012 -0.08276464388
661.875 0.04735885724 -0.115816372
662.5 0.03112996389 -0.1471860427
663.125 0.05241589759 -0.1375218888
663.75 0.07995172505 -0.1002896323
664.375 0.1339789817 -0.05426956755
665.0 0.1303932806 0.04380331477
665.625 0.08365976004 0.06107995738
666.25 0.06350862006 0.06161704189
666.875 0.04693884595 0.1059917072
667.5 -0.03054087897 0.1195763333
668.125 -0.044739421 0.08274963918
668.75 -0.01779382359 0.1017090867
669.375 -0.007606057677 0.1456987841
670.0 -0.04444373907 0.1407696894
670.625 -0.05365060441 0.09344730741
671.25 -0.008492753407 0.11552276
671.875 0.02950653976 0.1466244974
672.5 0.07361233967 0.1197280304
673.125 0.06802776454 0.07931833362
673.75 0.05870851923 0.07965663333
674.375 0.03064476008 0.1092338126
675.0 -0.01607744583 0.1079047262
675.625 -0.04226728475 0.1022986085
676.25 -0.1048578256 0.09088388129
676.875 -0.1285476362 0.0472628376
677.5 -0.1261918092 0.0458128479
678.125 -0.1244554848 0.08526826334
678.75 -0.1653084299 0.08275000631
679.375 -0.1263805233 0.01661013235
680.0 -0.08603055374 0.02969205715
680.625 -0.08651605993 0.06286452333
681.25 -0.1056567712 0.08708265159
681.875 -0.09336093523 0.04782740564
682.5 -0.05803630663 0.04702661208
683.125 -0.06709876553 0.08595464478
683.75 -0.1140482585 0.09429199135
684.375 -0.1476180252 0.002148607611
685.0 -0.09583710448 -0.08271323649
685.625 -0.04309006997 -0.1435664081
686.25 0.02460470236 -0.1647585767
686.875 0.05088035753 -0.1554732664
687.5 0.07546470702 -0.1417736854
688.125 0.09458702864 -0.1008724855
688.75 0.08792640977 -0.05428640949
689.375 0.07801581465 -0.04040986797
690.0 0.1097228535 -0.04570693562
690.625 0.1345228531 -0.003883587505
691.25 0.104201362 -0.01135094688
691.875 0.08385865511 -0.07097774191
692.5 -0.004732713501 -0.1733952662
693.125 -0.1460047792 -0.1641074904
693.75 -0.148724273 -0.0508751636
694.375 -0.1363452886 0.004622627034
695.0 -0.156617942 -0.0536191949
695.625 -0.0545583098 -0.1681138906
696.25 0.09991315669 -0.08013107238
696.875 0.1048993458 0.01499299356
697.5 0.06408493805 0.09123119667
698.125 0.01310717009 0.1126939855
698.75 -0.005450320446 0.1222385344
699.375 -0.01442080356 0.1400359247
700.0 -0.04045594236 0.126515373
700.625 -0.06722967494 0.1008330064
701.25 -0.06385355027 0.118774302
701.875 -0.05983000361 0.1701071391
702.5 -0.01052368564 0.1313223461
703.125 0.03323508321 0.07433600093
703.75 0.07711073024 0.03514764538
704.375 0.1563603536 0.02824019544
705.0 0.1485886054 0.0671348791
705.625 0.08093555669 0.07635733994
706.25 0.03395422306 0.1063405852
706.875 -0.09159060493 0.1290452981
707.5 -0.1723916066 0.03434205299
708.125 -0.1299673701 -0.03471264929
708.75 -0.1088096958 -0.06168360929
709.375 -0.04271768544 -0.1165939432
710.0 0.04591902267 -0.1090865632
710.625 0.07421485612 -0.07420054565
711.25 0.08073210694 -0.05555471402
711.875 0.06641813804 -0.03823435986
712.5 0.05956493154 -0.03451124532
713.125 0.04482153704 -0.09243234005
713.75 -0.04310034134 -0.1405324338
714.375 -0.1065600116 -0.09123650411
715.0 -0.1237324654 -0.02917874114
715.625 -0.1497405058 -0.02176787194
716.25 -0.1433294137 -0.1038744574
716.875 -0.04345095344 -0.1216257086
717.5 0.009352671358 -0.09214826726
718.125 0.03515498493 -0.09514590591
718.75 0.08192414122 -0.08264819514
719.375 0.08882590333 -0.02775550624
720.0 0.06234516743 0.009552848024
720.625 0.02715540654 0.05535938318
721.25 -0.06433884827 0.04314750142
721.875 -0.08666118646 -0.04754004097
722.5 -0.08274056368 -0.07407740974
723.125 -0.1261778319 -0.02714047607
723.75 -0.1028262198 0.06609056326
724.375 -0.02448474086 0.09736655662
725.0 0.03583849374 0.07553348655
725.625 0.05346600099 0.04629916586
726.25 0.03848311172 0.02897448762
726.875 0.01111760726 0.03268509853
727.5 -0.02156666583 0.04731487019
728.125 -0.05715983037 0.04590506265
728.75 -0.05284372138 0.04528389285
729.375 -0.02294357489 0.04999735462
730.0 -0.017410824 0.042828307
730.625 -0.03564172626 0.03446730386
731.25 -0.04287020575 0.01542650492
731.875 -0.04054442704 -0.007394737991
732.5 -0.02943205516 -0.02291243351
733.125 -0.01484513633 -0.01769656011
733.75 -0.001829988435 -0.004171697967
734.375 0.009856935904 -0.005071355837
735.0 0.007735826657 -0.01409794255
735.625 0.005950130992 -0.01552618044
736.25 0.003455197267 -0.02417184549
736.875 -0.01200007195 -0.02919240156
737.5 -0.02691630105 -0.01602103872
738.125 -0.03300137344 0.006874507285
738.75 -0.02499346697 0.0326099296
739.375 -0.002339323528 0.04262737507
740.0 0.01565281624 0.02839442106
740.625 0.01301006236 0.02265986192
741.25 0.007766910914 0.03578826005
741.875 -0.01760514426 0.03855865952
742.5 -0.04349653818 0.004538386737
743.125 -0.02699626733 -0.04270957389
743.75 0.007508881983 -0.05729750116
744.375 0.01044945945 -0.05895219943
745.0 -0.00748821072 -0.06344957485
745.625 -0.03570981632 -0.04949736542
746.25 -0.02277569428 -0.02253955287
746.875 -0.007556733569 -0.02705089707
747.5 -0.02526121123 -0.03443388775
748.125 -0.05318780473 -0.02183817756
748.75 -0.06370838938 0.01724526656
749.375 -0.03139120345 0.06393012289
750.0 0.0483437361 0.07302441685
