!Created with skrf (http://scikit-rf.org).
# GHz S RI R 50.0 
!freq ReS11 ImS11
500.0 -0.01412457184 -0.005558051171
500.625 -0.009451985142 -0.001603687423
501.25 -0.02319772564 -0.01130691025
501.875 -0.0588688202 -0.01447528926
502.5 -0.05165441689 -0.01082551415
503.125 -0.0251098899 0.01299724419
503.75 -0.01775745568 0.01603710603
504.375 -0.02183724563 0.02032977099
505.0 -0.01058092122 0.01936422484
505.625 -0.005399976161 0.006807026662
506.25 -0.01878913903 0.01055119471
506.875 -0.06545016994 -0.004372681375
507.5 -0.06429565918 0.0167649323
508.125 -0.05541691142 -0.004121540356
508.75 -0.05992052193 0.04126352594
509.375 -0.06970668545 0.06585589002
510.0 -0.05675879815 0.04820606696
510.625 0.01332586 0.02847726061
511.25 0.003573091258 0.03831450288
511.875 0.02291864672 0.05140514865
512.5 0.03755050271 0.02593912603
513.125 0.04911481895 -0.04007835419
513.75 0.04410191371 -0.08824703442
514.375 0.006936562306 -0.09075248024
515.0 -0.02751935041 -0.06506077208
515.625 0.000132426686 -0.07915147168
516.25 -0.03118085418 -0.07622179375
516.875 0.05795915752 -0.03317037191
517.5 0.03964916563 -0.0502759785
518.125 0.1491593996 -0.04060531497
518.75 0.0100955633 -0.1191212318
519.375 0.01599882715 -0.07970008569
520.0 -0.0129160741 -0.05406169169
520.625 -0.03599483732 -0.07824574597
521.25 -0.05239191133 -0.08766941031
521.875 -0.003816592021 -0.05263577482
522.5 -0.03236109504 -0.04817703613
523.125 -0.08823198105 -0.1426507728
523.75 -0.1738239678 -0.2369477301
524.375 -0.1191576744 -0.2472480999
525.0 -0.09454585385 -0.09883459983
525.625 -0.1014393012 -0.08618038124
526.25 -0.06268757625 -0.09175256754
526.875 -0.06495702852 -0.05310453433
527.5 -0.1020611899 -0.01446585226
528.125 -0.1046306955 0.03429691851
528.75 -0.08522563874 0.0292736592
529.375 -0.06200643991 0.09836668953
530.0 0.02847766359 0.1496346903
530.625 0.1399830891 0.1060109818
531.25 0.09680178781 0.08065729002
531.875 0.09376943243 0.03736499641
532.5 0.13398125 0.06667327344
533.125 0.1092697614 0.08641585899
533.75 0.08285952438 0.04251432635
534.375 0.07834309445 0.02345096925
535.0 0.1229883789 0.03378883906
535.625 0.0798237753 0.08510479496
536.25 0.0933674601 0.005256066153
536.875 0.1174835677 0.001606919165
537.5 0.1012945628 0.04217640512
538.125 0.06695080122 0.0466586116
538.75 0.08481418462 0.0411550647
539.375 0.1407822416 0.07308345158
540.0 0.1395159123 0.08723120765
540.625 0.103259899 0.04878457927
541.25 0.09901641977 0.03837109472
541.875 0.1252131392 0.04968648085
542.5 0.06824410553 0.05410194536
543.125 0.03306374896 0.01605331772
543.75 0.05614312061 0.0002548192936
544.375 0.1102568803 -0.00676490044
545.0 0.0870607749 -0.07290109578
545.625 0.02158251912 -0.09077384638
546.25 -0.04295220183 -0.09510445354
546.875 -0.03909617603 -0.1180539571
547.5 -0.006417137163 -0.1175626725
548.125 -0.002915978375 -0.120793595
548.75 0.03172490966 -0.131368531
549.375 0.09093371279 -0.1373385194
550.0 0.1320724053 -0.06754089615
550.625 0.1332042029 -0.09649287335
551.25 0.1853182899 -0.03286845961
551.875 0.1320317276 -0.0500534036
552.5 0.08877994597 -0.06570594243
553.125 0.0616158134 -0.1047519958
553.75 0.08782443008 -0.09851010785
554.375 0.05268434597 -0.06119523593
555.0 0.03282591216 -0.05784314656
555.625 0.03491719019 -0.0850425083
556.25 0.06510706788 -0.08215116751
556.875 0.05636480624 -0.04146065062
557.5 0.0418528479 -0.03083053477
558.125 0.08053027906 -0.02607280897
558.75 0.09552110736 0.02780329355
559.375 0.09779216954 0.02245768444
560.0 0.1136167145 0.001364329205
560.625 0.1323273212 -0.04243353641
561.25 0.09700167405 -0.05994705591
561.875 0.04840543266 -0.07424509882
562.5 0.0250113074 -0.09556160934
563.125 0.01386441957 -0.09140266273
563.75 0.004083734008 -0.06644845046
564.375 -0.007807757619 -0.05359004532
565.0 0.006290533357 -0.09438355336
565.625 0.04476529856 -0.10526418
566.25 0.05073768518 -0.07933084401
566.875 0.04304810165 -0.07825705626
567.5 0.06653484479 -0.07538245675
568.125 0.1009012385 -0.02983463131
568.75 0.09405660681 0.0002851479665
569.375 0.1135989675 -0.01650237566
570.0 0.1319173146 -0.02588089935
570.625 0.1122313648 -0.03527722232
571.25 0.08861493346 -0.05048570101
571.875 0.08160230443 -0.08485913873
572.5 0.0522021309 -0.1037678137
573.125 0.01356088983 -0.07349696014
573.75 -0.00476180615 -0.06540054212
574.375 0.0001172541638 -0.09766827709
575.0 -0.003871333752 -0.1081812813
575.625 -0.02004001544 -0.06704529764
576.25 -0.03503007934 -0.05302390674
576.875 -0.02180731665 -0.07714181314
577.5 0.009456890835 -0.07346596739
578.125 0.01315804046 -0.06720940415
578.75 -0.004624218643 -0.08083439766
579.375 0.00167519308 -0.11233411
580.0 0.03229675914 -0.1032964942
580.625 0.008923041143 -0.1070372476
581.25 -0.0391115969 -0.1238586578
581.875 -0.03714489744 -0.1147279772
582.5 -0.008352626174 -0.08024792135
583.125 -0.00283294777 -0.06975017841
583.75 0.004485296057 -0.09797178522
584.375 0.02718236765 -0.0924259003
585.0 0.02688001886 -0.06159846152
585.625 0.02951751884 -0.05680106997
586.25 0.04659845739 -0.07046258366
586.875 0.04503323738 -0.0665295355
587.5 0.01861571798 -0.05728824676
588.125 -0.003364641024 -0.07106145762
588.75 0.01937143713 -0.09218966378
589.375 -0.001356315909 -0.1026713556
590.0 -0.05321546018 -0.08336486303
590.625 -0.1025226538 -0.05454976181
591.25 -0.08000938907 -0.05103506459
591.875 -0.03966716443 -0.02897414347
592.5 -0.03135696763 -0.02332570952
593.125 -0.04402793375 -0.04393049996
593.75 -0.02457033463 -0.06493448364
594.375 0.01435793273 -0.05022803412
595.0 0.0270538236 -0.04750313657
595.625 0.04947019118 -0.06011097309
596.25 0.06432511877 -0.04876559457
596.875 0.05811504941 -0.02786323007
597.5 0.05819345377 -0.02062667246
598.125 0.07212438048 -0.02554323285
598.75 0.07404154454 -0.03970293286
599.375 0.06762182007 -0.05471601714
600.0 0.06637054963 -0.06290572465
600.625 0.05725705868 -0.05729030394
601.25 0.03221347445 -0.05059093541
601.875 0.01568542033 -0.04378931615
602.5 0.01952603349 -0.03334128676
603.125 0.02042420048 -0.01099644002
603.75 0.01920601512 0.002083667172
604.375 0.03016347151 0.001805532062
605.0 0.04127413493 -0.001983666869
605.625 0.02801728967 0.0006021864257
606.25 0.005806864473 0.008139476444
606.875 0.002118478143 0.02519148181
607.5 0.01985589479 0.03761886492
608.125 0.03616789198 0.02685964958
608.75 0.03379894676 0.01764660422
609.375 0.03187994314 0.02136382633
610.0 0.0334816615 0.02407474714
610.625 0.03462076593 0.01311560148
611.25 0.02931693579 0.001068975001
611.875 0.01997324048 -0.006040072813
612.5 0.006753803125 -0.01239639717
613.125 -0.00835090143 -0.01072269252
613.75 -0.01309732243 -0.0003842472015
614.375 -0.005267885533 0.003655987504
615.0 0.001221660232 -0.004888492296
615.625 -0.006006079186 -0.01427255993
616.25 -0.01442285106 -0.008148904234
616.875 -0.007634912829 0.0008913171203
617.5 0.003721351642 -0.004151801811
618.125 0.006756907766 -0.01536712515
618.75 0.007068787179 -0.01743101695
619.375 0.01627412197 -0.01435405274
620.0 0.03013180213 -0.02457312165
620.625 0.02705887901 -0.05235784292
621.25 0.02545816378 -0.0675283751
621.875 0.01168732592 -0.0786559623
622.5 -0.05583824873 -0.05636251103
623.125 -0.05773903145 -0.03051963622
623.75 -0.03745685301 -0.02218151096
624.375 -0.01673446685 -0.03011537148
625.0 0.004428330971 -0.03716975562
625.625 0.005367756825 -0.02732157288
626.25 0.01163179001 -0.01031538091
626.875 0.0319838223 -0.01503101929
627.5 0.06313087806 -0.01969152633
628.125 0.06853736389 -0.008994283026
628.75 0.06243294302 -0.005656647699
629.375 0.07366994118 -0.007724801521
630.0 0.1007076827 0.004543421368
630.625 0.09419203683 0.02952195677
631.25 0.08581757632 0.01649551909
631.875 0.09201531571 0.005961094793
632.5 0.08962280082 0.008001632385
633.125 0.06872594586 0.02476524229
633.75 0.06191294697 0.01239714812
634.375 0.07262494608 0.01835277106
635.0 0.06371920924 0.01987988295
635.625 0.05482435961 0.0227100287
636.25 0.07090879724 0.02910813537
636.875 0.08637681889 0.03932419999
637.5 0.06480686816 0.03344536332
638.125 0.04259317645 0.03397799713
638.75 0.06004176522 0.06675754227
639.375 0.03464382504 0.1184535106
640.0 0.00215294663 0.100706765
640.625 0.008514084389 0.07614536049
641.25 0.005416112074 0.09272371162
641.875 -0.0463263215 0.09580327565
642.5 -0.05616602338 0.0592811847
643.125 -0.04316411403 0.05951579943
643.75 -0.05647546154 0.07174825212
644.375 -0.0826800415 0.06534224438
645.0 -0.08446473194 0.0500019757
645.625 -0.07053841042 0.07536296996
646.25 -0.07023114363 0.104282537
646.875 -0.07729367747 0.08257116327
647.5 -0.06963650389 0.06086747691
648.125 -0.07614249545 0.07134065399
648.75 -0.1062026417 0.06307633387
649.375 -0.08774476825 0.03164767493
650.0 -0.0679247392 0.01420547345
650.625 -0.079649226 -0.0173716383
651.25 -0.06025189038 -0.05965512121
651.875 -0.0178887621 -0.06675276937
652.5 0.0008105124908 -0.06741560061
653.125 0.03956589925 -0.1032267771
653.75 0.1007702641 -0.08508038568
654.375 0.1021305618 -0.06605635745
655.0 0.09825881477 -0.08714850628
655.625 0.1128677222 -0.1077679589
656.25 0.1057206377 -0.08171824462
656.875 0.05530772881 -0.08280947762
657.5 0.06046764812 -0.103238851
658.125 0.08022138191 -0.1003313667
658.75 0.06365029125 -0.06445911916
659.375 0.0370893745 -0.04740953269
660.0 0.03458892553 -0.0801683747
660.625 0.05320019411 -0.100767054
661.25 0.04501370286 -0.1000432718
661.875 0.006858787387 -0.1113940626
662.5 -0.02079077655 -0.1412274877
663.125 0.003988431073 -0.1501063309
663.75 0.04991004988 -0.1190099918
664.375 0.1010027266 -0.09545193631
665.0 0.1529169986 -0.01693158045
665.625 0.1129377991 0.03081786548
666.25 0.0844201433 0.03718644893
666.875 0.08819518817 0.06590737109
667.5 0.03872662577 0.1193434238
668.125 -0.01149228899 0.09368376817
668.75 0.01126029524 0.0903172127
669.375 0.04294126469 0.1233199029
670.0 0.01933370321 0.148904179
670.625 -0.01875854673 0.1133008546
671.25 0.02467582029 0.1042985601
671.875 0.08170275217 0.1220472119
672.5 0.1243188455 0.08758127172
673.125 0.1031662345 0.04962697886
673.75 0.08769554584 0.04359488537
674.375 0.07434503647 0.08003696216
675.0 0.02681032165 0.1042400961
675.625 -0.001552985133 0.09955998278
676.25 -0.0483203601 0.1161441356
676.875 -0.1003722823 0.08625451601
677.5 -0.1074050742 0.07623950325
678.125 -0.08956141217 0.103310854
678.75 -0.1179142418 0.1399566419
679.375 -0.1356410226 0.07336193958
680.0 -0.08176266256 0.06085800572
680.625 -0.055075204 0.08872193367
681.25 -0.04989603989 0.1305350023
681.875 -0.06179656796 0.1036515999
682.5 -0.03227420848 0.06443761682
683.125 -0.01991258201 0.08785895762
683.75 -0.05746395839 0.1189334173
684.375 -0.1294187282 0.06086243443
685.0 -0.1115143613 -0.04420953684
685.625 -0.0798774168 -0.1079127332
686.25 -0.02919712685 -0.1596401256
686.875 0.002718483368 -0.1639607809
687.5 0.02457063028 -0.1599863764
688.125 0.05508665136 -0.1473889993
688.75 0.06850672928 -0.09819439781
689.375 0.05878220624 -0.07010571643
690.0 0.06906300257 -0.08569768088
690.625 0.1136642164 -0.07909446161
691.25 0.08861122698 -0.05262096586
691.875 0.05119092097 -0.07912808064
692.5 -0.05230987358 -0.132934115
693.125 -0.1959282076 -0.08823212513
693.75 -0.1763145002 -0.005739518582
694.375 -0.127797364 0.0424670402
695.0 -0.1580656589 0.00803924973
695.625 -0.1236481181 -0.1325971671
696.25 0.07106152345 -0.1274204858
696.875 0.1056429374 -0.0271449369
697.5 0.1006515118 0.0498191087
698.125 0.06044178548 0.0894772015
698.75 0.03827030674 0.1055422968
699.375 0.03788601365 0.1233623926
700.0 0.008126558511 0.1306904817
700.625 -0.0315418525 0.1177389477
701.25 -0.02414919504 0.1239955393
701.875 0.01599109045 0.1740698438
702.5 0.0494401536 0.151026677
703.125 0.07273296935 0.06382502162
703.75 0.07553405616 -0.004059134914
704.375 0.12657117 -0.04692824281
705.0 0.1705749634 -0.009736846395
705.625 0.1032564313 0.04674028376
706.25 0.05727772395 0.07749890446
706.875 -0.03136036259 0.1340877941
707.5 -0.1461224243 0.09611551836
708.125 -0.1436137269 -0.000229709626
708.75 -0.121619486 -0.02515350525
709.375 -0.08648642667 -0.09286501049
710.0 -0.002984972912 -0.1238763387
710.625 0.04403218911 -0.1032593378
711.25 0.05450913915 -0.09210853183
711.875 0.04402854316 -0.0767760022
712.5 0.02857374841 -0.05947267408
713.125 -0.001479907814 -0.08104262441
713.75 -0.08557475145 -0.09557179217
714.375 -0.1260823226 -0.04934191272
715.0 -0.1212547232 0.003652129533
715.625 -0.133270287 0.02032480305
716.25 -0.1697641856 -0.0390225344
716.875 -0.09374997187 -0.1121827248
717.5 -0.02109786802 -0.09770190327
718.125 -0.005377368265 -0.09806651708
718.75 0.03419738164 -0.1120567787
719.375 0.07559496802 -0.07272165192
720.0 0.06626528576 -0.01833329897
720.625 0.0506463068 0.03004529118
721.25 -0.02815524392 0.05926462798
721.875 -0.08567403723 -0.01045885276
722.5 -0.09100993387 -0.04377618746
723.125 -0.1212675987 0.01052008948
723.75 -0.07717732022 0.09671486827
724.375 0.01026436922 0.1023482524
725.0 0.06229244936 0.05823028396
725.625 0.07355131136 0.02371228671
726.25 0.05631230808 0.01215961553
726.875 0.03019675118 0.02143119978
727.5 0.005002821839 0.0412542214
728.125 -0.0291345734 0.05684666266
728.75 -0.03322153332 0.05750468297
729.375 -0.005346479897 0.05252877678
730.0 0.001012052861 0.04173086463
730.625 -0.01898826863 0.04076874163
731.25 -0.03517902269 0.02720423571
731.875 -0.04064019021 0.004022691804
732.5 -0.03668758802 -0.01405566406
733.125 -0.02497835443 -0.01468855355
733.75 -0.01025633875 -0.002201581529
734.375 0.003405445766 -0.002079881782
735.0 0.004607511601 -0.009330752966
735.625 0.005417534086 -0.01199725207
736.25 0.004086587071 -0.02289779945
736.875 -0.0111481272 -0.02972087757
737.5 -0.02545350355 -0.0176944767
738.125 -0.02954917284 0.004642901812
738.75 -0.0188695381 0.03094945858
739.375 0.005715634322 0.04135214313
740.0 0.02475066147 0.02468927314
740.625 0.02212537954 0.01489129911
741.25 0.0196075136 0.02857314104
741.875 -0.004762209034 0.04191306594
742.5 -0.04044766739 0.01720365421
743.125 -0.04043985054 -0.03081774715
743.75 -0.01418710606 -0.0593536849
744.375 -0.009452438355 -0.06559507824
745.0 -0.02925726553 -0.0640353274
745.625 -0.06102136453 -0.03944693151
746.25 -0.04497161677 -0.007676340883
746.875 -0.02030792344 -0.01024040002
747.5 -0.0278833767 -0.01706040211
748.125 -0.04994859979 -0.001802177593
748.75 -0.05101167962 0.03696754405
749.375 -0.006032299506 0.068222378
750.0 0.06596907106 0.04699765952
