!Created with skrf (http://scikit-rf.org).
# GHz S RI R 50.0 
!freq ReS11 ImS11
500.0 -0.01019108131 0.0003361998945
500.625 0.005381815261 -0.001280611302
501.25 -0.006905033484 -0.02081467006
501.875 -0.03594777286 -0.02907199548
502.5 -0.02852295503 -0.01729444293
503.125 -0.01290870351 0.004091976993
503.75 -0.01253800395 4.263828e-05
504.375 -0.02060048975 -0.001999658492
505.0 -0.01288528478 -0.002400612889
505.625 -0.009168229587 -0.01189610193
506.25 -0.0322262176 -0.01146369467
506.875 -0.06133372421 -0.04525195711
507.5 -0.06523649746 -0.01951635484
508.125 -0.05089178139 -0.03441994514
508.75 -0.08237337384 0.006603867179
509.375 -0.09074481639 0.02002620164
510.0 -0.06304557333 0.01399513072
510.625 -0.00998762362 0.02896698159
511.25 -0.02599212564 0.04437360694
511.875 -0.00546706043 0.06421770067
512.5 0.02824530562 0.04010701988
513.125 0.06750017633 -0.01946037575
513.75 0.08330196757 -0.05645271734
514.375 0.04675736146 -0.06810135954
515.0 0.006130206185 -0.06474557348
515.625 0.04772016794 -0.06444632307
516.25 0.03214718652 -0.08040216199
516.875 0.08580916034 0.00908581442
517.5 0.07090317304 -0.04860128599
518.125 0.1948251658 0.02406216468
518.75 0.06444579375 -0.1069210328
519.375 0.05009536619 -0.06457982643
520.0 0.01368977303 -0.06655492509
520.625 0.007883153598 -0.1079792829
521.25 -0.008745128092 -0.1088440297
521.875 0.02014888427 -0.05559313226
522.5 -0.01879200266 -0.07424351622
523.125 -0.03946154852 -0.2111150788
523.75 -0.09562780478 -0.2964774553
524.375 -0.06604534559 -0.2786487784
525.0 -0.06804003675 -0.129245577
525.625 -0.06103368376 -0.1104695371
526.25 -0.02403660388 -0.099083232
526.875 -0.04475705064 -0.07034464509
527.5 -0.09050877888 -0.05545133755
528.125 -0.09711590545 -0.01598307106
528.75 -0.08527058783 -0.003894431249
529.375 -0.0963713655 0.07677533172
530.0 -0.03303802528 0.1461328922
530.625 0.07117164417 0.1238511735
531.25 0.04703259985 0.08301111059
531.875 0.05620756395 0.08613238989
532.5 0.07338683368 0.1414955869
533.125 0.05283795045 0.1222869094
533.75 0.05830590035 0.07189356147
534.375 0.06931905127 0.06486242286
535.0 0.09725528912 0.09918129585
535.625 0.03907429482 0.1039594008
536.25 0.08629998485 0.03307063319
536.875 0.09762454442 0.05161964167
537.5 0.05403095739 0.08584529949
538.125 0.03280375136 0.07469881896
538.75 0.07203155291 0.07814048388
539.375 0.09249571083 0.136687441
540.0 0.07940416029 0.118375601
540.625 0.06454334009 0.08069865992
541.25 0.07193730526 0.08203069833
541.875 0.07229338481 0.1055419269
542.5 0.01501036435 0.06732418218
543.125 0.01679450014 0.04171522307
543.75 0.0711200796 0.04478945571
544.375 0.1191233499 0.0514144524
545.0 0.110900083 -0.03462728797
545.625 0.05408309763 -0.0828770722
546.25 0.006754080041 -0.1217093073
546.875 0.02157382845 -0.1242668167
547.5 0.04083165226 -0.1146930576
548.125 0.05162920027 -0.1307699734
548.75 0.0957987465 -0.1227243898
549.375 0.1406768495 -0.09089074775
550.0 0.1488122403 -0.030800574
550.625 0.1748779365 -0.05783007793
551.25 0.1699028938 0.03851246798
551.875 0.1218219089 -0.002521322892
552.5 0.09353480611 -0.03282145685
553.125 0.09874056182 -0.07025764335
553.75 0.1097924785 -0.0296232496
554.375 0.05915816969 -0.02266718874
555.0 0.05528557864 -0.03157537657
555.625 0.07718436354 -0.05500958947
556.25 0.09589001629 -0.0281946101
556.875 0.0643227591 -0.001587313561
557.5 0.0645349883 -0.002990022364
558.125 0.09857028463 0.02582015277
558.75 0.08311533885 0.07334142943
559.375 0.09345683948 0.05831495819
560.0 0.1169339015 0.03956855116
560.625 0.1311181648 0.01434922462
561.25 0.09607454343 -0.01953409939
561.875 0.06936676291 -0.04680187922
562.5 0.06961726468 -0.06203650575
563.125 0.05711318357 -0.05958415541
563.75 0.03656923902 -0.04671158235
564.375 0.0271945416 -0.06014825859
565.0 0.07477561103 -0.09476446729
565.625 0.08745162391 -0.07508598334
566.25 0.07779569966 -0.0573088372
566.875 0.07728127098 -0.06114482063
567.5 0.1055864219 -0.03727019333
568.125 0.1054098524 0.02415789749
568.75 0.09823743015 0.03059434571
569.375 0.1239964005 0.0284584896
570.0 0.1302193779 0.02496130424
570.625 0.1098291017 0.008158666319
571.25 0.0968415597 -0.0174715331
571.875 0.1082263375 -0.0387084219
572.5 0.0721104126 -0.05465561774
573.125 0.0371335609 -0.04530279943
573.75 0.03857961838 -0.05988353814
574.375 0.05347565977 -0.08840139747
575.0 0.0448169012 -0.08597653958
575.625 0.008881580451 -0.06331160366
576.25 0.00220120095 -0.07031088294
576.875 0.03847108394 -0.0776507039
577.5 0.04984069633 -0.0643422722
578.125 0.04131022086 -0.06594370476
578.75 0.03690734835 -0.0946085524
579.375 0.06389802348 -0.1081630956
580.0 0.064264215 -0.08492265817
580.625 0.04032440744 -0.1053263061
581.25 0.009549084443 -0.1295869229
581.875 0.01373152504 -0.1041193991
582.5 0.02331669497 -0.06075492827
583.125 0.03089642332 -0.0651349816
583.75 0.05679935014 -0.08148975769
584.375 0.06177935186 -0.06254959145
585.0 0.05058408971 -0.03853153069
585.625 0.06096477412 -0.03542967119
586.25 0.0826897735 -0.03803805616
586.875 0.0657953775 -0.03625238878
587.5 0.0444230325 -0.04580465682
588.125 0.0430275926 -0.0731486091
588.75 0.06314220948 -0.0794700258
589.375 0.03381950648 -0.09488557581
590.0 -0.02841674194 -0.09766317178
590.625 -0.06656893089 -0.09064222585
591.25 -0.03187055714 -0.06200673535
591.875 -0.009657015327 -0.03463432975
592.5 -0.008953844113 -0.0425722444
593.125 -0.007887370274 -0.0724887149
593.75 0.01983135259 -0.07076295907
594.375 0.0399146052 -0.04327649739
595.0 0.05537712081 -0.04232902155
595.625 0.08092999845 -0.03820313364
596.25 0.08166740894 -0.01752306009
596.875 0.06737062245 -0.002227309901
597.5 0.07083502792 0.005321637659
598.125 0.08376181775 0.00664819798
598.75 0.08592473907 -0.01355361078
599.375 0.0830609809 -0.03212423691
600.0 0.078423769 -0.03559642359
600.625 0.06064493651 -0.0305182561
601.25 0.03592088504 -0.02962483132
601.875 0.02712002076 -0.02307468789
602.5 0.02872163864 -0.006233198196
603.125 0.01976455879 0.01122076423
603.75 0.02002845159 0.01854050596
604.375 0.03389165189 0.02006590092
605.0 0.0388442682 0.02107721114
605.625 0.01872557577 0.01701335985
606.25 -0.001596143423 0.01996063933
606.875 -0.005149254091 0.03830562568
607.5 0.01161082004 0.05118913506
608.125 0.03007200441 0.03871405605
608.75 0.02999466258 0.02741485115
609.375 0.02696131229 0.03012370841
610.0 0.02665441383 0.0305652942
610.625 0.02874497495 0.01772956551
611.25 0.02439828754 0.004473735012
611.875 0.01552948024 -0.004575984038
612.5 0.003521665497 -0.01210072893
613.125 -0.01006360036 -0.01064450869
613.75 -0.01338806858 -0.0002976633343
614.375 -0.004039502733 0.003884570265
615.0 0.004000256693 -0.004735683326
615.625 -0.001426681611 -0.01391995154
616.25 -0.008506662316 -0.007596347033
616.875 -0.0006337611256 0.001345044994
617.5 0.01264749139 -0.003848313752
618.125 0.01796812129 -0.0132530125
618.75 0.01843756786 -0.01367651253
619.375 0.02765092889 -0.01029033318
620.0 0.04450308982 -0.02023108601
620.625 0.04382673007 -0.04850313772
621.25 0.040471633 -0.05967943979
621.875 0.02653824807 -0.07034555401
622.5 -0.03500417667 -0.0592355817
623.125 -0.0348537928 -0.03257606988
623.75 -0.0156219247 -0.02056617394
624.375 0.006297802711 -0.02235630775
625.0 0.02406980714 -0.01612166947
625.625 0.02230991996 -0.005670516157
626.25 0.02988085425 0.004792676629
626.875 0.0572017282 0.001752387986
627.5 0.07875233677 0.01381562278
628.125 0.0717317661 0.02017969739
628.75 0.06872347894 0.01878622848
629.375 0.08547138093 0.02446509923
630.0 0.09444601873 0.04817354736
630.625 0.07358369834 0.05390616399
631.25 0.07285786915 0.04076315634
631.875 0.07522139421 0.04128635016
632.5 0.06315952315 0.04431858032
633.125 0.03809485476 0.04603966732
633.75 0.04419806344 0.0400584206
634.375 0.04381207828 0.05468891644
635.0 0.03578360516 0.05251305637
635.625 0.03722438474 0.05544057201
636.25 0.05480184646 0.06933035891
636.875 0.05400361967 0.0790535208
637.5 0.03263400409 0.05864037021
638.125 0.02407219726 0.06306529501
638.75 0.02695802169 0.1101761175
639.375 -0.01771801832 0.1203828116
640.0 -0.03120395387 0.08476680852
640.625 -0.0228440364 0.07284450601
641.25 -0.05175617877 0.08372357572
641.875 -0.08563770509 0.04713382678
642.5 -0.07119535098 0.0280226628
643.125 -0.06989098954 0.03622912071
643.75 -0.09517051266 0.02846020896
644.375 -0.1083816415 0.006209101747
645.0 -0.09604433282 0.01381624848
645.625 -0.1055006796 0.04691165147
646.25 -0.1104112989 0.05747378233
646.875 -0.09976593126 0.0285998646
647.5 -0.0874895305 0.02049084076
648.125 -0.1062558129 0.03019468822
648.75 -0.1116788835 0.001668550739
649.375 -0.07695737659 -0.01258361162
650.0 -0.06077429528 -0.0274713181
650.625 -0.04950516925 -0.06980674048
651.25 -0.01257228147 -0.08590530435
651.875 0.02009515695 -0.07069622785
652.5 0.04515927294 -0.07724257108
653.125 0.1095205326 -0.08137963645
653.75 0.1274008141 -0.03886029656
654.375 0.1198864849 -0.03363503983
655.0 0.1346478149 -0.04761332636
655.625 0.1462575143 -0.0341605449
656.25 0.1055618148 -0.01677532286
656.875 0.07734712928 -0.05195847465
657.5 0.1032536901 -0.05577299577
658.125 0.1067417482 -0.02933747787
658.75 0.07486151695 -0.004244655159
659.375 0.0653089876 -0.0186026539
660.0 0.09469163212 -0.0548060326
660.625 0.1064922362 -0.06299222051
661.25 0.09009481843 -0.0738282553
661.875 0.06163627962 -0.1130237585
662.5 0.04862551043 -0.1446961612
663.125 0.06748325736 -0.1293710272
663.75 0.08854980024 -0.0911935309
664.375 0.139941016 -0.03646070199
665.0 0.1178036474 0.05798130248
665.625 0.07262130883 0.06846027488
666.25 0.0546009906 0.06789027938
666.875 0.02812875767 0.1144266108
667.5 -0.05145407407 0.111357703
668.125 -0.05498963598 0.07752633607
668.75 -0.02926928115 0.103155414
669.375 -0.02750951579 0.1474464275
670.0 -0.06399796756 0.1306898328
670.625 -0.06246665302 0.08471813628
671.25 -0.02091514777 0.1165750867
671.875 0.01094774406 0.1489711226
672.5 0.05535525697 0.1247274997
673.125 0.05402461675 0.08482261156
673.75 0.04575200372 0.08835893315
674.375 0.01345374968 0.114450228
675.0 -0.03068225667 0.1057956148
675.625 -0.05751266876 0.09808944986
676.25 -0.1203072393 0.07474373288
676.875 -0.1346805638 0.03244033326
677.5 -0.1302649874 0.0341655097
678.125 -0.1351097434 0.07523656597
678.75 -0.172907315 0.05872219409
679.375 -0.119308344 0.002166196004
680.0 -0.08505610951 0.01859463923
680.625 -0.09502663344 0.05026360657
681.25 -0.1188389722 0.06540325198
681.875 -0.09697252962 0.02747302744
682.5 -0.06580966963 0.03949600598
683.125 -0.08330295849 0.08017879158
683.75 -0.1301813131 0.08057159635
684.375 -0.1468777055 -0.01832659043
685.0 -0.08741805958 -0.09318394904
685.625 -0.02743559755 -0.1514428333
686.25 0.04185958522 -0.161957626
686.875 0.06649086139 -0.1475008388
687.5 0.09058990028 -0.1291666637
688.125 0.1019205709 -0.08280879501
688.75 0.09063668903 -0.03792195716
689.375 0.08265188088 -0.02756285644
690.0 0.1193241351 -0.02544653768
690.625 0.1310393363 0.02055180638
691.25 0.1065065756 0.002881207459
691.875 0.09422727241 -0.06533272777
692.5 0.01558324577 -0.1816216043
693.125 -0.1212705159 -0.1810409727
693.75 -0.1374127777 -0.06301635271
694.375 -0.1358925889 -0.01039171993
695.0 -0.1485514086 -0.0767366651
695.625 -0.02481727896 -0.1720014319
696.25 0.1052192316 -0.06100755113
696.875 0.1007807279 0.03012021676
697.5 0.04701816913 0.1014335816
698.125 -0.005452819174 0.1163451209
698.75 -0.02246516099 0.1234010176
699.375 -0.03318704233 0.1386158327
700.0 -0.05580281672 0.1204744112
700.625 -0.07775425273 0.09223848548
701.25 -0.07829921604 0.1128542425
701.875 -0.08584925628 0.1565160462
702.5 -0.02701810743 0.120288087
703.125 0.01893158359 0.07468687841
703.75 0.07392686083 0.05067804056
704.375 0.1559073555 0.05819006686
705.0 0.1340348894 0.08623831219
705.625 0.07097929002 0.0845694099
706.25 0.02226648326 0.1148297293
706.875 -0.1131563475 0.1195900405
707.5 -0.1730974884 0.009861205433
708.125 -0.1216431782 -0.04583669524
708.75 -0.09908651272 -0.07479130573
709.375 -0.02320008353 -0.1203032382
710.0 0.06249602929 -0.09772791638
710.625 0.08116849981 -0.0602392989
711.25 0.08536424892 -0.04071998718
711.875 0.07022143204 -0.02379712052
712.5 0.06838845296 -0.02262906834
713.125 0.06389382973 -0.09030220611
713.75 -0.02196076716 -0.1496517534
714.375 -0.09534059678 -0.104201079
715.0 -0.1215472693 -0.04286336592
715.625 -0.1505124398 -0.04202852012
716.25 -0.1233306143 -0.1229973557
716.875 -0.02558030957 -0.1192820729
717.5 0.02011812543 -0.08752962332
718.125 0.04994446358 -0.08927672575
718.75 0.09424439596 -0.06653964254
719.375 0.08782096169 -0.01276790141
720.0 0.05814080427 0.01890785478
720.625 0.01498712663 0.06172170068
721.25 -0.07633763601 0.03218200964
721.875 -0.08180280993 -0.06264031866
722.5 -0.07620133679 -0.08435668108
723.125 -0.123284241 -0.0410502333
723.75 -0.1078507991 0.05319965583
724.375 -0.03615407171 0.09096379089
725.0 0.02450302864 0.07780048488
725.625 0.04399729067 0.05097823176
726.25 0.03039806503 0.03272468751
726.875 0.002283275696 0.03461692655
727.5 -0.03314538139 0.0454268664
728.125 -0.06592215776 0.03757061465
728.75 -0.05867369966 0.03785733013
729.375 -0.02990703159 0.04646735907
730.0 -0.02513677464 0.04020653982
730.625 -0.04089695711 0.02951563705
731.25 -0.04394046748 0.01007659804
731.875 -0.03895538883 -0.01168041132
732.5 -0.02540411403 -0.02502612019
733.125 -0.01056185534 -0.01702384568
733.75 0.00188580002 -0.003345901915
734.375 0.0131507419 -0.004923323139
735.0 0.01017591586 -0.01504693531
735.625 0.007386034378 -0.0165633146
736.25 0.004104358431 -0.02476748839
736.875 -0.01174748675 -0.02914641558
737.5 -0.02718268475 -0.01543858975
738.125 -0.03412408759 0.007759145046
738.75 -0.02691605831 0.03309893226
739.375 -0.005072925505 0.04266308337
740.0 0.01204714264 0.02907722131
740.625 0.008742669118 0.02508409285
741.25 0.002586779364 0.03737141967
741.875 -0.02228550287 0.03608553353
742.5 -0.0436472837 -0.001274790519
743.125 -0.02019122243 -0.04613617496
743.75 0.01554307175 -0.05429266394
744.375 0.01705414382 -0.05499552569
745.0 0.000651185133 -0.06124103295
745.625 -0.02443896175 -0.05043996276
746.25 -0.01201261056 -0.02574818128
746.875 -0.0004785607291 -0.03239988642
747.5 -0.02225042342 -0.04134283427
748.125 -0.05211372226 -0.03033044015
748.75 -0.06668142817 0.007961530891
749.375 -0.04094406257 0.05891772243
750.0 0.03834800652 0.08096435442
