!Created with skrf (http://scikit-rf.org).
# GHz S RI R 50.0 
!freq ReS11 ImS11
500.0 -0.01628175824 -0.004787314858
500.625 -0.007625477021 -0.0007987791074
501.25 -0.01970814335 -0.01497619065
501.875 -0.05258387188 -0.01979423054
502.5 -0.04326311349 -0.01422381552
503.125 -0.02255150026 0.00895232078
503.75 -0.01764952994 0.01113766631
504.375 -0.0224526999 0.01344359183
505.0 -0.01210737414 0.01305059052
505.625 -0.00675909346 0.001852648109
506.25 -0.02464289494 0.005099712495
506.875 -0.06666518239 -0.01672682901
507.5 -0.06714614605 0.006916621658
508.125 -0.05623691927 -0.01260611009
508.75 -0.06701721812 0.03293873597
509.375 -0.0775693722 0.05257292705
510.0 -0.05835275237 0.03895142679
510.625 0.006156920659 0.02818520981
511.25 -0.003010820719 0.0420691227
511.875 0.01096674854 0.05821654442
512.5 0.03643824218 0.03296704863
513.125 0.0552053813 -0.03550717711
513.75 0.05789219291 -0.08510743752
514.375 0.01973218509 -0.08538220437
515.0 -0.01868214195 -0.06686415053
515.625 0.01260721722 -0.07877326358
516.25 -0.0132452026 -0.08141848351
516.875 0.06821101788 -0.0223755667
517.5 0.04871770682 -0.05331253782
518.125 0.1645429275 -0.02473450004
518.75 0.02693300198 -0.1182619419
519.375 0.02620255158 -0.07712061357
520.0 -0.005529810227 -0.0587677593
520.625 -0.0265464811 -0.09074072037
521.25 -0.04071624548 -0.09751928889
521.875 0.003441127797 -0.05509851993
522.5 -0.02950080607 -0.05620185437
523.125 -0.07749876613 -0.1652610867
523.75 -0.1546207787 -0.2562115223
524.375 -0.1063104681 -0.2589129509
525.0 -0.08954841121 -0.1077531283
525.625 -0.09195675644 -0.09477843564
526.25 -0.05256072632 -0.09538438086
526.875 -0.0605624492 -0.05811296071
527.5 -0.1017344862 -0.02567843602
528.125 -0.1061495416 0.0197930726
528.75 -0.08681270026 0.02017060883
529.375 -0.07200510661 0.09474368746
530.0 0.01220585594 0.1528731446
530.625 0.1215562347 0.1155489523
531.25 0.08271882899 0.08400285763
531.875 0.08690224995 0.0514268753
532.5 0.1225621367 0.09011178222
533.125 0.09540610255 0.09924865847
533.75 0.07783644703 0.0517538541
534.375 0.07804257201 0.03479242317
535.0 0.1204980805 0.05294141239
535.625 0.07046643109 0.09193467728
536.25 0.09289211466 0.01191470558
536.875 0.1158498037 0.01613868269
537.5 0.09172449352 0.05617222651
538.125 0.05971456879 0.05524406798
538.75 0.08351328067 0.0502442985
539.375 0.1339274538 0.09186146638
540.0 0.1246153908 0.09800886025
540.625 0.09487883597 0.05829413716
541.25 0.09461056317 0.05042866767
541.875 0.1158573682 0.06638341338
542.5 0.05465870998 0.06060060674
543.125 0.03010699349 0.02281470122
543.75 0.06255161505 0.009756455576
544.375 0.1156745725 0.006685108943
545.0 0.09471032146 -0.06523252414
545.625 0.02954602985 -0.0904599614
546.25 -0.03307856864 -0.1046293218
546.875 -0.02373225869 -0.1227001218
547.5 0.005290685164 -0.1189810707
548.125 0.00912409029 -0.1265567106
548.75 0.0486902911 -0.1325515195
549.375 0.1072943336 -0.127015152
550.0 0.1376326339 -0.05856760782
550.625 0.1452020773 -0.08991170766
551.25 0.1868766909 -0.01165910129
551.875 0.1317446004 -0.03638266424
552.5 0.09139456893 -0.05739036269
553.125 0.0723737866 -0.09865768471
553.75 0.1002335695 -0.08143040923
554.375 0.05662966913 -0.05076023408
555.0 0.0398297926 -0.05247740102
555.625 0.04701273715 -0.08026544456
556.25 0.07614507654 -0.07100178221
556.875 0.06071354775 -0.03178694651
557.5 0.04865293122 -0.02554243165
558.125 0.08813340276 -0.01438924243
558.75 0.09494541576 0.03922274397
559.375 0.09906865528 0.0307970754
560.0 0.1166679656 0.01056423137
560.625 0.1358263922 -0.02763436463
561.25 0.09823196709 -0.05006480092
561.875 0.0543987243 -0.06943459423
562.5 0.03793060003 -0.09133247607
563.125 0.02649550156 -0.08616515097
563.75 0.01293523146 -0.06248283102
564.375 -0.0002598939194 -0.05671137494
565.0 0.02206188634 -0.09937434876
565.625 0.05814402113 -0.09938951602
566.25 0.05829850809 -0.07505861934
566.875 0.05154723312 -0.07620224148
567.5 0.0774509107 -0.0689749289
568.125 0.1056096367 -0.01734300997
568.75 0.09610867714 0.006968191296
569.375 0.1187706782 -0.006967940713
570.0 0.1340877585 -0.01397512967
570.625 0.1139455755 -0.0253973055
571.25 0.09244687513 -0.04306314722
571.875 0.0911794409 -0.07577260937
572.5 0.06028184796 -0.09183189803
573.125 0.02020692907 -0.06794471411
573.75 0.005334231422 -0.06686214862
574.375 0.01380432426 -0.09818282111
575.0 0.009655093789 -0.1052331766
575.625 -0.01364612141 -0.06720680782
576.25 -0.02823673846 -0.05885775617
576.875 -0.007568674642 -0.08198676875
577.5 0.01983414569 -0.07328038641
578.125 0.0198048826 -0.06806832096
578.75 0.003790914824 -0.08662278955
579.375 0.01647445275 -0.1159677125
580.0 0.04135079901 -0.1001709473
580.625 0.01593025824 -0.1082316728
581.25 -0.028543192 -0.1283621923
581.875 -0.02505174052 -0.1153971805
582.5 -7.238176572e-05 -0.07758844704
583.125 0.004521203182 -0.07030411763
583.75 0.01745478022 -0.09763042215
584.375 0.03691508318 -0.08711647997
585.0 0.0333793955 -0.05777019054
585.625 0.03805821827 -0.0538764408
586.25 0.05713753082 -0.06522037238
586.875 0.0516734753 -0.06002715922
587.5 0.02483611253 -0.05601097927
588.125 0.006921660929 -0.0746935408
588.75 0.03008767732 -0.09148750338
589.375 0.007242848107 -0.1025292844
590.0 -0.0486748453 -0.08755204837
590.625 -0.09731466659 -0.06494131888
591.25 -0.06936818999 -0.05712493422
591.875 -0.03314657712 -0.03159766906
592.5 -0.02769204398 -0.02852963614
593.125 -0.03820309909 -0.05245328881
593.75 -0.0149923839 -0.06911297482
594.375 0.02035866175 -0.05008332949
595.0 0.03326154905 -0.04809923067
595.625 0.05735451933 -0.05737822548
596.25 0.06971670315 -0.04327522603
596.875 0.06158509636 -0.02304381204
597.5 0.06237569187 -0.0158598526
598.125 0.07674971235 -0.01907643343
598.75 0.0779494564 -0.03476764561
599.375 0.07235197507 -0.05102239467
600.0 0.0708174901 -0.05783625621
600.625 0.05948243113 -0.05167110839
601.25 0.03403362044 -0.04660599612
601.875 0.01934673629 -0.04052975295
602.5 0.0233759563 -0.02840883431
603.125 0.02161483017 -0.006217618319
603.75 0.02020285596 0.005309767119
604.375 0.03207125249 0.005114120386
605.0 0.04247060248 0.002926771266
605.625 0.02715346445 0.004772675906
606.25 0.005001243741 0.01101362217
606.875 0.001535682354 0.02837743247
607.5 0.019127983 0.04099981155
608.125 0.03585830403 0.02971584032
608.75 0.03380985184 0.01992570963
609.375 0.03157073877 0.02349974074
610.0 0.03266675626 0.02591113307
610.625 0.03392870232 0.01450138511
611.25 0.02872373952 0.002467789717
611.875 0.01938695866 -0.005093479955
612.5 0.00646220002 -0.01186493962
613.125 -0.008536602772 -0.01040100634
613.75 -0.01300879894 -0.0001304623486
614.375 -0.004861582649 0.003867800114
615.0 0.001957066286 -0.004777021927
615.625 -0.004888362097 -0.01420572351
616.25 -0.01302186523 -0.008143960576
616.875 -0.006106345528 0.000825398478
617.5 0.005639251977 -0.004317073401
618.125 0.009283505565 -0.01527921818
618.75 0.009643937096 -0.01701645103
619.375 0.01881025522 -0.01382928557
620.0 0.03335800732 -0.02425390807
620.625 0.03078893101 -0.05227666781
621.25 0.02899409623 -0.06650274376
621.875 0.01510907496 -0.07753676662
622.5 -0.05175260702 -0.05797068781
623.125 -0.05323692149 -0.03191116615
623.75 -0.03315739861 -0.02277559612
624.375 -0.01177883837 -0.02970290136
625.0 0.00969714871 -0.03370136555
625.625 0.009898782129 -0.02338164622
626.25 0.01593405784 -0.007994863126
626.875 0.03800481132 -0.01298899779
627.5 0.06845190356 -0.01333277808
628.125 0.07033607784 -0.002869862757
628.75 0.06465233945 -0.001123501024
629.375 0.07760583102 -0.002120015368
630.0 0.1020789699 0.01354507549
630.625 0.09107984229 0.03537201126
631.25 0.08457960686 0.02157011402
631.875 0.09067720465 0.0140454565
632.5 0.08624302636 0.01699902704
633.125 0.06339826129 0.03107936093
633.75 0.05955430674 0.01916933001
634.375 0.068727679 0.02744323778
635.0 0.05941701179 0.02772527525
635.625 0.0531345525 0.02983319052
636.25 0.07010455582 0.03799147705
636.875 0.08208235071 0.049084908
637.5 0.05935582123 0.03978671445
638.125 0.040664627 0.04003985227
638.75 0.05667513055 0.07699600112
639.375 0.02348666 0.1216638269
640.0 -0.005133611719 0.09885049126
640.625 0.002693594324 0.07686063714
641.25 -0.005762033756 0.09447765522
641.875 -0.05726716984 0.08841674701
642.5 -0.06016261694 0.05387490785
643.125 -0.04903698739 0.05667375379
643.75 -0.06608997557 0.06567003827
644.375 -0.09115258484 0.05528333006
645.0 -0.08833670054 0.04313966401
645.625 -0.07855418528 0.07195043161
646.25 -0.08072892701 0.09717413933
646.875 -0.08403157718 0.07336095307
647.5 -0.07523256502 0.05411895932
648.125 -0.08415743692 0.06526232412
648.75 -0.1106884591 0.05110096731
649.375 -0.08747025305 0.02322191704
650.0 -0.06890055941 0.006698238795
650.625 -0.07757719648 -0.02914855297
651.25 -0.05235580942 -0.0670028928
651.875 -0.0112253631 -0.06858587445
652.5 0.007829171495 -0.0714473743
653.125 0.05363327178 -0.1037790968
653.75 0.1084026878 -0.07668112381
654.375 0.106712707 -0.0603713494
655.0 0.1068923372 -0.08177223982
655.625 0.1240279591 -0.09574340561
656.25 0.1100292457 -0.06815814514
656.875 0.06100638913 -0.07782704509
657.5 0.07064370193 -0.09753802128
658.125 0.08859394973 -0.08890071964
658.75 0.06861062832 -0.05435203571
659.375 0.04342600089 -0.04368933017
660.0 0.04610864431 -0.07918394567
660.625 0.06418044558 -0.0962425382
661.25 0.05347142748 -0.09754822876
661.875 0.01563179681 -0.1147767928
662.5 -0.008451893856 -0.1451088849
663.125 0.01597067271 -0.1487753376
663.75 0.0575361313 -0.1163108551
664.375 0.11087607 -0.08821897701
665.0 0.1508482345 2.258880708e-05
665.625 0.1069419674 0.03895730393
666.25 0.08127778881 0.04334522629
666.875 0.08142870073 0.0771316989
667.5 0.02252451551 0.1232554044
668.125 -0.01953031152 0.09188185568
668.75 0.005687320757 0.09408012876
669.375 0.03286051797 0.13101395
670.0 0.004513281539 0.1502045895
670.625 -0.02769128547 0.1103770036
671.25 0.01815324216 0.1082364768
671.875 0.07116569029 0.1303041821
672.5 0.1144614492 0.09686575066
673.125 0.09757096112 0.05771249033
673.75 0.08341921044 0.05304946926
674.375 0.06617053947 0.08841532139
675.0 0.01780860247 0.1064439854
675.625 -0.009446292403 0.1024086039
676.25 -0.06277154455 0.1138442598
676.875 -0.1083368576 0.07801246154
677.5 -0.1124344093 0.07008951897
678.125 -0.09768754153 0.1013694324
678.75 -0.1315944839 0.130399702
679.375 -0.1364421907 0.05986364687
680.0 -0.08360113019 0.05503154074
680.625 -0.06259462909 0.08528238697
681.25 -0.06341229804 0.1246148087
681.875 -0.07123607569 0.09323220525
682.5 -0.03807277923 0.06185704798
683.125 -0.03009234867 0.09003844539
683.75 -0.07100507637 0.1158661886
684.375 -0.136101637 0.04904727716
685.0 -0.1102184661 -0.05326694756
685.625 -0.07366595968 -0.1175322465
686.25 -0.01756999153 -0.1628290622
686.875 0.01218564421 -0.1644093949
687.5 0.03560680179 -0.1595761237
688.125 0.06666036281 -0.1393295071
688.75 0.07434136789 -0.08957589059
689.375 0.06377111157 -0.06533050059
690.0 0.07970513697 -0.08000283056
690.625 0.1229301913 -0.06336481393
691.25 0.09319048789 -0.04393756285
691.875 0.05786719605 -0.07920253095
692.5 -0.04504754176 -0.1436097137
693.125 -0.1898372623 -0.1065489646
693.75 -0.1718635396 -0.01604741477
694.375 -0.1312020788 0.03576367439
695.0 -0.1608657677 -0.004909334761
695.625 -0.1111371925 -0.1430109038
696.25 0.07895317289 -0.118960583
696.875 0.1077134626 -0.01805736619
697.5 0.0945874581 0.06084392581
698.125 0.05145901898 0.09606708779
698.75 0.03046995704 0.1105432645
699.375 0.02797689596 0.1302869072
700.0 -0.002401641805 0.1318090856
700.625 -0.03944790025 0.1154161793
701.25 -0.03156239507 0.1247639047
701.875 0.0007031845373 0.1781733642
702.5 0.03534611578 0.1493199875
703.125 0.06510383374 0.06717622028
703.75 0.07768529535 0.003397307046
704.375 0.1372903639 -0.0330206604
705.0 0.1697186271 0.00868553218
705.625 0.09976896786 0.05326011218
706.25 0.05412443871 0.08420304559
706.875 -0.04367295313 0.1359001021
707.5 -0.1540659877 0.08471164875
708.125 -0.1424195872 -0.007334611644
708.75 -0.1208792998 -0.03310587658
709.375 -0.0784347122 -0.09992609761
710.0 0.007403308341 -0.1230584381
710.625 0.05150344538 -0.09933467882
711.25 0.06212676819 -0.08586143862
711.875 0.05050151582 -0.06961865121
712.5 0.03561048084 -0.05563268641
713.125 0.006591828017 -0.08591847172
713.75 -0.07967300249 -0.1074303761
714.375 -0.1237080623 -0.0589146445
715.0 -0.1228770252 -0.002376323121
715.625 -0.1388307059 0.01359930441
716.25 -0.1685623206 -0.05333717091
716.875 -0.08376658071 -0.1166646211
717.5 -0.01497763114 -0.09795517328
718.125 0.002712310685 -0.0997531623
718.75 0.04548116327 -0.1089450523
719.375 0.08067683998 -0.06432853251
720.0 0.06691541574 -0.01255275496
720.625 0.0472671374 0.0366295524
721.25 -0.03632512964 0.05778278226
721.875 -0.08782476685 -0.01790891482
722.5 -0.09123962799 -0.0502673459
723.125 -0.1243605466 0.003575818911
723.75 -0.08385542972 0.09205666822
724.375 0.003500846007 0.1033197145
725.0 0.05842685686 0.06330095752
725.625 0.07114906669 0.02944849424
726.25 0.05373229176 0.01639702135
726.875 0.02728281858 0.02456644711
727.5 0.000340626327 0.04417023103
728.125 -0.03559802668 0.05662987737
728.75 -0.03790407407 0.05622182058
729.375 -0.008962287259 0.05320853872
730.0 -0.002548255008 0.04329173365
730.625 -0.02283835006 0.04085664247
731.25 -0.03773417319 0.0254279707
731.875 -0.041564053 0.001813407025
732.5 -0.03604523552 -0.01634789143
733.125 -0.02337346486 -0.01620434115
733.75 -0.00894073456 -0.003413924007
734.375 0.004281100614 -0.003442802234
735.0 0.004539686777 -0.01068395231
735.625 0.004866522134 -0.01283748059
736.25 0.003399999859 -0.02307532189
736.875 -0.01181418548 -0.02956741312
737.5 -0.02615306512 -0.01738092541
738.125 -0.03048748886 0.004845470152
738.75 -0.02031643678 0.03109262877
739.375 0.003881165528 0.04154019813
740.0 0.02275655086 0.02540505121
740.625 0.02018383238 0.0167004881
741.25 0.0170229936 0.03038158585
741.875 -0.007733999302 0.04139453411
742.5 -0.04126554675 0.01466195909
743.125 -0.03787687851 -0.03365626678
743.75 -0.009639655807 -0.05963169043
744.375 -0.005223282107 -0.06467413409
745.0 -0.02478808347 -0.06447367867
745.625 -0.05649561684 -0.04237627675
746.25 -0.04094728909 -0.01117497536
746.875 -0.01826894132 -0.01392280324
747.5 -0.02793781865 -0.02048202143
748.125 -0.05130861629 -0.005762011018
748.75 -0.0541965758 0.03332436565
749.375 -0.01095277579 0.06815966127
750.0 0.06383168324 0.052755921
