!Created with skrf (http://scikit-rf.org).
# GHz S RI R 50.0 
!freq ReS11 ImS11
500.0 -0.01141931081 -0.006872247531
500.625 -0.0001576436355 -0.0007093310301
501.25 -0.01555828453 -0.01854148716
501.875 -0.04695047027 -0.02512586474
502.5 -0.03538385501 -0.01408906644
503.125 -0.01791669514 0.006153678839
503.75 -0.01484026857 0.006006281585
504.375 -0.02220401855 0.00635311276
505.0 -0.01367876246 0.00542228835
505.625 -0.008066884908 -0.004309813414
506.25 -0.02896432321 -0.003104609288
506.875 -0.06534841101 -0.03131540598
507.5 -0.0665981825 -0.006786468722
508.125 -0.05386716967 -0.02383844918
508.75 -0.07721170709 0.01981816624
509.375 -0.08660748457 0.03643398747
510.0 -0.06454813325 0.02409985291
510.625 -0.002489673167 0.02994655007
511.25 -0.01410067884 0.04445611051
511.875 0.005409745377 0.06626607779
512.5 0.03181409015 0.03587336417
513.125 0.06066345847 -0.0293976201
513.75 0.07148190012 -0.07087785677
514.375 0.03417920646 -0.07688576542
515.0 -0.005417062465 -0.0656610683
515.625 0.03079192813 -0.0725350114
516.25 0.01015537819 -0.08278294881
516.875 0.07578221709 -0.005773229416
517.5 0.06009234579 -0.04994091717
518.125 0.1807122243 -0.006123102553
518.75 0.04692045488 -0.114852988
519.375 0.03869622882 -0.07071941229
520.0 0.003429624874 -0.06336554418
520.625 -0.00858435357 -0.1021274595
521.25 -0.0225499777 -0.1058650118
521.875 0.01241863174 -0.05739279919
522.5 -0.0246774236 -0.06514624172
523.125 -0.06221676627 -0.1880187037
523.75 -0.1264844011 -0.2801151995
524.375 -0.08453817278 -0.2699693854
525.0 -0.08036776019 -0.1196500011
525.625 -0.07711159116 -0.1044825708
526.25 -0.03725472199 -0.09876154604
526.875 -0.05249928232 -0.06493965499
527.5 -0.09758886762 -0.04102576825
528.125 -0.1035660121 0.0007638250441
528.75 -0.08670561667 0.008037579571
529.375 -0.08462795381 0.0867435163
530.0 -0.01058513834 0.152157365
530.625 0.09500173992 0.1231346296
531.25 0.06334866219 0.08411318176
531.875 0.07276214917 0.06999409051
532.5 0.09981798388 0.1210273876
533.125 0.07266096395 0.1139555248
533.75 0.06757705478 0.06253512005
534.375 0.07442275408 0.04951657631
535.0 0.1115173623 0.07780004713
535.625 0.05493111107 0.09931862748
536.25 0.09003619868 0.022243675
536.875 0.1082340858 0.0353021257
537.5 0.07408121072 0.07356749148
538.125 0.04608568107 0.06688652763
538.75 0.07850091058 0.0645883923
539.375 0.1155635159 0.1171025843
540.0 0.101616623 0.1104216762
540.625 0.07998929078 0.07072109317
541.25 0.08463160223 0.06651239586
541.875 0.09644053552 0.08817138573
542.5 0.0341142391 0.06588529945
543.125 0.02368375835 0.03268464829
543.75 0.06875063763 0.02697276595
544.375 0.1200691021 0.02970394806
545.0 0.1048008106 -0.04933218355
545.625 0.04232765834 -0.08701170841
546.25 -0.0143749558 -0.1152834472
546.875 -0.000174142371 -0.1260023154
547.5 0.0239646448 -0.1178897987
548.125 0.03012441982 -0.1304115194
548.75 0.07255872996 -0.1298433948
549.375 0.1276043102 -0.1092258022
550.0 0.1443966987 -0.04355033681
550.625 0.1620262623 -0.07452725403
551.25 0.1803627166 0.01694490419
551.875 0.1282983132 -0.01752675736
552.5 0.09312032271 -0.04440174465
553.125 0.08660377801 -0.08601543195
553.75 0.1088328894 -0.05530045588
554.375 0.05902934417 -0.03587539439
555.0 0.04836224716 -0.04226784031
555.625 0.06381049969 -0.06870560816
556.25 0.08914273905 -0.04955127296
556.875 0.06390161404 -0.01504427367
557.5 0.05769296426 -0.01441887816
558.125 0.09591551963 0.006561319826
558.75 0.09037975731 0.05806002973
559.375 0.09711973689 0.04531874614
560.0 0.1177094122 0.02506825269
560.625 0.1360271664 -0.005528869302
561.25 0.09849012291 -0.03344802833
561.875 0.06272405669 -0.05808425468
562.5 0.05634958489 -0.07772265374
563.125 0.04459627007 -0.07376231957
563.75 0.02681169539 -0.05437080601
564.375 0.01387046444 -0.05914411181
565.0 0.04906715121 -0.1001078787
565.625 0.07487209146 -0.08720099594
566.25 0.06930679555 -0.06603428687
566.875 0.06524561153 -0.06931626306
567.5 0.09342456518 -0.05409480903
568.125 0.1079683877 0.005372287384
568.75 0.09768415466 0.01935046956
569.375 0.1232410965 0.01167658717
570.0 0.1340678664 0.00774746755
570.625 0.1131175591 -0.007060444482
571.25 0.09542414 -0.02967855618
571.875 0.1021473602 -0.05797776014
572.5 0.06874460816 -0.07271088121
573.125 0.02979321354 -0.05628213555
573.75 0.02243137349 -0.06457011162
574.375 0.03503631957 -0.09454213015
575.0 0.03039668029 -0.09641800122
575.625 -0.0008652081493 -0.06528597821
576.25 -0.01282013527 -0.0659078381
576.875 0.01781195848 -0.08282217748
577.5 0.0366114619 -0.07000642388
578.125 0.03144511625 -0.06720035838
578.75 0.02024504762 -0.09207349499
579.375 0.04182239094 -0.1150806088
580.0 0.05451927061 -0.09248817589
580.625 0.02901700917 -0.1072765718
581.25 -0.008394644401 -0.1308727092
581.875 -0.002990102392 -0.1113088191
582.5 0.01395098408 -0.06886518252
583.125 0.01859413635 -0.0682789531
583.75 0.03977279924 -0.09138471839
584.375 0.05166274261 -0.07485975715
585.0 0.04307584943 -0.0478145721
585.625 0.05068405514 -0.04513522695
586.25 0.07235749989 -0.0522849422
586.875 0.06077818927 -0.0471171749
587.5 0.03569961831 -0.05075314383
588.125 0.02664266085 -0.07585453401
588.75 0.04887488457 -0.08649203663
589.375 0.02271561054 -0.09942597998
590.0 -0.03803813542 -0.09325618326
590.625 -0.08275000999 -0.08013922682
591.25 -0.0488819295 -0.06199903277
591.875 -0.02023083683 -0.03412903938
592.5 -0.01823879687 -0.03645272472
593.125 -0.02307993941 -0.06490971237
593.75 0.004551386887 -0.07182167445
594.375 0.03168151212 -0.0465312942
595.0 0.04531703651 -0.04577160135
595.625 0.07117513188 -0.04810923626
596.25 0.07753724326 -0.02947768836
596.875 0.06542006176 -0.01187158413
597.5 0.067668264 -0.005100082962
598.125 0.08185876552 -0.005638517145
598.75 0.08335051299 -0.02328957992
599.375 0.07889368955 -0.04109251929
600.0 0.07603057016 -0.04578620465
600.625 0.06120556781 -0.03974368632
601.25 0.03565125251 -0.0369284885
601.875 0.02423400037 -0.03128764636
602.5 0.02748431656 -0.01641300021
603.125 0.02131423729 0.00359174346
603.75 0.02046490603 0.01259529202
604.375 0.03359690107 0.01295481409
605.0 0.04145491283 0.01295488727
605.625 0.02292074019 0.01199384964
606.25 0.001515488169 0.0161676515
606.875 -0.001822104611 0.03408658593
607.5 0.01527844534 0.04705510032
608.125 0.032843537 0.03505035099
608.75 0.03185657131 0.02420551169
609.375 0.0292736283 0.02730701837
610.0 0.02956170004 0.02870032173
610.625 0.03119094889 0.01644770313
611.25 0.02636194368 0.003860214847
611.875 0.01726014593 -0.004607190123
612.5 0.004847100312 -0.01190659952
613.125 -0.009466322332 -0.01055640835
613.75 -0.01321648587 -0.0003035006333
614.375 -0.004401192306 0.003732118695
615.0 0.003073656117 -0.004900163422
615.625 -0.00300726794 -0.01431062293
616.25 -0.01054736879 -0.008135544762
616.875 -0.003099994412 0.0008029220898
617.5 0.009443484942 -0.004455385856
618.125 0.01416943141 -0.01467328825
618.75 0.01475630296 -0.01561202276
619.375 0.0239163544 -0.01226884571
620.0 0.03981979557 -0.0225587392
620.625 0.03831875624 -0.05082397802
621.25 0.03584560152 -0.06316724502
621.875 0.02184690693 -0.07414235401
622.5 -0.04268083059 -0.05963818416
623.125 -0.04308537089 -0.03341237355
623.75 -0.02320257716 -0.02245065879
624.375 -0.0013681067 -0.02654122353
625.0 0.0187285857 -0.02456252304
625.625 0.01800598672 -0.01368208964
626.25 0.02442464022 -0.001067876943
626.875 0.04939145228 -0.005709544851
627.5 0.07592908471 0.001511426588
628.125 0.07218565123 0.01028912506
628.75 0.06746646561 0.009722319356
629.375 0.08311728057 0.01170934453
630.0 0.1001083104 0.03320735164
630.625 0.08171645484 0.04699555846
631.25 0.0785906733 0.03287601235
631.875 0.08327899188 0.03068875813
632.5 0.07422698032 0.0345910026
633.125 0.04875606984 0.04135711898
633.75 0.05133645956 0.03175818006
634.375 0.05605987095 0.04445824744
635.0 0.04704282128 0.04323607042
635.625 0.04504344461 0.04496877293
636.25 0.06319392664 0.05594525211
636.875 0.06816975605 0.0675785407
637.5 0.04453772127 0.05211774524
638.125 0.03194850176 0.0535528184
638.75 0.04198024083 0.09756100388
639.375 -0.001122775445 0.1228101647
640.0 -0.02168772293 0.091512372
640.625 -0.01180274562 0.07523995743
641.25 -0.03219765089 0.09145059265
641.875 -0.07692006321 0.06611722419
642.5 -0.06745927519 0.03914194584
643.125 -0.06101490866 0.04628440324
643.75 -0.0844194868 0.04654252838
644.375 -0.1044892099 0.0277223254
645.0 -0.09375879781 0.02538441006
645.625 -0.09483226165 0.05901216492
646.25 -0.1004228665 0.0757169882
646.875 -0.09585332976 0.0476178502
647.5 -0.08362097687 0.03467520618
648.125 -0.0982107902 0.04674025523
648.75 -0.1143868682 0.02265889872
649.375 -0.0830336585 0.001842991831
650.0 -0.06552072539 -0.01275307379
650.625 -0.0641306562 -0.05424286946
651.25 -0.03025804395 -0.08052793954
651.875 0.007607241541 -0.0707890357
652.5 0.02868554776 -0.07615623915
653.125 0.08751636997 -0.09457188255
653.75 0.1215447791 -0.05484511006
654.375 0.1150647599 -0.04486090698
655.0 0.1237809265 -0.06432526675
655.625 0.140871643 -0.0624884657
656.25 0.110629041 -0.03670755618
656.875 0.07103707797 -0.062767813
657.5 0.09173056212 -0.07550341124
658.125 0.1030781852 -0.05467356022
658.75 0.07518726423 -0.02378642855
659.375 0.05658354877 -0.0293691831
660.0 0.07523669574 -0.06819445869
660.625 0.09093137125 -0.07914302127
661.25 0.07620583529 -0.08511347881
661.875 0.04141438706 -0.1157143407
662.5 0.02410142082 -0.1477913026
663.125 0.04800114869 -0.1405668071
663.75 0.07649920018 -0.1021953093
664.375 0.1305869532 -0.06057115327
665.0 0.1349093584 0.03766769062
665.625 0.08792348675 0.05847566586
666.25 0.06639853108 0.05789289773
666.875 0.05433531959 0.1011440942
667.5 -0.02150105981 0.1219587775
668.125 -0.04125245632 0.08435137625
668.75 -0.01370700832 0.1000946641
669.375 -0.0004468122996 0.1440846537
670.0 -0.03801845091 0.1435701164
670.625 -0.05070257183 0.09556195803
671.25 -0.003889852819 0.1143932151
671.875 0.03688283118 0.1450814434
672.5 0.08072653742 0.1175002966
673.125 0.07283653237 0.07569596308
673.75 0.06368525705 0.07497454696
674.375 0.03736990174 0.1068050367
675.0 -0.01091516364 0.10844347
675.625 -0.03701605553 0.1018682524
676.25 -0.09899530442 0.09499081247
676.875 -0.1262395609 0.05231796207
677.5 -0.1248379846 0.04853305265
678.125 -0.1199931068 0.08798267241
678.75 -0.1613842743 0.09141209349
679.375 -0.1293687234 0.0227935763
680.0 -0.08560095875 0.0330391773
680.625 -0.08226960935 0.06741308067
681.25 -0.09966819609 0.09483366664
681.875 -0.09180172199 0.05474456147
682.5 -0.0549250758 0.04857704045
683.125 -0.06105851671 0.08734222189
683.75 -0.1079828427 0.0985871481
684.375 -0.1472329717 0.008631248959
685.0 -0.09752879456 -0.07805556227
685.625 -0.04896862644 -0.1395960844
686.25 0.01748843814 -0.1655730325
686.875 0.04488931977 -0.1574245754
687.5 0.06867882301 -0.1449550268
688.125 0.09120967539 -0.1074752545
688.75 0.08712904704 -0.05951231671
689.375 0.07586968822 -0.04356067086
690.0 0.1056218053 -0.05123815441
690.625 0.1345274532 -0.01248280432
691.25 0.1034254954 -0.01571799278
691.875 0.07958752018 -0.07148800314
692.5 -0.01283445022 -0.1688578257
693.125 -0.1548667834 -0.1567868879
693.75 -0.1522893866 -0.0472360074
694.375 -0.135218927 0.009495232464
695.0 -0.1580558854 -0.0468385129
695.625 -0.06245584713 -0.1668224807
696.25 0.09865020205 -0.0839223083
696.875 0.1053102921 0.01026164844
697.5 0.06845529678 0.08787627167
698.125 0.01823475949 0.1115603911
698.75 -0.0008277818679 0.1205766359
699.375 -0.007578987701 0.1387769457
700.0 -0.03453706354 0.1283187795
700.625 -0.06367610847 0.1031300191
701.25 -0.05852546059 0.119765782
701.875 -0.05065509096 0.1728354319
702.5 -0.005006203196 0.1345537617
703.125 0.03666938596 0.0737327839
703.75 0.07709016451 0.03057087316
704.375 0.1552337034 0.01944608772
705.0 0.1529921287 0.06064171138
705.625 0.08265601184 0.07371279113
706.25 0.03696872748 0.1027979922
706.875 -0.08510498289 0.1309607505
707.5 -0.1714271682 0.04106272867
708.125 -0.1306451867 -0.03201992685
708.75 -0.1105008392 -0.05812326209
709.375 -0.04727596551 -0.115353795
710.0 0.04231005735 -0.1115583459
710.625 0.07156596933 -0.07675867885
711.25 0.07849763523 -0.06022404659
711.875 0.06479478454 -0.04310966575
712.5 0.05687607796 -0.0373557416
713.125 0.03962672146 -0.09143161225
713.75 -0.04804746841 -0.1366706787
714.375 -0.1088266592 -0.08784229291
715.0 -0.1232768763 -0.02717281617
715.625 -0.1485488013 -0.01793140555
716.25 -0.1467949481 -0.09897375145
716.875 -0.0472269095 -0.1218365963
717.5 0.006866119277 -0.0925758986
718.125 0.03084230304 -0.09619785578
718.75 0.07779143653 -0.08724429043
719.375 0.08845586039 -0.03277532973
720.0 0.06255939016 0.006411691998
720.625 0.03006477403 0.05289623202
721.25 -0.06134783457 0.04525631354
721.875 -0.08670642997 -0.04530327489
722.5 -0.08349783143 -0.07122859095
723.125 -0.1262444901 -0.02320951157
723.75 -0.1005203358 0.06979711318
724.375 -0.02115285408 0.09791105571
725.0 0.03892011129 0.07361450066
725.625 0.05604939802 0.04393803703
726.25 0.04041627608 0.02744581279
726.875 0.01285739016 0.03159275693
727.5 -0.0193155085 0.04679724463
728.125 -0.0549706915 0.04689425095
728.75 -0.05140398112 0.0460741517
729.375 -0.02177177522 0.04988879665
730.0 -0.01615320874 0.04253539576
730.625 -0.03440799074 0.03496615124
731.25 -0.04221645871 0.01627131699
731.875 -0.04055512397 -0.00645955598
732.5 -0.03015599987 -0.02204004115
733.125 -0.01571578765 -0.01734852301
733.75 -0.002400111336 -0.003828921577
734.375 0.00948290967 -0.00454391311
735.0 0.007813521256 -0.01338617221
735.625 0.006388663616 -0.01510291927
736.25 0.003992136975 -0.02413152856
736.875 -0.01153903686 -0.02932535106
737.5 -0.02651199661 -0.01610095755
738.125 -0.03240754199 0.00683500072
738.75 -0.0242115115 0.03278854577
739.375 -0.001522140784 0.04281461488
740.0 0.01656667277 0.02832837468
740.625 0.01383281677 0.02242494869
741.25 0.008926925121 0.03566072504
741.875 -0.01678794618 0.0391918988
742.5 -0.04374625933 0.005350379822
743.125 -0.02835751484 -0.04234348176
743.75 0.006160755988 -0.05816454052
744.375 0.009331784448 -0.06001286385
745.0 -0.009511358775 -0.06401519975
745.625 -0.03804045859 -0.04923196836
746.25 -0.02462872526 -0.02194402246
746.875 -0.008537597702 -0.02618631124
747.5 -0.02570040961 -0.03311038541
748.125 -0.05328884767 -0.02021628804
748.75 -0.06344705385 0.01905274608
749.375 -0.0296682494 0.06436401178
750.0 0.05007049701 0.07112906665
