!Created with skrf (http://scikit-rf.org).
# GHz S RI R (50+0j) 
!freq	ReS11	ImS11	
500.0	0.4888675853	-1.313997163	
500.625	-0.3486092759	-0.9919379989	
501.25	-0.02563476561	-0.9323530479	
501.875	-0.4764137429	-0.4617909552	
502.5	-0.03418857236	-0.07552649806	
503.125	-0.1232704456	-0.02088286575	
503.75	0.0693643674	0.08223128772	
504.375	0.0212084212	0.03017614786	
505.0	0.03135241878	-0.05474186168	
505.625	0.03450587226	0.01215566526	
506.25	-0.06054331555	-0.1686997177	
506.875	0.05077227655	0.1718257568	
507.5	0.1463850272	-0.6204573392	
508.125	-0.1533883472	-0.9703064179	
508.75	0.2134917795	-0.5709342621	
509.375	0.3134169458	-1.630339373	
510.0	-0.7112275906	-0.2845375917	
510.625	0.001353507925	-0.1360502987	
511.25	-0.1834255661	-0.1768611373	
511.875	-0.1128920738	0.05338600828	
512.5	-0.06536767471	0.01542733337	
513.125	-0.05470912373	-0.1404737793	
513.75	-0.05004965023	0.002319395873	
514.375	-0.03456457967	-0.1208183299	
515.0	-0.09934672076	0.3920299525	
515.625	0.430356911	-0.8575770109	
516.25	-0.7558261205	-0.9003507213	
516.875	-0.02118368882	-0.1345270064	
517.5	0.004968839916	-0.311831785	
518.125	-0.07770541707	0.04770787678	
518.75	0.03249635266	-0.2038501076	
519.375	-0.07275825258	0.07632199663	
520.0	0.09902114024	0.087031645	
520.625	0.1635776423	0.02741738707	
521.25	-0.02634914703	-0.4037191366	
521.875	-0.1262048172	0.06920792787	
522.5	-0.02835811173	-0.03099278338	
523.125	-0.05843510128	0.1647003162	
523.75	0.02012183122	-0.1050982442	
524.375	-0.3419277982	0.0357035702	
525.0	0.1304942686	0.08778600958	
525.625	-0.06048856371	0.0239380199	
526.25	0.08011772477	-0.02523530069	
526.875	-0.1336547604	0.02583246706	
527.5	0.05801702162	0.1523853177	
528.125	0.07684303291	0.107842981	
528.75	-0.124180324	0.2375788802	
529.375	0.1414601883	0.06871581178	
530.0	-0.08818221295	0.1102375581	
530.625	0.2458398818	0.4328061861	
531.25	0.4318797672	-0.00324714913	
531.875	0.2952930739	-0.02165102016	
532.5	-0.06935070071	-0.2863980192	
533.125	0.131451855	0.1070516415	
533.75	0.1289100313	-0.3272528324	
534.375	-0.07408115055	-0.1494531417	
535.0	-0.1534450426	-0.2081289627	
535.625	-0.191526112	0.1809311499	
536.25	0.01003802546	0.05697260368	
536.875	0.1127877	0.057264883	
537.5	0.05037475677	-0.08417620909	
538.125	0.09476932252	0.006269819914	
538.75	0.1635109311	-0.1775887763	
539.375	-0.1106401227	-0.1129117984	
540.0	-0.1582604947	-0.1037229251	
540.625	-0.2456388295	-0.03989629592	
541.25	-0.1001638821	0.04548806827	
541.875	6.227089646e-05	-0.06723462181	
542.5	-0.08887566881	0.003128444467	
543.125	-0.01493656051	-0.06981893658	
543.75	-0.1696334453	-0.07219271139	
544.375	0.0157897888	0.02691293363	
545.0	-0.1013281549	0.06565418331	
545.625	0.1087887	0.04016161192	
546.25	0.03117618878	0.06599371134	
546.875	0.1943702885	-0.02512577044	
547.5	-0.008025737251	-0.1490987494	
548.125	0.0176305167	-0.1591450526	
548.75	-0.1725029794	-0.1757608945	
549.375	-0.1109841224	-0.01192969123	
550.0	-0.06439778821	-0.04513841898	
550.625	-0.06598054539	0.0544965465	
551.25	-0.06471890821	-0.01531129104	
551.875	-0.1074380513	0.09978814408	
552.5	-0.01335484604	0.0950039356	
553.125	-0.03748144136	0.06670253295	
553.75	0.06387029716	0.04946636205	
554.375	0.09335891355	0.009465349547	
555.0	0.1227089423	-0.07279355119	
555.625	0.09124393202	-0.1162214197	
556.25	0.07404431075	-0.1440561165	
556.875	-0.03296523043	-0.1771719462	
557.5	-0.1089591196	-0.1146356096	
558.125	-0.1211712629	-0.03888336194	
558.75	-0.1176066171	-0.01067248767	
559.375	-0.1268000907	0.02604111376	
560.0	-0.0848196263	0.08236675764	
560.625	-0.0743074347	0.10968462	
561.25	0.02352827017	0.1266284135	
561.875	0.01532788574	0.02182114573	
562.5	0.01994315021	0.09818285422	
563.125	0.06398318197	0.03972792855	
563.75	0.1488622963	0.05373597784	
564.375	0.1502638875	-0.1457023468	
565.0	0.01549213472	-0.1282136507	
565.625	0.01829474212	-0.1947750628	
566.25	-0.1697235547	-0.08766274761	
566.875	-0.07853994693	-0.0783326616	
567.5	-0.1859030515	-0.1941634531	
568.125	-0.1732438566	-0.09331118647	
568.75	-0.1760234978	-0.1449766096	
569.375	-0.3416274598	0.170698763	
570.0	-0.04124204851	0.1904183914	
570.625	-0.1288588464	0.1361212066	
571.25	0.05374094733	0.1931000485	
571.875	-0.02774524808	0.009319499773	
572.5	0.2303396313	0.04590375163	
573.125	0.01228234146	-0.1609821544	
573.75	0.07803510911	-0.01781796956	
574.375	0.04128658049	-0.1816688109	
575.0	-0.03327295803	0.04241658335	
575.625	0.1253876513	-0.1232434342	
576.25	-0.04222388557	-0.1439276411	
576.875	0.05246019548	-0.07471595452	
577.5	0.08042256893	-0.2723866963	
578.125	-0.1481825192	-0.1505033234	
578.75	-0.005361727844	-0.08131985666	
579.375	-0.1117782836	-0.1897329776	
580.0	-0.1080790616	0.1095910451	
580.625	-0.05932314538	-0.1558093483	
581.25	-0.1163980044	0.1861533274	
581.875	0.01027460736	0.01307438976	
582.5	-0.0439877737	0.2082721123	
583.125	0.2482363317	0.05346799688	
583.75	-0.06644778103	-0.03127927555	
584.375	0.1374707175	0.1284281835	
585.0	0.06804905793	-0.02815110672	
585.625	0.1889924652	0.125613563	
586.25	0.2260870667	-0.1502340677	
586.875	0.01149336116	-0.07238864657	
587.5	0.07606168586	-0.1776155877	
588.125	-0.09314774391	-0.1937002954	
588.75	0.02811008865	-0.04157916547	
589.375	0.1641244026	-0.239854864	
590.0	-0.1433932701	-0.1384071518	
590.625	-0.04651492207	-0.1181330916	
591.25	-0.2540839868	0.1388216164	
591.875	0.07491677465	0.1294238762	
592.5	-0.0869714344	0.0148657638	
593.125	0.1355937006	0.02927071648	
593.75	-0.05030840609	0.09106436711	
594.375	0.2581483369	0.1687654196	
595.0	0.2015640621	-0.01507185237	
595.625	0.1477573185	0.1779192773	
596.25	0.2661851666	0.04974594639	
596.875	0.1108682564	-0.04691118225	
597.5	0.1182935	0.1757517557	
598.125	0.200206192	0.05074862896	
598.75	0.1117581694	0.04242881095	
599.375	0.2612547832	0.01472554467	
600.0	0.1768284884	-0.2370788132	
600.625	0.0579064376	-0.1332916211	
601.25	0.1552728115	-0.2007082186	
601.875	-0.1843928779	-0.1701350032	
602.5	-0.04113221443	-0.000930261738	
603.125	-0.3017221759	0.04963365673	
603.75	-0.0338231655	0.1619160201	
604.375	-0.08491751025	-0.02199110159	
605.0	-0.1157765906	0.2019418221	
605.625	0.03462333653	0.04151196336	
606.25	-0.2205337412	0.08740471057	
606.875	-0.16146318	0.2157892914	
607.5	-0.1527459353	0.1187132062	
608.125	-0.07993525866	0.2886773817	
608.75	0.2975796702	0.155961585	
609.375	0.1271634846	0.002464771837	
610.0	0.2467701113	-0.1000357325	
610.625	0.02492710562	-0.2355838335	
611.25	0.02650684165	-0.06464033088	
611.875	-0.1370218308	-0.2478989252	
612.5	-0.1690302589	0.06541907612	
613.125	-0.1699310884	-0.08612409591	
613.75	-0.1582286616	0.2835161001	
614.375	0.1399964765	0.01515843931	
615.0	-0.06270255136	0.1381783044	
615.625	0.1250197537	0.07265333849	
616.25	-0.1241611429	0.09932902192	
616.875	-0.1754577161	0.2951648623	
617.5	0.07460088948	0.2579384662	
618.125	-0.1101925834	0.1103321137	
618.75	0.01392856221	0.1752479168	
619.375	0.1491624936	0.09313394087	
620.0	0.1342068768	0.09388344412	
620.625	0.1800977785	-0.2656101683	
621.25	-0.2698904233	-0.1828959898	
621.875	-0.1601537164	-0.1661779609	
622.5	-0.3151830833	0.106032971	
623.125	0.05444449175	0.1746834598	
623.75	0.0356770602	0.1057454486	
624.375	0.08330566097	-0.146284456	
625.0	0.0168111525	0.0647708078	
625.625	0.1115346685	-0.164354161	
626.25	-0.1175242628	-0.07842360245	
626.875	-0.0739976779	-0.1312455688	
627.5	-0.2434861895	-0.06519165595	
628.125	-0.1125202031	-0.01740786296	
628.75	0.007473481712	-0.1743572702	
629.375	-0.08522926106	-0.2266535929	
630.0	-0.1339107329	-0.06643585639	
630.625	-0.2098523163	-0.004126507567	
631.25	-0.2102816153	0.2578111616	
631.875	0.0538137615	0.2097536283	
632.5	0.08266700833	0.2836512635	
633.125	0.348017059	0.04903879875	
633.75	0.1032335606	-0.04145800886	
634.375	0.2265682064	-0.1128517071	
635.0	-0.1030773241	-0.1914046158	
635.625	-0.03840531083	-0.09897703135	
636.25	-0.2828110301	0.04279660984	
636.875	0.01119861415	0.18192972	
637.5	-0.05172176545	-0.01393178995	
638.125	-0.103167329	0.2033188668	
638.75	0.007186635936	0.08641193555	
639.375	-0.1242606665	0.2987201474	
640.0	0.2155329868	0.3332311516	
640.625	0.1926772563	0.07099863133	
641.25	0.3126291727	0.1586799403	
641.875	0.2099246091	-0.319253612	
642.5	-0.08737149139	-0.08910766481	
643.125	-0.03900152648	-0.2409648073	
643.75	-0.3479621687	-0.05376566039	
644.375	-0.04900668605	-0.08433826378	
645.0	-0.416886305	0.2341085706	
645.625	0.1952029019	0.219766928	
646.25	-0.006628907171	0.07374703589	
646.875	0.2686040199	0.04478129126	
647.5	-0.1513509154	-0.1207153975	
648.125	0.2578696303	0.2128255784	
648.75	0.2660037467	-0.212163473	
649.375	0.1396170019	-0.1161296453	
650.0	0.4283936154	-0.3001397824	
650.625	0.03296464276	-0.4341136934	
651.25	0.152140477	-0.07223295592	
651.875	0.4540153746	-0.1466229445	
652.5	0.2644864657	-0.2548833568	
653.125	0.1584420142	0.04755653057	
653.75	0.3738209072	-0.3098392663	
654.375	-0.1720815135	-0.2669314339	
655.0	-0.01518431821	-0.09858225479	
655.625	-0.3864001973	0.2016243546	
656.25	0.1756585683	0.1396221834	
656.875	-0.1499695725	0.05071188674	
657.5	0.2038737199	0.172702654	
658.125	-0.08027398991	-0.01024184932	
658.75	0.3444637762	0.3106510726	
659.375	0.3454160761	-0.3456135439	
660.0	0.1668642599	-0.190869627	
660.625	0.3184033947	-0.3482434108	
661.25	0.1262390155	-0.4608029051	
661.875	0.1544876045	-0.1142498485	
662.5	0.4341935069	-0.1883032092	
663.125	0.2209236917	-0.2983310801	
663.75	0.1615004607	-0.1643076315	
664.375	0.07662193237	-0.4693455514	
665.0	-0.3713177112	-0.149746181	
665.625	-0.2452095254	-0.01298152503	
666.25	-0.2238882873	0.3424185404	
666.875	0.2055903484	0.177264024	
667.5	-0.01472386056	0.1643880677	
668.125	0.3623560093	-0.004006738066	
668.75	0.1158699345	-0.1568975705	
669.375	0.2407397838	-0.100293654	
670.0	-0.02911145996	-0.4372351258	
670.625	-0.06003718076	-0.07502487905	
671.25	0.2047062301	-0.194733493	
671.875	0.07534423043	-0.2680874999	
672.5	0.1156056372	-0.09162910869	
673.125	0.3689607089	-0.1120803913	
673.75	0.1202913423	-0.3362679126	
674.375	0.07677257282	-0.1483938687	
675.0	-0.001356784538	-0.3650099656	
675.625	-0.3151393506	-0.1135658929	
676.25	-0.0388585927	-0.03603152495	
676.875	-0.2830417295	-0.08385028577	
677.5	-0.1232358038	0.1381508052	
678.125	-0.1756469337	-0.0158453449	
678.75	-0.03886631871	0.4107392227	
679.375	0.2490121053	-0.1433305076	
680.0	0.105951759	0.103926446	
680.625	0.2668535122	-0.3422566748	
681.25	-0.1243018709	-0.06226022401	
681.875	0.2361063282	0.2698537715	
682.5	0.3015248584	-0.1049485738	
683.125	0.05404291613	0.149649489	
683.75	0.3265878397	0.2684533778	
684.375	0.4234743472	-0.1453392456	
685.0	0.05987108272	0.1549756155	
685.625	0.5018500794	0.07862181755	
686.25	0.2717770309	-0.09747545675	
686.875	0.2156563703	0.04415292681	
687.5	0.4722453868	-0.4046653691	
688.125	-0.1671637083	-0.3831834334	
688.75	-0.3089110714	-0.2735296996	
689.375	-0.5183665189	0.36482364	
690.0	0.2325447952	0.2898905707	
690.625	-0.006772534195	0.3797007	
691.25	0.6669369701	0.2820008982	
691.875	0.3277958235	0.1707634961	
692.5	0.549286013	0.4566249681	
693.125	0.859612814	-0.2251471913	
693.75	0.362984877	-0.1772979571	
694.375	0.6905123553	-0.3998033395	
695.0	0.5424542251	-0.4612674457	
695.625	0.3236506816	-0.1304709076	
696.25	0.4893314603	0.5084134232	
696.875	0.3688646428	0.3796395517	
697.5	0.1989591221	0.4163908239	
698.125	0.561706661	0.5130297204	
698.75	0.5859321413	-0.5576509168	
699.375	-0.4457074319	-0.3449761606	
700.0	-0.568609854	0.2278087412	
700.625	0.2779428994	0.3980108704	
701.25	0.0670300812	0.1356225296	
701.875	0.330574015	0.5115772878	
702.5	0.4580424794	0.08052981751	
703.125	0.2637099971	0.2231774547	
703.75	0.5778867303	-0.07365543112	
704.375	0.1648136328	-0.2774208087	
705.0	0.2721628012	-0.008363017285	
705.625	0.4621187725	-0.03174918592	
706.25	0.2065236006	0.1695204998	
706.875	0.07089643727	0.3885381733	
707.5	0.05784196721	0.4069033728	
708.125	0.3467778367	0.05553582253	
708.75	0.4285221177	-0.1714177593	
709.375	-0.3274573146	-0.4609367341	
710.0	-0.1671375573	0.4052850014	
710.625	-0.1500577323	0.1622849058	
711.25	0.2604873043	0.0966550316	
711.875	0.04159961295	0.1345774847	
712.5	0.4858479349	0.1513274091	
713.125	0.2749253743	-0.2770940181	
713.75	0.1082055669	-0.1110121139	
714.375	0.1413264171	-0.3345002042	
715.0	-0.1180135787	-0.2213863763	
715.625	0.1133609457	-0.1136559062	
716.25	0.276412081	-0.3748226285	
716.875	0.2696920165	-0.226447511	
717.5	0.4567310354	0.2464719058	
718.125	0.7438783207	0.2392318976	
718.75	0.5780277668	-0.2275194385	
719.375	0.9688177196	0.202186812	
720.0	1.244242332	-0.9952997904	
720.625	-0.1580749285	-0.8154452956	
721.25	0.4798223366	-1.01735233	
721.875	-0.3059746328	-1.557203113	
722.5	-0.336984007	-0.496306207	
723.125	-0.7566522756	-0.889793404	
723.75	-0.5094848917	0.5920192324	
724.375	0.02478652499	0.2883005929	
725.0	-0.01502029968	0.5762783849	
725.625	0.4383345741	0.4751950803	
726.25	-0.1286436966	0.4209995888	
726.875	-0.359409023	1.17567972	
727.5	0.116387354	1.683123749	
728.125	-0.2901538739	1.202515675	
728.75	-1.416944797	3.050856847	
729.375	0.188990205	4.250297051	
730.0	-0.8244528214	2.101188299	
730.625	-2.518519213	4.526374561	
731.25	0.2330219403	5.020932243	
731.875	-2.765220076	0.7224842338	
732.5	-4.738332019	0.2863461939	
733.125	-2.62951869	1.498551818	
733.75	-0.7447302828	0.103445215	
734.375	1.003296549	1.119600823	
735.0	-0.1639824237	-0.5274787178	
735.625	-0.363002298	-0.189987909	
736.25	-0.2139685936	0.9363689418	
736.875	0.5270943057	0.1822086265	
737.5	0.7972150086	0.8559832895	
738.125	2.287423091	-0.6526071951	
738.75	1.008817094	-1.633498055	
739.375	1.993180257	0.4236561631	
740.0	6.292031079	-2.144573934	
740.625	0.2616167028	-2.716296243	
741.25	-3.679339406	4.2254005	
741.875	-4.970867105	3.213506833	
742.5	1.027569007	-0.8665539421	
743.125	1.556017102	-2.703272091	
743.75	-0.282214114	-1.372301046	
744.375	0.1032208638	0.234702153	
745.0	-0.1646862779	0.2525679264	
745.625	-0.08113302287	-0.096247314	
746.25	0.08853647149	-0.1856574613	
746.875	-0.3324463933	0.09144029185	
747.5	-0.05709775852	0.2543417323	
748.125	-0.111984409	0.5701763387	
748.75	0.4130078069	0.5436555943	
749.375	0.1040156432	0.3821646406	
750.0	-0.6015495009	0.2365164099	
