!Created with skrf (http://scikit-rf.org).
# GHz S RI R (50+0j) 
!freq	ReS11	ImS11	
500.0	0.2963079423	-0.9999955388	
500.625	0.4191729654	-0.9452024882	
501.25	-0.3171189365	-0.7047028266	
501.875	-0.280486827	-0.5288455575	
502.5	-0.04182614892	-0.12135085	
503.125	-0.07550050855	0.004769820194	
503.75	0.009556612508	0.08494382006	
504.375	0.02942671568	-0.003576818624	
505.0	0.02224469487	-0.02223231803	
505.625	0.001236030152	-0.05249089202	
506.25	-0.05569676687	-0.06326485765	
506.875	-0.1306827653	0.004261724084	
507.5	-0.06474225452	-0.332260033	
508.125	0.1578978853	-0.6621850721	
508.75	0.5917304798	-0.9910857824	
509.375	0.002499957819	-1.292051103	
510.0	-0.3795928941	-0.3471589608	
510.625	-0.127372263	-0.2217541166	
511.25	-0.1101444324	-0.03373433964	
511.875	-0.2191257342	-0.03518339151	
512.5	-0.03013058927	0.03712550628	
513.125	-0.006397435945	-0.04637277508	
513.75	-0.05122675606	-0.04788339758	
514.375	-0.05653530425	-0.01466003602	
515.0	0.01378509426	-0.04129471309	
515.625	-0.02224572881	-0.4454415533	
516.25	-0.2603456236	-0.7997812924	
516.875	-0.1755123813	-0.4227198734	
517.5	-0.03007179842	-0.1634475806	
518.125	-0.02173562936	-0.03558183575	
518.75	-0.04691189319	-0.1345220877	
519.375	-0.05966324078	0.03604231781	
520.0	0.1135346288	0.0641779138	
520.625	0.1662837368	-0.04924961801	
521.25	-0.003892293581	-0.2682347811	
521.875	-0.1472958383	-0.02826000381	
522.5	-0.04981211929	0.02549391656	
523.125	-0.06417662425	0.02394236272	
523.75	-0.1076122694	-0.01448788294	
524.375	-0.1603827602	0.02641376666	
525.0	-0.0474547726	0.1363674569	
525.625	0.03368826007	0.04881548963	
526.25	-0.01229723431	-0.01371462834	
526.875	-0.05327906122	0.05211313716	
527.5	-0.04739126707	0.1896640016	
528.125	0.05556978144	0.2616010291	
528.75	0.02339626148	0.2256402622	
529.375	0.03834947099	0.06584886318	
530.0	0.007485124265	0.1587444046	
530.625	0.09734473159	0.3058219142	
531.25	0.4108248121	0.1261315266	
531.875	0.2397153335	-0.1729537404	
532.5	-0.04613748213	-0.1175844686	
533.125	0.06045061168	-0.04765628735	
533.75	0.1176228971	-0.1805364863	
534.375	-0.06078831586	-0.2936982162	
535.0	-0.2357029913	-0.1341360782	
535.625	-0.1746678545	0.1003943594	
536.25	-0.005524658554	0.09730517364	
536.875	0.09702045153	0.02019552834	
537.5	0.07008603789	-0.04252479056	
538.125	0.1194460166	-0.06209236034	
538.75	0.1322425774	-0.1222535755	
539.375	-0.07336642207	-0.1741978943	
540.0	-0.1645299298	-0.1590129942	
540.625	-0.1687451361	-0.02917517479	
541.25	-0.08851072371	0.001304366269	
541.875	-0.04389485311	-0.02510806089	
542.5	-0.04436833478	-0.05688795887	
543.125	-0.07960495868	-0.04950401403	
543.75	-0.08985308082	-0.008520203545	
544.375	-0.05003960772	0.04122272979	
545.0	-0.007050746716	0.06085453335	
545.625	0.05035099503	0.06835526761	
546.25	0.0979235049	0.04306182938	
546.875	0.1240256676	-0.02123876837	
547.5	0.07610651239	-0.126261464	
548.125	-0.03982298671	-0.170028277	
548.75	-0.1247319524	-0.1249268453	
549.375	-0.1145908553	-0.07534499916	
550.0	-0.07998212513	0.004206109099	
550.625	-0.0559693845	0.005536066059	
551.25	-0.08205609473	0.02680784372	
551.875	-0.08123382409	0.06918352008	
552.5	-0.04981795582	0.07818800325	
553.125	-0.01906255987	0.0644808281	
553.75	0.04661582996	0.05204514969	
554.375	0.1018313168	0.002835366315	
555.0	0.1074848087	-0.07269099538	
555.625	0.09690884858	-0.1130989827	
556.25	0.07510075146	-0.1472229837	
556.875	-0.03141090142	-0.1698634151	
557.5	-0.1019031695	-0.1133382492	
558.125	-0.1231003165	-0.04660910878	
558.75	-0.118967991	-0.00585580217	
559.375	-0.1193723498	0.01853329494	
560.0	-0.1063669344	0.07725728256	
560.625	-0.05780100871	0.1161709442	
561.25	0.004382775545	0.1057884536	
561.875	0.03023489776	0.04963332044	
562.5	0.007842838877	0.05772496884	
563.125	0.07173185929	0.08158610633	
563.75	0.1500133416	0.0109436297	
564.375	0.142261369	-0.09601748755	
565.0	0.08636944532	-0.1538990341	
565.625	-0.0261103228	-0.168714538	
566.25	-0.1168794392	-0.1207973657	
566.875	-0.1428163297	-0.08720559793	
567.5	-0.1433391866	-0.1189939824	
568.125	-0.1465248209	-0.1686409392	
568.75	-0.2348987804	-0.09180134183	
569.375	-0.2519980699	0.09001037733	
570.0	-0.1375639769	0.2047942235	
570.625	-0.0643034109	0.1809305435	
571.25	-0.0008370636612	0.1231926074	
571.875	0.05760242162	0.08222283464	
572.5	0.1337378164	0.004738960856	
573.125	0.09785675893	-0.1147724473	
573.75	0.04971725624	-0.1168695951	
574.375	0.01576677992	-0.0724120916	
575.0	0.03199183767	-0.04027381956	
575.625	0.04339017289	-0.07660451312	
576.25	0.05174734799	-0.1147489271	
576.875	0.00120502719	-0.1507659555	
577.5	0.002094644085	-0.1677247772	
578.125	-0.04295983698	-0.1682896685	
578.75	-0.08568241864	-0.1305932658	
579.375	-0.08896894859	-0.07206762787	
580.0	-0.05360634827	-0.03463555065	
580.625	-0.07251132501	-0.03403228784	
581.25	-0.1124645106	0.07284117279	
581.875	-0.0009031046734	0.1645665733	
582.5	0.05500173444	0.1478491382	
583.125	0.07884706362	0.08148894546	
583.75	0.04185825038	0.02503058892	
584.375	0.03317722072	0.06225982514	
585.0	0.1124981777	0.06813523857	
585.625	0.1636614347	0.006956265186	
586.25	0.1612116185	-0.06188320476	
586.875	0.08365785547	-0.1384976457	
587.5	-0.004911707522	-0.1479023016	
588.125	-0.01257772597	-0.1479058695	
588.75	0.03731999127	-0.1503649008	
589.375	0.0704644158	-0.1602754732	
590.0	-0.05101518804	-0.1862747748	
590.625	-0.1896907366	-0.0583984519	
591.25	-0.1432324976	0.1078174466	
591.875	-0.04004561396	0.1224834758	
592.5	0.006500850964	0.05089548845	
593.125	-0.03378631612	0.05230919786	
593.75	0.05259726234	0.127461391	
594.375	0.1550905248	0.1085103267	
595.0	0.1764987847	0.1056864274	
595.625	0.1781192492	0.08416436598	
596.25	0.1667999894	0.04769887696	
596.875	0.1654337538	0.04218420901	
597.5	0.1529462943	0.08961410149	
598.125	0.1532702515	0.1248857577	
598.75	0.1836862015	0.0964237619	
599.375	0.2245030181	-0.02566123607	
600.0	0.1800460663	-0.1451590829	
600.625	0.1471971325	-0.1841308929	
601.25	0.06760541157	-0.1992728884	
601.875	-0.07748346156	-0.1516101729	
602.5	-0.1347108816	-0.02497808337	
603.125	-0.118617397	0.04344849408	
603.75	-0.1162544458	0.06986137058	
604.375	-0.1053380114	0.07663291053	
605.0	-0.07400137356	0.07880016464	
605.625	-0.07760926285	0.06329354972	
606.25	-0.1193222557	0.06335849702	
606.875	-0.1820326472	0.08572124946	
607.5	-0.1779090979	0.1825177826	
608.125	-0.041853944	0.2602153557	
608.75	0.179029044	0.1904281468	
609.375	0.2502623031	-0.02071385542	
610.0	0.1816664348	-0.1183620454	
610.625	0.09721814611	-0.1632154684	
611.25	0.01297874596	-0.168547506	
611.875	-0.08498803185	-0.1335956327	
612.5	-0.1697721977	-0.07564445644	
613.125	-0.2021919709	0.03086281376	
613.75	-0.09900775708	0.1511566955	
614.375	0.04481506839	0.1183083782	
615.0	0.03919109067	0.04876422214	
615.625	-0.003916139209	0.09060513509	
616.25	-0.04335443594	0.1519123314	
616.875	-0.08762471032	0.1962880049	
617.5	-0.07676241239	0.2324160234	
618.125	-0.02347447182	0.227745393	
618.75	0.01592073155	0.2032454126	
619.375	0.09095616378	0.1780055391	
620.0	0.1972217298	0.06360413368	
620.625	0.1298695609	-0.1575145809	
621.25	-0.08129764516	-0.2012334405	
621.875	-0.2104460444	-0.1035122118	
622.5	-0.232008373	0.05221908753	
623.125	-0.0529845835	0.1959195584	
623.75	0.136211733	0.05316408145	
624.375	0.04440152408	-0.05314998471	
625.0	0.04671536509	-0.02582695338	
625.625	0.05841348584	-0.09189989424	
626.25	-0.04460694315	-0.1472517309	
626.875	-0.1430432105	-0.09508670903	
627.5	-0.1538062835	-0.04862744466	
628.125	-0.115601656	-0.07378171838	
628.75	-0.07452694108	-0.1315091442	
629.375	-0.09107096871	-0.166054078	
630.0	-0.1945981429	-0.1154192784	
630.625	-0.2420256799	0.05586048494	
631.25	-0.1651111669	0.1978332811	
631.875	-0.04068396927	0.2602371699	
632.5	0.1411564748	0.2184062527	
633.125	0.2209024598	0.07304712641	
633.75	0.1856283062	-0.05942335566	
634.375	0.07896250425	-0.1397528073	
635.0	-0.00249630283	-0.1601134846	
635.625	-0.1465293019	-0.109401325	
636.25	-0.1725654836	0.06482316991	
636.875	-0.07655514064	0.1302173835	
637.5	-0.04503809486	0.09249363113	
638.125	-0.07563374834	0.09072555909	
638.75	-0.08503642449	0.1722120335	
639.375	-0.01575715603	0.2647759207	
640.0	0.1327850786	0.2706067054	
640.625	0.2449249732	0.1723563322	
641.25	0.2924264949	0.0208323467	
641.875	0.2018442847	-0.1799324647	
642.5	0.009852476138	-0.2272355153	
643.125	-0.1154945723	-0.139892809	
643.75	-0.1356803847	-0.09158808555	
644.375	-0.1877136996	-0.01413161791	
645.0	-0.1685417469	0.1511485091	
645.625	0.0431840618	0.2335044455	
646.25	0.1710546346	0.08951062754	
646.875	0.1045085601	-0.01124789868	
647.5	0.05693753445	0.04140044397	
648.125	0.16561399	0.06699165949	
648.75	0.2823116542	-0.05543263096	
649.375	0.2519021612	-0.2418252034	
650.0	0.1865415893	-0.3099326876	
650.625	0.1775690575	-0.2894723036	
651.25	0.2228213132	-0.2367321312	
651.875	0.278744176	-0.1592363223	
652.5	0.3002515075	-0.08245030037	
653.125	0.2950134935	-0.08859797303	
653.75	0.2366785016	-0.2158985289	
654.375	-0.01726855676	-0.3294640962	
655.0	-0.2867240921	-0.1379345885	
655.625	-0.2122629615	0.1699802794	
656.25	0.01279641856	0.1861328159	
656.875	0.04689950046	0.08040845059	
657.5	0.02672025759	0.1122547936	
658.125	0.1357585002	0.1853206883	
658.75	0.3046988892	0.1126970431	
659.375	0.3589720553	-0.1207988798	
660.0	0.2617626268	-0.2950120825	
660.625	0.1699177028	-0.3361197065	
661.25	0.1884511878	-0.3007594202	
661.875	0.2432278627	-0.2514863951	
662.5	0.2914603191	-0.1932850524	
663.125	0.2935343333	-0.1843522853	
663.75	0.1989224918	-0.2834282988	
664.375	-0.007203316287	-0.3549135379	
665.0	-0.2602147396	-0.250439679	
665.625	-0.3450948547	0.05655213028	
666.25	-0.1376712834	0.275518697	
666.875	0.09932635278	0.2337343032	
667.5	0.1857762355	0.1203118768	
668.125	0.2345862393	0.009168079142	
668.75	0.2193705987	-0.1308293633	
669.375	0.1226910315	-0.2264070091	
670.0	0.02424065115	-0.2340863081	
670.625	0.01977585292	-0.2000294137	
671.25	0.07270436821	-0.1829579511	
671.875	0.1549275388	-0.1709769511	
672.5	0.2236329334	-0.1442478902	
673.125	0.233867733	-0.1639876982	
673.75	0.1906955504	-0.2142884774	
674.375	0.08697093072	-0.2685726875	
675.0	-0.06328807312	-0.2664176906	
675.625	-0.1847909718	-0.1628515118	
676.25	-0.1909952978	-0.05218519054	
676.875	-0.1565246158	-0.01177273323	
677.5	-0.1654600208	0.003977759021	
678.125	-0.1733381775	0.12564764	
678.75	-0.00191901019	0.2439577999	
679.375	0.2095654409	0.1109827848	
680.0	0.1693499065	-0.07611189313	
680.625	0.07823549162	-0.08012986209	
681.25	0.0928356703	-0.006434957265	
681.875	0.1554557545	0.06161994743	
682.5	0.2110743306	0.1088570918	
683.125	0.2526051931	0.1012321368	
683.75	0.2698535203	0.09324092917	
684.375	0.2878207649	0.07031933325	
685.0	0.2955181564	0.06903425572	
685.625	0.3079247633	0.03319994115	
686.25	0.3187586391	-0.006203409384	
686.875	0.3405795341	-0.1125889802	
687.5	0.3193547859	-0.2696227155	
688.125	0.04488997959	-0.46399984	
688.75	-0.3951101868	-0.2732631702	
689.375	-0.3588846679	0.2749491571	
690.0	0.04851095751	0.3887126332	
690.625	0.2183312681	0.294545559	
691.25	0.3097069384	0.3149521321	
691.875	0.45312727	0.359756662	
692.5	0.6183931684	0.2654603319	
693.125	0.6987086687	0.02646876221	
693.75	0.6385860778	-0.2132042563	
694.375	0.4872473626	-0.3806444776	
695.0	0.4934971328	-0.2703391439	
695.625	0.5384295105	-0.0509099107	
696.25	0.5075598838	0.225427587	
696.875	0.3723479692	0.4579795277	
697.5	0.3486558277	0.5310998909	
698.125	0.5579744918	0.3414515088	
698.75	0.542877455	-0.3402537626	
699.375	-0.3137405297	-0.4837742724	
700.0	-0.3626905388	0.2964891556	
700.625	0.1058664608	0.3304725877	
701.25	0.216390661	0.2123046384	
701.875	0.2563507498	0.2660388311	
702.5	0.3455154851	0.2740548951	
703.125	0.4305088725	0.1540147553	
703.75	0.412400061	-0.07856801654	
704.375	0.3001937873	-0.18076165	
705.0	0.2590980766	-0.1289943335	
705.625	0.2766344572	0.01852049413	
706.25	0.2547112156	0.2006026681	
706.875	0.2220212948	0.324687161	
707.5	0.2440055718	0.390034547	
708.125	0.443903351	0.2138359059	
708.75	0.3757016247	-0.2975335341	
709.375	-0.2147919055	-0.3555379107	
710.0	-0.2437847778	0.1723367008	
710.625	0.03802603812	0.1715311157	
711.25	0.07672059362	0.1381888633	
711.875	0.1998677726	0.1534899301	
712.5	0.3267322546	0.01786601613	
713.125	0.29693761	-0.1496129808	
713.75	0.1683912903	-0.245943253	
714.375	0.03526091841	-0.2480911857	
715.0	-0.01201801326	-0.2126596649	
715.625	0.03201909626	-0.2239286412	
716.25	0.1746925141	-0.2387253012	
716.875	0.3575107387	-0.1655282045	
717.5	0.5372965926	0.00851789228	
718.125	0.6882967452	0.130103263	
718.75	0.7991019446	0.004243016075	
719.375	0.8323811661	-0.320428254	
720.0	0.6457823115	-0.7540871472	
720.625	0.4021961121	-0.9121806686	
721.25	0.1383997248	-1.017933135	
721.875	-0.08387502115	-1.068292617	
722.5	-0.506597846	-0.8832575475	
723.125	-0.7826095673	-0.2897868294	
723.75	-0.4868296427	0.3823095138	
724.375	-0.03314917113	0.475566341	
725.0	0.1434631278	0.3984807793	
725.625	0.1529352607	0.4747463684	
726.25	0.01993013377	0.6970800762	
726.875	-0.1398736742	0.9643442036	
727.5	-0.2575557979	1.383524916	
728.125	-0.2069218168	2.009824749	
728.75	-0.4001005439	2.724669553	
729.375	-0.9760228541	3.424991253	
730.0	-0.5857360182	4.156002094	
730.625	-0.4316054658	4.046861106	
731.25	-1.654062474	3.377354327	
731.875	-3.029114638	2.272348505	
732.5	-3.532028822	0.3339386188	
733.125	-2.518420819	0.01981968712	
733.75	-1.142021801	1.146318759	
734.375	0.7273480773	0.6509769478	
735.0	0.1229484778	-0.6167549644	
735.625	-0.4948460642	0.02253228539	
736.25	-0.1470625878	0.5227786905	
736.875	0.3560839414	0.6292008755	
737.5	1.03465848	0.327274654	
738.125	1.520024917	-0.2489407062	
738.75	1.839043368	-1.020231457	
739.375	2.286684624	-1.473852566	
740.0	2.834328936	-1.632370671	
740.625	2.764925545	0.0813572601	
741.25	0.9370759011	2.243415442	
741.875	-2.480228241	0.0030958042	
742.5	-1.364271226	-2.18531901	
743.125	0.5916918088	-1.952556209	
743.75	0.009481751133	-1.014776695	
744.375	-0.4053509002	-0.1979942992	
745.0	0.02540546304	0.1265570951	
745.625	0.05969166109	0.01397570995	
746.25	0.0003624223116	-0.149023263	
746.875	-0.2317873544	-0.03242155018	
747.5	-0.1839869037	0.3235182675	
748.125	0.03783232926	0.5186609495	
748.75	0.2301854246	0.5048172057	
749.375	0.09035964701	0.457550919	
750.0	-0.4403714013	0.2303123148	
