!Created with skrf (http://scikit-rf.org).
# GHz S RI R (50+0j) 
!freq	ReS11	ImS11	
500.0	0.4716630043	-0.9094639645	
500.625	-0.08048662619	-1.211030535	
501.25	0.01856667938	-0.3935641334	
501.875	-0.3673333028	-0.6754375868	
502.5	-0.04616097687	-0.05511175429	
503.125	-0.05869078094	-0.02709999134	
503.75	0.06755177269	0.1073418965	
504.375	-0.001120251931	0.0003115928782	
505.0	0.04272291313	-0.02883568602	
505.625	-0.03280521305	-0.01294970986	
506.25	0.0175745499	-0.1248222617	
506.875	-0.1402824074	0.1998215012	
507.5	0.2229457282	-0.2955642923	
508.125	0.158338839	-0.8266850932	
508.75	0.2060465508	-0.4244141343	
509.375	0.3950768256	-0.8085784633	
510.0	-0.4448647376	-0.2429166118	
510.625	-0.03268410731	-0.004085981164	
511.25	-0.08297590297	-0.0860152789	
511.875	-0.1412424465	0.01246958049	
512.5	-0.02059651837	-0.006345394378	
513.125	0.007748267903	-0.08481336257	
513.75	-0.07955639845	0.03768453975	
514.375	0.00561552578	-0.04288551098	
515.0	-0.2924746474	0.02231933346	
515.625	0.4558438715	-0.3448390097	
516.25	-0.7600908709	-0.6501371499	
516.875	-0.2287192018	-0.05696022112	
517.5	0.07880485975	-0.1758288576	
518.125	-0.08449933059	-0.002623654924	
518.75	0.0660690541	-0.0766405462	
519.375	-0.07504363632	0.04252096022	
520.0	0.1047473051	0.01241648606	
520.625	0.108720636	-0.01775589664	
521.25	0.07538100486	-0.3042390553	
521.875	-0.1692716506	0.05808494729	
522.5	0.003507105551	0.001727542993	
523.125	-0.132085295	0.07840643948	
523.75	0.02256304991	0.04621797288	
524.375	-0.2342952443	-0.1000083194	
525.0	0.0706403082	0.2137342617	
525.625	-0.04062478232	-0.01944115737	
526.25	0.03016760235	0.05247523899	
526.875	-0.05976563891	-0.02167026008	
527.5	-0.05124881979	0.2518239888	
528.125	0.05377943863	0.1400538948	
528.75	-0.07538502482	0.1272981401	
529.375	0.08512313713	0.1182678836	
530.0	-0.0368193419	-0.002725260913	
530.625	-0.04108258441	0.1119776944	
531.25	0.3775703558	-0.05725443671	
531.875	0.1389529023	-0.002059516205	
532.5	-0.03182843874	-0.2274805649	
533.125	-0.09733098275	0.01415749215	
533.75	0.1820916657	-0.2422983532	
534.375	-0.1508917856	-0.1613635784	
535.0	-0.1109045025	-0.1141342439	
535.625	-0.2135582286	0.09862203505	
536.25	0.02870691692	0.06679972568	
536.875	0.06376337268	0.05075758719	
537.5	0.07366474016	-0.06994043161	
538.125	0.06656060958	-0.03825951647	
538.75	0.1787361047	-0.09568477208	
539.375	-0.1300529256	-0.1351100787	
540.0	-0.09381738333	-0.09970521237	
540.625	-0.09020858493	-0.05536916865	
541.25	-0.08688875584	0.05323392138	
541.875	0.01606815886	-0.01695466553	
542.5	-0.1067283035	-0.04412834125	
543.125	-0.04903771504	0.0681056356	
543.75	-0.1056415624	-0.05652747381	
544.375	0.002681348814	0.070852263	
545.0	-0.05208520799	0.00736102828	
545.625	0.0969233652	0.09601135541	
546.25	0.0366479636	-0.01140066331	
546.875	0.1407237157	0.02479940467	
547.5	0.03155422543	-0.1556015171	
548.125	-0.01757947816	-0.07505444776	
548.75	-0.09933416113	-0.1582776967	
549.375	-0.1325426311	-0.03103437997	
550.0	-0.0290254039	-0.01723122562	
550.625	-0.08381706091	0.01685820522	
551.25	-0.03360142546	0.01613795685	
551.875	-0.1025844657	0.05454250581	
552.5	-0.02123999263	0.08493433591	
553.125	-0.01882972479	0.03440864375	
553.75	0.0496220492	0.04784525803	
554.375	0.0759235824	0.001063850212	
555.0	0.09759991771	-0.05515032247	
555.625	0.08207929366	-0.101513124	
556.25	0.05769240788	-0.1222953934	
556.875	-0.02682123794	-0.1457946016	
557.5	-0.08671076737	-0.100135211	
558.125	-0.1093556671	-0.03261488727	
558.75	-0.09501075831	-0.007280810896	
559.375	-0.1090870919	0.01583639014	
560.0	-0.08258085269	0.07604106064	
560.625	-0.0511939627	0.08047204218	
561.25	-0.0005008147391	0.1123179858	
561.875	0.03783525342	0.01812644966	
562.5	-0.01504856916	0.07501783489	
563.125	0.08944110563	0.04495634894	
563.75	0.09924891808	0.03242847275	
564.375	0.1570850569	-0.1042728228	
565.0	0.02538697287	-0.1393829794	
565.625	0.01958213662	-0.1122986431	
566.25	-0.149865916	-0.1245233426	
566.875	-0.09698784486	-0.02665103394	
567.5	-0.09333125879	-0.1663235954	
568.125	-0.1826358419	-0.1236667562	
568.75	-0.08699869724	-0.05835896599	
569.375	-0.2853711074	0.04656202827	
570.0	-0.05999442187	0.2219506485	
570.625	-0.05776672797	0.07851954977	
571.25	-0.0267030589	0.1878392209	
571.875	0.06176654324	-0.01282856552	
572.5	0.1361124672	0.09010118381	
573.125	0.07105347464	-0.1758620009	
573.75	-0.01036677991	-5.66932808e-06	
574.375	0.1018888736	-0.08892511391	
575.0	-0.06476373351	-0.04038528228	
575.625	0.1095760809	-0.03171286499	
576.25	0.01817646813	-0.1735933188	
576.875	-0.02327380058	-0.05381942423	
577.5	0.1122867673	-0.1308805481	
578.125	-0.1164244556	-0.2253441535	
578.75	-0.06810231688	0.01062928492	
579.375	-0.00228146068	-0.1283508558	
580.0	-0.1616160878	-0.002288728173	
580.625	0.03182383129	-0.06081746453	
581.25	-0.2015929065	0.1947315508	
581.875	0.09951590065	0.1042091656	
582.5	-0.03789066996	0.08290443479	
583.125	0.1103643991	0.1712846863	
583.75	-0.001265605609	-0.1006263814	
584.375	0.02032686663	0.1515796419	
585.0	0.136830011	-0.02403730144	
585.625	0.06155414619	0.04570850021	
586.25	0.2394082376	-0.0736541956	
586.875	-0.01065393931	-0.1478583731	
587.5	0.0588593217	-0.07940910327	
588.125	-0.02115217962	-0.2061979365	
588.75	-0.05834010393	-0.08905166744	
589.375	0.1562982934	-0.09382205508	
590.0	-0.1172030111	-0.1991361548	
590.625	-0.07872785189	0.006827807645	
591.25	-0.2229405923	0.01265425512	
591.875	0.01725628466	0.2090176622	
592.5	-0.008764408122	-0.06052602943	
593.125	0.01875061851	0.1482150862	
593.75	-0.03476404424	0.01908439689	
594.375	0.1103253704	0.184900891	
595.0	0.2408981494	0.06075446677	
595.625	0.05894591023	0.06857764616	
596.25	0.1988598017	0.1005891634	
596.875	0.1399215838	-0.03661786453	
597.5	0.04654028873	0.08229850027	
598.125	0.1878428932	0.1683457078	
598.75	0.125209636	0.04899604354	
599.375	0.1610511863	0.04622563422	
600.0	0.2159026772	-0.1628267692	
600.625	0.05098381838	-0.1824084767	
601.25	0.1130220992	-0.07677592976	
601.875	-0.08839892913	-0.2131691983	
602.5	-0.08229022538	0.05511911014	
603.125	-0.1394950043	-0.07292708272	
603.75	-0.1275069215	0.1730743585	
604.375	-0.04537066555	-0.08388752479	
605.0	-0.1617721369	0.04515121483	
605.625	-0.01116582022	0.134634783	
606.25	-0.08084544848	-0.04902482172	
606.875	-0.09932800768	0.1466168676	
607.5	-0.05675000862	0.152482604	
608.125	-0.09761121658	0.190618832	
608.75	0.2033809614	0.1994798714	
609.375	0.2301113063	-0.01688172855	
610.0	0.1907935897	-0.0141425888	
610.625	0.09982212253	-0.2320760439	
611.25	-0.04197224252	-0.0535645176	
611.875	0.0280845738	-0.1431650871	
612.5	-0.2333923626	0.002561932927	
613.125	-0.06706461381	-0.009145213323	
613.75	-0.1994009128	0.1265268821	
614.375	0.154214896	0.1102982144	
615.0	-0.081486416	0.03266818805	
615.625	0.07424041058	0.1763266836	
616.25	-0.05595284121	0.05101567555	
616.875	-0.1720772412	0.1581174538	
617.5	-0.01778301796	0.3126773146	
618.125	0.03204329498	0.08537720048	
618.75	0.02835058979	0.162406251	
619.375	0.1122125623	0.1640579457	
620.0	0.09202650724	0.03764706638	
620.625	0.2078060549	-0.1349371282	
621.25	-0.1615955719	-0.1833082193	
621.875	-0.1056333423	-0.0449870215	
622.5	-0.2734148508	0.003256482456	
623.125	0.01314450728	0.2170482009	
623.75	0.03531659805	-0.006323059966	
624.375	0.1336539882	-0.04569421944	
625.0	-0.03902888905	-0.0164095423	
625.625	0.1264666618	-0.07123312466	
626.25	-0.1146099708	-0.1490688149	
626.875	-0.05398137666	-0.02696906163	
627.5	-0.1389495307	-0.06958131748	
628.125	-0.1507709311	-0.01412212453	
628.75	0.004284014075	-0.07268461969	
629.375	-0.09175705646	-0.2195214803	
630.0	-0.212169942	-0.08858534572	
630.625	-0.1831982799	-0.002352429593	
631.25	-0.2208374781	0.158691978	
631.875	0.03338048917	0.2176634112	
632.5	0.04107594597	0.05107906484	
633.125	0.2497750438	0.1118558781	
633.75	0.1030656681	-0.1079224256	
634.375	0.1083303474	-0.03498538075	
635.0	-0.02602560734	-0.2248803353	
635.625	-0.1193650669	0.002437450818	
636.25	-0.1729926658	-0.03541404032	
636.875	-0.05891092639	0.2011230707	
637.5	0.01460846235	0.00753391724	
638.125	-0.1584143014	0.09560916864	
638.75	0.02810794819	0.1735183416	
639.375	-0.08995463697	0.1548243173	
640.0	0.127157167	0.323306375	
640.625	0.270575137	0.09282462262	
641.25	0.1467044815	0.05706861176	
641.875	0.2861298745	-0.2109123605	
642.5	-0.1051153251	-0.1702515346	
643.125	0.06768357728	0.01543475769	
643.75	-0.2053572758	-0.1520530213	
644.375	-0.04464906437	0.0636580893	
645.0	-0.2554021329	0.05641822347	
645.625	0.1756376667	0.3602467566	
646.25	0.08798645648	-0.04047174839	
646.875	0.1029561278	0.1301751098	
647.5	0.1037152463	-0.1581641286	
648.125	0.05826155222	0.2152526835	
648.75	0.3822509168	-0.1590404114	
649.375	0.06838172677	-0.2208501329	
650.0	0.2255421959	-0.1110817291	
650.625	0.200979874	-0.4111353299	
651.25	-0.02052635429	-0.1896720945	
651.875	0.3029636676	-0.003810074159	
652.5	0.3507413197	-0.1882517505	
653.125	0.09929237752	-0.08760103726	
653.75	0.3469086139	-0.04937360606	
654.375	-0.1320596265	-0.3665969761	
655.0	-0.1641488951	0.02398499574	
655.625	-0.2717866259	-0.002243455096	
656.25	0.1576089713	0.4088893186	
656.875	-0.01588940808	-0.08750487828	
657.5	0.06721068317	0.2236631709	
658.125	0.1628315665	0.01025969187	
658.75	0.1137832027	0.2437846846	
659.375	0.4720179078	-0.1684376915	
660.0	0.07464571556	-0.275985945	
660.625	0.2211144439	-0.1936360479	
661.25	0.230342035	-0.3693965148	
661.875	0.0478933527	-0.2474012293	
662.5	0.2970932394	-0.04948448023	
663.125	0.3073584359	-0.2636062892	
663.75	0.05728210724	-0.1907718027	
664.375	0.09492446126	-0.2939603921	
665.0	-0.3411257006	-0.2549825816	
665.625	-0.1814114294	0.1124514336	
666.25	-0.2058141476	0.1954038241	
666.875	0.1702901405	0.2517922331	
667.5	0.07074247026	-0.04366164908	
668.125	0.2733105508	0.1192546012	
668.75	0.1255616408	-0.2440060913	
669.375	0.06358343369	-0.08815625933	
670.0	0.1202925043	-0.3085939491	
670.625	-0.1124521664	-0.198776164	
671.25	0.2235078127	-0.05027407498	
671.875	0.1847338762	-0.2517074959	
672.5	0.1064113652	-0.1693248781	
673.125	0.1928067199	-0.04191882554	
673.75	0.2381363468	-0.3011887267	
674.375	-0.04791214668	-0.181585751	
675.0	0.04589462914	-0.2436523069	
675.625	-0.2440253356	-0.1940998977	
676.25	-0.1167555919	0.07373334494	
676.875	-0.1216475252	-0.1414549543	
677.5	-0.2171318161	0.1102155693	
678.125	-0.04857673683	0.04357442745	
678.75	-0.1809244186	0.2545200303	
679.375	0.3506617137	0.04842829144	
680.0	-0.01318403224	-0.03884880773	
680.625	0.2271131436	-0.0299852816	
681.25	-0.01848339986	-0.1898690532	
681.875	-0.004230797682	0.1721135966	
682.5	0.4106642963	0.118967321	
683.125	0.04420321823	-0.0601661159	
683.75	0.1461432673	0.1941963989	
684.375	0.3838560595	-0.05151156241	
685.0	0.1380976971	-0.1285265293	
685.625	0.261783796	0.246211093	
686.25	0.3776803213	-0.1464104888	
686.875	0.1778580824	-0.08437384385	
687.5	0.3970527957	-0.1272563876	
688.125	-0.1078982891	-0.5504021207	
688.75	-0.2084066141	-0.1072256618	
689.375	-0.4163642259	0.1612414375	
690.0	0.1968320187	0.3992358288	
690.625	0.05993884474	0.1056880112	
691.25	0.3907968992	0.4987598168	
691.875	0.4657004882	0.06410257146	
692.5	0.3809990837	0.3356730214	
693.125	0.7877160597	0.09774546002	
693.75	0.4698460572	-0.414886105	
694.375	0.3380695918	-0.1255893072	
695.0	0.4328428505	-0.4163025	
695.625	0.4035682407	-0.2080570253	
696.25	0.2486140824	0.2390891509	
696.875	0.3984396028	0.3500226293	
697.5	0.3534287837	0.2000357114	
698.125	0.4727456789	0.1430103549	
698.75	0.57776503	-0.3560905373	
699.375	-0.4239852522	-0.2788570369	
700.0	-0.213825193	0.125192367	
700.625	0.1679504622	0.4401486467	
701.25	0.1595852978	0.02671629655	
701.875	0.1124163039	0.3200472253	
702.5	0.5002930239	0.2139685715	
703.125	0.2218867108	0.02980525621	
703.75	0.3982568133	0.06914661601	
704.375	0.2466561965	-0.2911236145	
705.0	0.06224330161	-0.1183960268	
705.625	0.3191331356	-0.01221400142	
706.25	0.3078048478	0.03748042561	
706.875	0.07685012122	0.1910705774	
707.5	0.192257546	0.3685794544	
708.125	0.42883794	0.2157254967	
708.75	0.2178183622	-0.1292337724	
709.375	-0.1713696653	-0.4413510691	
710.0	-0.3125888392	0.2877595127	
710.625	-0.002569857859	0.02059139111	
711.25	0.1507077642	0.2445018189	
711.875	0.1086550818	-0.01899619968	
712.5	0.2717027754	0.1312241652	
713.125	0.328758949	-0.2261238728	
713.75	0.02302774394	-0.2051489496	
714.375	0.1298974008	-0.159819019	
715.0	-0.0600213145	-0.2627538571	
715.625	-0.02676420789	-0.0803882797	
716.25	0.2088310252	-0.1681218749	
716.875	0.2883329088	-0.3192704462	
717.5	0.2122870113	0.01153988259	
718.125	0.5316913975	0.1722435431	
718.75	0.8312002576	-0.1024744477	
719.375	0.267055003	-0.4257378066	
720.0	0.8101111205	-0.7025239325	
720.625	-0.08390270235	-1.142945619	
721.25	0.1621119069	-0.4486499775	
721.875	-0.02712460589	-1.120636792	
722.5	-0.69363436	-0.4568691363	
723.125	-0.3852656548	-0.3116454302	
723.75	-0.6736705048	0.4641113145	
724.375	0.1931919756	0.3200948432	
725.0	-0.02298917485	0.2738322046	
725.625	0.231804451	0.5790266129	
726.25	0.2018641386	0.3631883051	
726.875	-0.3507464968	0.6153367901	
727.5	-0.1380566017	1.496644693	
728.125	0.4113083855	1.289092372	
728.75	-0.9169605816	1.764526157	
729.375	-1.332436053	3.876360314	
730.0	0.9836403655	2.802942142	
730.625	-1.402450101	2.495593413	
731.25	-1.604043253	4.776451945	
731.875	-0.9338440004	1.421671476	
732.5	-2.996211908	-2.042853238	
733.125	-2.765865195	0.5080341183	
733.75	-0.1636828905	0.9223447784	
734.375	0.1009075996	0.8883080636	
735.0	-0.1544564999	-0.7939290418	
735.625	-0.1554114259	0.01852831921	
736.25	-0.3769398533	0.6066944265	
736.875	0.6620005728	0.4573683297	
737.5	0.280972088	0.09008073321	
738.125	1.768774037	0.198053245	
738.75	1.37231507	-1.893322234	
739.375	0.5711878817	-0.7087591865	
740.0	3.643580923	1.372305744	
740.625	3.959111413	-2.675028613	
741.25	-1.985603135	-0.3727758295	
741.875	-4.3829854	-0.1406179037	
742.5	-1.501963625	-0.02602886403	
743.125	1.270672669	-1.102883254	
743.75	-0.05577817839	-1.485608833	
744.375	-0.3507877473	0.1093830283	
745.0	-0.1859751729	-0.03502467154	
745.625	0.0947471339	-0.1034254426	
746.25	0.07266472096	-0.06737560495	
746.875	-0.32269453	-0.01109761869	
747.5	-0.01332659196	0.3134425593	
748.125	-0.02788859271	0.3341110572	
748.75	0.1976550193	0.4866106732	
749.375	0.1850567476	0.3640802681	
750.0	-0.2965959783	0.07886042129	
