!Created with skrf (http://scikit-rf.org).
# GHz S RI R (50+0j) 
!freq	ReS11	ImS11	
500.0	-0.008475707827	-0.5374387338	
500.625	0.8347192166	-1.093287494	
501.25	-0.6582511979	-0.5587212625	
501.875	-0.08216666137	-0.339785309	
502.5	-0.03357882777	-0.2348828025	
503.125	-0.0573672081	0.03902748896	
503.75	-0.06493128499	0.07036778485	
504.375	0.05178076395	-0.03206757038	
505.0	0.01594293996	0.02317976822	
505.625	0.0141202012	-0.1064687579	
506.25	-0.06275694457	0.04965402845	
506.875	-0.2229050876	-0.2140075731	
507.5	-0.4398851529	-0.1358571796	
508.125	0.4260047306	-0.3340160167	
508.75	0.8780950273	-1.331058684	
509.375	-0.6686088184	-0.9050041827	
510.0	-0.1492795865	-0.3485323479	
510.625	-0.1479684938	-0.2811109668	
511.25	-0.06139083421	-0.004271616952	
511.875	-0.1421386279	-0.1131484806	
512.5	0.002796083274	0.04238192602	
513.125	-0.004327166704	-0.03518077963	
513.75	-0.0628398061	-0.09869822153	
514.375	-0.08691270403	0.1398582653	
515.0	0.2721982175	-0.2370900383	
515.625	-0.4375359083	0.00566251252	
516.25	0.387955715	-0.4626184678	
516.875	-0.6344157382	-0.5488838679	
517.5	-0.1611772988	-0.03347512528	
518.125	0.0316027415	-0.09015088818	
518.75	-0.1427492057	-0.08193615191	
519.375	-0.05809124276	0.01860404547	
520.0	0.1301360697	0.1029024281	
520.625	0.1485919738	-0.09655262281	
521.25	-0.01048114557	-0.1268472626	
521.875	-0.1352272529	-0.02897830263	
522.5	-0.03688973541	0.1047747499	
523.125	-0.06014423572	-0.1033524984	
523.75	-0.2167564375	0.04130338163	
524.375	-0.008323045042	0.08792996464	
525.0	-0.1937933636	0.08538473657	
525.625	0.1492184893	0.09344257903	
526.25	-0.1108043615	-0.01638720202	
526.875	0.01988245531	0.07483028588	
527.5	-0.1101281798	0.07278890594	
528.125	0.1128139547	0.3883638873	
528.75	0.1932285599	0.1647104531	
529.375	-0.005393298115	0.09696570927	
530.0	0.192159368	0.2226816016	
530.625	0.04010837202	0.2167597498	
531.25	0.3362410905	0.1508281226	
531.875	0.1848621718	-0.3398213392	
532.5	0.04764994879	-0.01876218238	
533.125	0.1363447154	-0.175046404	
533.75	0.0910341013	-0.03751804292	
534.375	-0.01954873652	-0.4435513639	
535.0	-0.2530095545	-0.02163442983	
535.625	-0.1392607108	0.03629084162	
536.25	-0.02436705209	0.1292194593	
536.875	0.08776735736	-0.02741772911	
537.5	0.08064259251	0.004247463685	
538.125	0.1428630247	-0.122208221	
538.75	0.07865107161	-0.07690794863	
539.375	-0.03233132638	-0.2264560352	
540.0	-0.2425454619	-0.1181412078	
540.625	-0.1048736582	-0.02677230949	
541.25	-0.08886368324	-0.02298417478	
541.875	-0.03938165012	0.04005575193	
542.5	-0.003819510743	-0.117445573	
543.125	-0.1406050672	-0.08054876103	
543.75	-0.0258349017	0.05020047865	
544.375	-0.1324073691	0.01573121006	
545.0	0.04766595426	0.059696795	
545.625	-0.03287154966	0.08176710503	
546.25	0.1594521395	0.02167379595	
546.875	0.03828722445	-0.04396418585	
547.5	0.1335488691	-0.1168756737	
548.125	-0.1090304674	-0.1881764248	
548.75	-0.070905077	-0.06805535397	
549.375	-0.1188113754	-0.1342392992	
550.0	-0.08814984136	0.05860302366	
550.625	-0.03928559654	-0.04288730553	
551.25	-0.09530672989	0.0726259429	
551.875	-0.04648810944	0.04883389772	
552.5	-0.07327667068	0.08576279166	
553.125	0.002030522917	0.07506648657	
553.75	0.03502025951	0.05555586683	
554.375	0.1130393105	-0.002615596652	
555.0	0.09602707857	-0.07011925229	
555.625	0.09739990284	-0.1109500622	
556.25	0.06975552183	-0.1510344902	
556.875	-0.0377651411	-0.1637457653	
557.5	-0.09677423884	-0.1088014868	
558.125	-0.1259718286	-0.04658624866	
558.75	-0.1157429395	0.000166650909	
559.375	-0.1075469586	0.01448445361	
560.0	-0.1177464441	0.07584038194	
560.625	-0.04228573787	0.1269218706	
561.25	-0.01154781609	0.08352791405	
561.875	0.05515802028	0.08496627324	
562.5	-0.008348435253	0.01932650156	
563.125	0.09303398547	0.120751302	
563.75	0.1323318057	-0.03924628667	
564.375	0.1280035497	-0.04540767547	
565.0	0.1070575105	-0.1907583814	
565.625	-0.07919823729	-0.1339703095	
566.25	-0.07136391463	-0.1392190433	
566.875	-0.2293798317	-0.1235959161	
567.5	-0.1075402394	-0.05351052227	
568.125	-0.1356889072	-0.229011515	
568.75	-0.3052530922	-0.007232850676	
569.375	-0.1521550737	0.0223355687	
570.0	-0.2148910717	0.2414799332	
570.625	0.01568481042	0.1982613481	
571.25	-0.06131576141	0.05787932346	
571.875	0.1535998583	0.1322933968	
572.5	0.03923911881	-0.03449945212	
573.125	0.1822805672	-0.07446965409	
573.75	-0.008244377784	-0.221335626	
574.375	0.003785924411	0.05597330401	
575.0	0.09023415642	-0.1363664549	
575.625	-0.02522821125	0.0001057575654	
576.25	0.1427488269	-0.1193335095	
576.875	-0.08433694318	-0.2031323532	
577.5	-0.02604947855	-0.07795685003	
578.125	0.05961304206	-0.2012631579	
578.75	-0.1785857975	-0.1638652069	
579.375	-0.0358988526	0.0893607274	
580.0	-0.01824092187	-0.1433792874	
580.625	-0.08991142517	0.06664618411	
581.25	-0.1121492485	-0.06789216717	
581.875	0.02615163696	0.3255888768	
582.5	0.1399085629	0.06118981258	
583.125	-0.062172873	0.1027932875	
583.75	0.1858941789	0.01075346041	
584.375	-0.09077896521	0.02683576066	
585.0	0.240266302	0.1187256044	
585.625	0.1401553802	-0.1013514786	
586.25	0.1201601749	0.04863925747	
586.875	0.1430995272	-0.2324929261	
587.5	-0.09410256378	-0.08620523837	
588.125	0.07985401668	-0.1348511198	
588.75	0.002094924238	-0.2299728089	
589.375	0.0009703997209	-0.08265126663	
590.0	0.04638908249	-0.2615014336	
590.625	-0.2644748895	0.02882679217	
591.25	-0.03770422083	0.03288033657	
591.875	-0.1362150019	0.129818039	
592.5	0.1985924352	0.06115602286	
593.125	-0.1798998446	0.03147702248	
593.75	0.2046905011	0.06156326872	
594.375	0.03739756399	0.05551792257	
595.0	0.2271622073	0.1981610692	
595.625	0.2505574719	-0.01181033472	
596.25	0.06512476182	0.1059222262	
596.875	0.2514906388	0.08801786376	
597.5	0.09211432682	0.01992964218	
598.125	0.06997394521	0.1662199632	
598.75	0.2683280792	0.1016281847	
599.375	0.1434734647	-0.06241817595	
600.0	0.2104758886	-0.07372770543	
600.625	0.1806461795	-0.255931762	
601.25	-0.01553266588	-0.1984192766	
601.875	0.02693961928	-0.1480493206	
602.5	-0.2622483546	0.01711774945	
603.125	-0.01019278308	0.04666921309	
603.75	-0.1918576249	0.008354580802	
604.375	-0.06359472761	0.2073680335	
605.0	-0.09375806257	-0.07801574952	
605.625	-0.1712548923	0.1277215333	
606.25	0.003719510714	0.09104913784	
606.875	-0.2892584046	0.03265409461	
607.5	-0.1698682141	0.2985271912	
608.125	0.01857116619	0.155225657	
608.75	0.1179213588	0.2558836076	
609.375	0.3020585965	-0.08040733342	
610.0	0.1571228188	-0.1242543355	
610.625	0.2054590693	-0.1330787456	
611.25	-0.09073153654	-0.2293736728	
611.875	-0.03563928053	-0.06890198794	
612.5	-0.20361676	-0.1616214451	
613.125	-0.2577892134	0.1655970878	
613.75	-0.07409317759	0.02987752282	
614.375	0.01601860217	0.2306847363	
615.0	0.104233981	-0.06504227065	
615.625	-0.07961667686	0.2178246495	
616.25	0.09016360472	0.2339739519	
616.875	-0.0484921592	0.06762363566	
617.5	-0.1992023753	0.2666835054	
618.125	-0.02617204624	0.1462127036	
618.75	-0.05246646455	0.108335358	
619.375	0.1013238628	0.2801167231	
620.0	0.1857035617	-0.02449913329	
620.625	0.03245280495	-0.1182685424	
621.25	-0.08465967536	-0.2573883149	
621.875	-0.274257073	-0.02901965489	
622.5	-0.1794951494	-0.03379977992	
623.125	-0.1733658319	0.235604159	
623.75	0.1741330697	-0.01997201982	
624.375	0.0363370156	0.04134367837	
625.0	0.03203849853	-0.1311900744	
625.625	0.03880482592	-0.0002210398974	
626.25	-0.02631228423	-0.2253410783	
626.875	-0.2048207546	-0.02547702653	
627.5	-0.05556510929	-0.05209386846	
628.125	-0.1794265402	-0.1333354065	
628.75	-0.1087284121	-0.06733302149	
629.375	-0.01570578033	-0.189302414	
630.0	-0.2215141642	-0.1376996817	
630.625	-0.194249223	0.09872071179	
631.25	-0.1974977071	0.1662481197	
631.875	-0.01131745076	0.3186949738	
632.5	0.2088961936	0.1629183391	
633.125	0.1288303789	0.09960020269	
633.75	0.3744214585	-0.06465037725	
634.375	-0.02029285366	-0.1187153548	
635.0	0.07127554682	-0.1868776404	
635.625	-0.249241147	-0.06938859949	
636.25	-0.04818815262	0.04315497429	
636.875	-0.1842374958	0.1456304306	
637.5	0.05637433637	0.1463166883	
638.125	-0.1187072281	-0.02054422832	
638.75	-0.1067939878	0.2779965758	
639.375	0.1138520848	0.1780064507	
640.0	0.01489683448	0.2810981615	
640.625	0.3350838206	0.2209150125	
641.25	0.2093267302	-0.09712082621	
641.875	0.1794688526	-0.06450906049	
642.5	-0.05612508042	-0.3607767537	
643.125	-0.1296225673	0.002225245005	
643.75	-0.05583118913	-0.2016390058	
644.375	-0.2784761763	0.1276496418	
645.0	-0.05177178382	0.04770120521	
645.625	-0.1589641907	0.3711326821	
646.25	0.298182973	0.005264758302	
646.875	-0.1777650414	0.04881820464	
647.5	0.2510411124	0.101284097	
648.125	-0.005481585959	-0.05077892498	
648.75	0.3818601756	0.0807271067	
649.375	0.2066050216	-0.474806261	
650.0	0.04998476524	-0.1737106803	
650.625	0.3295276665	-0.2625970756	
651.25	0.1521753429	-0.4469667889	
651.875	0.09102085078	-0.0142284533	
652.5	0.4540622728	-0.02583519217	
653.125	0.2401185031	-0.2740599244	
653.75	0.1560793918	-0.06785194786	
654.375	0.117893601	-0.4662362841	
655.0	-0.4022834871	-0.01573883235	
655.625	-0.09515608311	0.07221376643	
656.25	-0.1185834762	0.2814067221	
656.875	0.3122024663	-0.04168623868	
657.5	-0.1071362475	0.1987066613	
658.125	0.3119754201	0.1891850449	
658.75	0.08968805964	-0.04919439276	
659.375	0.4618623152	0.06456016545	
660.0	0.1690740289	-0.5873755844	
660.625	0.01944068327	-0.1704078031	
661.25	0.3412175108	-0.3010907027	
661.875	0.2193403561	-0.3914986063	
662.5	0.1037113133	-0.1329264255	
663.125	0.4078975436	-0.1260216613	
663.75	0.06171669424	-0.413603685	
664.375	0.02579714047	-0.2138585216	
665.0	-0.285895476	-0.3610182007	
665.625	-0.3200569119	0.2104430406	
666.25	-0.1220973762	0.1592894223	
666.875	0.06295107621	0.3631124331	
667.5	0.2645532175	0.01331612885	
668.125	0.1340012207	0.0722220969	
668.75	0.3215610222	-0.1854182026	
669.375	-0.08286181794	-0.2193551647	
670.0	0.1148867855	-0.1315687109	
670.625	0.02343602763	-0.315818512	
671.25	-0.09281631684	-0.02755117363	
671.875	0.3566273757	-0.1795245235	
672.5	0.1520530404	-0.2780787348	
673.125	0.1196687678	-0.1099632305	
673.75	0.298047784	-0.1810044892	
674.375	-0.09850184146	-0.3666498591	
675.0	-0.03364046678	-0.1029007323	
675.625	-0.1577931484	-0.2685508131	
676.25	-0.2899684063	0.04003459994	
676.875	-0.02578380228	-0.03608699892	
677.5	-0.3125336824	-0.02626050769	
678.125	-0.02813756221	0.2007051004	
678.75	-0.08420749782	0.1359293326	
679.375	0.3311030223	0.2281834532	
680.0	0.04774974708	-0.2251555083	
680.625	0.09918769142	0.1142585992	
681.25	0.2351573965	-0.1834491038	
681.875	-0.01219713212	-0.04617278896	
682.5	0.3739761574	0.4666023908	
683.125	0.4737375046	-0.1076865375	
683.75	0.05423421878	0.007608644945	
684.375	0.4588570337	0.1479381722	
685.0	0.4044443873	-0.1041431815	
685.625	0.04241858919	0.07004206065	
686.25	0.5670518135	0.01242711673	
686.875	0.1931044836	-0.1397053059	
687.5	0.3221313386	-0.1444252534	
688.125	0.05300580239	-0.65190134	
688.75	-0.4339675605	0.004195658473	
689.375	-0.3585423819	0.1700184357	
690.0	0.1022585531	0.5607589159	
690.625	0.364063589	0.1090404332	
691.25	0.09075070919	0.3842255821	
691.875	0.7080288983	0.3865709648	
692.5	0.486172156	0.05001898804	
693.125	0.7661731842	0.2838517712	
693.75	0.7930151555	-0.383239074	
694.375	0.1775378084	-0.3342259592	
695.0	0.817897833	-0.3158486253	
695.625	0.6072188705	-0.2888358215	
696.25	0.399105603	0.4809785464	
696.875	0.4098012982	0.6615725917	
697.5	0.686647168	0.3948725289	
698.125	0.4155960957	0.2616805893	
698.75	0.3186219767	-0.3417725458	
699.375	-0.4918888228	-0.4837994055	
700.0	-0.2007266615	0.3721555481	
700.625	-0.01498816175	0.3959395941	
701.25	0.454071888	0.202996638	
701.875	0.123212201	0.2357909646	
702.5	0.4135185808	0.4201289256	
703.125	0.4481028576	-0.05230766052	
703.75	0.3006002613	0.08213302187	
704.375	0.4615099721	-0.2098562833	
705.0	0.1673819745	-0.2786918707	
705.625	0.2892254779	0.1685056715	
706.25	0.3851889407	0.2069797379	
706.875	0.2379727474	0.1978989226	
707.5	0.1813026748	0.4693989365	
708.125	0.4153583073	0.1683487786	
708.75	0.1553591735	-0.307174614	
709.375	-0.2216563995	-0.1927087576	
710.0	-0.204739985	0.2683372276	
710.625	0.05396732358	0.0282105338	
711.25	0.04789735346	0.2514781269	
711.875	0.3176971679	0.01337390618	
712.5	0.1748754403	0.02910026578	
713.125	0.4316976272	-0.07209202685	
713.75	0.1003960266	-0.3461779632	
714.375	0.01564938161	-0.09715029487	
715.0	0.07188689089	-0.3296162373	
715.625	-0.1135911825	-0.1871807473	
716.25	0.2024970854	-0.117540131	
716.875	0.4945999019	-0.2741864301	
717.5	0.3751734903	-0.1728252167	
718.125	0.684926667	0.380591913	
718.75	0.9970647345	-0.1658538886	
719.375	0.3330492177	-0.4555544315	
720.0	0.429536665	-0.4143537887	
720.625	0.2258802791	-1.264168694	
721.25	-0.2412290857	-0.5619537833	
721.875	0.1829933747	-1.0628066	
722.5	-0.9688721426	-0.9997557964	
723.125	-0.5910324494	0.020032144	
723.75	-0.807348777	0.1604286566	
724.375	0.1766203307	0.5276746035	
725.0	-0.04645514248	0.109628908	
725.625	0.02379130255	0.7036191643	
726.25	0.3575852014	0.6930469686	
726.875	-0.2100204145	0.5507479597	
727.5	-0.6004707264	1.62298696	
728.125	0.4902835214	2.244415992	
728.75	-0.1817648217	1.555768102	
729.375	-2.36036544	3.862341342	
730.0	1.729242702	4.098175848	
730.625	0.09472520452	2.363199975	
731.25	-2.433058129	4.459805387	
731.875	-0.5592097075	2.974241823	
732.5	-2.473534592	-0.5120596661	
733.125	-3.282837527	0.2604506691	
733.75	-0.4604736112	1.613635838	
734.375	0.2573000134	0.4611832676	
735.0	0.1868649969	-0.9613329297	
735.625	-0.01054781691	0.5888438127	
736.25	-0.4501159905	0.2830334768	
736.875	0.6013858299	0.856720599	
737.5	0.8495628877	-0.3227728794	
738.125	1.362238371	0.8434109172	
738.75	2.620483058	-2.039742091	
739.375	0.4252331394	-1.854047111	
740.0	2.873083195	1.890986486	
740.625	6.809397671	-1.939412901	
741.25	-0.3133603923	-3.000322262	
741.875	-5.725183342	-1.508492333	
742.5	-3.806069323	-1.034282087	
743.125	0.7459527179	-0.5716706781	
743.75	0.8478225124	-1.819586005	
744.375	-0.6491886526	0.05079312827	
745.0	0.02181050143	-0.1489629359	
745.625	0.2177499841	-0.02346461733	
746.25	0.02721242158	0.05690236983	
746.875	-0.2985677691	-0.1088658668	
747.5	-0.05876509599	0.4322507202	
748.125	0.07183416619	0.3596352369	
748.75	0.08080212151	0.6275240475	
749.375	0.252243273	0.5651166969	
750.0	-0.3250053675	0.1030755222	
