!Created with skrf (http://scikit-rf.org).
# GHz S RI R (50+0j) 
!freq	ReS11	ImS11	
500.0	1.745022425	-1.054311721	
500.625	2.135349443	-3.768207155	
501.25	-2.050572179	-2.425202815	
501.875	-0.7759455045	0.006957182738	
502.5	0.0407864551	-0.6967709487	
503.125	-0.1419950501	0.2415263347	
503.75	-0.1423134086	0.2145004037	
504.375	0.1060304293	-0.1089493409	
505.0	0.07539519719	0.09538089996	
505.625	-0.130477275	-0.3962984301	
506.25	0.05282843659	0.2411133917	
506.875	-0.9353531079	-0.6811457013	
507.5	-1.639087527	-0.3817416907	
508.125	1.45815798	-0.744239816	
508.75	1.657832032	-4.858476844	
509.375	-1.961800969	-1.441670458	
510.0	-1.953895683	-2.118896385	
510.625	-0.7206018486	0.0996030159	
511.25	-0.3869760295	-0.5250960932	
511.875	-0.6989211911	-0.09288701207	
512.5	0.005251856133	0.1224597749	
513.125	-0.02171115977	-0.1620133377	
513.75	-0.1182774787	-0.5037869503	
514.375	-0.4323824081	0.3237605233	
515.0	1.157958433	-1.069543201	
515.625	-1.529677907	0.181216727	
516.25	1.480007966	-2.623699538	
516.875	-2.384020315	-1.853751784	
517.5	0.005186672809	0.3717267719	
518.125	-0.3129770176	-0.4458774295	
518.75	-0.07158066107	0.1812378528	
519.375	-0.2877522242	0.07044582474	
520.0	0.4996972515	0.05409332541	
520.625	0.2939543043	-0.1779937424	
521.25	0.2234879585	-0.8522584854	
521.875	-0.4167836424	0.1758102444	
522.5	-0.1222465503	-0.05821336007	
523.125	-0.1061657514	0.1157328767	
523.75	-0.387490483	-0.1945031586	
524.375	-0.131812227	0.3611172323	
525.0	-0.3530804934	0.1597621426	
525.625	0.2720768807	0.2365574841	
526.25	-0.2417204588	-0.0480403263	
526.875	0.04084643277	0.1534880338	
527.5	-0.4505483991	0.307869072	
528.125	0.389349796	1.220954627	
528.75	0.2314157878	0.2128946612	
529.375	0.1467526002	0.4011006961	
530.0	-0.1866070794	0.07138907186	
530.625	0.5258085898	1.356184302	
531.25	0.7149922769	-0.02369602994	
531.875	0.7657512119	-0.3157092505	
532.5	-0.5520900203	-0.09805756422	
533.125	0.4825030275	-0.2839365322	
533.75	-0.07764796239	-0.341121096	
534.375	0.08665912387	-1.118341719	
535.0	-0.922231612	0.2234214729	
535.625	-0.2924591911	0.09975049661	
536.25	-0.08158580377	0.3278115732	
536.875	0.2518037804	-0.09533891864	
537.5	0.230322634	0.03614142602	
538.125	0.2698458152	-0.3356531975	
538.75	0.2530306954	-0.08227515666	
539.375	-0.1988344346	-0.6107948974	
540.0	-0.4966813861	-0.09544805677	
540.625	-0.2681888075	-0.1888049298	
541.25	-0.2623103492	-0.01801839608	
541.875	-0.158706518	0.0007960342778	
542.5	0.04000214134	-0.08878246511	
543.125	-0.3478137277	-0.2008010616	
543.75	-0.04648751358	0.1211166341	
544.375	-0.2649257062	0.06754394619	
545.0	0.1684313131	0.09003446488	
545.625	-0.03857902115	0.2765307509	
546.25	0.4429372921	-0.072809774	
546.875	0.03429717031	0.1100405834	
547.5	0.4310237856	-0.4073424075	
548.125	-0.3220628782	-0.3486483602	
548.75	-0.08252308637	-0.2339385736	
549.375	-0.3501684557	-0.3216887773	
550.0	-0.1133920121	0.1629057353	
550.625	-0.2156102526	-0.1289862527	
551.25	-0.09207230307	0.1858225283	
551.875	-0.2281317271	0.0371504847	
552.5	-0.1247533621	0.2997828949	
553.125	-0.0130712027	0.1069915943	
553.75	0.1010099278	0.154425743	
554.375	0.2454137057	-0.01541713838	
555.0	0.2280222553	-0.1477642074	
555.625	0.2265708564	-0.2585375688	
556.25	0.1609932669	-0.3570795831	
556.875	-0.08161884143	-0.3881154296	
557.5	-0.2280789275	-0.2707945096	
558.125	-0.2897553541	-0.1031865437	
558.75	-0.2432763922	0.004032639172	
559.375	-0.263659704	0.004600943944	
560.0	-0.2565243916	0.2156189473	
560.625	-0.06874392557	0.2271806974	
561.25	-0.06750321401	0.2546469927	
561.875	0.1639238462	0.08061066227	
562.5	-0.09944450187	0.1439656007	
563.125	0.2904389797	0.1368067242	
563.75	0.1685956672	0.04344321352	
564.375	0.4612947886	-0.2034701416	
565.0	0.05332588226	-0.4389593832	
565.625	0.00629659898	-0.2476176764	
566.25	-0.2625257283	-0.3998770328	
566.875	-0.3943304237	-0.03692932051	
567.5	-0.1658465512	-0.3153907498	
568.125	-0.4961353609	-0.5070220282	
568.75	-0.4123515584	-0.03853084902	
569.375	-0.6961449527	-0.02212644775	
570.0	-0.2620748479	0.723854249	
570.625	0.03707244471	0.1698010674	
571.25	-0.3823799894	0.4199343613	
571.875	0.3853553331	-0.1024139759	
572.5	0.1911845194	0.3679011134	
573.125	0.3054792493	-0.5748753913	
573.75	-0.1677237826	-0.05151346837	
574.375	0.395995779	-0.2321303371	
575.0	-0.2803179058	-0.1327735074	
575.625	0.3669808442	-0.03422912002	
576.25	0.09556447325	-0.5538667526	
576.875	-0.1627876208	-0.0739756055	
577.5	0.308851788	-0.3783330493	
578.125	-0.2702498342	-0.5721929007	
578.75	-0.2172271692	-0.07873559533	
579.375	-0.00789937622	-0.3190765844	
580.0	-0.3709844835	-0.03895679496	
580.625	0.1174632774	-0.170382302	
581.25	-0.4995953276	0.265031578	
581.875	0.2986223917	0.3405853567	
582.5	-0.1243806579	0.03747193022	
583.125	0.142696622	0.6894276675	
583.75	0.1631026683	-0.4551960238	
584.375	0.002005394704	0.5588323641	
585.0	0.4026058878	-0.2571409607	
585.625	0.1429337382	0.3957703312	
586.25	0.6705906807	-0.3841935374	
586.875	-0.0966511903	-0.1510317627	
587.5	0.2876946092	-0.3399276153	
588.125	-0.2228230891	-0.5513286168	
588.75	-0.1058685213	-0.05819653142	
589.375	0.4922917712	-0.3133312635	
590.0	-0.2789057875	-0.4818428708	
590.625	-0.2566115045	-0.0925643146	
591.25	-0.4723034788	0.1553934166	
591.875	0.05844684979	0.3935083982	
592.5	-0.1238648021	0.03189553574	
593.125	0.02917701331	0.1900053343	
593.75	-0.02357264486	0.1275226583	
594.375	0.3511340827	0.5874709021	
595.0	0.7678757431	0.04924262928	
595.625	-0.0751075269	0.1168181729	
596.25	0.609934644	0.4735894066	
596.875	0.288876844	-0.3070651515	
597.5	0.1393818436	0.554277626	
598.125	0.6759006633	0.1227160823	
598.75	0.04995209714	0.1925238156	
599.375	0.8452011017	0.08037381652	
600.0	0.206455639	-0.4768973349	
600.625	0.3247394247	-0.1712304201	
601.25	0.371333943	-0.4733874587	
601.875	-0.2897286878	-0.3625647991	
602.5	-0.2394893792	-0.08108622303	
603.125	-0.2505903733	0.06104417239	
603.75	-0.3188938432	0.2328114569	
604.375	-0.1049920934	0.1245173012	
605.0	-0.3103316716	0.1294890253	
605.625	-0.02169838817	0.2189804688	
606.25	-0.361270865	-0.1374307358	
606.875	-0.4886994716	0.5248920594	
607.5	-0.1753167476	0.1033662794	
608.125	-0.5130123447	0.7844614862	
608.75	0.6964743795	0.1012571898	
609.375	0.3666479453	0.3272694892	
610.0	0.620385276	-0.5093898281	
610.625	-0.06705158514	-0.190675329	
611.25	0.2829300479	-0.6797656509	
611.875	-0.2892708135	-0.06935459461	
612.5	-0.2585626722	-0.3263076556	
613.125	-0.5648558385	0.2803228845	
613.75	-0.2568183424	-0.005594605889	
614.375	0.1722515701	0.4189370679	
615.0	-0.03773392237	-0.1069858206	
615.625	0.1224055377	0.5707806387	
616.25	0.006032715395	0.04344975341	
616.875	-0.504090678	0.5034993735	
617.5	0.07792870466	0.7170388226	
618.125	-0.1829793017	0.1674417022	
618.75	0.0400426001	0.7322640261	
619.375	0.2785258189	0.1722866563	
620.0	0.3978703929	0.356387083	
620.625	0.1887376146	-0.4521339573	
621.25	-0.04304893817	-0.4427670296	
621.875	-0.5557329664	-0.2465907195	
622.5	-0.4035524078	0.09142434946	
623.125	-0.1941068723	0.6068575873	
623.75	0.1941511929	-0.1190480564	
624.375	0.3679186637	0.04081552485	
625.0	-0.2697464846	-0.07567710408	
625.625	0.4782908714	-0.1208053027	
626.25	-0.4072724161	-0.4313639298	
626.875	0.1137883034	-0.118445655	
627.5	-0.622571667	-0.3061105239	
628.125	-0.2280112654	0.110235208	
628.75	0.09607150812	-0.4879555382	
629.375	-0.5353175325	-0.2791671856	
630.0	-0.1434597202	-0.2323963618	
630.625	-0.6668594897	-0.01157484694	
631.25	-0.3487752031	0.591662208	
631.875	-0.02073413031	0.4971106119	
632.5	0.1981848133	0.4454989708	
633.125	0.573410425	0.2197884265	
633.75	0.3078692522	-0.2385452856	
634.375	0.2655324165	-0.1872445068	
635.0	-0.1594088499	-0.4414211834	
635.625	-0.08573749444	-0.2158468446	
636.25	-0.5932292952	0.1439085258	
636.875	0.0468543091	0.3948515583	
637.5	-0.2005645575	-0.2056804131	
638.125	-0.2531352168	0.7379323348	
638.75	0.1190499504	-0.007568488906	
639.375	-0.4273477336	0.6667327764	
640.0	0.6283530507	0.6812936117	
640.625	0.3348484834	0.08896098093	
641.25	0.8597273837	0.4243507796	
641.875	0.1623054001	-0.6820020845	
642.5	0.2681850117	-0.2027834005	
643.125	-0.4231580227	-0.6994188403	
643.75	-0.2718359121	0.3335001804	
644.375	-0.3320020579	-0.463733752	
645.0	-0.5142042715	0.550009805	
645.625	0.3349654111	0.429552871	
646.25	0.007073984934	0.09043178908	
646.875	0.7342646883	0.1473309581	
647.5	-0.3345070967	-0.0633380722	
648.125	0.6898500079	0.3568729028	
648.75	0.3749626908	-0.6105311559	
649.375	0.6088542009	0.2171236064	
650.0	0.7865741839	-1.355586578	
650.625	-0.3960156492	-0.5924883336	
651.25	0.8110319996	0.1530703134	
651.875	1.053811021	-0.989773663	
652.5	-0.01653437636	-0.3591762563	
653.125	0.960353984	0.2127207694	
653.75	0.4043594151	-1.011342112	
654.375	-0.0877650841	-0.1946579242	
655.0	-0.6143429097	-0.8627283201	
655.625	-0.3547685663	0.9121434267	
656.25	0.07580216996	-0.02130736797	
656.875	-0.05118697284	0.5437570089	
657.5	0.3157344638	-0.07477093391	
658.125	-0.0859572036	0.6154285721	
658.75	1.039849435	0.1402940784	
659.375	0.5018233685	-0.3969846294	
660.0	0.5769975085	-0.2843606636	
660.625	0.6645951198	-1.250044949	
661.25	-0.255102101	-0.5904756857	
661.875	0.8565406155	-0.08632089633	
662.5	0.898550383	-0.896170894	
663.125	0.04046235122	-0.4862998552	
663.75	0.9689894087	-0.3843698343	
664.375	-0.5933169536	-0.9297839892	
665.0	-0.1135834219	-0.3750093654	
665.625	-1.173344673	0.04131150026	
666.25	0.1423073816	0.7744930934	
666.875	-0.1041388779	0.3039383487	
667.5	0.5846121144	0.4937916237	
668.125	0.5138372011	-0.3054515836	
668.75	0.2940730529	-0.04345829091	
669.375	0.4929213791	-0.7010485147	
670.0	-0.2355476983	-0.3708153808	
670.625	0.2260439561	-0.4110041502	
671.25	0.05812972604	-0.6242328865	
671.875	0.1188511895	-0.1353001734	
672.5	0.7670537641	-0.326840171	
673.125	0.4400176845	-0.6935645137	
673.75	0.03383472547	-0.3170153498	
674.375	0.5871598719	-0.4187910253	
675.0	-0.5622370033	-1.046968958	
675.625	-0.02167734343	0.2435651351	
676.25	-0.7776686649	-0.55919158	
676.875	-0.2320670061	0.5434791019	
677.5	-0.3549913282	-0.630803031	
678.125	-0.2809604041	0.9815580512	
678.75	-0.0427779226	-0.01372010607	
679.375	0.3637452244	0.5730672351	
680.0	0.7186788438	-0.4144049719	
680.625	-0.3472654787	-0.2022760339	
681.25	0.4936340214	0.3249929862	
681.875	0.476613451	-0.114988524	
682.5	0.3145054593	0.09249459429	
683.125	0.5413889264	0.5350833618	
683.75	0.7388978283	-0.1385039768	
684.375	0.4200568759	0.2052438645	
685.0	0.8655159602	0.3713827659	
685.625	0.7663270441	-0.5391504013	
686.25	0.1324656213	0.6440859236	
686.875	1.640004546	-0.84203555	
687.5	-0.3365938389	-0.5861278872	
688.125	0.781314682	-0.9731682763	
688.75	-1.836253491	-0.4856253303	
689.375	-0.001251141091	0.2488616446	
690.0	-0.2253524368	1.517666655	
690.625	0.7458182935	0.04777432557	
691.25	0.2366681432	1.043211077	
691.875	1.557378583	0.7659375415	
692.5	1.086267279	0.3129304102	
693.125	1.590796218	0.153337105	
693.75	1.452322028	-0.547006978	
694.375	1.107331308	-0.8018100512	
695.0	0.9087078523	-0.7636521834	
695.625	1.125410259	0.1057156065	
696.25	1.70471557	0.2528749586	
696.875	0.5508357428	0.5149645155	
697.5	0.9755887018	1.949201016	
698.125	1.564354554	-0.2217047693	
698.75	1.311001024	-0.04076763746	
699.375	-1.474150599	-1.502866774	
700.0	0.0415286807	0.7905523542	
700.625	-0.3586100724	1.119375981	
701.25	0.830697496	-0.01137450706	
701.875	0.1288847263	0.8356253953	
702.5	1.316174854	0.6708388502	
703.125	0.5036793448	0.1979750898	
703.75	1.336688147	-0.09990250339	
704.375	0.3644738374	-0.6672921968	
705.0	0.8705925191	0.3340532972	
705.625	0.8218473919	-0.5386035028	
706.25	0.1430593049	0.4366909446	
706.875	0.8273147018	1.209018365	
707.5	0.6585427253	0.09554431855	
708.125	1.014938306	0.9022280145	
708.75	0.7880024433	-1.368378944	
709.375	-0.3001886852	-0.3078435619	
710.0	-0.9350862859	0.4704168103	
710.625	0.5016648149	0.228039937	
711.25	-0.007963788383	0.4534046422	
711.875	0.6267681874	0.1825186774	
712.5	0.8823774821	0.1376840496	
713.125	0.5396226792	-0.5519001175	
713.75	0.3876016653	-0.3636700425	
714.375	-0.0009129194706	-0.8890781919	
715.0	-0.1976739159	-0.1037731611	
715.625	0.512525652	-0.9313978991	
716.25	-0.3060853254	-0.7253178381	
716.875	0.9004595078	0.3464395395	
717.5	2.404413026	-0.4086722747	
718.125	0.1302216942	-1.150837945	
718.75	2.604151087	1.64947226	
719.375	2.023223413	-3.026660797	
720.0	0.6658324866	-1.130706282	
720.625	2.29722103	-3.126278685	
721.25	-1.629730831	-1.939952254	
721.875	0.8000463782	-2.58781643	
722.5	-1.971240865	-2.359061107	
723.125	-1.980892324	0.3175849813	
723.75	-0.934988945	0.4270682383	
724.375	-0.1289366334	1.579607667	
725.0	0.7386280843	0.6975838267	
725.625	0.1900359721	0.7364861985	
726.25	-0.4592632122	2.12858624	
726.875	1.222993414	2.663675589	
727.5	-1.466450934	1.661867312	
728.125	-0.4918337142	8.826685377	
728.75	4.348241093	3.609686743	
729.375	-8.652337004	5.397534238	
730.0	1.865113266	18.79583747	
730.625	4.299651002	1.490867773	
731.25	-13.07214137	10.34543228	
731.875	-7.758246704	15.61358889	
732.5	-1.744524738	1.591862422	
733.125	-8.975841145	-1.571311992	
733.75	-1.336504387	4.1565581	
734.375	1.059761737	0.5796996759	
735.0	1.046316005	-2.474019638	
735.625	-0.5363374542	1.182506802	
736.25	-0.9373830757	0.8071759883	
736.875	1.273354516	2.100913123	
737.5	3.534306992	-0.2491625732	
738.125	0.804858014	-1.387859884	
738.75	8.315397745	-0.1717632029	
739.375	5.034347201	-10.63366106	
740.0	-2.823114042	1.015912137	
740.625	23.93540166	6.970675148	
741.25	14.89198251	-9.459142866	
741.875	-14.01113292	-25.10894903	
742.5	-11.6550611	-3.18421063	
743.125	0.6943391994	3.035028657	
743.75	2.147804263	-5.309442821	
744.375	-2.017771322	0.5607801048	
745.0	0.01399306094	-0.2138802122	
745.625	0.3875550694	-0.04014593003	
746.25	-0.06220825735	-0.08716923617	
746.875	-0.8513457292	0.1145791198	
747.5	-0.1286520101	1.039178104	
748.125	0.361632236	1.037815694	
748.75	1.005709608	1.978518006	
749.375	0.6152892858	1.28933167	
750.0	-1.124674786	0.3758410066	
