!Created with skrf (http://scikit-rf.org).
# GHz S RI R (50+0j) 
!freq	ReS11	ImS11	
500.0	0.2594905966	-1.071193618	
500.625	-0.2032071117	-0.4199588502	
501.25	-0.2440372795	-0.8669172896	
501.875	-0.4067038412	-0.3135093158	
502.5	0.02155006657	-0.07839513934	
503.125	-0.09920034649	-0.007913594947	
503.75	0.04710876453	0.04425938708	
504.375	0.02932417154	0.02249666671	
505.0	-0.005037422429	-0.0453367706	
505.625	0.02865319221	-0.006555515094	
506.25	-0.1098510602	-0.1194741561	
506.875	0.1154218204	0.0246482122	
507.5	-0.139773353	-0.6316494477	
508.125	-0.2531716763	-0.4962555493	
508.75	0.5446287784	-0.3209698649	
509.375	0.2849885623	-1.326843509	
510.0	-0.3309141381	-0.2848697302	
510.625	-0.009738083772	-0.1429121164	
511.25	-0.1219108097	-0.04837379037	
511.875	-0.006257136382	-0.001720364469	
512.5	-0.06005132757	0.02219699226	
513.125	-0.04315017336	-0.06469278552	
513.75	-0.0005483772505	-0.006159524641	
514.375	-0.09337501085	-0.09373873019	
515.0	0.1004869866	0.2854751871	
515.625	-0.02256870245	-0.7977136686	
516.25	-0.472724407	-0.09389836418	
516.875	0.129593665	-0.2076836015	
517.5	-0.1505711057	-0.1898155893	
518.125	0.01461547094	0.03187575551	
518.75	-0.06773578217	-0.1855511746	
519.375	-0.0334634186	0.04123231448	
520.0	0.05247104362	0.03360167411	
520.625	0.1706227183	-0.01179040207	
521.25	-0.01192424393	-0.2308489642	
521.875	-0.05111050965	0.02764566787	
522.5	-0.03911026677	-0.03390288144	
523.125	0.01351018403	0.09805068122	
523.75	-0.06149361449	-0.1324855779	
524.375	-0.2209300745	0.1318262701	
525.0	0.03961593171	0.005824874911	
525.625	-0.04438583849	0.0751583189	
526.25	0.04656904323	-0.06560442117	
526.875	-0.07627410372	0.09788993507	
527.5	0.06018156821	0.1733898947	
528.125	-0.02352115047	0.1225136993	
528.75	0.07385521528	0.2089827936	
529.375	0.01874078332	0.02595600336	
530.0	-0.03362329654	0.1927510971	
530.625	0.2303387628	0.242365726	
531.25	0.1783018526	0.09240367738	
531.875	0.1787211981	-0.02282679602	
532.5	-0.1318283524	-0.113530893	
533.125	0.1681675872	0.01449627067	
533.75	0.05802085961	-0.2558538694	
534.375	-0.04776412662	-0.1234323431	
535.0	-0.2157555411	-0.1893723004	
535.625	-0.1226886883	0.1458855073	
536.25	-0.02000705426	0.05345421535	
536.875	0.1088172973	0.03500324609	
537.5	0.02752587553	-0.05490793107	
538.125	0.1240101575	0.00687840071	
538.75	0.10715145	-0.1578381571	
539.375	-0.06350799432	-0.1259783263	
540.0	-0.110697664	-0.1855502838	
540.625	-0.1989273593	0.008314593996	
541.25	-0.02004625043	0.009438391692	
541.875	0.02113871348	-0.08232031195	
542.5	-0.05950604911	-0.01871719567	
543.125	-0.04719767681	-0.09390130318	
543.75	-0.1368716372	0.01921873672	
544.375	0.03071875258	0.00778266236	
545.0	-0.04360599521	0.1030743575	
545.625	0.07696278734	0.01345549605	
546.25	0.03532018704	0.0860786957	
546.875	0.1446170829	-0.05590693531	
547.5	0.02413622035	-0.07483628301	
548.125	0.007989206621	-0.1675052055	
548.75	-0.1571578179	-0.1099121313	
549.375	-0.06254725666	-0.01558989617	
550.0	-0.09030058659	-0.03542688706	
550.625	-0.03086741659	0.03854111347	
551.25	-0.06709009648	-0.008286029511	
551.875	-0.08020341785	0.08361928413	
552.5	-0.02628917524	0.04352248758	
553.125	-0.02552023903	0.06612472497	
553.75	0.04613068396	0.03329172401	
554.375	0.07957568007	0.01162194504	
555.0	0.09541886361	-0.06771410201	
555.625	0.07418031271	-0.09650585432	
556.25	0.0651287155	-0.1216825846	
556.875	-0.02983905213	-0.1475304822	
557.5	-0.09090161315	-0.09234839296	
558.125	-0.1023574236	-0.0349176065	
558.75	-0.1024332986	-0.01143656851	
559.375	-0.1039621241	0.02661751444	
560.0	-0.08213767284	0.05745346541	
560.625	-0.06738047054	0.1046810998	
561.25	0.032832898	0.09955085538	
561.875	-0.001817371335	0.02875531141	
562.5	0.03864659583	0.06981976455	
563.125	0.03499533335	0.04736842136	
563.75	0.1495074803	0.04013786714	
564.375	0.1080558203	-0.1269138901	
565.0	0.06941722613	-0.08758676701	
565.625	-0.007851899007	-0.1917606259	
566.25	-0.1424688884	-0.03770324405	
566.875	-0.08359409253	-0.09923799107	
567.5	-0.2135449296	-0.1391840513	
568.125	-0.1103575292	-0.04893544522	
568.75	-0.1934636753	-0.1399693112	
569.375	-0.2339062424	0.1552416085	
570.0	-0.05975429141	0.08949979526	
570.625	-0.144283943	0.1698370724	
571.25	0.09319234345	0.1187786963	
571.875	-0.02750084644	0.0732087021	
572.5	0.2089224795	-0.04418652458	
573.125	-0.01756925847	-0.07124325055	
573.75	0.1202392623	-0.05699306017	
574.375	-0.03090785907	-0.144691184	
575.0	0.03378821595	0.0572886517	
575.625	0.06433048102	-0.1441697305	
576.25	-0.04179149372	-0.07640794051	
576.875	0.09148919634	-0.0914824454	
577.5	-0.02236598948	-0.2453888853	
578.125	-0.101454301	-0.06456496595	
578.75	0.03290952179	-0.1206437928	
579.375	-0.1482416685	-0.1285759697	
580.0	0.0573098222	0.1287055728	
580.625	-0.1345316062	-0.1472753398	
581.25	-0.03363632402	0.1530438961	
581.875	-0.06562422841	0.0410537316	
582.5	0.03574365218	0.2635764089	
583.125	0.1548675936	0.004277078518	
583.75	-0.06471273314	0.05180474509	
584.375	0.1370418371	0.02722070409	
585.0	-0.007103316465	0.03669985805	
585.625	0.2138136726	0.07900833529	
586.25	0.1297472152	-0.1389359359	
586.875	0.06005154413	-0.03265305151	
587.5	0.01900082711	-0.1932464687	
588.125	-0.09490664561	-0.09737196249	
588.75	0.1035354648	-0.06775950958	
589.375	0.08145844639	-0.2330099877	
590.0	-0.0861507213	-0.064657	
590.625	-0.1155818674	-0.1429574991	
591.25	-0.1805501705	0.1942647757	
591.875	0.05460157853	-0.007370570336	
592.5	-0.09927310998	0.0800031819	
593.125	0.07511136564	-0.01501694968	
593.75	-0.03646547741	0.1626640563	
594.375	0.242349473	0.02745823868	
595.0	0.04812520052	0.05267695626	
595.625	0.1648279702	0.1595784845	
596.25	0.1983922246	-0.02099920767	
596.875	0.04495140723	0.05032070907	
597.5	0.1681073005	0.1590593433	
598.125	0.1737912334	0.03822446555	
598.75	0.078848671	0.09704030836	
599.375	0.2507326739	-0.005911384754	
600.0	0.1114976764	-0.1674975411	
600.625	0.1299105455	-0.07439549476	
601.25	0.1174177569	-0.2258306104	
601.875	-0.1448828648	-0.08744452157	
602.5	-0.02303122108	-0.08740285042	
603.125	-0.1885751154	0.1242631183	
603.75	0.01630020389	0.05064217624	
604.375	-0.1432473714	-0.01974741427	
605.0	-0.07459369362	0.1723744407	
605.625	-0.1033632322	-0.07085237315	
606.25	-0.1914158762	0.1182471928	
606.875	-0.06915886813	0.1352477531	
607.5	-0.2226250457	0.1251342585	
608.125	-0.001384639513	0.2292260629	
608.75	0.1598789031	0.08968910928	
609.375	0.1809901643	0.06396930588	
610.0	0.2283625802	-0.1546360305	
610.625	0.04645944597	-0.1749891334	
611.25	0.08215787754	-0.11714826	
611.875	-0.1757603158	-0.1462857151	
612.5	-0.07145769614	0.0001552510881	
613.125	-0.2239645594	-0.07161025282	
613.75	-0.0502075185	0.2391703827	
614.375	0.004387006749	-0.02454073001	
615.0	0.09856871321	0.148412726	
615.625	0.05377561757	-0.0225003282	
616.25	-0.07417658817	0.2229836912	
616.875	-0.0142562784	0.2675154448	
617.5	-0.1258826804	0.1750081983	
618.125	-0.05095742911	0.2407537951	
618.75	-0.07308136391	0.1333624699	
619.375	0.05912852338	0.1365303673	
620.0	0.09830382472	0.0460192636	
620.625	0.1481314832	-0.1836633647	
621.25	-0.03513878897	-0.1153123613	
621.875	-0.1673280041	-0.1368808434	
622.5	-0.2961073615	0.1075675782	
623.125	-0.01392885407	0.09241083937	
623.75	0.09645496769	0.1490835045	
624.375	0.02911220906	-0.1218130746	
625.0	0.06892277198	0.04700644273	
625.625	0.03640361985	-0.1543029989	
626.25	-0.03280294804	-0.05333685788	
626.875	-0.1089120212	-0.1539897507	
627.5	-0.1970421009	-0.0004312685611	
628.125	-0.0586239427	-0.0393776892	
628.75	-0.05180211707	-0.1321808636	
629.375	-0.1205307356	-0.1020399638	
630.0	-0.1299603775	-0.1063484195	
630.625	-0.2308776381	0.01189704482	
631.25	-0.1700039635	0.2910525505	
631.875	-0.01410074631	0.1646590269	
632.5	0.1404300414	0.2508574618	
633.125	0.2562547146	-0.008578962875	
633.75	0.07738788982	-0.004721946577	
634.375	0.1412665819	-0.1883146694	
635.0	-0.1082399873	-0.1005917157	
635.625	-0.05908997542	-0.1497252403	
636.25	-0.2073670878	0.1051066241	
636.875	0.02001877332	0.09079614363	
637.5	-0.1169363925	0.04240353915	
638.125	0.0005421659252	0.1549800894	
638.75	-0.08394482098	0.04649981419	
639.375	-0.06321347985	0.3076511632	
640.0	0.203280549	0.1955726653	
640.625	0.121631492	0.120152326	
641.25	0.2755122265	0.1112682023	
641.875	0.1598643506	-0.263481478	
642.5	-0.01205582184	-0.0952853173	
643.125	-0.1321079504	-0.2180402962	
643.75	-0.1939801178	0.08259829783	
644.375	-0.05595602352	-0.2063995497	
645.0	-0.2328665993	0.2395701632	
645.625	0.153325299	0.09110340288	
646.25	-0.02992626279	0.2205793025	
646.875	0.2620551113	-0.07352667838	
647.5	-0.1351799671	0.08132748886	
648.125	0.3104089363	0.08897856483	
648.75	0.1408079068	-0.1522186565	
649.375	0.2351255617	-0.05394914692	
650.0	0.2731695307	-0.4812355987	
650.625	-0.0398527	-0.2393747313	
651.25	0.2573130996	-0.07305879699	
651.875	0.3381919891	-0.2504471509	
652.5	0.1182057861	-0.1757275695	
653.125	0.2642278141	0.05943715493	
653.75	0.2614122872	-0.3181921162	
654.375	-0.1355848711	-0.1591199835	
655.0	-0.139318325	-0.2482162676	
655.625	-0.300084099	0.3254092851	
656.25	0.09594970373	0.0410206689	
656.875	-0.06774723181	0.1452621715	
657.5	0.2236715342	-0.04259650085	
658.125	-0.05747945016	0.1650249517	
658.75	0.4234089815	0.1528328115	
659.375	0.1589568465	-0.2253301667	
660.0	0.2382130801	-0.1165715444	
660.625	0.2426524448	-0.386228	
661.25	-0.01705424216	-0.3051877747	
661.875	0.2830089942	-0.06381084141	
662.5	0.3216066871	-0.2859348777	
663.125	0.1210775639	-0.1907115544	
663.75	0.2411369691	-0.15021033	
664.375	-0.07306198522	-0.4210674688	
665.0	-0.2090457424	-0.07893868062	
665.625	-0.2833923326	-0.05201325536	
666.25	-0.1623330759	0.3588987734	
666.875	0.1472429504	0.06683212071	
667.5	0.1026067584	0.2792600917	
668.125	0.2863501971	-0.115173292	
668.75	0.06110644799	-0.02596145976	
669.375	0.2297780858	-0.1959720955	
670.0	-0.2208314853	-0.2210039348	
670.625	0.1008394164	-0.02938553561	
671.25	0.133013503	-0.238224025	
671.875	0.01376986644	-0.1916601549	
672.5	0.2084588637	0.01647738143	
673.125	0.292242371	-0.2597266156	
673.75	0.04498901748	-0.156236526	
674.375	0.1396058541	-0.1670305772	
675.0	-0.1072991784	-0.3414519234	
675.625	-0.1789058962	0.01901127943	
676.25	-0.1195222326	-0.160226539	
676.875	-0.2448226189	0.04614725783	
677.5	-0.03424146696	0.05243116747	
678.125	-0.2513438664	0.02223823709	
678.75	0.1180284208	0.299612295	
679.375	0.05312446296	-0.03209656905	
680.0	0.2945367316	0.09034483972	
680.625	0.05815646715	-0.2510093609	
681.25	-0.08014901509	0.196834358	
681.875	0.4437137022	-0.05539004401	
682.5	0.1202431937	-0.09965382273	
683.125	0.1958490315	0.2978593984	
683.75	0.4635405223	0.0790483705	
684.375	0.1365756323	-0.173521975	
685.0	0.3555236748	0.2249290252	
685.625	0.3030690886	-0.07748042427	
686.25	0.1318957219	-0.08482387496	
686.875	0.3859071156	0.0756923328	
687.5	0.207584282	-0.4096597068	
688.125	0.03420615055	-0.2858119133	
688.75	-0.3250196575	-0.3588192233	
689.375	-0.3273672915	0.4081271022	
690.0	0.113970544	0.1010529979	
690.625	0.1456186386	0.4760022942	
691.25	0.3994686476	0.07017320228	
691.875	0.1592303546	0.2929458038	
692.5	0.8150366904	0.3369684926	
693.125	0.5518602691	-0.2583797382	
693.75	0.6250829008	0.05521774175	
694.375	0.5575189672	-0.4757492498	
695.0	0.2634626964	-0.3990668484	
695.625	0.5979288902	0.09041823581	
696.25	0.5989203197	0.1261672223	
696.875	0.2388758194	0.4767677958	
697.5	0.2609389656	0.4545987983	
698.125	0.599717507	0.3491075164	
698.75	0.2843301212	-0.3835593106	
699.375	-0.11117616	-0.4385698227	
700.0	-0.3730015949	0.3823743614	
700.625	0.2052356619	0.2078836275	
701.25	0.03503815554	0.2289351256	
701.875	0.431365381	0.2566193485	
702.5	0.2155095286	0.06933804615	
703.125	0.3810613863	0.2661551646	
703.75	0.4702741961	-0.1630182392	
704.375	0.2108446308	-0.005374895529	
705.0	0.3690678422	-0.04750237744	
705.625	0.278529445	-0.1450316802	
706.25	0.1484319641	0.2185613223	
706.875	0.2293105828	0.2083082892	
707.5	0.2878032236	0.2966218056	
708.125	0.3051677277	0.2069108118	
708.75	0.227357961	-0.1067481631	
709.375	-0.2617732576	-0.3817968061	
710.0	0.01177557661	0.2040109579	
710.625	-0.07228798007	0.1837766791	
711.25	0.2571617051	-0.03929154432	
711.875	0.03717505379	0.2214446256	
712.5	0.3793301374	-0.03073828058	
713.125	0.1253808932	-0.1874285633	
713.75	0.2073172822	-0.1349831606	
714.375	-0.004350879894	-0.313138152	
715.0	-0.07166213782	-0.1241428621	
715.625	0.1318552467	-0.207891389	
716.25	0.08192933398	-0.3469135553	
716.875	0.1833482531	-0.08984821346	
717.5	0.4656643225	0.07292858307	
718.125	0.7047328681	0.03292199033	
718.75	0.5462299919	-0.02658288706	
719.375	0.7856518969	-0.05841792795	
720.0	0.2473520247	-0.740793865	
720.625	-0.1390170073	-0.1199110658	
721.25	0.4402382102	-0.93264237	
721.875	-0.7603143382	-1.02965107	
722.5	0.06743216977	-0.4514142062	
723.125	-0.8648638961	-0.3037066529	
723.75	-0.2542916963	0.5276068478	
724.375	-0.1440753296	0.2044495849	
725.0	0.2162046448	0.5408907191	
725.625	0.2536469406	0.1590386933	
726.25	-0.182055093	0.5500353639	
726.875	-0.04788835882	1.043139611	
727.5	0.2413378781	0.9985797007	
728.125	-0.5454210681	1.176190939	
728.75	-0.2007106944	2.943172807	
729.375	0.2381659523	2.513842658	
730.0	-1.35111614	2.197253124	
730.625	-0.1987115169	4.314847861	
731.25	1.57043162	2.39811161	
731.875	-2.561616156	0.6177673016	
732.5	-3.446794916	1.184190114	
733.125	-0.8358550658	1.266864849	
733.75	-1.864139445	0.1185405651	
734.375	1.251478786	0.5775346875	
735.0	-0.1288022057	-0.1294144487	
735.625	-0.475362129	-0.2928518984	
736.25	0.3048627174	0.735289494	
736.875	-0.09644633747	0.1855022842	
737.5	1.235168777	0.5669605482	
738.125	1.297688363	-0.9106253374	
738.75	0.4506748851	-0.6676752561	
739.375	3.062560692	0.05154434671	
740.0	2.507185694	-3.432360921	
740.625	-0.8981863449	-0.1491743685	
741.25	-1.464673961	4.886795143	
741.875	-0.3342825577	2.919004566	
742.5	1.707075435	-2.217186862	
743.125	0.3695244391	-3.26639565	
743.75	-0.6311140998	-0.6543815277	
744.375	-0.07042816289	-0.3307368677	
745.0	0.07524010065	0.2763627375	
745.625	-0.06686479979	0.05750225523	
746.25	0.01307252347	-0.222717452	
746.875	-0.1423576737	0.1197115776	
747.5	-0.1318176038	0.1497455215	
748.125	0.05167255715	0.5832437628	
748.75	0.3142851961	0.3040940014	
749.375	0.005386055607	0.339025438	
750.0	-0.4282473439	0.2908667152	
