!Created with skrf (http://scikit-rf.org).
# GHz S RI R (50+0j) 
!freq	ReS11	ImS11	
500.0	-0.1827941534	-1.036986475	
500.625	0.3261962553	-0.2895332137	
501.25	-0.3735509932	-0.954774898	
501.875	-0.3342632131	-0.2012140436	
502.5	0.02336093931	-0.1030525544	
503.125	-0.08736934128	0.01684557833	
503.75	0.006216162692	0.02110017108	
504.375	0.05954433443	-0.001991326628	
505.0	-0.01644915903	-0.01764979036	
505.625	0.04770994457	-0.04485541479	
506.25	-0.1412307967	-0.01988858583	
506.875	0.06519992775	-0.1381672887	
507.5	-0.2243807497	-0.6041137388	
508.125	-0.1044825106	-0.2773535307	
508.75	0.8907960728	-0.4810277215	
509.375	-0.4876829084	-1.037252122	
510.0	-0.2228647536	-0.09327612284	
510.625	0.007169647076	-0.2553941005	
511.25	-0.1203379848	-0.02091039907	
511.875	-0.02427894692	-0.03557890017	
512.5	-0.0474440734	0.04645475106	
513.125	-0.03527880992	-0.05191883818	
513.75	0.01562269361	-0.03967595386	
514.375	-0.1270100116	-0.02979397395	
515.0	0.2122982933	0.152137984	
515.625	-0.4899129701	-0.494325359	
516.25	-0.09641533458	-0.03244299949	
516.875	-0.0656901457	-0.5690012932	
517.5	-0.1542258799	-0.1946903525	
518.125	0.03460002745	-0.03417102174	
518.75	-0.1083549196	-0.1451462824	
519.375	-0.02173388	0.03824271845	
520.0	0.04681989353	0.07121166996	
520.625	0.1450630251	-0.06070012231	
521.25	-0.05582754327	-0.1919562019	
521.875	-0.08168550961	-0.01476264523	
522.5	-0.09948480166	0.03544791004	
523.125	0.03927675497	0.04573573452	
523.75	-0.1602597102	-0.1095657791	
524.375	-0.1290300294	0.1997297871	
525.0	-0.01474430898	-0.009399087587	
525.625	0.0003824097963	0.1234349388	
526.25	-0.05093403044	-0.09193029585	
526.875	-0.03902529144	0.1168880907	
527.5	0.03213793815	0.07805828275	
528.125	-0.0405584998	0.2594424114	
528.75	0.09804674014	0.1924998273	
529.375	0.01787978701	-0.007105342096	
530.0	-0.01987052831	0.214005041	
530.625	0.1931037121	0.1687362547	
531.25	0.2620846283	-0.1444143444	
531.875	0.2802209888	-0.1546007862	
532.5	-0.1127291039	0.01226612305	
533.125	0.1673588505	-0.06182505891	
533.75	-0.02771020458	-0.188831345	
534.375	0.03935816866	-0.2341164846	
535.0	-0.2716410667	-0.1141771054	
535.625	-0.08025908742	0.1149264771	
536.25	-0.03158692747	0.06940359112	
536.875	0.1164435613	0.01228235086	
537.5	0.0214577852	-0.02676263671	
538.125	0.1603887604	-0.03620339299	
538.75	0.07768099212	-0.1200936526	
539.375	-0.0195426176	-0.1342427058	
540.0	-0.1750657968	-0.1920571612	
540.625	-0.1400152565	0.04223934983	
541.25	-0.03057474992	0.06001085592	
541.875	-0.06449984123	-0.04073624205	
542.5	-0.02862588048	0.00946772663	
543.125	-0.08080188284	-0.09077706058	
543.75	-0.1487473591	0.08082262259	
544.375	-0.03781585765	-0.01768462622	
545.0	0.007999169723	0.09667674391	
545.625	0.01898120768	-0.01815265735	
546.25	0.09879788749	0.09349403166	
546.875	0.105958965	-0.08635455089	
547.5	0.06073408502	-0.05916141565	
548.125	-0.01812703333	-0.1923302988	
548.75	-0.1636975947	-0.06186028943	
549.375	-0.04533951853	-0.0614742833	
550.0	-0.1118197633	0.0007645652154	
550.625	-0.01069738898	0.01370476978	
551.25	-0.1004211791	0.0125235428	
551.875	-0.04388259955	0.07843623792	
552.5	-0.05199557853	0.04259974485	
553.125	-0.0180405676	0.07183574909	
553.75	0.04149841476	0.02624617484	
554.375	0.08882058113	0.01023007735	
555.0	0.08944456481	-0.06778121291	
555.625	0.07330653115	-0.08833425551	
556.25	0.0662888669	-0.1252424551	
556.875	-0.03437240168	-0.1479535592	
557.5	-0.08997126729	-0.09249894967	
558.125	-0.103641358	-0.03991028726	
558.75	-0.1068272157	-0.005930636742	
559.375	-0.1000281037	0.0249047529	
560.0	-0.08888027631	0.05752370671	
560.625	-0.06333282683	0.1163642155	
561.25	0.02697202509	0.07882357773	
561.875	0.001352647626	0.05665376386	
562.5	0.04054895318	0.03283759862	
563.125	0.03079463161	0.08789409301	
563.75	0.1656020746	-0.005142067811	
564.375	0.07744061793	-0.08909696874	
565.0	0.1059336629	-0.1085329026	
565.625	-0.0506218123	-0.2094674866	
566.25	-0.09342658563	-0.03502458185	
566.875	-0.0985857427	-0.1450739022	
567.5	-0.2014941591	-0.07895640122	
568.125	-0.04109363011	-0.1069609083	
568.75	-0.2503818318	-0.1176279731	
569.375	-0.1228542733	0.1468970835	
570.0	-0.1580113352	0.0862953852	
570.625	-0.06877840848	0.2561438167	
571.25	0.0599620219	0.04451078449	
571.875	-0.003535019074	0.1565727972	
572.5	0.1561282856	-0.08358570533	
573.125	0.03214487064	-0.01436568369	
573.75	0.1302977491	-0.1293377942	
574.375	-0.08807474101	-0.06482486745	
575.0	0.1069593491	0.01389740241	
575.625	-0.02370198636	-0.121579821	
576.25	0.02964203627	-0.01179271605	
576.875	0.0573493037	-0.1811081131	
577.5	-0.0810727445	-0.1795100997	
578.125	-0.008172149331	-0.02230788642	
578.75	-0.01463756637	-0.1881138472	
579.375	-0.2296260898	-0.008928014794	
580.0	0.09049417924	-0.003021347916	
580.625	-0.1828816064	-0.03898059599	
581.25	0.015633847	0.06532825436	
581.875	-0.1468488847	0.1690243937	
582.5	0.1452437415	0.2176171411	
583.125	0.0703591918	-0.03482058411	
583.75	0.003701388105	0.1281808459	
584.375	0.07832447993	-0.051607777	
585.0	0.01344792842	0.1225024398	
585.625	0.2321368721	-0.009312395986	
586.25	0.05571574416	-0.08935944143	
586.875	0.1578037396	-0.09040068546	
587.5	-0.05644207585	-0.1972764084	
588.125	-0.02763351705	-0.03558761728	
588.75	0.1232556585	-0.1418067852	
589.375	0.0001245637763	-0.227991801	
590.0	-0.009741367817	-0.06942683893	
590.625	-0.2007765669	-0.1476738849	
591.25	-0.04633758133	0.2055720207	
591.875	-0.05493559574	-0.01183909299	
592.5	0.005486771399	0.1572806063	
593.125	-0.01685128969	-0.07032511113	
593.75	0.09505874887	0.2209280177	
594.375	0.1154292299	-0.0242849263	
595.0	0.05369601778	0.110871589	
595.625	0.2076345046	0.1430202002	
596.25	0.1256149832	-0.04637308539	
596.875	0.07000984766	0.1009589133	
597.5	0.2093546371	0.07208974115	
598.125	0.0967940645	0.03031916704	
598.75	0.1374198033	0.1606796216	
599.375	0.2018972741	-0.07089968539	
600.0	0.09580582286	-0.08170522721	
600.625	0.1967678575	-0.1182191563	
601.25	0.05531798665	-0.246614647	
601.875	-0.09144861835	-0.0150956341	
602.5	-0.1087677861	-0.13529016	
603.125	-0.1137021062	0.1398258393	
603.75	-0.0478611302	-0.05984508326	
604.375	-0.1912785461	0.0552433043	
605.0	0.1011535987	-0.01149676499	
605.625	-0.1731870627	-0.02247662057	
606.25	-0.1183608928	0.1588633796	
606.875	-0.05947039994	0.01584618338	
607.5	-0.1878407785	0.2066165509	
608.125	0.03047566305	0.2597922148	
608.75	0.1319022115	0.1629071391	
609.375	0.2569499531	0.06596935099	
610.0	0.2043013796	-0.08126993112	
610.625	0.05012377502	-0.08318535397	
611.25	0.08213350472	-0.2188132519	
611.875	-0.1389695434	-0.04263457894	
612.5	-0.04262860663	-0.08521660522	
613.125	-0.2782921329	0.02869532903	
613.75	0.02387501335	0.1599268964	
614.375	-0.09761748901	0.1090193039	
615.0	0.1389751078	0.07321472164	
615.625	-0.06930775314	0.008262548071	
616.25	-0.09698658666	0.2332820463	
616.875	-0.02238341335	0.1255918109	
617.5	-0.1240236457	0.1643643072	
618.125	-0.05693126851	0.266333602	
618.75	0.04814804702	0.139400746	
619.375	0.1335321516	0.1131511808	
620.0	0.1392143626	0.1231628261	
620.625	0.05801717434	-0.1422920427	
621.25	-0.004365936949	-0.1739613675	
621.875	-0.211880102	-0.1976357645	
622.5	-0.1729677439	0.1328308841	
623.125	-0.1071506902	0.06277603523	
623.75	0.1713884536	0.09131401825	
624.375	-0.04241685709	-0.08010147259	
625.0	0.1135816055	-0.008322034165	
625.625	-0.0139584786	-0.1075509968	
626.25	0.02968924979	-0.09158442983	
626.875	-0.1707600395	-0.1392234385	
627.5	-0.1355105789	0.03741552459	
628.125	-0.06881236258	-0.08164184127	
628.75	-0.1206042655	-0.1355779584	
629.375	-0.05517919563	-0.07169038711	
630.0	-0.1298385943	-0.09805542444	
630.625	-0.2789980123	0.0294041706	
631.25	-0.09969056875	0.1959076328	
631.875	-0.09691177741	0.2162728557	
632.5	0.1705447097	0.2117724259	
633.125	0.1625548739	-0.06230130001	
633.75	0.1634713889	0.02744994438	
634.375	0.05814170555	-0.2088516667	
635.0	4.247649311e-05	-0.005161452928	
635.625	-0.1475219566	-0.1658236763	
636.25	-0.1089215102	0.149352008	
636.875	-0.03611095777	0.02563776772	
637.5	-0.1037447898	0.1498265512	
638.125	0.03619372361	0.06047320452	
638.75	-0.1603006682	0.1027987017	
639.375	0.0282070568	0.3080892735	
640.0	0.1402948379	0.1339773599	
640.625	0.13399201	0.1806585714	
641.25	0.3436144656	0.01530046127	
641.875	0.07360373742	-0.1598138254	
642.5	0.1005141621	-0.1833180552	
643.125	-0.208001463	-0.1342623863	
643.75	0.0216866061	0.0885699767	
644.375	-0.2165813666	-0.1453009784	
645.0	-0.09357659321	0.2311546111	
645.625	-0.01479577558	0.0006580759091	
646.25	0.1938475175	0.311669097	
646.875	0.07282442461	-0.1818808595	
647.5	-0.01875138339	0.1885722834	
648.125	0.2206541252	-0.07940882332	
648.75	0.08585114507	-0.01266021211	
649.375	0.4234754193	-0.1659172219	
650.0	0.05333009054	-0.4232701197	
650.625	0.07958256394	-0.1026826697	
651.25	0.3324942643	-0.1921366781	
651.875	0.2262692727	-0.3161324187	
652.5	0.1186934143	0.004548479519	
653.125	0.3869217075	-0.0567148997	
653.75	0.1045990314	-0.28317257	
654.375	0.055521221	-0.1602090143	
655.0	-0.3317734975	-0.2431152352	
655.625	-0.05466904573	0.3386578754	
656.25	-0.02538019444	0.03290491292	
656.875	0.1041003274	0.3290683605	
657.5	0.02951217589	-0.1355705269	
658.125	0.05848924724	0.3035241559	
658.75	0.3902559647	-0.04414532049	
659.375	0.1494337862	-0.03686552532	
660.0	0.3470105086	-0.1872934413	
660.625	0.06577647811	-0.4534586799	
661.25	0.07502926547	-0.09129091432	
661.875	0.3402448649	-0.2238996284	
662.5	0.2133618175	-0.2905554617	
663.125	0.146323632	-0.08822421513	
663.75	0.2934844583	-0.2765801568	
664.375	-0.1470115854	-0.300954982	
665.0	-0.116976371	-0.1767147543	
665.625	-0.3842648292	-0.002278988749	
666.25	-0.01591911823	0.331422175	
666.875	-0.005044056354	0.1313120755	
667.5	0.2463975428	0.2046142194	
668.125	0.1278770423	-0.1460942635	
668.75	0.1881451799	0.02719228986	
669.375	0.1208136701	-0.4376828431	
670.0	-0.09755416574	-0.06695152426	
670.625	0.154710497	-0.1809292997	
671.25	0.02270020012	-0.2781705542	
671.875	0.04903357836	0.0008147094314	
672.5	0.3411748928	-0.100020449	
673.125	0.1399356672	-0.2523610072	
673.75	0.1124611763	-0.1043830974	
674.375	0.1734559786	-0.2556792296	
675.0	-0.2022798964	-0.2618463346	
675.625	-0.03104628127	-0.07967578313	
676.25	-0.2414539508	-0.1182353885	
676.875	-0.1342894646	0.09124586665	
677.5	-0.06065285076	-0.08352533711	
678.125	-0.2594608727	0.2007908243	
678.75	0.1336783775	0.1398654299	
679.375	-0.01471262899	0.1736182963	
680.0	0.3485207964	-0.09483034623	
680.625	-0.1035911955	-0.1624381249	
681.25	0.3050459454	0.2200010261	
681.875	0.1767556623	-0.1807841233	
682.5	-0.03393071563	0.1309615147	
683.125	0.3448104017	0.285945762	
683.75	0.30134365	-0.1616234514	
684.375	0.02507220972	0.1428647851	
685.0	0.3818707532	0.03967150555	
685.625	0.2511992171	-0.1147691109	
686.25	0.09983543216	0.08662139127	
686.875	0.4808714056	-0.169181259	
687.5	0.1233647758	-0.2266261802	
688.125	0.1405096511	-0.3358274417	
688.75	-0.461917007	-0.322966771	
689.375	-0.1419169881	0.3555694361	
690.0	-0.1290717384	0.2531179649	
690.625	0.3715424602	0.3201492838	
691.25	0.2052924463	0.07921439273	
691.875	0.3293994927	0.6045132503	
692.5	0.7788045041	0.05145969429	
693.125	0.2959794292	0.2179688056	
693.75	0.7080868477	-0.07659161241	
694.375	0.4626870495	-0.5307851497	
695.0	0.2690992222	-0.1256580459	
695.625	0.6390992798	-0.01785173865	
696.25	0.4966518246	0.005888251141	
696.875	0.2397410069	0.381092681	
697.5	0.2810133673	0.5236076805	
698.125	0.6280095551	0.1107600752	
698.75	0.3461438063	-0.2597542774	
699.375	-0.2646029326	-0.5539509344	
700.0	-0.2994120421	0.386852746	
700.625	0.1203269035	0.1136104682	
701.25	0.2083417616	0.3563970996	
701.875	0.3103470877	0.06061181838	
702.5	0.1418085492	0.2659612582	
703.125	0.4983159631	0.1991515832	
703.75	0.1723490247	-0.1512362096	
704.375	0.2515305224	0.01660399336	
705.0	0.346713585	-0.1908098506	
705.625	0.129927976	-0.04222643852	
706.25	0.2782926566	0.1713117038	
706.875	0.3036331915	0.2516219922	
707.5	0.1584981086	0.2027232157	
708.125	0.3638236418	0.09291234505	
708.75	0.4060345928	-0.1880084251	
709.375	-0.2478792692	-0.2018813579	
710.0	-0.1789176714	0.06887438864	
710.625	0.03762874991	0.3216897781	
711.25	0.01138255885	-0.03010168885	
711.875	0.1722182748	0.2368786624	
712.5	0.2948361631	-0.132741775	
713.125	0.1620010901	-0.03463528831	
713.75	0.2255345637	-0.2572207255	
714.375	-0.06424863702	-0.2348071817	
715.0	0.04808212882	-0.08967313985	
715.625	0.04147117565	-0.2971743944	
716.25	-0.002474629518	-0.1931514467	
716.875	0.2537069073	-0.09705428548	
717.5	0.5939175777	-0.06670703335	
718.125	0.4437896545	-0.04273461987	
718.75	0.3658481326	-0.07903161674	
719.375	0.7856271367	-0.4512664866	
720.0	-0.1392899423	-1.020779252	
720.625	0.3848746649	-0.4250646841	
721.25	-0.04165964773	-1.679929928	
721.875	-0.312437429	-0.1796316596	
722.5	-0.2373810985	-0.8920114539	
723.125	-0.8152236552	-0.1000022241	
723.75	-0.08735440803	0.2910769651	
724.375	-0.2281355387	0.4435079165	
725.0	0.3795958671	0.3090674725	
725.625	-0.004404899035	0.2346595666	
726.25	-0.06508738591	0.7417885205	
726.875	0.2062828965	0.8683350569	
727.5	-0.1129740525	0.6171598648	
728.125	-0.4469443062	2.020534872	
728.75	0.5266560255	2.353629928	
729.375	-0.4187169297	1.696230138	
730.0	-1.51523012	4.030717163	
730.625	1.634435055	4.66484811	
731.25	-0.3117606336	1.699006544	
731.875	-4.077066239	1.751830786	
732.5	-2.663900213	1.692215038	
733.125	-0.6333822716	-1.069735664	
733.75	-1.60687144	1.437884173	
734.375	0.8209566535	-0.07061422886	
735.0	0.2765259481	-0.1461956778	
735.625	-0.7868672849	0.06850451107	
736.25	0.3081819022	0.1501990222	
736.875	-0.02122362189	0.7834773118	
737.5	1.293301165	0.1591828061	
738.125	0.8920944006	-0.7900720908	
738.75	1.361731766	0.2714141825	
739.375	3.28331909	-2.475494129	
740.0	0.2486600463	-1.856865139	
740.625	1.099493403	3.27054654	
741.25	3.690997135	3.30463147	
741.875	0.8659485221	-1.456935774	
742.5	-0.5617974858	-4.247011214	
743.125	-0.8598302543	-2.246069976	
743.75	-0.02910863406	-0.2419411073	
744.375	-0.3752931838	-0.4446387445	
745.0	0.2364539337	0.1375225484	
745.625	0.04394029699	0.1422866316	
746.25	-0.06846119705	-0.1857229021	
746.875	-0.06406126225	0.003958160209	
747.5	-0.2395110782	0.3431965918	
748.125	0.2108650746	0.4854076914	
748.75	0.1349281076	0.2768458453	
749.375	-0.03711671744	0.4642391324	
750.0	-0.3053038029	0.2845975511	
