!Created with skrf (http://scikit-rf.org).
# GHz S RI R (50+0j) 
!freq	ReS11	ImS11	
500.0	0.8506364658	-0.9504212235	
500.625	1.830780401	-3.089494212	
501.25	-2.047722564	-2.038724796	
501.875	-1.51672622	-0.1826482116	
502.5	0.09758165247	-0.409442905	
503.125	-0.3903950016	0.2085514129	
503.75	-0.007881655583	-0.03220431071	
504.375	0.207657505	-0.01660876594	
505.0	-0.08629216558	0.03374012518	
505.625	0.1253593095	-0.4083017578	
506.25	-0.237324876	0.3235149218	
506.875	-0.7074757632	-0.9906256167	
507.5	-1.72024896	-0.8660480747	
508.125	0.3495079815	-0.2002240704	
508.75	2.753003856	-3.68224001	
509.375	-2.435782923	-3.792707201	
510.0	-0.5260452107	-0.7082717572	
510.625	-0.879145603	-0.4829979936	
511.25	-0.1624584357	-0.101015636	
511.875	-0.5580685563	-0.2479155569	
512.5	-0.1417466143	0.1559458454	
513.125	0.01243816263	-0.2065814248	
513.75	-0.09944129226	-0.3330412875	
514.375	-0.7437059956	0.03478644672	
515.0	1.783212276	0.2097247271	
515.625	-2.259256711	-1.539182796	
516.25	1.24317525	-0.216137877	
516.875	-1.226150616	-2.759392442	
517.5	-0.7400264287	0.2944830876	
518.125	0.03390081443	-0.4598601362	
518.75	-0.6107358131	-0.001207358261	
519.375	-0.1843888168	0.01650655136	
520.0	0.5315039916	0.2172251945	
520.625	0.3721979246	-0.3065274124	
521.25	0.232690394	-0.5703906089	
521.875	-0.6194327967	0.03776972621	
522.5	-0.008754579146	-0.04517064106	
523.125	-0.2091186723	0.1271870737	
523.75	-0.1882722834	-0.1953316693	
524.375	-0.4795670181	0.474450291	
525.0	-0.1822619507	-0.02646596972	
525.625	0.1326988442	0.3815176567	
526.25	-0.1940228635	-0.245595492	
526.875	0.003981546678	0.3005888408	
527.5	-0.1791492037	0.1645062798	
528.125	-0.01959477608	1.260378165	
528.75	0.5515093732	0.4691636716	
529.375	-0.1024299008	0.3676516535	
530.0	0.1943080039	0.1296422884	
530.625	0.05040458984	1.412192699	
531.25	0.975080723	-0.426513756	
531.875	0.7255800171	-0.09850925724	
532.5	-0.7369112974	-0.5045955128	
533.125	0.6308271007	0.0397760568	
533.75	-0.0504674559	-0.6713599013	
534.375	0.1202507878	-0.7021711069	
535.0	-1.169179151	-0.1456066521	
535.625	-0.1599477694	0.1512705051	
536.25	-0.1239442346	0.2763689703	
536.875	0.352111515	0.0008598592894	
537.5	0.06772396231	-0.02001880033	
538.125	0.4708080166	-0.1904533554	
538.75	0.1454996415	-0.2835961239	
539.375	-0.004592722975	-0.494072725	
540.0	-0.6573324764	-0.3162212129	
540.625	-0.1415576754	-0.07692997414	
541.25	-0.3282216831	-0.06933970926	
541.875	-0.1277484172	0.03770102531	
542.5	-0.03479085791	-0.04659528466	
543.125	-0.2138869975	-0.2875556512	
543.75	-0.2757887286	0.2629519768	
544.375	-0.1412792891	-0.1311829513	
545.0	0.1358386957	0.3317769981	
545.625	-0.1077763986	0.0190890157	
546.25	0.5042961497	0.2191277583	
546.875	-0.002234834591	-0.1329408443	
547.5	0.4625492316	-0.2119827172	
548.125	-0.3211507578	-0.5245962391	
548.75	-0.1494517385	-0.1144059165	
549.375	-0.2017666464	-0.3456085098	
550.0	-0.2830882129	0.1435205835	
550.625	-0.03165242025	-0.1232318705	
551.25	-0.2820183488	0.1887416124	
551.875	-0.08994123479	0.05651380916	
552.5	-0.2141676222	0.2474155853	
553.125	0.01750161932	0.1438674882	
553.75	0.08223460576	0.1405088487	
554.375	0.2598386661	0.005602308403	
555.0	0.2284064823	-0.1648005107	
555.625	0.229681042	-0.247384488	
556.25	0.1749929002	-0.3574638196	
556.875	-0.08147679257	-0.3951811284	
557.5	-0.2257300817	-0.2656651524	
558.125	-0.2807333704	-0.1216185528	
558.75	-0.2676175215	0.003441000291	
559.375	-0.2373811216	0.01298556654	
560.0	-0.2881377702	0.1722710826	
560.625	-0.07970230535	0.2903292933	
561.25	-0.03863136104	0.1687211381	
561.875	0.1318617383	0.1827925177	
562.5	-0.05957152952	0.0350545524	
563.125	0.2660600758	0.2573925998	
563.75	0.1973096988	-0.07132543952	
564.375	0.41739339	-0.08345240392	
565.0	0.1552604958	-0.5085922343	
565.625	-0.1031075408	-0.2302924566	
566.25	-0.1389273031	-0.3326593528	
566.875	-0.4861631	-0.241222231	
567.5	-0.2210748032	-0.092192834	
568.125	-0.2448277134	-0.6246249302	
568.75	-0.6568352935	-0.04907796609	
569.375	-0.4530219286	-0.03310106678	
570.0	-0.4777423023	0.6804755747	
570.625	0.08348345221	0.341686437	
571.25	-0.3448090821	0.1515322825	
571.875	0.5337076181	0.2369299537	
572.5	-0.05826471075	0.09898444368	
573.125	0.5610576198	-0.2729352076	
573.75	-0.1020947852	-0.4731504022	
574.375	0.1626606595	0.1476129982	
575.0	0.004696423686	-0.4346640375	
575.625	0.1754624024	0.1393006544	
576.25	0.2793012543	-0.50142272	
576.875	-0.2728078303	-0.2452374348	
577.5	0.2693916554	-0.1522256347	
578.125	-0.03452871935	-0.6638056365	
578.75	-0.3927893531	-0.2109220171	
579.375	-0.007283294899	-0.006813544411	
580.0	-0.1867620316	-0.368519926	
580.625	-0.03582077978	0.1897645454	
581.25	-0.4873280345	-0.09286331466	
581.875	0.1802808016	0.593823541	
582.5	0.1395929238	-0.02224732895	
583.125	-0.1705256756	0.4877951957	
583.75	0.5276980382	-0.2155294499	
584.375	-0.3354084068	0.3836460727	
585.0	0.6364842991	0.05466948146	
585.625	-0.03461015026	-0.04274809657	
586.25	0.6459356533	0.09688449553	
586.875	-0.04795474469	-0.5179176362	
587.5	0.1548171234	-0.103282583	
588.125	0.04011773702	-0.629024282	
588.75	-0.2071220541	-0.310921497	
589.375	0.4151217021	-0.04465140194	
590.0	-0.1899790308	-0.6502233657	
590.625	-0.3504167994	-0.004130853823	
591.25	-0.3135476932	0.06213167457	
591.875	-0.2528599609	0.4221958722	
592.5	0.1366949127	-0.05556780217	
593.125	-0.1453672051	0.2616515219	
593.75	0.1497445376	0.1145604251	
594.375	0.1025745525	0.4541114326	
595.0	0.7491628806	0.438695292	
595.625	0.1911086378	-0.2387965492	
596.25	0.2545022588	0.5629457086	
596.875	0.7000552654	-0.1245876091	
597.5	-0.0302164724	0.1977042014	
598.125	0.5870914747	0.5550602942	
598.75	0.2587521724	-0.02974938446	
599.375	0.5713566961	0.3030773803	
600.0	0.4397344133	-0.5739054994	
600.625	0.1715605527	-0.2140422317	
601.25	0.3900828851	-0.3331069061	
601.875	-0.2160679967	-0.4963219566	
602.5	-0.2402335998	-0.03244715662	
603.125	-0.2053541458	0.07122048423	
603.75	-0.4138606954	0.09605037145	
604.375	-0.1252770079	0.3271550501	
605.0	-0.2412220727	-0.05257255306	
605.625	-0.1867627659	0.350199205	
606.25	-0.1118030701	-0.0772502112	
606.875	-0.762501872	0.2573081729	
607.5	-0.03283063423	0.3945788319	
608.125	-0.5131568036	0.3750554566	
608.75	0.8182264897	0.5873455906	
609.375	0.1518017108	0.01463034054	
610.0	0.7386009063	-0.211392893	
610.625	0.03972462586	-0.4827822389	
611.25	0.4507267921	-0.2798687099	
611.875	-0.4483556813	-0.2717482224	
612.5	-0.1686927753	-0.1998435085	
613.125	-0.6565677823	0.009871209899	
613.75	0.08143751932	0.1716509922	
614.375	-0.02287906296	0.4012854748	
615.0	0.1919084592	-0.1084689818	
615.625	-0.2825749893	0.4316285667	
616.25	0.2374154579	0.2932196986	
616.875	-0.4655482325	0.2118904067	
617.5	-0.1636452019	0.8121027064	
618.125	0.1131413246	0.2341150794	
618.75	-0.2463944652	0.6341122797	
619.375	0.4085618784	0.3315939557	
620.0	0.2388881922	0.2379796722	
620.625	0.3625478676	-0.4591120585	
621.25	-0.04075088267	-0.350041776	
621.875	-0.5451629894	-0.3239984303	
622.5	-0.4277518774	0.1308170885	
623.125	-0.3228659752	0.4394894091	
623.75	0.4339112232	-0.07053768265	
624.375	0.09930132921	0.1343324913	
625.0	-0.09858801507	-0.3777710191	
625.625	0.316207979	0.1223514058	
626.25	-0.1864421403	-0.6353642964	
626.875	-0.2562666403	0.163112103	
627.5	-0.2044035043	-0.4438159781	
628.125	-0.4715098634	-0.07573104771	
628.75	0.04813225385	-0.1735066973	
629.375	-0.2706910681	-0.6133947273	
630.0	-0.3429176548	0.008035093512	
630.625	-0.5707643546	-0.1177636535	
631.25	-0.480407711	0.5638842003	
631.875	0.04846077994	0.5214963871	
632.5	0.2191952682	0.4214420234	
633.125	0.4299631235	0.2920286798	
633.75	0.5339469847	-0.2897626076	
634.375	0.06325111798	-0.1048007391	
635.0	0.1362342642	-0.5121243134	
635.625	-0.3940533389	0.07555056773	
636.25	-0.4900267601	-0.1824516011	
636.875	-0.130300694	0.539737581	
637.5	0.05735454097	-0.09570405427	
638.125	-0.6145422209	0.4001251857	
638.75	0.3555103156	0.3588219271	
639.375	-0.4471800749	0.3184714926	
640.0	0.3517475459	0.9628155933	
640.625	0.6913265713	0.1296623463	
641.25	0.2689120569	0.1793963675	
641.875	0.7468738909	-0.7009819559	
642.5	-0.2104912686	-0.1835029929	
643.125	-0.02707564898	-0.6232137809	
643.75	-0.7068631354	0.05878127824	
644.375	0.07625540885	-0.2665292175	
645.0	-0.7274000452	0.4503078325	
645.625	0.3287510773	0.5631357494	
646.25	0.2758253618	-0.06832793259	
646.875	0.1775968051	0.4711515924	
647.5	0.2051013198	-0.536251455	
648.125	0.2601814934	0.6458978903	
648.75	0.9361580001	-0.5486978944	
649.375	-0.0542687778	-0.250124639	
650.0	1.252205999	-0.5375456471	
650.625	-0.08955963912	-1.31969257	
651.25	0.07871325192	0.1383353662	
651.875	1.38667831	-0.2633226938	
652.5	0.4807518914	-0.8221750958	
653.125	0.3086296843	0.3001052112	
653.75	0.8804088412	-0.7888884658	
654.375	-0.499633595	-0.4805007773	
655.0	-0.1525339384	-0.5262668548	
655.625	-0.9840831521	0.6566586913	
656.25	0.4670806933	0.1393992989	
656.875	-0.2725432289	0.2309269044	
657.5	0.3736292055	0.3508684177	
658.125	0.1300038137	0.0731438668	
658.75	0.6967377234	0.6992983324	
659.375	0.7923975248	-0.6569560058	
660.0	0.3343692037	-0.42012825	
660.625	0.8162438144	-0.702669375	
661.25	-0.00956835781	-1.148874269	
661.875	0.3943122195	0.02793538516	
662.5	1.201245268	-0.5050857747	
663.125	0.3689605194	-0.8912499005	
663.75	0.3185335533	-0.1034565654	
664.375	0.1408253422	-1.233091158	
665.0	-0.6448357728	-0.04682747812	
665.625	-0.7939648854	-0.2887855072	
666.25	-0.1971647341	1.009450316	
666.875	0.0942728542	0.07564018227	
667.5	0.4809888674	0.594779866	
668.125	0.6825706552	-0.2306271851	
668.75	0.1709378891	-0.2504134008	
669.375	0.4907742149	-0.3462825794	
670.0	0.01931298613	-0.8107934951	
670.625	-0.1224340479	-0.1881063993	
671.25	0.365399069	-0.4329781562	
671.875	0.173340607	-0.5998055904	
672.5	0.3914613931	0.006377595298	
673.125	0.6724037389	-0.6312013536	
673.75	0.07052025967	-0.5165748255	
674.375	0.3627390459	-0.2316561279	
675.0	-0.03771116706	-1.089050467	
675.625	-0.8191571655	0.1671225826	
676.25	0.06927322233	-0.4503675592	
676.875	-0.8243059761	0.2419229734	
677.5	0.1001153242	-0.007715311478	
678.125	-0.9022737012	0.3505201503	
678.75	0.5622482275	0.3275377485	
679.375	0.1241260056	0.4265379132	
680.0	0.738865957	-0.156555349	
680.625	-0.1842120079	-0.5213128117	
681.25	0.1138623947	0.5188306093	
681.875	0.7430942782	0.009683919913	
682.5	0.3955858681	0.05570128121	
683.125	0.2761991502	0.1676621388	
683.75	0.8707473159	0.5936582992	
684.375	0.58231994	-0.451099803	
685.0	0.3900012188	0.5985896364	
685.625	1.212253936	-0.1026159355	
686.25	-0.08042135808	-0.364018542	
686.875	1.589018935	0.317088796	
687.5	0.04590360917	-1.528041508	
688.125	0.4904864461	-0.2301856824	
688.75	-1.401746441	-1.247441688	
689.375	-0.1575874463	1.165873866	
690.0	-0.5125864808	0.6005852266	
690.625	1.126622687	0.6516082372	
691.25	0.2793599177	0.4631921699	
691.875	1.041799692	1.134308914	
692.5	1.565953776	0.1970431954	
693.125	1.367303496	0.1957278387	
693.75	1.455318353	-0.477875842	
694.375	0.9623027645	-0.7644528757	
695.0	1.153281128	-0.8774516195	
695.625	0.8769946088	-0.09279548576	
696.25	1.554550835	0.8907263963	
696.875	1.198982097	0.3003469927	
697.5	0.2120819541	1.450852145	
698.125	2.231594776	0.5024947291	
698.75	0.3991604506	-0.4168109975	
699.375	-0.6755922813	-1.959087771	
700.0	-0.4976898264	1.341231386	
700.625	-0.2854980031	0.2919886592	
701.25	1.067466209	0.6213573258	
701.875	0.1272256684	0.336008904	
702.5	0.9090405908	1.033164831	
703.125	0.9537235162	-0.1330244992	
703.75	0.9910600702	0.3280308674	
704.375	0.7306559869	-0.8098068181	
705.0	0.1300406801	0.09654096309	
705.625	1.280359193	-0.0003721888529	
706.25	0.3154085404	-0.0156304209	
706.875	0.2727731847	1.152262933	
707.5	1.30298844	0.7242572846	
708.125	0.5385618053	0.4293013394	
708.75	1.242483111	-0.9953140508	
709.375	-0.8865842417	-0.4302071804	
710.0	-0.66905371	0.13180802	
710.625	0.4005739182	0.6367948755	
711.25	-0.07346504192	0.1677547959	
711.875	0.6304182072	0.4764454969	
712.5	0.6197132777	0.04993487266	
713.125	0.8272025267	-0.5595868964	
713.75	0.0739884797	-0.4278445686	
714.375	0.5231373333	-0.7766609375	
715.0	-0.5219868894	-0.4647712976	
715.625	0.5171789765	-0.1254460158	
716.25	0.4161446972	-1.395429677	
716.875	0.1002409961	0.05445663143	
717.5	2.118135788	0.6171585077	
718.125	2.062227823	-1.650646297	
718.75	0.3792103377	1.455214687	
719.375	4.012146449	-2.104244971	
720.0	-0.1400964561	-1.543573441	
720.625	1.329447397	-1.693346056	
721.25	0.1622311616	-3.967626685	
721.875	-1.001290154	-1.379183678	
722.5	-1.112548003	-2.891843937	
723.125	-2.396788116	-0.2321223374	
723.75	-0.4697285036	0.7814437491	
724.375	-0.4840922446	1.282947993	
725.0	0.8483635468	1.017090017	
725.625	0.397029404	0.6789390682	
726.25	-0.5571562121	1.524062329	
726.875	-0.3977965444	3.505581944	
727.5	1.788856916	1.990078088	
728.125	-4.296332302	4.077487659	
728.75	1.889937223	11.68535698	
729.375	0.510024498	2.321460731	
730.0	-9.52240221	17.82653223	
730.625	10.69003275	6.360662304	
731.25	-10.03355604	5.38166798	
731.875	-14.14772402	10.8459308	
732.5	-6.816213348	8.831807484	
733.125	-3.54596898	-2.481678158	
733.75	-4.162154436	4.924277182	
734.375	2.056561882	0.5332518579	
735.0	0.7545644488	-0.6335412372	
735.625	-2.345441314	0.6936969043	
736.25	0.06586372303	0.06426188626	
736.875	0.5863422107	2.411626963	
737.5	3.603331231	0.4173031531	
738.125	3.121516617	-3.090950348	
738.75	1.748026273	1.505563752	
739.375	14.93784462	-6.75405249	
740.0	-0.4329155715	-13.01926652	
740.625	1.426281947	13.46162349	
741.25	41.9867307	19.81838052	
741.875	-0.2280112835	-13.78293664	
742.5	-11.94670974	-8.356107181	
743.125	-6.092468428	-0.9597909307	
743.75	4.115544919	0.6198612532	
744.375	-2.466696079	-1.239467322	
745.0	0.4963420499	-0.09634110097	
745.625	0.2269989879	0.1999738777	
746.25	-0.233379493	-0.3382357245	
746.875	0.01295696194	-0.1794956955	
747.5	-0.5211322084	1.229177717	
748.125	0.4445537252	1.1115417	
748.75	0.2124558517	1.259265451	
749.375	0.6083295241	1.255562185	
750.0	0.8447296678	-0.5031754364	
