!Created with skrf (http://scikit-rf.org).
# GHz S MA R 50.0 
!freq magS11 angS11
500.0 0.0166203427856 175.470246938
500.625 0.0117512054237 27.7069508672
501.25 0.0280753903699 -170.505580884
501.875 0.0503084873953 173.556271795
502.5 0.0269741994876 162.547169799
503.125 0.0212262158428 130.808022835
503.75 0.00796407962955 82.2525521406
504.375 0.00479303077157 -160.839670931
505.0 0.015956976658 -58.9332867059
505.625 0.0268041270852 -74.4712487389
506.25 0.0357740687394 -112.552964824
506.875 0.064542713253 -100.185089596
507.5 0.0624852566703 -105.75496841
508.125 0.0383680062079 -135.022837943
508.75 0.0509621800968 -152.386951305
509.375 0.048876065575 -160.178460145
510.0 0.0555711917445 -108.562241615
510.625 0.0185162863252 167.603932371
511.25 0.0513522042237 179.530840138
511.875 0.0549824357352 144.062262908
512.5 0.0436701170292 107.064650449
513.125 0.0460094887187 34.8166311877
513.75 0.0462848444262 14.9876468212
514.375 0.0394434552476 21.5571121927
515.0 0.0654994924093 8.0706537261
515.625 0.0809527743501 47.2201631117
516.25 0.0734626996263 28.0851158524
516.875 0.108701259621 70.9196283415
517.5 0.14362598967 22.0349640001
518.125 0.187710111588 62.8879278175
518.75 0.0897616412936 14.1011538111
519.375 0.0752407803944 22.0091682655
520.0 0.0903852597525 -4.53518632291
520.625 0.100809456766 -7.80004024726
521.25 0.0871988364911 -22.7875398368
521.875 0.0663403945278 1.10948930755
522.5 0.106712101464 -31.5350530253
523.125 0.173423199361 -39.3918559572
523.75 0.198049944631 -65.1931208029
524.375 0.202049570957 -56.3805977238
525.0 0.0790399390648 -37.7126018551
525.625 0.0354854634895 -40.9416155886
526.25 0.0465851453373 -19.8406037958
526.875 0.0669139775003 -18.1680684882
527.5 0.0497300523991 -30.8849071165
528.125 0.0421449592502 -59.5601475097
528.75 0.0624164944169 -71.5824692688
529.375 0.0970813673293 -109.221396429
530.0 0.0318383922699 -158.384080811
530.625 0.0282275409847 -132.01559707
531.25 0.0977582033099 -133.687440765
531.875 0.198698310575 -149.582911112
532.5 0.118519071408 -175.064007905
533.125 0.100830035027 174.486062342
533.75 0.122184813259 166.644712023
534.375 0.120157809909 179.843556761
535.0 0.0968967426567 163.087677481
535.625 0.0634276557462 174.9213092
536.25 0.0568175181684 158.643353301
536.875 0.094226125716 -165.444211357
537.5 0.0757767827656 -143.77483583
538.125 0.0922693978532 -174.022835497
538.75 0.0984011377331 175.032828938
539.375 0.0915063138902 -166.164975287
540.0 0.0905500898423 -157.665515333
540.625 0.11756117642 -154.493517561
541.25 0.112090290059 -143.9191227
541.875 0.108017653644 -147.873661286
542.5 0.0907306441476 -138.660375388
543.125 0.134253531475 -167.242642778
543.75 0.123187954998 156.675070478
544.375 0.100525693026 135.377431882
545.0 0.0974667457917 89.4443591547
545.625 0.0973123277412 81.694601272
546.25 0.0850556603461 66.7862759145
546.875 0.0896274793586 54.0926115589
547.5 0.112446574636 56.2644251182
548.125 0.109457391444 75.6896366666
548.75 0.0813650209555 86.6113722343
549.375 0.105104972383 84.7421346405
550.0 0.0974292651783 123.577808504
550.625 0.0476165161825 150.691338274
551.25 0.0378731055745 -137.636299862
551.875 0.0666693422294 -166.003599283
552.5 0.100006058628 -163.885803766
553.125 0.0901174832503 -167.666284382
553.75 0.0869054263552 -170.553724746
554.375 0.108489963512 166.424893279
555.0 0.12858799889 161.411874607
555.625 0.0953000127119 157.496525041
556.25 0.0919099780717 165.161635506
556.875 0.115841815038 164.916531863
557.5 0.125864260532 162.900733484
558.125 0.0813419868973 164.076345761
558.75 0.0778775981538 177.185701514
559.375 0.068819094903 -174.339000418
560.0 0.0430559180089 -150.554390682
560.625 0.0550201779292 -138.45508881
561.25 0.0902267549943 -151.607917935
561.875 0.10299159703 -162.960107847
562.5 0.0982133816641 169.282277725
563.125 0.105465468742 145.098063495
563.75 0.135167577148 128.295218859
564.375 0.10896075392 118.823130398
565.0 0.0821861095364 119.759078849
565.625 0.0808227759984 117.211815665
566.25 0.0974869158491 150.152501536
566.875 0.0754853362727 178.528952139
567.5 0.0803042444427 175.254116004
568.125 0.0653463984309 -164.670467919
568.75 0.066696763577 -147.200830002
569.375 0.0452448812793 -109.782100437
570.0 0.0617017283509 -119.936959896
570.625 0.0852077982784 -111.666975452
571.25 0.0878919869479 -117.472493945
571.875 0.0847841999182 -124.399713298
572.5 0.115333867736 -162.927311271
573.125 0.125057411238 -168.318964472
573.75 0.102359462462 161.870830825
574.375 0.0821232470902 148.91034847
575.0 0.111740941989 146.932229786
575.625 0.103110309568 157.303680676
576.25 0.0902831462582 144.026720105
576.875 0.0843683761183 126.72823393
577.5 0.090532254347 129.502473597
578.125 0.0576001291812 160.334937547
578.75 0.0466043061469 169.301372254
579.375 0.0556302975519 161.226585952
580.0 0.071261865777 168.636393164
580.625 0.076655233084 -139.518139596
581.25 0.0914056816402 -159.370185515
581.875 0.109956410877 -176.270387848
582.5 0.122420691319 176.935629138
583.125 0.0911731601512 -169.212632906
583.75 0.08162430945 -168.751273956
584.375 0.100404347273 -161.494026626
585.0 0.094878611154 -143.517632038
585.625 0.0690965230189 -139.099174478
586.25 0.0699532829683 -136.43026974
586.875 0.0798698844305 -133.616968979
587.5 0.0771339060326 -153.865906282
588.125 0.0573497307978 -170.299934546
588.75 0.0674025845963 -163.176727707
589.375 0.0807054701852 -153.79690043
590.0 0.0931556253956 -168.172084601
590.625 0.10614119782 162.16669504
591.25 0.122587078598 152.847098347
591.875 0.0975970405187 157.775822682
592.5 0.0650489062927 146.64920731
593.125 0.0640211134869 145.204173855
593.75 0.0717857809109 169.411226211
594.375 0.057567525235 -157.279747585
595.0 0.0406330871133 -127.724841459
595.625 0.0547836243182 -111.304341924
596.25 0.0737222137991 -86.1919998498
596.875 0.0702026710778 -67.8985639217
597.5 0.0606185860408 -61.6498490458
598.125 0.0708408403839 -57.5149912618
598.75 0.0879822005565 -55.9678566727
599.375 0.0886169896384 -62.4654815483
600.0 0.0938864518575 -76.6277029598
600.625 0.104063352667 -53.872590491
601.25 0.0839256099627 -76.3230195529
601.875 0.0676275364005 -91.5479721147
602.5 0.063918054717 -82.7452443499
603.125 0.0462865705857 -71.0154822222
603.75 0.0324937028903 -24.6364911837
604.375 0.0510367180214 -14.6044760455
605.0 0.0625546787348 -14.4985588391
605.625 0.0439597434304 -32.8835207626
606.25 0.0412302465195 36.2907134154
606.875 0.043078594907 50.8272228828
607.5 0.0545765553531 45.7058881446
608.125 0.0497155496547 15.8454572149
608.75 0.0648640767066 23.8858009944
609.375 0.0793426906462 34.7844278324
610.0 0.0748647131615 44.9421340342
610.625 0.0514583534436 19.540242103
611.25 0.0694919343729 53.7724726139
611.875 0.0448989405379 61.7640748287
612.5 0.0183267252213 95.077518004
613.125 0.0290460755282 125.132541425
613.75 0.0394199998702 120.676687846
614.375 0.0504426997198 125.183888173
615.0 0.0403068130635 114.653064268
615.625 0.034728236708 127.694522815
616.25 0.0258596881932 145.850019937
616.875 0.0645189542772 132.651281166
617.5 0.0299666756222 109.307905367
618.125 0.0301594779023 125.790435315
618.75 0.0127304346315 145.448721734
619.375 0.0274801926769 142.536532356
620.0 0.00338759081797 -12.663102884
620.625 0.0221964718783 -69.5312889014
621.25 0.049595723558 -114.948304415
621.875 0.0619708227206 -113.332435924
622.5 0.0680110572823 -161.512845098
623.125 0.0724157480478 168.141583734
623.75 0.0482051299167 176.038933145
624.375 0.0512919903217 -177.607464675
625.0 0.0602979757778 -159.426604619
625.625 0.044813353577 -157.800982092
626.25 0.00177803414316 -97.3922752984
626.875 0.0271942234709 -173.821620668
627.5 0.0173263826979 -66.7361032297
628.125 0.0415844276119 -26.7659029447
628.75 0.0466646915678 -2.61511375515
629.375 0.0372455119085 -32.3268070763
630.0 0.0652426081052 -2.12272545324
630.625 0.0723954147653 0.774431255099
631.25 0.0745165542084 12.4322552598
631.875 0.0762198369702 -29.5133302025
632.5 0.0610316444139 -21.1481821111
633.125 0.0527116781704 5.9085691953
633.75 0.0398997996383 1.18470451058
634.375 0.0452912578219 18.8660149788
635.0 0.0362505002016 8.37683866455
635.625 0.0226059744579 8.85964881475
636.25 0.0478731697605 35.5587206473
636.875 0.081531681683 48.7617816419
637.5 0.0438749774241 25.3562946816
638.125 0.0346735461968 64.5774380011
638.75 0.0764090768885 66.158295233
639.375 0.0935344149173 94.1183069159
640.0 0.0712719333226 101.106762882
640.625 0.0571458866808 102.794770331
641.25 0.0598401234676 124.303787033
641.875 0.0732252009025 152.684792755
642.5 0.0445275029829 133.1661787
643.125 0.0465300922128 148.32265058
643.75 0.0713959884 163.813836513
644.375 0.0916201627951 -170.292040683
645.0 0.0626733098407 167.749678833
645.625 0.0914903915763 166.858970388
646.25 0.096825810759 165.784404101
646.875 0.0678542875179 176.917387826
647.5 0.077849000456 -175.064888841
648.125 0.0821085835986 -177.889753721
648.75 0.0679507793146 -169.250591337
649.375 0.0481105721669 -149.828896786
650.0 0.0590528074967 -119.287828197
650.625 0.0417895365477 -99.5566104653
651.25 0.054898426849 -67.3397656217
651.875 0.0622717085282 -44.6100141763
652.5 0.10591942054 -27.5260740532
653.125 0.0908471377074 -8.46935728303
653.75 0.101420867754 6.01923940005
654.375 0.110761319317 7.10578630295
655.0 0.118280707558 9.59746743495
655.625 0.0891702694221 23.9978785991
656.25 0.0513268816931 12.9468958127
656.875 0.0655112902643 6.64330806941
657.5 0.0996723927961 21.9739976013
658.125 0.0554516769282 42.6329482607
658.75 0.0540429440328 65.0227996861
659.375 0.0766234706196 35.7446644227
660.0 0.11746099026 25.1591082502
660.625 0.112943638969 16.5611890538
661.25 0.107792895673 2.72880812538
661.875 0.121477500286 -12.1269520364
662.5 0.132716721756 -20.7198765258
663.125 0.083907017593 -22.9141877592
663.75 0.0938771928138 1.87477762017
664.375 0.0948265906566 47.2760907508
665.0 0.0866125722235 88.1516040877
665.625 0.06054231856 110.35823567
666.25 0.0863100265338 130.63553806
666.875 0.111196531009 168.463184326
667.5 0.107250409115 -172.834620835
668.125 0.100250399426 -178.205954135
668.75 0.127640107849 168.305626795
669.375 0.12468108694 173.987614725
670.0 0.0977360805208 -173.088594057
670.625 0.0748284658905 -170.170829533
671.25 0.101460772538 174.983844832
671.875 0.0911232509782 166.964750601
672.5 0.0889765936077 151.939506813
673.125 0.0627954769594 158.489332726
673.75 0.112782928907 158.077180164
674.375 0.115186284837 168.500261612
675.0 0.123403399701 -178.47593715
675.625 0.113438067796 -150.70556888
676.25 0.128601871902 -126.908959208
676.875 0.115504793646 -121.787107378
677.5 0.13494128161 -131.721211827
678.125 0.100329321709 -118.271833215
678.75 0.0654069000371 -94.4138230336
679.375 0.0465496795557 -77.9475381717
680.0 0.0870696731158 -88.5314762498
680.625 0.105811529278 -72.9435859045
681.25 0.106176583948 -73.8124231661
681.875 0.1028684593 -95.179477496
682.5 0.136014389801 -120.593062405
683.125 0.178941171071 -126.807342271
683.75 0.120481282911 -102.192258315
684.375 0.113308555749 -77.816178954
685.0 0.133267396936 -44.2130705747
685.625 0.143188849073 -6.87996946758
686.25 0.0945481264411 21.7731180093
686.875 0.0874299774941 45.9098300951
687.5 0.0637449419784 79.4200952265
688.125 0.0873046888437 99.5627667219
688.75 0.0941352610054 116.749529367
689.375 0.142022911652 121.243865849
690.0 0.139715576478 130.734601998
690.625 0.122516188906 125.107463022
691.25 0.14045999139 96.2525942358
691.875 0.188664714061 69.8301244834
692.5 0.142976561553 39.8031670416
693.125 0.0883419129251 -17.0876674892
693.75 0.105121954899 -49.0111390426
694.375 0.113792955559 -18.4458367272
695.0 0.128376960985 12.7089706956
695.625 0.105283377776 50.1051001901
696.25 0.118364049071 110.03764547
696.875 0.143598973486 166.192407232
697.5 0.132569841928 -137.987194483
698.125 0.134706720912 -127.913138131
698.75 0.132964742456 -132.416053403
699.375 0.0990368707293 -121.638353524
700.0 0.0946652303484 -112.35392141
700.625 0.102483509989 -91.8359883626
701.25 0.103368393325 -68.9282551109
701.875 0.0805375527803 -60.0661419238
702.5 0.0988320419096 -85.4523527065
703.125 0.171387068864 -123.344087203
703.75 0.187169643834 -154.852505819
704.375 0.135704160892 165.842913901
705.0 0.10162217089 169.748689474
705.625 0.14274631814 -169.899725946
706.25 0.139040603197 -112.022658839
706.875 0.101168631709 -72.3769012377
707.5 0.0765185108449 -37.711742541
708.125 0.0914934511118 13.411608225
708.75 0.110055281026 60.4454275238
709.375 0.106424394587 98.7747791118
710.0 0.10319217116 123.810686157
710.625 0.106964083513 159.298911616
711.25 0.117392722127 165.638778558
711.875 0.142157333723 156.415063297
712.5 0.141822981315 148.963342872
713.125 0.125312743636 101.047585213
713.75 0.106005480956 41.8959719988
714.375 0.112363444406 20.7083984302
715.0 0.120236682483 14.9792556865
715.625 0.0874422635635 64.7363465965
716.25 0.0839051871791 80.6902918847
716.875 0.11753306548 108.195447957
717.5 0.141793072976 137.858461174
718.125 0.118327932886 161.564643846
718.75 0.100551640294 170.009333651
719.375 0.121228291828 -168.577030724
720.0 0.129332357556 -126.389103262
720.625 0.115179558405 -86.3255753703
721.25 0.100284307195 -24.2146666569
721.875 0.0741582447872 32.4019598662
722.5 0.0680663634306 48.1880684506
723.125 0.098986939077 87.9602709352
723.75 0.106900725011 40.3162215921
724.375 0.113895862408 -2.17767906072
725.0 0.0962346676119 -42.4547418179
725.625 0.0892900510994 -78.0286590041
726.25 0.132449115855 -50.4923541937
726.875 0.108177263995 -41.9297448224
727.5 0.0854355766884 -24.1454896672
728.125 0.0631188188657 -24.1277655205
728.75 0.0841563606121 21.3546443115
729.375 0.0857704955781 16.1372770731
730.0 0.0725183326768 2.78589453627
730.625 0.0695954378076 21.6345774064
731.25 0.0520860695958 47.8211871297
731.875 0.082177338969 123.471934326
732.5 0.0890134975214 157.429688158
733.125 0.0806855813024 176.677566092
733.75 0.0565034859346 149.06892135
734.375 0.061880858557 169.825099014
735.0 0.0545569735679 137.56871488
735.625 0.0567005734864 136.79361706
736.25 0.0182841444732 134.495840643
736.875 0.0552497400335 166.35888288
737.5 0.079913193749 173.741852771
738.125 0.0966196225985 -172.132619648
738.75 0.0514484182823 171.856350792
739.375 0.0807530533115 -156.608517704
740.0 0.0725581910686 -142.500403778
740.625 0.0532610393587 -140.366939614
741.25 0.0214377432582 -149.518687912
741.875 0.0303187327827 -100.988838459
742.5 0.0444198823584 -13.7237156348
743.125 0.0228377756926 85.862877455
743.75 0.0165408413502 115.495132964
744.375 0.0624049858062 98.4118798602
745.0 0.0536340767635 120.470789352
745.625 0.0722028264393 111.137676891
746.25 0.0665988215648 87.7861712883
746.875 0.0535527106802 56.0964668692
747.5 0.045828497977 9.6784331618
748.125 0.0373394876692 -17.266160448
748.75 0.0335392271388 -25.7663421174
749.375 0.0338345660874 -2.45530622574
750.0 0.0467997365638 -116.531524529
