!Created with skrf (http://scikit-rf.org).
# GHz S RI R (50+0j) 
!freq	ReS11	ImS11	
500.0	-0.3473762882	-0.7376794677	
500.625	0.4294950749	-0.4947015407	
501.25	-0.6050883721	-0.6362685249	
501.875	-0.1994609821	-0.1205002909	
502.5	0.01773337534	-0.1382022378	
503.125	-0.08116181387	0.04580559237	
503.75	-0.01095056039	0.003944940475	
504.375	0.04898058297	0.002517316201	
505.0	-0.02084570682	-0.01090594032	
505.625	0.03573635688	-0.09066371186	
506.25	-0.1327974823	0.01243165592	
506.875	-0.009361517475	-0.1728883514	
507.5	-0.4105009068	-0.4230339366	
508.125	0.01960956096	-0.1714338221	
508.75	0.8290333176	-1.02347367	
509.375	-0.3704206477	-1.071540263	
510.0	-0.1461627107	-0.005070644438	
510.625	-0.06210030376	-0.2000583401	
511.25	-0.08572454593	-0.03148198072	
511.875	-0.07941107165	-0.07903160869	
512.5	-0.02392725924	0.04291511218	
513.125	-0.02382173486	-0.01321989798	
513.75	0.00134349307	-0.06930246573	
514.375	-0.1488963922	0.01904568009	
515.0	0.3232632002	0.01993032415	
515.625	-0.4166320058	-0.4875281664	
516.25	0.3253733475	-0.1172546707	
516.875	-0.1007430324	-0.718827282	
517.5	-0.1969376331	-0.1258157882	
518.125	0.0540557765	-0.03698570166	
518.75	-0.1485729567	-0.1033340538	
519.375	-0.01937226955	0.02390410928	
520.0	0.1010679079	0.05168576371	
520.625	0.158645383	-0.07949813314	
521.25	-0.02539071502	-0.199856404	
521.875	-0.08547441412	-0.04961248885	
522.5	-0.07815922442	0.04154270675	
523.125	0.02068711111	-0.05260046318	
523.75	-0.1148141939	-0.08030942507	
524.375	-0.08413390098	0.1190879044	
525.0	-0.0666401901	0.004213819616	
525.625	0.03940565788	0.1306340857	
526.25	-0.02828990421	-0.09071438438	
526.875	-0.0382390758	0.1112302617	
527.5	-0.03532835365	0.05667060574	
528.125	-0.0250686905	0.2662889034	
528.75	0.109981978	0.1046319323	
529.375	-0.02541071585	0.02186649428	
530.0	0.1018839454	0.1779966012	
530.625	0.09609781586	0.3009704051	
531.25	0.3204983674	0.07435233077	
531.875	0.2326063593	-0.2411711373	
532.5	-0.1414014515	-0.06547811223	
533.125	0.1644112157	-0.06467474202	
533.75	-0.04150221875	-0.130458764	
534.375	-0.01272114391	-0.2262610001	
535.0	-0.3113540594	-0.0851973543	
535.625	-0.07395615056	0.09114411464	
536.25	-0.02542066383	0.08812723291	
536.875	0.1053196169	-0.01172500326	
537.5	0.02272273263	-0.01819497891	
538.125	0.1489007427	-0.05549624023	
538.75	0.04809313703	-0.1325000653	
539.375	-0.01615203442	-0.1291458577	
540.0	-0.1612535515	-0.1407504863	
540.625	-0.1397446512	0.008294371982	
541.25	-0.06429198493	-0.01940846178	
541.875	-0.0807587993	0.01591218756	
542.5	-0.006793380879	-0.02891411004	
543.125	-0.05579347911	-0.1044110457	
543.75	-0.08651788929	0.05997457266	
544.375	-0.03189881984	-0.01427607094	
545.0	0.02308027399	0.1190674872	
545.625	0.01761906781	0.005820333063	
546.25	0.1441718653	0.1126110359	
546.875	0.07486392447	-0.09587626171	
547.5	0.07912365173	-0.04734815017	
548.125	-0.04790583619	-0.203125643	
548.75	-0.1381004335	-0.04041213244	
549.375	-0.04870796761	-0.06919077282	
550.0	-0.1145051352	0.01559845204	
550.625	-0.006710046858	0.009444151069	
551.25	-0.09597822323	0.01924570253	
551.875	-0.02977122542	0.07532597829	
552.5	-0.04439503604	0.04997140674	
553.125	0.001907255218	0.06918583344	
553.75	0.03369264393	0.03227166197	
554.375	0.08855858471	-0.002229880785	
555.0	0.07803481848	-0.07952941631	
555.625	0.06542323335	-0.09660264873	
556.25	0.05462076022	-0.1297284414	
556.875	-0.04361363232	-0.1419359654	
557.5	-0.09337488504	-0.0836498346	
558.125	-0.104045572	-0.03201303226	
558.75	-0.107671496	0.006433651131	
559.375	-0.08911999375	0.02885738783	
560.0	-0.09285111563	0.06097839375	
560.625	-0.04076899346	0.1191818731	
561.25	0.02474525086	0.06359056095	
561.875	0.007176290727	0.06375678316	
562.5	0.04063629948	0.02423084456	
563.125	0.03723902589	0.08080688319	
563.75	0.1605174506	-0.02615968442	
564.375	0.06491891822	-0.08396753823	
565.0	0.1065503237	-0.1223491549	
565.625	-0.0821460401	-0.1502479335	
566.25	-0.06112233042	-0.05263557979	
566.875	-0.1428674071	-0.118896333	
567.5	-0.158829472	-0.03823842229	
568.125	-0.05414019092	-0.1305750182	
568.75	-0.2974127678	-0.08583972814	
569.375	-0.1262637124	0.151859383	
570.0	-0.1351294041	0.1065116565	
570.625	-0.04962878282	0.249276429	
571.25	0.02858612691	-0.00520161201	
571.875	0.04996606686	0.1583708737	
572.5	0.09515670129	-0.09703826467	
573.125	0.08088087922	-0.001563497492	
573.75	0.08489050332	-0.2039710755	
574.375	-0.08999816251	-0.02487910682	
575.0	0.1197850669	-0.0219846516	
575.625	-0.05020899947	-0.1073326507	
576.25	0.07245285942	-0.01578686233	
576.875	0.01373674455	-0.2060480306	
577.5	-0.1001044675	-0.1344909729	
578.125	0.01057762205	-0.07060110636	
578.75	-0.05046560491	-0.2298481662	
579.375	-0.1863157035	0.03149528646	
580.0	0.05452729539	-0.04666968056	
580.625	-0.1821130838	0.0171403817	
581.25	0.04527756017	-0.01622613508	
581.875	-0.1071150826	0.190052148	
582.5	0.1777768853	0.1591637666	
583.125	-0.045751136	-0.04104772371	
583.75	0.08823407803	0.1314265748	
584.375	0.02927499166	-0.06768222133	
585.0	0.06702434607	0.1584081792	
585.625	0.2120939642	-0.08935166137	
586.25	0.02544290371	-0.05056295117	
586.875	0.1459583129	-0.09840644151	
587.5	-0.1054167184	-0.1658458788	
588.125	0.03732293865	-0.06042410327	
588.75	0.06499061623	-0.1974971897	
589.375	-0.03555891842	-0.1462898872	
590.0	0.02544911708	-0.1096561713	
590.625	-0.2775531664	-0.07622607262	
591.25	-0.005278846048	0.165971209	
591.875	-0.09882557645	-0.0233845813	
592.5	0.02301220617	0.1691832263	
593.125	-0.08467459235	-0.09821658141	
593.75	0.1438929369	0.2353449859	
594.375	0.1013966422	-0.03501559704	
595.0	0.07504786599	0.1690323114	
595.625	0.2644515825	0.01805869943	
596.25	0.05874065883	-0.03408240598	
596.875	0.199293874	0.103489584	
597.5	0.1946608334	0.01178224462	
598.125	0.06208946188	0.08015172581	
598.75	0.195438361	0.1088202337	
599.375	0.196800978	-0.1245160126	
600.0	0.09003841342	-0.07881836692	
600.625	0.1648836507	-0.1704379172	
601.25	0.009851183785	-0.2088740419	
601.875	-0.04027048778	-0.05095698386	
602.5	-0.1783611295	-0.07231385028	
603.125	-0.02493963742	0.1360738345	
603.75	-0.07304086887	-0.02706984096	
604.375	-0.185327016	0.1659278118	
605.0	0.08060374657	0.05641230882	
605.625	-0.1604619138	-0.008239651587	
606.25	-0.02371437156	0.1506703785	
606.875	-0.1686891563	-0.03696079867	
607.5	-0.1936460644	0.2203639353	
608.125	0.1038193586	0.2191377994	
608.75	0.08640707372	0.1375403879	
609.375	0.1841410937	-0.09685248054	
610.0	0.1055987355	-0.13589681	
610.625	0.07903012032	-0.06686104699	
611.25	0.01341515145	-0.1834764071	
611.875	-0.1431183788	-0.08898586677	
612.5	-0.08927437197	-0.1052319279	
613.125	-0.2426146544	0.05631955638	
613.75	0.05011915103	0.1558311733	
614.375	-0.05326553022	0.1084058859	
615.0	0.1614703463	-0.006597818272	
615.625	-0.08849010716	0.004695143547	
616.25	-0.06923309149	0.2388196927	
616.875	0.05876062027	0.1359660181	
617.5	-0.09946807006	0.2366886299	
618.125	0.05463303126	0.2529188373	
618.75	0.05240902625	0.1046182186	
619.375	0.03442131828	0.1807696204	
620.0	0.1821541292	0.02908873377	
620.625	0.05433660627	-0.1595117397	
621.25	-0.04921491174	-0.04999408611	
621.875	-0.2330071823	-0.07380889388	
622.5	-0.1207597108	0.2069565991	
623.125	-0.06448440421	0.1066190407	
623.75	0.195902912	0.03518910601	
624.375	-0.03081058251	-0.03386929197	
625.0	0.1369239574	-0.05942353701	
625.625	-0.04913333908	-0.07892662438	
626.25	0.01867858078	-0.1217794242	
626.875	-0.1892148481	-0.1011467937	
627.5	-0.1172295848	0.03136092805	
628.125	-0.05308437418	-0.1063852868	
628.75	-0.13650153	-0.1115002347	
629.375	-0.09679743123	-0.106702909	
630.0	-0.1742228982	-0.1067453638	
630.625	-0.2015521741	0.1284644189	
631.25	-0.08547307011	0.1349222164	
631.875	-0.04685746341	0.2006206255	
632.5	0.2297661969	0.2170576731	
633.125	0.1424608376	-0.02342889959	
633.75	0.156113893	0.02136290124	
634.375	-0.01957062323	-0.274445558	
635.0	0.004995919294	-0.05126536716	
635.625	-0.2166808036	-0.1730926642	
636.25	-0.07984312745	0.1765296318	
636.875	-0.0533361767	0.02766275359	
637.5	-0.07200068173	0.1991345094	
638.125	0.03452152924	0.004605892801	
638.75	-0.1374382984	0.176304177	
639.375	0.1166996376	0.2728434059	
640.0	0.1095718136	0.08633290499	
640.625	0.2109329624	0.1988397672	
641.25	0.3310253592	-0.08241630729	
641.875	0.04334796202	-0.1505753879	
642.5	0.08135704678	-0.1995260367	
643.125	-0.2815948494	-0.116352041	
643.75	-0.01298182978	-0.03255307155	
644.375	-0.2562083208	-0.03932395876	
645.0	0.03080787419	0.2973970237	
645.625	-0.06375573038	0.04381462216	
646.25	0.3198724998	0.201771488	
646.875	-0.01554089501	-0.2144201087	
647.5	0.09953043275	0.2226161379	
648.125	0.1993870552	-0.1302710795	
648.75	0.08257696955	0.07514324613	
649.375	0.3761990859	-0.3141238995	
650.0	-0.04984132464	-0.3620084347	
650.625	0.1182062132	-0.09248532849	
651.25	0.3181345372	-0.3044997846	
651.875	0.05468391886	-0.3081274494	
652.5	0.1865610029	0.03666452789	
653.125	0.3620286651	-0.2078647661	
653.75	-0.01586158175	-0.2577185375	
654.375	0.04852597709	-0.2043744284	
655.0	-0.4505010295	-0.09911483279	
655.625	-0.003260889673	0.2293425319	
656.25	-0.1084097909	0.01774866016	
656.875	0.1799035968	0.2258645067	
657.5	-0.04938221813	-0.07658516151	
658.125	0.2475518963	0.3841934441	
658.75	0.2998900293	-0.1699262804	
659.375	0.1462845318	-0.04701202886	
660.0	0.3727739434	-0.3247114471	
660.625	-0.1423138322	-0.3768779291	
661.25	0.1543468306	-0.09314876082	
661.875	0.2511326608	-0.3682781607	
662.5	0.09634029077	-0.2836847917	
663.125	0.1738334503	-0.05704412541	
663.75	0.1816801728	-0.404842306	
664.375	-0.185279041	-0.2052924502	
665.0	-0.1532004159	-0.1848041225	
665.625	-0.3743923543	0.1350340052	
666.25	0.06409229096	0.2362695538	
666.875	0.01305652849	0.1788800319	
667.5	0.2831039249	0.07252923989	
668.125	0.09086318955	-0.09622721965	
668.75	0.2790787328	0.0003744937229	
669.375	0.0008219549054	-0.3756026622	
670.0	-0.05662371144	-0.0710107307	
670.625	0.1085331289	-0.2109732138	
671.25	-0.1163749119	-0.2523543352	
671.875	0.07497269474	0.01387456437	
672.5	0.3123985816	-0.2323845099	
673.125	0.02721616355	-0.2231070436	
673.75	0.170236754	-0.1273850585	
674.375	0.06128549653	-0.3414624737	
675.0	-0.2260000901	-0.09437560258	
675.625	-0.04444440757	-0.1258547499	
676.25	-0.2749307513	0.008560861684	
676.875	-0.05105571032	0.1171869405	
677.5	-0.1363644551	-0.07723569745	
678.125	-0.1064643831	0.2848646045	
678.75	0.1075521706	0.06876509195	
679.375	0.1296122319	0.1593247606	
680.0	0.2383966264	-0.217062533	
680.625	-0.1978573551	0.01208398756	
681.25	0.267284116	0.07565427533	
681.875	0.09669022426	-0.2340557054	
682.5	-0.03811328195	0.1555291437	
683.125	0.4073899321	0.2037481876	
683.75	0.168596525	-0.2493085999	
684.375	0.2536644577	0.2939100775	
685.0	0.394870922	-0.0584627518	
685.625	0.1393397175	-0.1778282213	
686.25	0.3720262829	0.08856948204	
686.875	0.2465638968	-0.3698353192	
687.5	0.04696191656	-0.1684087413	
688.125	0.02915824277	-0.4084823083	
688.75	-0.4782639415	-0.05348790804	
689.375	-0.0637192309	0.2696468539	
690.0	0.0411068169	0.3026412424	
690.625	0.3872998687	0.1570871004	
691.25	0.1699985554	0.07653602876	
691.875	0.466211213	0.4350794892	
692.5	0.6668256739	-0.1990657513	
693.125	0.3650493791	0.04446267519	
693.75	0.6712733494	-0.1985433333	
694.375	0.1578061036	-0.5716910349	
695.0	0.3555339225	0.006421093411	
695.625	0.5707357215	-0.3504557199	
696.25	0.3012819265	-0.07112999904	
696.875	0.3086988409	0.3352056366	
697.5	0.5065714799	0.3817440611	
698.125	0.4814704146	0.1195172178	
698.75	0.3284821303	-0.4314011795	
699.375	-0.2939858177	-0.2146961781	
700.0	-0.1868722463	0.4364528613	
700.625	0.07116631697	0.1405997768	
701.25	0.2774134555	0.2296811684	
701.875	0.3153667699	0.00389552823	
702.5	0.2121396598	0.2488505992	
703.125	0.5546011828	0.07394637364	
703.75	0.2105525108	-0.226994327	
704.375	0.2783015941	-0.04640486989	
705.0	0.2285840361	-0.2699669407	
705.625	0.1236924465	0.0005524357195	
706.25	0.2486938565	0.2517085919	
706.875	0.3493414259	0.1213843317	
707.5	0.2940648766	0.3255290986	
708.125	0.4399272478	0.001597620719	
708.75	0.2331878818	-0.3589870958	
709.375	-0.3162086888	-0.1536617433	
710.0	-0.0794244478	0.1002631335	
710.625	0.1486537929	0.1080432489	
711.25	-0.04213491518	-0.05821230395	
711.875	0.2598482451	0.1269277958	
712.5	0.2485931663	-0.3039487804	
713.125	0.1647754349	-0.03071215493	
713.75	0.1689644738	-0.3470097806	
714.375	-0.127688429	-0.2007061371	
715.0	0.06019938773	-0.123813508	
715.625	-0.0289839073	-0.3033336293	
716.25	0.01943440451	-0.1601615161	
716.875	0.3531444469	-0.0870840967	
717.5	0.5198463113	-0.2335460258	
718.125	0.4058745174	-0.1088291956	
718.75	0.7635700863	-0.07240495797	
719.375	0.7994653327	-0.5101796487	
720.0	0.03582690662	-0.7275708021	
720.625	0.2094828535	-0.91252407	
721.25	-0.4395767962	-0.8761876953	
721.875	-0.1451026836	-0.4553525148	
722.5	-0.5903342858	-0.7651051211	
723.125	-0.8913037859	0.3633126318	
723.75	-0.06575738807	0.249079947	
724.375	-0.116717566	0.7797128684	
725.0	0.4413396858	0.1406481035	
725.625	0.004087236708	0.2825593286	
726.25	0.06300945767	0.8135682585	
726.875	0.3181053248	0.7415152466	
727.5	-0.2535591956	0.7652877214	
728.125	0.08906276572	2.096029697	
728.75	1.20641183	1.97589844	
729.375	-0.8413071132	1.888536703	
730.0	0.5222209333	4.871629879	
730.625	2.039188439	1.958382655	
731.25	-1.091053534	2.458261529	
731.875	-2.17486833	3.350579968	
732.5	-1.130942254	2.832903926	
733.125	-1.732727438	-0.219051268	
733.75	-0.458683807	1.672496551	
734.375	0.7354850364	-0.2412721724	
735.0	0.4166804513	-0.3356668481	
735.625	-0.782399508	0.5692780849	
736.25	0.08558314951	0.03412498729	
736.875	0.2767884366	0.7687298338	
737.5	1.147135263	-0.5207103727	
738.125	0.2781179031	-0.4609967965	
738.75	2.099312249	-0.1872982316	
739.375	2.072633482	-3.325363704	
740.0	-0.409417103	-0.9677800529	
740.625	2.738165898	3.03123171	
741.25	4.60620582	2.408191372	
741.875	-0.09369784118	-3.175992941	
742.5	-2.115883774	-3.065882674	
743.125	-1.111408098	-0.8426980561	
743.75	0.3040913412	-0.4470617375	
744.375	-0.7219350058	-0.1014728507	
745.0	0.1582845109	-0.04781836662	
745.625	0.09851047865	0.06626041492	
746.25	-0.1548277707	-0.1052782028	
746.875	-0.0732436003	-0.002316605291	
747.5	-0.1242379818	0.3912774132	
748.125	0.3416931998	0.335065566	
748.75	0.1401116809	0.2362020691	
749.375	0.08906404613	0.5080813262	
750.0	-0.2059365214	0.2560084681	
