!Created with skrf (http://scikit-rf.org).
# GHz S RI R (50+0j) 
!freq	ReS11	ImS11	
500.0	0.2425670435	-0.8247496445	
500.625	0.3019419912	-0.8297878733	
501.25	-0.305572146	-0.6474401795	
501.875	-0.1918230882	-0.3484439649	
502.5	-0.03700445669	-0.1174601957	
503.125	-0.06130242127	0.0002191323165	
503.75	0.0083723809	0.06983911372	
504.375	0.02496638562	-0.005200055479	
505.0	0.01752138157	-0.01874848625	
505.625	0.001693318552	-0.04291099393	
506.25	-0.04873502417	-0.04680554788	
506.875	-0.09916877834	0.001043105013	
507.5	-0.07299285266	-0.2940792883	
508.125	0.1258310539	-0.5161330336	
508.75	0.4983622486	-0.8045213495	
509.375	-0.07294843206	-0.917693194	
510.0	-0.3493206514	-0.2943698147	
510.625	-0.1037080553	-0.09022583066	
511.25	-0.07436276787	-0.02303946697	
511.875	-0.08210231551	-0.03004473563	
512.5	-0.009604704573	-0.001071704104	
513.125	-0.001299331269	-0.04395946725	
513.75	-0.04924739677	-0.04666676062	
514.375	-0.04869093019	-0.0154044008	
515.0	-0.007684662768	-0.03648679419	
515.625	0.01432121238	-0.3293071419	
516.25	-0.245125835	-0.5557978542	
516.875	-0.1748290463	-0.350433322	
517.5	-0.02816654276	-0.1242427725	
518.125	-0.02507635075	-0.02433503116	
518.75	-0.02666452512	-0.111806025	
519.375	-0.04627370948	0.02823499848	
520.0	0.0872361445	0.04914001086	
520.625	0.1330096647	-0.04484751568	
521.25	-0.01129442601	-0.2161568183	
521.875	-0.1220442707	-0.02540705418	
522.5	-0.04154913517	0.02272299851	
523.125	-0.05016074248	0.0199187258	
523.75	-0.09222416516	-0.01155713567	
524.375	-0.1352313972	0.02570370708	
525.0	-0.04066270417	0.1132527383	
525.625	0.02846517934	0.0397898665	
526.25	-0.01062272309	-0.01188900272	
526.875	-0.04281885978	0.04457446784	
527.5	-0.03688855593	0.1542145112	
528.125	0.04698221692	0.2078667211	
528.75	0.02286983848	0.1714400797	
529.375	0.02900120337	0.05204708682	
530.0	0.01625494081	0.1243302089	
530.625	0.08762901152	0.2438950338	
531.25	0.3375900262	0.1036315487	
531.875	0.1945097772	-0.1445603414	
532.5	-0.04093689975	-0.09951638375	
533.125	0.04808793481	-0.04557258577	
533.75	0.09634680899	-0.1478117107	
534.375	-0.05895405938	-0.2379254335	
535.0	-0.1976589191	-0.09814287952	
535.625	-0.1436659726	0.08526554921	
536.25	-0.00417191927	0.08225717345	
536.875	0.08009797188	0.0140680672	
537.5	0.05774566856	-0.03763290168	
538.125	0.09786488396	-0.05342635407	
538.75	0.1091487842	-0.106227858	
539.375	-0.06441476229	-0.1439080628	
540.0	-0.1401420789	-0.1322030805	
540.625	-0.1422886853	-0.02051408721	
541.25	-0.07565856546	0.002140250044	
541.875	-0.03801196979	-0.01927809917	
542.5	-0.03749884547	-0.04763480627	
543.125	-0.06849031041	-0.04164364118	
543.75	-0.0765771626	-0.005471551175	
544.375	-0.04181835729	0.03583150185	
545.0	-0.005201426283	0.05194707916	
545.625	0.04446492387	0.05705368519	
546.25	0.08472798286	0.03556513257	
546.875	0.1056892535	-0.0205648346	
547.5	0.06073148987	-0.1087298959	
548.125	-0.03723175404	-0.14240788	
548.75	-0.1062197445	-0.1031011674	
549.375	-0.09789693586	-0.06136533249	
550.0	-0.06772759678	0.004914694937	
550.625	-0.04728351784	0.005635400872	
551.25	-0.06868511407	0.02337864881	
551.875	-0.06634674409	0.05784146455	
552.5	-0.03988147047	0.06631954944	
553.125	-0.01425639893	0.05312988483	
553.75	0.03968737345	0.04403752252	
554.375	0.08582101455	0.001483094153	
555.0	0.08997819147	-0.06305249552	
555.625	0.08067372232	-0.09529028409	
556.25	0.06081723613	-0.1259521858	
556.875	-0.02836851384	-0.1438100538	
557.5	-0.08643175724	-0.09303917191	
558.125	-0.1059338229	-0.03616157091	
558.75	-0.1017175243	-0.00356824736	
559.375	-0.1014496629	0.01806925382	
560.0	-0.09144272509	0.06857271174	
560.625	-0.04979044735	0.1016085387	
561.25	0.005811651061	0.09126796444	
561.875	0.02576720959	0.04133036286	
562.5	0.008319806606	0.04917200433	
563.125	0.06337675469	0.06788161975	
563.75	0.1284492705	0.006366228187	
564.375	0.1196584179	-0.084996116	
565.0	0.0704832737	-0.1331937163	
565.625	-0.02550247456	-0.1432590436	
566.25	-0.10202857	-0.09986074959	
566.875	-0.1242106686	-0.07224939708	
567.5	-0.1235716555	-0.09825407958	
568.125	-0.1267017563	-0.1383833754	
568.75	-0.1997060299	-0.07162234534	
569.375	-0.2091555089	0.08294758143	
570.0	-0.1098875578	0.1776061183	
570.625	-0.04868372125	0.155198069	
571.25	0.002825133613	0.10353663	
571.875	0.05057512409	0.06723315799	
572.5	0.1128712061	0.0006546056315	
573.125	0.08001219239	-0.09827088731	
573.75	0.03920340203	-0.0996289171	
574.375	0.01152662034	-0.06172628721	
575.0	0.02610951405	-0.03395417549	
575.625	0.03719602134	-0.0657261362	
576.25	0.04128808651	-0.09766197735	
576.875	-0.001951326856	-0.1279917526	
577.5	-0.001522848313	-0.1428247883	
578.125	-0.03952574921	-0.1421670952	
578.75	-0.07524801734	-0.1105175866	
579.375	-0.0765482833	-0.05985193824	
580.0	-0.04667804635	-0.02858299029	
580.625	-0.06275398085	-0.02708451762	
581.25	-0.09461820579	0.06508690698	
581.875	0.002193209989	0.1403564568	
582.5	0.04793246008	0.1260824251	
583.125	0.06803941016	0.06913332456	
583.75	0.03601048127	0.01893533951	
584.375	0.0297237439	0.05323680001	
585.0	0.09807922533	0.05609513476	
585.625	0.1387073484	0.003274382493	
586.25	0.1365803143	-0.05329024243	
586.875	0.07054288077	-0.1188052973	
587.5	-0.00670385859	-0.1267281542	
588.125	-0.01239906817	-0.1251703874	
588.75	0.02863844163	-0.1289651382	
589.375	0.05677339747	-0.1374892843	
590.0	-0.04658587807	-0.1575536695	
590.625	-0.162977715	-0.04458346355	
591.25	-0.1191372348	0.09525995658	
591.875	-0.03223066279	0.1050954987	
592.5	0.006490803153	0.04369541145	
593.125	-0.02745624557	0.04465093414	
593.75	0.04626588335	0.1074473814	
594.375	0.1337766474	0.08945470893	
595.0	0.150672689	0.08613836117	
595.625	0.1509179424	0.06864867916	
596.25	0.1429158082	0.03617013376	
596.875	0.1384234392	0.03187521305	
597.5	0.1307037413	0.07261702257	
598.125	0.13172052	0.1018343294	
598.75	0.1571482898	0.07741277122	
599.375	0.1901179209	-0.02805496741	
600.0	0.1489979469	-0.1271039688	
600.625	0.121926425	-0.1584011779	
601.25	0.05551555579	-0.1705641183	
601.875	-0.06846065504	-0.1275335861	
602.5	-0.1148636542	-0.0175490986	
603.125	-0.099325001	0.03994198325	
603.75	-0.09609409267	0.06254221207	
604.375	-0.08756443676	0.06635547305	
605.0	-0.06301173518	0.06844932318	
605.625	-0.06444521131	0.05481284159	
606.25	-0.1015361402	0.05490173753	
606.875	-0.1538518192	0.07667749643	
607.5	-0.1463375053	0.157098133	
608.125	-0.03045217484	0.2217863016	
608.75	0.1581857771	0.1588157206	
609.375	0.2135822625	-0.02065018168	
610.0	0.1546989212	-0.1060518405	
610.625	0.07850542615	-0.1429781502	
611.25	0.006573836915	-0.1425991989	
611.875	-0.075636823	-0.1131717324	
612.5	-0.1465541447	-0.05995081295	
613.125	-0.1719928359	0.03063921174	
613.75	-0.08296856357	0.1312039553	
614.375	0.0412388912	0.09878615958	
615.0	0.03676084792	0.03985418296	
615.625	-0.00120215306	0.07783289207	
616.25	-0.03719659039	0.1285577596	
616.875	-0.07265350984	0.1713679617	
617.5	-0.06322976773	0.1992102235	
618.125	-0.01858666977	0.1919924089	
618.75	0.01876941748	0.1749322002	
619.375	0.079432693	0.1501230814	
620.0	0.1712223276	0.04874665601	
620.625	0.1063101169	-0.1371764331	
621.25	-0.07415089818	-0.1704866854	
621.875	-0.1827364969	-0.08340276216	
622.5	-0.1967667001	0.05046842468	
623.125	-0.04029532747	0.1675852527	
623.75	0.1173114313	0.04362819149	
624.375	0.03773684867	-0.04669221114	
625.0	0.03775807164	-0.02243603842	
625.625	0.04918192221	-0.07962104395	
626.25	-0.04030611802	-0.1262777712	
626.875	-0.1253070472	-0.07873498895	
627.5	-0.1312614842	-0.04047149584	
628.125	-0.100505974	-0.06328178144	
628.75	-0.06692570574	-0.1107239842	
629.375	-0.08076968662	-0.1389400541	
630.0	-0.1686684728	-0.09522279196	
630.625	-0.2045832997	0.05180204714	
631.25	-0.1374192216	0.1727724046	
631.875	-0.03015816697	0.222662522	
632.5	0.1275776489	0.1833710505	
633.125	0.1896267591	0.05619862412	
633.75	0.1560116827	-0.05514624169	
634.375	0.06378767841	-0.1221146492	
635.0	-0.004800488047	-0.1371651566	
635.625	-0.1293076744	-0.08950291759	
636.25	-0.1454419032	0.05940793004	
636.875	-0.06320701754	0.1137859265	
637.5	-0.03524178974	0.08121609947	
638.125	-0.06258070568	0.07745341164	
638.75	-0.07031789328	0.1485265107	
639.375	-0.00678040284	0.2268307252	
640.0	0.1181639357	0.2246847467	
640.625	0.2118482513	0.1425104976	
641.25	0.25271552	0.008111172011	
641.875	0.1647540443	-0.1597058	
642.5	0.003314298501	-0.1950400882	
643.125	-0.1050924466	-0.1168265304	
643.75	-0.1181673553	-0.07262142806	
644.375	-0.1616585306	-0.008400091327	
645.0	-0.1397370653	0.1355595023	
645.625	0.04344882858	0.1968935114	
646.25	0.1485358935	0.07415620223	
646.875	0.09100943587	-0.01394513056	
647.5	0.04921828755	0.03292773851	
648.125	0.1444064526	0.05258886861	
648.75	0.2404454217	-0.05578335518	
649.375	0.2077147469	-0.2125411181	
650.0	0.1501287412	-0.269984602	
650.625	0.1417455507	-0.2532942915	
651.25	0.1810630103	-0.2080501899	
651.875	0.2314799012	-0.1445483906	
652.5	0.253032085	-0.07748041354	
653.125	0.2496694213	-0.08517420196	
653.75	0.1925075489	-0.1942927859	
654.375	-0.02599087051	-0.2806456234	
655.0	-0.2520916692	-0.110237667	
655.625	-0.1746771685	0.1552969369	
656.25	0.01608550825	0.1597660813	
656.875	0.04237083461	0.06642800324	
657.5	0.02630006577	0.09632033802	
658.125	0.1221073173	0.1522690038	
658.75	0.2633094168	0.08471905182	
659.375	0.2982483231	-0.1149323016	
660.0	0.2120449701	-0.2574441228	
660.625	0.132651294	-0.2918125783	
661.25	0.1488861864	-0.2624272229	
661.875	0.1984079398	-0.2216520185	
662.5	0.2394377193	-0.17438146	
663.125	0.2422819289	-0.1667432966	
663.75	0.1590939712	-0.2484036826	
664.375	-0.01843502613	-0.3004488233	
665.0	-0.2310824549	-0.2028381182	
665.625	-0.291773737	0.05969406671	
666.25	-0.1079181692	0.2386862025	
666.875	0.09341777032	0.1944841569	
667.5	0.1616831774	0.09547289495	
668.125	0.1994627336	-0.001316355831	
668.75	0.180174831	-0.1196945799	
669.375	0.09637595361	-0.1969734652	
670.0	0.01315244022	-0.2006443795	
670.625	0.009420007376	-0.1719929367	
671.25	0.05667054116	-0.158221113	
671.875	0.1257548054	-0.1505666132	
672.5	0.1859531607	-0.1301259336	
673.125	0.1945062673	-0.1474808349	
673.75	0.1540494591	-0.1902552342	
674.375	0.06110329058	-0.2332417596	
675.0	-0.06398549526	-0.2210469639	
675.625	-0.1649952466	-0.1302407499	
676.25	-0.1640946981	-0.03696573095	
676.875	-0.1342048541	-0.003786859069	
677.5	-0.1420123577	0.01253878135	
678.125	-0.1370658416	0.1150044249	
678.75	0.009990428399	0.2071392917	
679.375	0.1824191201	0.08411234704	
680.0	0.1401430286	-0.07297252188	
680.625	0.06665156913	-0.07006093263	
681.25	0.0826055088	-0.009780685574	
681.875	0.1344000661	0.04624967508	
682.5	0.1826510912	0.0833483066	
683.125	0.219303958	0.07459126661	
683.75	0.2333156222	0.06949533168	
684.375	0.249117319	0.04582634994	
685.0	0.2520933264	0.04481702533	
685.625	0.2616742172	0.01843720924	
686.25	0.2703658563	-0.02059508911	
686.875	0.2792729737	-0.1119029969	
687.5	0.2537101825	-0.2444207481	
688.125	0.01415215642	-0.3931483638	
688.75	-0.3507524212	-0.2111716918	
689.375	-0.2897215612	0.2562267961	
690.0	0.06272336875	0.3251014313	
690.625	0.197932375	0.238070998	
691.25	0.2779030386	0.2535343764	
691.875	0.4011546629	0.2849604853	
692.5	0.538650856	0.1998257041	
693.125	0.5960480224	-0.01085248607	
693.75	0.5310601785	-0.2100888978	
694.375	0.3970822259	-0.3447147325	
695.0	0.4049915509	-0.2511453744	
695.625	0.4513282613	-0.0650435503	
696.25	0.438533941	0.1690512929	
696.875	0.3372971827	0.356773484	
697.5	0.3125519379	0.4252082216	
698.125	0.480065979	0.2541374346	
698.75	0.4376296615	-0.3091894079	
699.375	-0.2909027414	-0.3944570242	
700.0	-0.2886763373	0.2666939044	
700.625	0.1006710977	0.2705173311	
701.25	0.1929095603	0.1691349493	
701.875	0.2286933831	0.2101680177	
702.5	0.3059614211	0.2165227162	
703.125	0.3717881495	0.1096505991	
703.75	0.345414323	-0.08756856124	
704.375	0.2482762679	-0.1686404668	
705.0	0.2127363476	-0.1209379998	
705.625	0.2359664591	0.001425596034	
706.25	0.2202749918	0.1586433781	
706.875	0.195845691	0.2653612169	
707.5	0.2194368602	0.3153526166	
708.125	0.3789612558	0.1550028676	
708.75	0.2980478086	-0.2663493288	
709.375	-0.1939735635	-0.2849710988	
710.0	-0.1896928477	0.157424115	
710.625	0.03956073956	0.1402578253	
711.25	0.07264146176	0.1090192535	
711.875	0.1777492919	0.1154916814	
712.5	0.2748868166	-0.007519148328	
713.125	0.2386991459	-0.1455962759	
713.75	0.1255208501	-0.2176082707	
714.375	0.01677892238	-0.2110054429	
715.0	-0.01959077268	-0.1800966473	
715.625	0.01630231052	-0.190670089	
716.25	0.134152462	-0.207866992	
716.875	0.2875618602	-0.1542005892	
717.5	0.4372077215	-0.01785336408	
718.125	0.5608686637	0.06926872479	
718.75	0.6581704453	-0.03978226817	
719.375	0.6687531813	-0.2922632511	
720.0	0.4847859643	-0.6550419533	
720.625	0.2534727469	-0.7760304565	
721.25	0.02890351479	-0.8289649744	
721.875	-0.1259182779	-0.8567856533	
722.5	-0.4735121624	-0.6893582407	
723.125	-0.6605292446	-0.1756208098	
723.75	-0.380555334	0.3520690951	
724.375	0.007843717718	0.3991156541	
725.0	0.1462243697	0.3208220449	
725.625	0.1532722191	0.3888916319	
726.25	0.04364926484	0.573701367	
726.875	-0.06940052113	0.792881569	
727.5	-0.127571862	1.133954662	
728.125	-0.09118698305	1.615878444	
728.75	-0.08551632888	2.232394103	
729.375	-0.6931234482	2.897489795	
730.0	-0.2596421426	3.200741154	
730.625	-0.1419353411	3.266010924	
731.25	-0.9660294418	3.136948156	
731.875	-2.409596101	2.001681577	
732.5	-2.822256207	0.7169334563	
733.125	-2.022385203	0.2253666415	
733.75	-0.8305700667	1.017625349	
734.375	0.6489496037	0.4901723545	
735.0	0.06937740912	-0.5227375938	
735.625	-0.4164112946	0.04566279862	
736.25	-0.08316573926	0.4437494044	
736.875	0.3347248102	0.4830833094	
737.5	0.870250722	0.1948359522	
738.125	1.210063577	-0.2955334208	
738.75	1.427486154	-0.9127423195	
739.375	1.847790813	-1.236429705	
740.0	2.388026592	-1.056772728	
740.625	2.044846009	-0.08077947857	
741.25	0.379065949	1.84534063	
741.875	-2.197533364	0.3351105655	
742.5	-0.9533153149	-1.546811555	
743.125	0.3247815564	-1.594943627	
743.75	0.09459730663	-0.8709586217	
744.375	-0.3215665162	-0.1163984682	
745.0	0.02944890085	0.09390217796	
745.625	0.04570948006	0.01161085581	
746.25	-0.004206085148	-0.121072082	
746.875	-0.2049073419	0.01443643821	
747.5	-0.1114792311	0.2939472172	
748.125	0.08889111357	0.4460648661	
748.75	0.2267103697	0.369854191	
749.375	0.1223332298	0.4015692806	
750.0	-0.3467889253	0.1900073721	
