!Created with skrf (http://scikit-rf.org).
# GHz S RI R (50+0j) 
!freq	ReS11	ImS11	
500.0	0.4826794131	-1.45114061	
500.625	-0.2129374402	-0.8416982038	
501.25	0.006103118238	-1.04297629	
501.875	-0.5650551279	-0.5913557233	
502.5	-0.01179527112	-0.08431101108	
503.125	-0.1067808487	-0.03113490003	
503.75	0.0816253215	0.06368148902	
504.375	0.01326288435	0.02675400385	
505.0	0.03019954944	-0.05389092778	
505.625	0.02188506676	0.008595632935	
506.25	-0.08245095173	-0.1605658696	
506.875	0.03784516321	0.1927583508	
507.5	0.19866141	-0.5806725775	
508.125	-0.08334776417	-0.932773973	
508.75	0.8001509557	-0.3682965459	
509.375	0.1489740979	-1.792893181	
510.0	-0.7008429038	-0.2026777688	
510.625	0.009985462208	-0.1217899515	
511.25	-0.1762736929	-0.03403122465	
511.875	-0.1181166323	0.02218861695	
512.5	-0.04170359748	0.01726192285	
513.125	-0.03241894398	-0.1114975489	
513.75	-0.01557079318	0.01175954649	
514.375	-0.008315034084	-0.1140610166	
515.0	-0.2342402703	0.3794717456	
515.625	0.4796029621	-0.8575575933	
516.25	-0.7446504506	0.03391055974	
516.875	0.08311214393	-0.1430690406	
517.5	0.06342090081	-0.2939801395	
518.125	-0.06379677009	0.04820932335	
518.75	0.09029084964	-0.2240469354	
519.375	-0.0689827909	0.0740811954	
520.0	0.08094246798	0.03391861393	
520.625	0.1748036092	0.003711132248	
521.25	-0.01930407295	-0.3557355624	
521.875	-0.102087614	0.06057993598	
522.5	-0.0426639897	-0.03394834807	
523.125	-0.03879225473	0.1603714769	
523.75	0.02283116479	-0.05197500755	
524.375	-0.3341569501	0.04746230588	
525.0	0.1092629022	0.106328777	
525.625	-0.06935772108	0.03789581287	
526.25	0.07966600376	-0.002711828247	
526.875	-0.1363320985	0.02043649352	
527.5	0.04206136809	0.2349488429	
528.125	-0.01589569208	0.1501280448	
528.75	0.006086532894	0.2908159064	
529.375	0.143936362	0.05242956353	
530.0	-0.1732277731	0.115354997	
530.625	-0.07534426234	0.3005943804	
531.25	0.2767229721	0.0006891992969	
531.875	0.3499712564	0.003101940527	
532.5	-0.1519813063	-0.2200052474	
533.125	0.04860168709	0.1127712437	
533.75	0.07042138289	-0.3233965667	
534.375	-0.04549829227	-0.1479686251	
535.0	-0.1812632281	-0.2144245243	
535.625	-0.1891372801	0.1808289195	
536.25	-0.007157268963	0.05668858104	
536.875	0.1163323807	0.06029159314	
537.5	0.05244702718	-0.07902147081	
538.125	0.1082346684	-6.97265115e-05	
538.75	0.1909646401	-0.1851946862	
539.375	-0.09602779636	-0.1037474705	
540.0	-0.1141430008	-0.1735348436	
540.625	-0.1820398923	-0.06584712791	
541.25	-0.04200332325	0.04460089893	
541.875	-0.0494945862	-0.101914153	
542.5	-0.07955640073	0.01356108705	
543.125	0.0104610533	-0.01420565358	
543.75	-0.1527202711	-0.008542257408	
544.375	0.0135044235	0.02184858957	
545.0	-0.08936678998	0.06762953439	
545.625	0.1155923162	0.03217995789	
546.25	-0.003289530282	0.05535532651	
546.875	0.1888956599	-0.02804166136	
547.5	0.005422351278	-0.1277277291	
548.125	0.03565357665	-0.1452136965	
548.75	-0.1688543283	-0.1655974904	
549.375	-0.1011183178	-0.01710697716	
550.0	-0.0723871587	-0.05331166985	
550.625	-0.06042865334	0.05114919282	
551.25	-0.05948776057	-0.009112336512	
551.875	-0.105118883	0.100205588	
552.5	-0.02113772499	0.06897604167	
553.125	-0.03991190331	0.0578155306	
553.75	0.05454818414	0.04371164458	
554.375	0.0921818673	0.01144660969	
555.0	0.1191603334	-0.07013608493	
555.625	0.0905979908	-0.1139208057	
556.25	0.07532117952	-0.1374760309	
556.875	-0.02915481114	-0.1755666986	
557.5	-0.1061255122	-0.1116790568	
558.125	-0.1212697459	-0.04403341886	
558.75	-0.1160651292	-0.01676424683	
559.375	-0.1244909221	0.02398283625	
560.0	-0.09007729162	0.07409596896	
560.625	-0.08006508082	0.1061873443	
561.25	0.02368082292	0.1273055808	
561.875	0.01340066563	0.01997431725	
562.5	0.02286706648	0.09624109945	
563.125	0.05306492901	0.03984316867	
563.75	0.161560389	0.05116631205	
564.375	0.1372896791	-0.1425117535	
565.0	0.04905559628	-0.1102816995	
565.625	0.02218027712	-0.2029897739	
566.25	-0.1750386109	-0.07963381775	
566.875	-0.08183736558	-0.07997184947	
567.5	-0.1845672649	-0.1674035728	
568.125	-0.1619025164	-0.1009815873	
568.75	-0.1486716631	-0.1936404339	
569.375	-0.3181116582	0.1410457273	
570.0	-0.06846434941	0.1715924066	
570.625	-0.1434639079	0.1468032988	
571.25	0.09041990521	0.2024384886	
571.875	-0.02721412507	0.03405615889	
572.5	0.2188353829	0.02874465675	
573.125	0.01252923103	-0.1486133801	
573.75	0.1130079238	-0.003727660819	
574.375	0.03806356355	-0.1802352856	
575.0	-0.02040431951	0.04850201271	
575.625	0.1155738654	-0.1317198856	
576.25	-0.03987032557	-0.1260903149	
576.875	0.07300123903	-0.0834359042	
577.5	0.0459285065	-0.2751686468	
578.125	-0.1389272735	-0.1253723185	
578.75	0.05659690014	-0.05403091439	
579.375	-0.1150585717	-0.1806426557	
580.0	-0.06962374704	0.0774677695	
580.625	-0.06363974268	-0.1422645587	
581.25	-0.06175321248	0.2566949205	
581.875	0.01930635171	0.04201686321	
582.5	-0.03545880749	0.2101037952	
583.125	0.221949219	0.05796461599	
583.75	-0.09146463522	0.008872058577	
584.375	0.1295513655	0.1183062287	
585.0	0.0454333644	-0.02209117288	
585.625	0.1804130443	0.1196594821	
586.25	0.1838577932	-0.1770750874	
586.875	0.01358971792	-0.06671112986	
587.5	0.07540667527	-0.1913498492	
588.125	-0.1073715266	-0.1699797221	
588.75	0.05434408399	-0.04066906589	
589.375	0.1380586003	-0.2370884816	
590.0	-0.1358661539	-0.1332854553	
590.625	-0.06720018609	-0.1189630514	
591.25	-0.2671585896	0.1587942337	
591.875	0.1241948588	0.07529095387	
592.5	-0.1063707658	0.0203594751	
593.125	0.126853571	0.04047744148	
593.75	-0.09775999578	0.1503449959	
594.375	0.2516623701	0.1732426999	
595.0	0.170188538	-0.01074339938	
595.625	0.142119947	0.1889693964	
596.25	0.2579939472	0.03020233603	
596.875	0.07050257337	0.01395321372	
597.5	0.1189674199	0.1883580165	
598.125	0.2303975663	0.0680446048	
598.75	0.1185960182	0.1140423835	
599.375	0.2837496347	0.02961285562	
600.0	0.1514253887	-0.2331693483	
600.625	0.09225092538	-0.108005416	
601.25	0.1579973983	-0.2128695283	
601.875	-0.1695360196	-0.1534668057	
602.5	-0.03255892023	-0.01079139098	
603.125	-0.2821792469	0.04177941853	
603.75	-0.03888589281	0.1501497995	
604.375	-0.1835685451	-0.05679787892	
605.0	-0.1487275211	0.1735018106	
605.625	0.03958132165	0.04540537194	
606.25	-0.2330014784	0.03462223867	
606.875	-0.06982357974	0.1106451505	
607.5	-0.1342267976	0.07431437391	
608.125	-0.132737091	0.3224243117	
608.75	0.2897536152	0.1325788759	
609.375	0.2699476101	-0.02678010252	
610.0	0.2816720673	-0.1132717835	
610.625	-0.00129667345	-0.2284537293	
611.25	0.07660478571	-0.06952392264	
611.875	-0.07816322576	-0.2286857652	
612.5	-0.117445254	0.03947161384	
613.125	-0.1944884825	-0.08890995861	
613.75	-0.1531325078	0.2666150038	
614.375	0.1080064686	-0.0006698023453	
615.0	0.01900918481	0.1948187225	
615.625	0.1270135406	0.04646345788	
616.25	-0.1214087182	0.07098416962	
616.875	-0.1726777263	0.3002478447	
617.5	-0.01048304059	0.2353053448	
618.125	-0.1305116677	0.1502795033	
618.75	0.03713267457	0.2066286286	
619.375	0.1339300218	0.07773341946	
620.0	0.1438024916	0.1552927032	
620.625	0.15086522	-0.263321673	
621.25	-0.1376256736	-0.1426909053	
621.875	-0.1542668479	-0.1566314923	
622.5	-0.3424333507	0.08803206743	
623.125	0.03449816745	0.1532649877	
623.75	0.0465653015	0.1303699591	
624.375	0.06028308878	-0.1507175819	
625.0	0.01194350946	0.06617233106	
625.625	0.09933811997	-0.1695424153	
626.25	-0.09944698644	-0.06406357617	
626.875	-0.06513548891	-0.1515993386	
627.5	-0.2107108365	-0.04991482942	
628.125	-0.08561234687	0.009154825222	
628.75	0.002571906838	-0.1891069206	
629.375	-0.1640560861	-0.1638112889	
630.0	-0.1679123191	-0.07355719016	
630.625	-0.2856585317	0.01405102469	
631.25	-0.1545916109	0.2595377297	
631.875	-0.009543113067	0.1765490427	
632.5	-0.01342436367	0.2331400103	
633.125	0.2819891735	0.01520819272	
633.75	0.1053169533	-0.04633384251	
634.375	0.2107922085	-0.1171863067	
635.0	-0.1067840159	-0.1669185789	
635.625	0.007528274529	-0.08209193361	
636.25	-0.2699499213	0.06934294173	
636.875	0.01519728778	0.1466046414	
637.5	-0.09079477611	0.003072143919	
638.125	-0.08721955843	0.2152358928	
638.75	-0.03492236817	0.06151744003	
639.375	-0.1162052762	0.3171901864	
640.0	0.2372604925	0.2970272482	
640.625	0.1955984208	0.07560384317	
641.25	0.2590793889	0.1436852927	
641.875	0.1872939123	-0.3065248001	
642.5	-0.008998269625	-0.09602979081	
643.125	0.05638992077	-0.2497755329	
643.75	-0.2369525404	0.01875977943	
644.375	-0.09382647012	-0.1349828941	
645.0	-0.3155568485	0.2328937843	
645.625	0.2459900707	0.1812362552	
646.25	0.01075013735	0.1045701249	
646.875	0.285993157	0.04966514793	
647.5	-0.1629624463	-0.08481191859	
648.125	0.287433206	0.1951768031	
648.75	0.209939943	-0.2425655352	
649.375	0.1646768137	-0.09166343446	
650.0	0.4045122385	-0.3746289495	
650.625	0.01137581157	-0.3799033315	
651.25	0.1830916756	-0.001100828654	
651.875	0.4483848719	-0.198544458	
652.5	0.1957157817	-0.239363419	
653.125	0.2265764989	0.07417908868	
653.75	0.4304887461	-0.2832562966	
654.375	-0.168381444	-0.2558270308	
655.0	-0.05640609251	-0.1445278082	
655.625	-0.3538264577	0.2586277902	
656.25	0.291077229	0.09483741422	
656.875	-0.1101060766	0.0751765585	
657.5	0.1698266728	0.1144500627	
658.125	-0.05744512858	0.05030576658	
658.75	0.4591450155	0.3370666889	
659.375	0.3235358177	-0.2956693724	
660.0	0.177208915	-0.1558553102	
660.625	0.3220628611	-0.3857403367	
661.25	0.0675231271	-0.4548790109	
661.875	0.1762828867	-0.04157583871	
662.5	0.4270001956	-0.2200760703	
663.125	0.2107104803	-0.2833638703	
663.75	0.1978250255	-0.1408179721	
664.375	0.03105306863	-0.4805877723	
665.0	-0.3210391953	-0.1230530421	
665.625	-0.2704297945	-0.03477572974	
666.25	-0.2168894834	0.362618778	
666.875	0.2008180422	0.155873053	
667.5	0.03561628258	0.1852019066	
668.125	0.3345256596	-0.03720513046	
668.75	0.0256925269	-0.1420796496	
669.375	0.2231274037	-0.1286293108	
670.0	-0.04045203456	-0.3755489839	
670.625	-0.03535541358	-0.07316114942	
671.25	0.2131322606	-0.289849292	
671.875	0.07978377416	-0.276204628	
672.5	0.1230037421	-0.06241739542	
673.125	0.3716620648	-0.1505256441	
673.75	0.04020942576	-0.2716374142	
674.375	0.1098452117	-0.1496038741	
675.0	-0.02394295857	-0.3747729198	
675.625	-0.3014118853	-0.08485758518	
676.25	-0.03664769847	-0.09560409607	
676.875	-0.2954429413	-0.05400995276	
677.5	-0.08893150743	0.1118072087	
678.125	-0.2053209153	-0.005455871079	
678.75	0.009780612544	0.441487729	
679.375	0.1880612746	-0.07031483083	
680.0	0.1665385661	0.06687830244	
680.625	0.1871956439	-0.2760477831	
681.25	-0.1478567915	0.02880378559	
681.875	0.3824844127	0.2349896382	
682.5	0.2830047698	-0.1320968455	
683.125	0.08218229436	0.1117390851	
683.75	0.3457736587	0.2697102604	
684.375	0.2242479844	-0.2102820388	
685.0	0.06275171012	0.1757258773	
685.625	0.5141075471	0.08095456659	
686.25	0.2449878155	-0.1413958034	
686.875	0.3090572638	0.0619542802	
687.5	0.4788930596	-0.4668562881	
688.125	-0.1462096855	-0.3004483076	
688.75	-0.2977626625	-0.3630359952	
689.375	-0.4698419059	0.385102103	
690.0	0.220430715	0.2608468615	
690.625	0.0200606801	0.4256666777	
691.25	0.5997818538	0.2503369438	
691.875	0.3089290144	0.2036784367	
692.5	0.7388614368	0.5966774909	
693.125	0.8807430079	-0.2012183304	
693.75	0.3881528596	-0.1756814291	
694.375	0.6552881993	-0.3206412394	
695.0	0.3602929332	-0.4397824479	
695.625	0.4402549042	0.02728163642	
696.25	0.6218948404	0.4733481105	
696.875	0.3922013129	0.3274265042	
697.5	0.1585350768	0.4314865101	
698.125	0.4628337968	0.2851820054	
698.75	0.4857060976	-0.5697169963	
699.375	-0.2312943533	-0.3168728344	
700.0	-0.4810194066	0.2307157173	
700.625	0.2728210675	0.2969152837	
701.25	0.05458475425	0.1662922495	
701.875	0.3400450039	0.4603597735	
702.5	0.3941012162	0.04469702296	
703.125	0.3205246468	0.3125432528	
703.75	0.5683526327	-0.07567421189	
704.375	0.157204861	-0.2899859788	
705.0	0.2388533835	0.06046329441	
705.625	0.3375001588	-0.1109537469	
706.25	0.1682436335	0.05658751196	
706.875	0.07621641804	0.417902574	
707.5	0.2093478375	0.3641844053	
708.125	0.4460693939	0.1247444136	
708.75	0.4526295586	-0.2121506263	
709.375	-0.3403994524	-0.4066507247	
710.0	-0.1577472599	0.3463220748	
710.625	-0.1392793787	0.2321266237	
711.25	0.2788510325	0.06622020502	
711.875	0.06751791873	0.2099205843	
712.5	0.4545595472	0.08948326219	
713.125	0.2339938885	-0.3016875665	
713.75	0.1596159497	-0.1027364898	
714.375	0.1089319644	-0.3562734727	
715.0	-0.1253373464	-0.185423933	
715.625	0.132594974	-0.1269658409	
716.25	0.2218561315	-0.3446510155	
716.875	0.1450953077	-0.2079868555	
717.5	0.5154504432	0.2323654629	
718.125	0.8129483906	0.1243669098	
718.75	0.5512132248	-0.2204690354	
719.375	0.3714714422	-0.005479314848	
720.0	0.4992101326	-1.107057515	
720.625	0.1677444392	-0.5633294676	
721.25	0.4664557321	-1.093023917	
721.875	-0.4639105311	-1.273795876	
722.5	-0.2727216225	-0.5489087749	
723.125	-0.8516238118	-0.6208089662	
723.75	-0.4369922379	0.6627555332	
724.375	0.005393755732	0.1793989593	
725.0	0.01693974627	0.6071793552	
725.625	0.4062729977	0.3455212104	
726.25	-0.1799162969	0.5046734015	
726.875	-0.3275291382	1.202053877	
727.5	0.2489729827	1.469342098	
728.125	-0.424179034	1.218026451	
728.75	-1.220378884	3.292900869	
729.375	0.3999135993	4.132460511	
730.0	-0.225755972	2.275140439	
730.625	-1.753377733	6.266798631	
731.25	0.8483671331	3.988570365	
731.875	-3.355540047	0.7911026845	
732.5	-5.308717714	-0.3520307094	
733.125	-2.047768356	1.1542936	
733.75	-1.292157791	0.4745400353	
734.375	1.155100282	0.9686205329	
735.0	-0.3095892909	-0.3470944471	
735.625	-0.3498709308	-0.2367684684	
736.25	-0.1115493932	0.9417644478	
736.875	0.3768669288	0.1608348144	
737.5	0.9516266616	1.142389445	
738.125	2.114095868	-0.7741649769	
738.75	0.8504443377	-1.364447117	
739.375	2.495054515	0.5148188364	
740.0	6.686601047	-3.43889884	
740.625	-0.2003960927	-2.072204938	
741.25	-2.537466584	4.618247756	
741.875	-3.151850271	3.376356869	
742.5	2.588298782	-1.389325723	
743.125	0.9791575781	-3.582927064	
743.75	-0.6307508328	-1.175278573	
744.375	-0.01618918521	0.04034176922	
745.0	-0.1923831327	0.3190630262	
745.625	-0.05732847992	-0.04007044499	
746.25	0.0922778128	-0.1689586304	
746.875	-0.2881700554	0.09545017379	
747.5	-0.0813486165	0.2782222319	
748.125	-0.1375541946	0.6806062515	
748.75	0.3815589083	0.5361066866	
749.375	0.09893333236	0.3686251197	
750.0	-0.5326186075	0.2245907193	
