!Created with skrf (http://scikit-rf.org).
# GHz S RI R (50+0j) 
!freq	ReS11	ImS11	
500.0	0.2492986062	-0.827807967	
500.625	0.2195667099	-0.8459162567	
501.25	-0.2591967612	-0.5723622023	
501.875	-0.2188408318	-0.4535506032	
502.5	-0.02618957804	-0.1208926906	
503.125	-0.06045490466	0.0004851113476	
503.75	0.002672558802	0.07256645988	
504.375	0.02448545337	-0.005199412968	
505.0	0.0175067061	-0.0158004242	
505.625	0.003506070792	-0.044872544	
506.25	-0.05410505824	-0.04693299863	
506.875	-0.08740233181	-0.007280221646	
507.5	-0.07781944221	-0.3007133629	
508.125	0.1461005619	-0.552658522	
508.75	0.4977478018	-0.7805896448	
509.375	-0.02688120636	-1.32004798	
510.0	-0.3640897193	-0.2887980262	
510.625	-0.1090041275	-0.1388417942	
511.25	-0.1027560493	-0.06980337233	
511.875	-0.09894330847	-0.01647226298	
512.5	-0.02009936526	0.03518420572	
513.125	-0.01357231662	-0.06825610005	
513.75	-0.04235582182	-0.04284760448	
514.375	-0.04869099218	-0.02294919157	
515.0	-0.01344454459	-0.03821638618	
515.625	-0.010344617	-0.3789090642	
516.25	-0.1328305835	-0.5346468054	
516.875	-0.1355236573	-0.3724202594	
517.5	-0.04797830426	-0.1284868216	
518.125	-0.02171098268	-0.02026770022	
518.75	-0.03740422529	-0.1271945938	
519.375	-0.04646475287	0.03258525272	
520.0	0.08564403273	0.04678986688	
520.625	0.1382141894	-0.04811557445	
521.25	-0.01563507044	-0.2201472364	
521.875	-0.11677183	-0.02488719075	
522.5	-0.04716258117	0.0215590859	
523.125	-0.04436372882	0.02150862345	
523.75	-0.095725702	-0.01600387347	
524.375	-0.1352412944	0.0296012641	
525.0	-0.04039428909	0.1070203418	
525.625	0.03039248119	0.04371939482	
526.25	-0.01132732504	-0.01534520107	
526.875	-0.04491239484	0.0472971238	
527.5	-0.03345239966	0.1497090794	
528.125	0.04041237182	0.2090938607	
528.75	0.02094785052	0.1906747654	
529.375	0.03358480585	0.04991114843	
530.0	0.01411234305	0.1340243499	
530.625	0.08612086019	0.2451144327	
531.25	0.3197214534	0.118622262	
531.875	0.2094076555	-0.1411861697	
532.5	-0.04529363283	-0.09381739902	
533.125	0.05670772023	-0.04001554011	
533.75	0.0886916288	-0.1490272959	
534.375	-0.05416729808	-0.2330769785	
535.0	-0.196008019	-0.1000917682	
535.625	-0.1419376175	0.09089831744	
536.25	-0.005251088607	0.08019998675	
536.875	0.0828849311	0.01702039975	
537.5	0.05711745533	-0.03661680831	
538.125	0.09963063262	-0.04865607172	
538.75	0.1132417578	-0.1054380288	
539.375	-0.06493467966	-0.1436293115	
540.0	-0.1392958976	-0.1337862744	
540.625	-0.1449133954	-0.02655136788	
541.25	-0.07598879737	0.004449425092	
541.875	-0.03509181803	-0.02241263242	
542.5	-0.04217536697	-0.04807156029	
543.125	-0.0673382371	-0.03882629915	
543.75	-0.07531434538	-0.01000801644	
544.375	-0.04279452361	0.03899357717	
545.0	-0.004517968916	0.04937800138	
545.625	0.04381257966	0.06034009918	
546.25	0.08657695092	0.03305933362	
546.875	0.1032970848	-0.01859043652	
547.5	0.06558009888	-0.1080352802	
548.125	-0.03771373902	-0.1452012137	
548.75	-0.103373664	-0.1021898405	
549.375	-0.09482961298	-0.06444452347	
550.0	-0.07242719327	0.005772162029	
550.625	-0.04417100362	0.005625797682	
551.25	-0.07167432688	0.02174100954	
551.875	-0.0660008849	0.06086581032	
552.5	-0.04144283361	0.06587972074	
553.125	-0.01796214245	0.0569749317	
553.75	0.04011161986	0.04240648731	
554.375	0.08369704326	0.003912317762	
555.0	0.09327563472	-0.06254782386	
555.625	0.07878001514	-0.09602404832	
556.25	0.06333771897	-0.1229762539	
556.875	-0.02994270823	-0.1495236593	
557.5	-0.08861982749	-0.09290087231	
558.125	-0.105559137	-0.03822426386	
558.75	-0.1029225317	-0.004202187708	
559.375	-0.09974668588	0.01800503758	
560.0	-0.09215098778	0.06641120666	
560.625	-0.04718609615	0.102564282	
561.25	0.005810649928	0.08814795675	
561.875	0.02578340927	0.04369920664	
562.5	0.009263846024	0.04713992414	
563.125	0.06204152624	0.07070490407	
563.75	0.1310151804	0.004978704709	
564.375	0.1177424333	-0.08357582292	
565.0	0.07313028981	-0.1338624033	
565.625	-0.02773830249	-0.1440850583	
566.25	-0.100418312	-0.1008570834	
566.875	-0.1256991128	-0.07532475193	
567.5	-0.1247955044	-0.09745152308	
568.125	-0.1236970984	-0.1415331363	
568.75	-0.2017598963	-0.07609862247	
569.375	-0.2096642964	0.0821839875	
570.0	-0.1147899766	0.1749663958	
570.625	-0.05305039434	0.1573962981	
571.25	0.002681039898	0.1024864507	
571.875	0.0483434961	0.07063560586	
572.5	0.1150008388	-0.000133189539	
573.125	0.07891771229	-0.09647763921	
573.75	0.04378204137	-0.09929591736	
574.375	0.01078944044	-0.06574916417	
575.0	0.02500304842	-0.03098639388	
575.625	0.03855449592	-0.06819310066	
576.25	0.03987546341	-0.09993354204	
576.875	-0.0007149918571	-0.1255356199	
577.5	0.002011929398	-0.1443995348	
578.125	-0.04062791191	-0.1457055922	
578.75	-0.07502516799	-0.1088420305	
579.375	-0.07285677786	-0.06082400105	
580.0	-0.04847263381	-0.03215464436	
580.625	-0.06137291523	-0.02522578554	
581.25	-0.09627442274	0.06078071366	
581.875	-1.013333711e-05	0.144191176	
582.5	0.0516742592	0.1267641597	
583.125	0.0666526459	0.0665934449	
583.75	0.03428195462	0.02414708424	
584.375	0.03237741895	0.05061022721	
585.0	0.09523477302	0.05667534148	
585.625	0.1415847195	0.006829898036	
586.25	0.1395657983	-0.05380719986	
586.875	0.06834915076	-0.1172302716	
587.5	-0.002307629251	-0.1259728476	
588.125	-0.01258457511	-0.1283021334	
588.75	0.02846661024	-0.1280304227	
589.375	0.06108036317	-0.1348031727	
590.0	-0.04498562048	-0.1613642701	
590.625	-0.1635029283	-0.04379672186	
591.25	-0.1196965513	0.09208905985	
591.875	-0.03627571279	0.1053307743	
592.5	0.007811012846	0.0454036548	
593.125	-0.02993511844	0.04238137645	
593.75	0.04591740051	0.1106961651	
594.375	0.1345252497	0.08983308919	
595.0	0.1485503402	0.08788387029	
595.625	0.1529558346	0.07231040511	
596.25	0.1431738697	0.03777912499	
596.875	0.1384792963	0.03305027347	
597.5	0.1291553822	0.07594767131	
598.125	0.1320981977	0.1037222948	
598.75	0.1560671924	0.07972144806	
599.375	0.1907633547	-0.02380418186	
600.0	0.1526811282	-0.1251289773	
600.625	0.1258647781	-0.1572210789	
601.25	0.0593102749	-0.169532871	
601.875	-0.06692977526	-0.129269745	
602.5	-0.1154036453	-0.01872049582	
603.125	-0.09990593635	0.03844493175	
603.75	-0.09826224444	0.06117638241	
604.375	-0.08964465776	0.06533793801	
605.0	-0.0644737838	0.06671795579	
605.625	-0.06640398633	0.05682682466	
606.25	-0.101732197	0.05435689819	
606.875	-0.1536692494	0.07372396009	
607.5	-0.1530176713	0.1582782009	
608.125	-0.03041501274	0.2223797133	
608.75	0.1555111325	0.160058219	
609.375	0.2149458605	-0.0190825716	
610.0	0.1549471736	-0.1055335235	
610.625	0.08057575088	-0.140072445	
611.25	0.01180176792	-0.1455747328	
611.875	-0.08000532471	-0.1158472606	
612.5	-0.1443358636	-0.05958423206	
613.125	-0.1755336561	0.02359257389	
613.75	-0.08626940115	0.1330946068	
614.375	0.04169285529	0.09714815735	
615.0	0.03252125988	0.0436549454	
615.625	0.002320675118	0.07984428584	
616.25	-0.03773876052	0.1260368978	
616.875	-0.07842334936	0.1700905845	
617.5	-0.06117816993	0.2049601243	
618.125	-0.01375364169	0.1940166127	
618.75	0.013315633	0.1712605622	
619.375	0.08167209217	0.1552692489	
620.0	0.1707703708	0.04705629178	
620.625	0.109990338	-0.1318887843	
621.25	-0.07095355242	-0.1769653936	
621.875	-0.1866644669	-0.08221978471	
622.5	-0.1929905113	0.04766808673	
623.125	-0.04733887003	0.1671890491	
623.75	0.1225013831	0.04663480804	
624.375	0.03406449415	-0.04950902509	
625.0	0.04181778653	-0.0184517522	
625.625	0.05010679081	-0.08437103845	
626.25	-0.04309932304	-0.1229816258	
626.875	-0.1206688317	-0.07970721809	
627.5	-0.1334376823	-0.04377830794	
628.125	-0.1038682933	-0.06109620855	
628.75	-0.06668688481	-0.1075194274	
629.375	-0.07648161959	-0.1419628084	
630.0	-0.1712211156	-0.1001453186	
630.625	-0.205782537	0.05574036366	
631.25	-0.1360356313	0.1713508683	
631.875	-0.0361404208	0.221262753	
632.5	0.1228438162	0.1902546595	
633.125	0.1928121253	0.0564923318	
633.75	0.152934387	-0.05432191597	
634.375	0.06826852369	-0.1175580626	
635.0	-0.003000503366	-0.1424639194	
635.625	-0.1307349527	-0.08751219907	
636.25	-0.1424756117	0.05692054186	
636.875	-0.06834933767	0.1113629372	
637.5	-0.03680960981	0.08508561868	
638.125	-0.06050091003	0.07750684236	
638.75	-0.07538121125	0.145732758	
639.375	-0.01010193169	0.2323150498	
640.0	0.1231604046	0.2263542717	
640.625	0.2071798236	0.1421562193	
641.25	0.2514508706	0.01727954377	
641.875	0.172175756	-0.1621109395	
642.5	0.0001645960528	-0.194725799	
643.125	-0.09721436366	-0.1174949388	
643.75	-0.1224904091	-0.07764097224	
644.375	-0.1594958936	-0.003917949401	
645.0	-0.1428734821	0.1297641458	
645.625	0.04110397967	0.2041367248	
646.25	0.1503632199	0.07081158585	
646.875	0.0862011345	-0.009168704047	
647.5	0.05472799197	0.03176912883	
648.125	0.1381915049	0.05175727036	
648.75	0.2435927399	-0.04894147856	
649.375	0.2102243479	-0.2205367622	
650.0	0.1460639664	-0.2674062148	
650.625	0.1483924545	-0.2508560564	
651.25	0.184826016	-0.2151498982	
651.875	0.2263677589	-0.1445005218	
652.5	0.2565481582	-0.06964910585	
653.125	0.2567081353	-0.08890137373	
653.75	0.1880326537	-0.1916978377	
654.375	-0.01749084927	-0.2820820093	
655.0	-0.2586975726	-0.1143730262	
655.625	-0.1699852167	0.1566502876	
656.25	0.01312001965	0.1517507423	
656.875	0.0411146513	0.07203823176	
657.5	0.03018584534	0.0899597647	
658.125	0.1156041552	0.1548131102	
658.75	0.2691167771	0.08976263019	
659.375	0.3007285549	-0.1222603267	
660.0	0.2048873668	-0.2551613335	
660.625	0.138291127	-0.2876923015	
661.25	0.1554882046	-0.2683593129	
661.875	0.1964627652	-0.2270426928	
662.5	0.2347327144	-0.1729951768	
663.125	0.2439590165	-0.1585100194	
663.75	0.167904251	-0.2496123346	
664.375	-0.02088659404	-0.3073622808	
665.0	-0.2320386602	-0.1997497333	
665.625	-0.2854318535	0.05658021347	
666.25	-0.1138780552	0.2354273993	
666.875	0.09146518295	0.2020920898	
667.5	0.1670268911	0.09361323056	
668.125	0.1952081985	-0.002715335699	
668.75	0.1812454853	-0.1132911984	
669.375	0.1033686608	-0.1996068236	
670.0	0.01021628107	-0.2063227699	
670.625	0.004214371774	-0.1708157788	
671.25	0.0574367634	-0.1535706482	
671.875	0.1314427499	-0.1504691871	
672.5	0.1898976771	-0.1358923938	
673.125	0.1913457029	-0.1517210705	
673.75	0.1516725958	-0.1853618241	
674.375	0.06951993337	-0.2311469435	
675.0	-0.06486464871	-0.2289045235	
675.625	-0.1637052812	-0.1272986398	
676.25	-0.1604043173	-0.03665797645	
676.875	-0.1396076885	-0.007412238649	
677.5	-0.1410291154	0.01676625745	
678.125	-0.1379561671	0.1085741019	
678.75	0.006941308064	0.2129339264	
679.375	0.1882634594	0.08100844043	
680.0	0.1355111947	-0.07152988311	
680.625	0.07110801285	-0.06660580701	
681.25	0.0810027397	-0.01581467416	
681.875	0.1308348225	0.05103427798	
682.5	0.1900803145	0.08570612456	
683.125	0.2174276077	0.06975687715	
683.75	0.2303141084	0.07772971008	
684.375	0.256550089	0.04581917025	
685.0	0.2506051642	0.04137845898	
685.625	0.2661779787	0.02844138643	
686.25	0.2737007878	-0.0274369393	
686.875	0.2779699012	-0.10280748	
687.5	0.262549122	-0.2483326751	
688.125	0.01335442667	-0.3918474538	
688.75	-0.3469270034	-0.220708498	
689.375	-0.2941585141	0.2615491799	
690.0	0.0631156074	0.3190394091	
690.625	0.1966359316	0.2474955653	
691.25	0.2834823593	0.2475628549	
691.875	0.3955265531	0.2870506143	
692.5	0.546482136	0.2038161141	
693.125	0.5972800337	-0.01980232566	
693.75	0.5278668338	-0.2061245468	
694.375	0.4079673736	-0.3459098018	
695.0	0.4043248858	-0.2593633953	
695.625	0.4465299257	-0.0616588169	
696.25	0.4434069336	0.1761050707	
696.875	0.3452912431	0.3568761098	
697.5	0.3012831802	0.41817997	
698.125	0.4762337004	0.2710085921	
698.75	0.4473472777	-0.3117903687	
699.375	-0.2818943527	-0.3875736618	
700.0	-0.2912829757	0.261828711	
700.625	0.09724573807	0.2825513671	
701.25	0.1937085102	0.1664672172	
701.875	0.2219720302	0.2134726435	
702.5	0.3071719592	0.2243410058	
703.125	0.3802475022	0.104318121	
703.75	0.342262149	-0.08661410536	
704.375	0.2516637531	-0.164431108	
705.0	0.2203852404	-0.123953376	
705.625	0.2304662575	-0.004509763549	
706.25	0.2151948979	0.1593047784	
706.875	0.1972220195	0.2745569368	
707.5	0.2206492466	0.3159934246	
708.125	0.3704738632	0.1595827885	
708.75	0.3054731578	-0.2594228523	
709.375	-0.1988124789	-0.2890116691	
710.0	-0.1863849498	0.1591843909	
710.625	0.03277253037	0.1418119319	
711.25	0.07717836946	0.1122452661	
711.875	0.1721774179	0.1127741978	
712.5	0.2791479323	-0.002398170295	
713.125	0.2415724249	-0.1513182146	
713.75	0.1227148676	-0.2163900915	
714.375	0.0211237134	-0.2113007249	
715.0	-0.02394620934	-0.1847737407	
715.625	0.01415385509	-0.1872610992	
716.25	0.1403327564	-0.2087299366	
716.875	0.2882950868	-0.1612109579	
717.5	0.4311532461	-0.01231897826	
718.125	0.572060337	0.08101553046	
718.75	0.6541279874	-0.05049670098	
719.375	0.6598209066	-0.2840067366	
720.0	0.5052512981	-0.6374233648	
720.625	0.246098626	-0.754403102	
721.25	0.05231659452	-0.8414316683	
721.875	-0.158455111	-0.8792412988	
722.5	-0.4623282855	-0.6902141828	
723.125	-0.6775014505	-0.1735395775	
723.75	-0.3741502575	0.3550204743	
724.375	0.0012618675	0.400825198	
725.0	0.1556072938	0.3210610872	
725.625	0.1458123967	0.3868522691	
726.25	0.04840181394	0.5851235115	
726.875	-0.05603597839	0.7909317425	
727.5	-0.1443771731	1.141662223	
728.125	-0.06687864101	1.603621329	
728.75	-0.2320963971	2.250439544	
729.375	-0.8905810751	2.9577927	
730.0	0.007313812774	3.162246428	
730.625	-0.3734167878	3.082039985	
731.25	-1.0904142	3.068507274	
731.875	-2.206174309	1.973795986	
732.5	-2.76513257	0.4808959163	
733.125	-2.107668659	0.1481038039	
733.75	-0.8598720871	1.018449714	
734.375	0.6347207269	0.4975841892	
735.0	0.07456369252	-0.5326280288	
735.625	-0.4064274606	0.05039776149	
736.25	-0.09586099706	0.4453953182	
736.875	0.3446512448	0.49370644	
737.5	0.8504101001	0.1827415662	
738.125	1.205666775	-0.2867478662	
738.75	1.477781096	-0.9286820503	
739.375	1.821359208	-1.24220864	
740.0	2.136561968	-0.9503980924	
740.625	2.340858193	0.3046786868	
741.25	0.4575404409	1.705233021	
741.875	-2.100286306	-0.07296778467	
742.5	-1.029144043	-1.997974294	
743.125	0.2089530718	-1.663838609	
743.75	0.06583736898	-0.9143676449	
744.375	-0.3726086283	-0.136940325	
745.0	0.05452324306	0.1201396022	
745.625	0.03788099786	0.01456490484	
746.25	-0.00338930356	-0.1204311292	
746.875	-0.1910068771	0.01451336897	
747.5	-0.07584018605	0.2865002052	
748.125	0.07554033759	0.4282839895	
748.75	0.2255313837	0.4026314152	
749.375	0.09504234024	0.3730105581	
750.0	-0.2491879819	0.1303420347	
