!Created with skrf (http://scikit-rf.org).
# GHz S RI R (50+0j) 
!freq	ReS11	ImS11	
500.0	0.06848124528	-1.147876664	
500.625	-0.04521585785	-0.3424617434	
501.25	-0.2724129467	-0.7827273788	
501.875	-0.3923411592	-0.128226876	
502.5	0.01274625339	-0.08973767109	
503.125	-0.09500212034	0.009323060387	
503.75	0.04878867507	3.645239898e-05	
504.375	0.03498631739	0.01902853999	
505.0	-0.002858803753	-0.04227787859	
505.625	0.04525998732	-0.02209481527	
506.25	-0.136884832	-0.07976419848	
506.875	0.08483123395	0.00136365353	
507.5	-0.05332142093	-0.5705349575	
508.125	-0.2120892169	-0.5165668636	
508.75	0.8485193746	-0.5480528319	
509.375	-0.0659556316	-1.538858568	
510.0	-0.3280992329	-0.08671456983	
510.625	0.0004593892675	-0.1400398139	
511.25	-0.06590135782	-0.01318265486	
511.875	-0.0376747849	-0.03081566126	
512.5	-0.03679092069	0.03223691992	
513.125	-0.05325373577	-0.05055560605	
513.75	0.01312267084	-0.006370093692	
514.375	-0.09927575149	-0.08110901995	
515.0	0.1497022649	0.326568264	
515.625	-0.05940530317	-0.745144371	
516.25	-0.212645974	0.1510947883	
516.875	0.1473719273	-0.4205993217	
517.5	-0.1554537215	-0.2262850115	
518.125	0.03521133498	0.008984122353	
518.75	-0.07425156927	-0.1999049208	
519.375	-0.02955460283	0.05450430811	
520.0	0.06438508804	0.04074314276	
520.625	0.1409843794	-0.03979681154	
521.25	-0.07536155483	-0.2551771145	
521.875	-0.08415468602	0.02237062221	
522.5	-0.03715374872	-0.01139867171	
523.125	0.02560898296	0.06185752075	
523.75	-0.01647376768	-0.06382366211	
524.375	-0.1772754745	0.1316845126	
525.0	0.05936093849	0.007749854377	
525.625	-0.04376994491	0.0937723748	
526.25	0.0575972322	-0.05804830597	
526.875	-0.111238872	0.05994026283	
527.5	0.04226703617	0.1127392356	
528.125	-0.03808138006	0.2200989535	
528.75	0.06463135159	0.2306710484	
529.375	0.04766693841	-0.02656915803	
530.0	-0.003954122922	0.2336396908	
530.625	-0.0344177934	0.2723940039	
531.25	0.2893198526	0.02148511792	
531.875	0.2739409086	-0.1320519653	
532.5	-0.1469396075	-0.1163750493	
533.125	0.1027571565	0.1185691663	
533.75	-0.01191635762	-0.2449941477	
534.375	-0.02995887911	-0.143098842	
535.0	-0.2447716664	-0.1764228088	
535.625	-0.07664204421	0.1637480687	
536.25	-0.01785961971	0.05648618507	
536.875	0.113050707	0.02397048625	
537.5	0.02423445199	-0.05767063646	
538.125	0.1131540481	-0.009169013632	
538.75	0.1008471662	-0.165247459	
539.375	-0.04786681132	-0.08526820289	
540.0	-0.1259451364	-0.1494399565	
540.625	-0.1645775973	-0.02441340661	
541.25	-0.04617438987	0.007105073318	
541.875	-0.06735596828	-0.04950608569	
542.5	-0.03957053474	0.005169703744	
543.125	0.02346578004	-0.0495258311	
543.75	-0.1471061354	0.002191327968	
544.375	0.01007294296	0.008275944409	
545.0	-0.06071722293	0.1078034023	
545.625	0.0777426497	-0.01489061714	
546.25	0.03888467209	0.1100209475	
546.875	0.1324287504	-0.0961887387	
547.5	0.02086961352	-0.05200164082	
548.125	0.01329906014	-0.1662132718	
548.75	-0.169387717	-0.1045646777	
549.375	-0.07069198888	-0.01121848992	
550.0	-0.08207814496	-0.03039558916	
550.625	-0.03614543219	0.04463654115	
551.25	-0.0649597924	-0.004604751587	
551.875	-0.0487582298	0.09506429035	
552.5	-0.02963017658	0.04518310415	
553.125	-0.01584306305	0.0712313055	
553.75	0.04306368868	0.02472453822	
554.375	0.08265015417	-0.0005864385155	
555.0	0.09091395561	-0.07791182958	
555.625	0.05904951973	-0.1017418083	
556.25	0.05081887964	-0.1231562349	
556.875	-0.04059470147	-0.1427667324	
557.5	-0.09985240105	-0.08242199259	
558.125	-0.1045785592	-0.02679796268	
558.75	-0.1051955667	2.507619768e-05	
559.375	-0.09556379973	0.0354803528	
560.0	-0.07986620873	0.0595999682	
560.625	-0.05594063994	0.1129328319	
561.25	0.0376369558	0.09405909047	
561.875	0.001427640781	0.02521544797	
562.5	0.041673824	0.06964296322	
563.125	0.03988351739	0.03639489048	
563.75	0.156572483	0.01323528576	
564.375	0.07429416607	-0.1208981584	
565.0	0.07025846463	-0.09412157926	
565.625	-0.04980859416	-0.1883036071	
566.25	-0.1116160481	-0.03588463373	
566.875	-0.08128078995	-0.1007186926	
567.5	-0.191640274	-0.1073712106	
568.125	-0.1178153291	-0.05502775431	
568.75	-0.2044060554	-0.1709694532	
569.375	-0.2090392429	0.2003982644	
570.0	-0.05417023391	0.11210055	
570.625	-0.1170509182	0.202456048	
571.25	0.1133497874	0.06187987449	
571.875	-0.0197696784	0.1095563333	
572.5	0.1778549234	-0.06580239021	
573.125	-0.0142198566	-0.07028456237	
573.75	0.1455097761	-0.06703261603	
574.375	-0.05388631135	-0.1475513818	
575.0	0.04893126511	0.05541678957	
575.625	0.02479564797	-0.1536497759	
576.25	-0.01439154613	-0.02691643338	
576.875	0.06895063416	-0.157207413	
577.5	-0.06045957797	-0.2169550965	
578.125	-0.09283875186	-0.04780795959	
578.75	0.04850550359	-0.1206421575	
579.375	-0.1640991463	-0.1513200316	
580.0	-0.01116501519	0.1002896214	
580.625	-0.124548246	-0.1221031115	
581.25	0.06910269227	0.1625135122	
581.875	-0.1016981162	0.05201721255	
582.5	0.08901655882	0.2415786997	
583.125	0.08028761205	-0.0808839296	
583.75	-0.01612675458	0.1502466597	
584.375	0.1175514807	-0.01390223803	
585.0	-0.002927112885	0.03694213459	
585.625	0.206513965	0.0729445404	
586.25	0.1009131243	-0.1591746759	
586.875	0.04479392352	-0.03970155699	
587.5	-0.002767357832	-0.2020553323	
588.125	-0.07136505411	-0.05124868876	
588.75	0.09811153659	-0.1476497604	
589.375	-0.0009759354268	-0.1986368229	
590.0	-0.03847221067	-0.07152060537	
590.625	-0.1631473898	-0.1341181248	
591.25	-0.1462210058	0.2411552548	
591.875	0.076012531	0.006665986795	
592.5	-0.1083909875	0.0735388681	
593.125	0.09626695702	-0.04811679127	
593.75	-0.02343967527	0.2263993452	
594.375	0.2390720593	0.005657717567	
595.0	0.04933244942	0.06581699714	
595.625	0.2831726144	0.1258616258	
596.25	0.1254844128	-0.0572028491	
596.875	0.08456371873	0.102078582	
597.5	0.1908562992	0.1207262837	
598.125	0.1597691532	0.01698621354	
598.75	0.1398150034	0.1000293823	
599.375	0.2356415606	-0.04344217707	
600.0	0.0687628518	-0.1703233292	
600.625	0.1454341313	-0.1012055387	
601.25	0.0674683756	-0.2104322298	
601.875	-0.1109909207	-0.06141596434	
602.5	-0.06658334938	-0.08635549545	
603.125	-0.1656414464	0.1700788755	
603.75	0.01210420297	0.05572908271	
604.375	-0.2240755184	0.01358528138	
605.0	-0.02723958436	0.1889395678	
605.625	0.001722083484	-0.0348544428	
606.25	-0.1715535595	0.1297798133	
606.875	-0.05469567277	-0.01814568769	
607.5	-0.2209615356	0.1281890563	
608.125	0.0340833271	0.2849149283	
608.75	0.1573607883	0.06865229981	
609.375	0.2445547231	-0.10596175	
610.0	0.1692764398	-0.1544392312	
610.625	-0.02518651359	-0.1384452232	
611.25	0.07790032764	-0.1183063279	
611.875	-0.1096707391	-0.1934030841	
612.5	-0.07239527132	-0.01081961324	
613.125	-0.2345615036	-0.02503488156	
613.75	-0.0318860164	0.2471869526	
614.375	-0.01363011163	-0.01093365295	
615.0	0.1116478488	0.1371612719	
615.625	0.0393807468	-0.032457987	
616.25	-0.1170250105	0.1454074377	
616.875	-0.04474981225	0.2818986907	
617.5	-0.02472065501	0.134830718	
618.125	-0.05357347153	0.2405103199	
618.75	0.0239250408	0.1084359664	
619.375	0.05333119909	0.119105172	
620.0	0.2192627986	0.0487159712	
620.625	0.03734500066	-0.197872393	
621.25	-0.13293893	-0.0786259828	
621.875	-0.130022787	-0.1326703862	
622.5	-0.2555790595	0.1476064046	
623.125	0.05406773098	0.1057119417	
623.75	0.1106827599	0.1359887064	
624.375	-0.02061402963	-0.1215763247	
625.0	0.116881755	0.04895643077	
625.625	-0.02577967676	-0.1457530455	
626.25	0.004853839824	-0.05859434215	
626.875	-0.144099076	-0.1452241125	
627.5	-0.1749503788	-0.002475173606	
628.125	-0.05148360347	-0.02282789539	
628.75	-0.04550582236	-0.167281509	
629.375	-0.124758533	-0.1395736422	
630.0	-0.1570411891	-0.01648552992	
630.625	-0.2158202053	0.0628888202	
631.25	-0.06372708987	0.2175738379	
631.875	-0.04022899274	0.1950885743	
632.5	0.1476600356	0.283131985	
633.125	0.1997057246	-0.04693675098	
633.75	0.08964840545	-0.01486346155	
634.375	0.1466938275	-0.2234373077	
635.0	-0.1279817259	-0.08073197989	
635.625	-0.0234888182	-0.1182577922	
636.25	-0.2095170513	0.1429014392	
636.875	0.03465951774	0.08686298516	
637.5	-0.1106132297	0.05514234994	
638.125	0.0614948623	0.1463766069	
638.75	-0.1186396636	0.08365653718	
639.375	0.04937357062	0.3197407119	
640.0	0.2275218387	0.1078763641	
640.625	0.1314836533	0.09495385281	
641.25	0.3183700295	0.03027017822	
641.875	0.07041918001	-0.2668078389	
642.5	-0.01224364179	-0.09789247446	
643.125	-0.1033661248	-0.2840899309	
643.75	-0.1346743278	0.1057292268	
644.375	-0.1872512684	-0.0873205613	
645.0	-0.1277817399	0.3121857925	
645.625	0.1286146005	-0.01938483167	
646.25	0.06415013292	0.2005042169	
646.875	0.2580001454	-0.1734636972	
647.5	-0.1608424787	0.1142115807	
648.125	0.3276143457	0.02864765549	
648.75	0.09490791406	-0.1611545438	
649.375	0.2339229119	-0.06959874928	
650.0	0.1488176022	-0.4944977886	
650.625	-0.03377897754	-0.1809066397	
651.25	0.3168276419	-0.1164989246	
651.875	0.2589451975	-0.341659987	
652.5	0.06013527796	-0.1209916851	
653.125	0.2968578971	-0.02492749738	
653.75	0.1697363282	-0.4123152854	
654.375	-0.1528107517	-0.1146434253	
655.0	-0.1977507543	-0.2191957239	
655.625	-0.1096240146	0.3630450884	
656.25	0.07905545693	-0.06029883898	
656.875	-0.01524697021	0.2227204009	
657.5	0.128713325	-0.05797598934	
658.125	-0.04854412504	0.2561348162	
658.75	0.5342891498	-0.003319700968	
659.375	0.1078319511	-0.2556639301	
660.0	0.2031061865	-0.1534111379	
660.625	0.1700423169	-0.4304736086	
661.25	-0.08487941479	-0.244678133	
661.875	0.2995736518	-0.1496032426	
662.5	0.1909218616	-0.3281940305	
663.125	0.09034406145	-0.1696348079	
663.75	0.2491305507	-0.2524483123	
664.375	-0.1993454519	-0.3582006411	
665.0	-0.2241315308	-0.02868771434	
665.625	-0.2630530534	0.01774444397	
666.25	-0.05509520755	0.3551546552	
666.875	0.1325041702	0.03841153754	
667.5	0.1869517876	0.1843039442	
668.125	0.1864675614	-0.1543191426	
668.75	0.09480983337	-0.006538298014	
669.375	0.1818230849	-0.3201406745	
670.0	-0.1949166263	-0.1721819173	
670.625	0.07423883287	-0.05704255995	
671.25	0.06177952612	-0.3035384948	
671.875	-0.01386021006	-0.1865889107	
672.5	0.1506559351	-0.03445957339	
673.125	0.2171909477	-0.2996606592	
673.75	0.03317109162	-0.1175776141	
674.375	0.08386437567	-0.2528027927	
675.0	-0.2453480433	-0.2445386772	
675.625	-0.1102620935	0.04084758689	
676.25	-0.1743374184	-0.1194750413	
676.875	-0.1949691847	0.1244442994	
677.5	-0.02348481815	0.0619070362	
678.125	-0.1991315655	0.09732413196	
678.75	0.2290907355	0.2740986848	
679.375	0.04409011698	-0.04355171381	
680.0	0.2404536822	-0.02781975615	
680.625	-0.07552211299	-0.2634914151	
681.25	0.06506966477	0.2383800108	
681.875	0.3387122274	-0.08911147618	
682.5	-0.001121975112	-0.07333004628	
683.125	0.1663869669	0.2229122844	
683.75	0.4448286687	0.03139494017	
684.375	-0.03516492649	-0.04152832626	
685.0	0.2935046136	0.1986652662	
685.625	0.3210913166	-0.1537208143	
686.25	0.1345441041	-0.0686561757	
686.875	0.4070041323	-0.2260216555	
687.5	-0.02404192403	-0.3763415891	
688.125	-0.03011196234	-0.2314659735	
688.75	-0.4453802631	-0.1363416874	
689.375	-0.1524693328	0.4502528135	
690.0	0.1413783726	0.0918536623	
690.625	0.2410262764	0.3919738665	
691.25	0.4491635085	-0.02085036067	
691.875	0.218044673	0.2430372587	
692.5	0.860594936	0.2065317384	
693.125	0.3772533118	-0.2968738559	
693.75	0.4989120113	-0.07051956576	
694.375	0.46372607	-0.5411389463	
695.0	0.09205276992	-0.1730370395	
695.625	0.4977236899	0.05435223011	
696.25	0.6050145674	-0.01203015106	
696.875	0.3039123968	0.2986388081	
697.5	0.3459339456	0.3083115157	
698.125	0.4038230709	0.04503116279	
698.75	0.1172139191	-0.4498401836	
699.375	-0.3892208297	-0.2014810788	
700.0	-0.2599064903	0.3452486974	
700.625	0.2319101998	0.1081646446	
701.25	0.119604619	0.2429040407	
701.875	0.470064191	0.2323868783	
702.5	0.18888785	0.02224644754	
703.125	0.4024900338	0.2254916216	
703.75	0.424639445	-0.2519050529	
704.375	0.09152234775	-0.1229990928	
705.0	0.3498024678	-0.06109561719	
705.625	0.1508498715	-0.08298965661	
706.25	0.1181717077	0.1874867741	
706.875	0.343127828	0.3286052228	
707.5	0.2477583892	0.2766974507	
708.125	0.4535263753	-0.08310418946	
708.75	0.1761909558	-0.3833714227	
709.375	-0.3917512935	-0.1367342931	
710.0	0.1447078013	0.2526918945	
710.625	0.05985290822	0.2380142328	
711.25	0.1341582737	-0.07840754576	
711.875	0.1774743903	0.1593646495	
712.5	0.4043693188	-0.1625544427	
713.125	0.001589142944	-0.1805667899	
713.75	0.2147354359	-0.191943152	
714.375	-0.07409558022	-0.3090316409	
715.0	-0.08344758383	-0.09310608308	
715.625	0.1198156404	-0.2124864811	
716.25	0.0931424684	-0.2961958906	
716.875	0.178517812	-0.1094568633	
717.5	0.5468317292	-0.01340121524	
718.125	0.6167504404	-0.1855898672	
718.75	0.4315269031	-0.1758924643	
719.375	0.6715690658	-0.3044177256	
720.0	0.06193837375	-0.9028321508	
720.625	0.01527632467	-0.447986371	
721.25	-0.01786955027	-1.123443916	
721.875	-0.8313924081	-0.6517059	
722.5	-0.3436140843	-0.4694502458	
723.125	-1.010534147	0.03969270252	
723.75	0.03969790705	0.5548970019	
724.375	-0.19642936	0.2170285389	
725.0	0.3950221242	0.5200145656	
725.625	0.1630938645	0.1079737826	
726.25	-0.1320328443	0.6306486851	
726.875	0.1260979336	1.039856146	
727.5	0.4010908675	0.934296666	
728.125	-0.321060257	1.382637339	
728.75	0.5165035022	3.078263673	
729.375	1.316599332	2.34903594	
730.0	-0.3496006336	2.561062842	
730.625	2.325965899	4.333470423	
731.25	0.4748001754	1.55920956	
731.875	-2.202450349	2.491333126	
732.5	-3.340363978	3.090886703	
733.125	-0.5442434147	0.9729375298	
733.75	-0.9969361973	1.125627242	
734.375	1.299417905	-0.245531159	
735.0	-0.1701026981	-0.1118020361	
735.625	-0.6069814584	-0.09083915854	
736.25	0.540570425	0.5802624531	
736.875	-0.03648335458	0.3244806209	
737.5	1.560267378	0.09274351406	
738.125	0.7589259811	-1.127310943	
738.75	0.6931070982	-0.3535210974	
739.375	3.242057278	-0.8097865803	
740.0	1.828597632	-4.919819971	
740.625	-0.6133914788	0.2950310224	
741.25	0.08311793202	4.651837981	
741.875	1.135846684	3.204319153	
742.5	0.2767443305	-2.671484682	
743.125	-1.233131907	-2.130768607	
743.75	-0.4566941931	-0.2639609531	
744.375	-0.2652775279	-0.3001052889	
745.0	0.2807696743	0.176338022	
745.625	-0.01142299476	0.07951126264	
746.25	-0.0784393003	-0.1871178623	
746.875	-0.1154884388	0.1647818763	
747.5	-0.07945001344	0.1850800366	
748.125	0.2410420989	0.6049464854	
748.75	0.3528222201	0.2273258482	
749.375	0.03123077016	0.3082670007	
750.0	-0.3295351747	0.3697939385	
