!Created with skrf (http://scikit-rf.org).
# GHz S RI R (50+0j) 
!freq	ReS11	ImS11	
500.0	0.509985387	-1.856334988	
500.625	-0.5655722716	-1.396014956	
501.25	-0.1428163124	-0.8783825441	
501.875	-0.7185612097	-0.9031073313	
502.5	-0.1074455083	-0.05186546278	
503.125	-0.1039161096	-0.03602821801	
503.75	0.07499701955	0.1427966454	
504.375	0.003092190677	0.003954767208	
505.0	0.05241052616	-0.08493174382	
505.625	-0.04984488837	-0.00370164054	
506.25	-0.005129735424	-0.1885247741	
506.875	-0.1003966342	0.3455707071	
507.5	0.3215913093	-0.7439628083	
508.125	0.1036163442	-1.395811315	
508.75	0.02145192214	-0.8772504752	
509.375	0.8110278971	-1.91631099	
510.0	-0.7291907103	-0.2031908717	
510.625	-0.1166321524	-0.007862591947	
511.25	-0.2119804801	-0.1252592388	
511.875	-0.219841316	0.07445101331	
512.5	-0.006104331906	0.01552411637	
513.125	-0.03485806202	-0.150071071	
513.75	-0.08955346602	0.02050323263	
514.375	0.00357340165	-0.1183165954	
515.0	-0.4135462012	0.1651008459	
515.625	0.6850996143	-0.4260574027	
516.25	-1.326675059	-1.269428296	
516.875	-0.2659682232	-0.039476982	
517.5	-0.01174738664	-0.475292738	
518.125	-0.1554958115	0.02083941401	
518.75	0.08442336471	-0.2141928336	
519.375	-0.07462957888	0.08923208869	
520.0	0.1609687093	0.004392866286	
520.625	0.1449637693	-0.00227078627	
521.25	-0.01847611785	-0.4185255129	
521.875	-0.2082317668	0.08904843667	
522.5	-0.02221789238	-0.003619721019	
523.125	-0.1473307839	0.1732744424	
523.75	0.02345932125	0.0339681144	
524.375	-0.3867746569	-0.05845006983	
525.0	0.1365258861	0.2615938692	
525.625	-0.03927381186	-0.0314593716	
526.25	0.06238393276	0.05770957375	
526.875	-0.1537319791	0.005364214399	
527.5	-0.07707103134	0.4239029931	
528.125	0.2246551508	0.1843156799	
528.75	-0.06392549122	0.3383584954	
529.375	0.09179025117	0.05846992819	
530.0	-0.09820657784	0.07380752568	
530.625	0.1747002667	0.5527802304	
531.25	0.5023871338	-0.2071957591	
531.875	0.06862962375	-0.2679889114	
532.5	-0.1343899575	-0.2930261655	
533.125	0.06469081725	0.1661571369	
533.75	0.191965557	-0.4079371844	
534.375	-0.3261183515	-0.2447466025	
535.0	-0.2216472537	-0.206444711	
535.625	-0.2639536856	0.2380240268	
536.25	0.03533908785	0.08344654632	
536.875	0.09383139162	0.07445620969	
537.5	0.1058479423	-0.1060629442	
538.125	0.06755866317	-0.03578511134	
538.75	0.2699739823	-0.1574778271	
539.375	-0.1351116688	-0.1902519421	
540.0	-0.1045815307	-0.1624160408	
540.625	-0.2728800726	-0.08803710226	
541.25	-0.1000893659	0.1006217373	
541.875	0.02825201226	0.03012028856	
542.5	-0.1332585389	-0.03926662973	
543.125	-0.01177464803	-0.03733526304	
543.75	-0.1882126311	-0.04372381384	
544.375	-0.01345251965	0.1691009609	
545.0	-0.07010885198	0.05313625131	
545.625	0.145189647	0.08200237738	
546.25	0.04074020352	-0.02782768453	
546.875	0.2227235112	0.01621233546	
547.5	0.01697632133	-0.2031011171	
548.125	-0.002658583315	-0.1501225089	
548.75	-0.178572778	-0.2141912569	
549.375	-0.2102201243	-0.02110422223	
550.0	-0.05091966225	-0.03944611467	
550.625	-0.112332262	0.05641226393	
551.25	-0.04868621956	0.01947439345	
551.875	-0.1310662485	0.08948004574	
552.5	-0.01669774985	0.1154349617	
553.125	-0.03955026305	0.07358561164	
553.75	0.08273147247	0.05481653872	
554.375	0.1085543003	-0.01373554552	
555.0	0.1342438918	-0.0947899029	
555.625	0.1016415977	-0.153083379	
556.25	0.07443530268	-0.1841557355	
556.875	-0.04744517497	-0.2117160693	
557.5	-0.1368727889	-0.1358076044	
558.125	-0.1551009224	-0.04139611405	
558.75	-0.1344759897	-0.006349897023	
559.375	-0.1571509042	0.02995894088	
560.0	-0.1118850305	0.1082188822	
560.625	-0.0775360708	0.1272857993	
561.25	0.004603972603	0.1673336859	
561.875	0.05052273463	0.01415706831	
562.5	-0.00246951803	0.1202703099	
563.125	0.1123516813	0.0426153134	
563.75	0.150936034	0.04601659501	
564.375	0.2118359464	-0.1616816819	
565.0	0.02858626806	-0.1819731128	
565.625	0.01742597439	-0.1999433722	
566.25	-0.2287551359	-0.1748821295	
566.875	-0.1232000206	-0.04040286807	
567.5	-0.142085379	-0.2668884782	
568.125	-0.2763867284	-0.1676605239	
568.75	-0.2030048275	-0.1093462164	
569.375	-0.3903986893	0.133180633	
570.0	0.01218636489	0.3238062538	
570.625	-0.09925094358	0.1083326659	
571.25	-0.004376207661	0.2949330074	
571.875	0.05634653273	-0.01420574801	
572.5	0.2511457883	0.1202587832	
573.125	0.06632327277	-0.2635427002	
573.75	0.01220214034	-0.03219001284	
574.375	0.1250276595	-0.1635121844	
575.0	-0.09903840848	0.003157381303	
575.625	0.1644302927	-0.08514422341	
576.25	-0.01435192864	-0.2433007599	
576.875	-0.02446922249	-0.06571344307	
577.5	0.1086162136	-0.2609164065	
578.125	-0.1746468452	-0.2479220093	
578.75	-0.08461079492	0.003196251943	
579.375	-0.04874491474	-0.199443759	
580.0	-0.2741872426	0.06852338929	
580.625	0.05472123357	-0.1183904618	
581.25	-0.2384706513	0.2355893216	
581.875	0.1192837775	0.1229996859	
582.5	-0.1405086446	0.2008025933	
583.125	0.1954410427	0.2231669891	
583.75	-0.004975963039	-0.1037337549	
584.375	0.09184037443	0.204313107	
585.0	0.1407240711	-0.07734454356	
585.625	0.1066507241	0.08923902692	
586.25	0.3125573958	-0.1225200411	
586.875	-0.03685864876	-0.1743097246	
587.5	0.09930082318	-0.1873659015	
588.125	-0.08209668789	-0.2824648605	
588.75	-0.04017453144	-0.08211453337	
589.375	0.2159732159	-0.1951869987	
590.0	-0.2116294126	-0.2536982256	
590.625	-0.1170309767	-0.01928099376	
591.25	-0.2674134315	0.1057867818	
591.875	0.1012663531	0.309365839	
592.5	-0.08541794935	-0.09114398773	
593.125	0.03280110292	0.1711357713	
593.75	0.01051095388	0.04694863546	
594.375	0.2293164035	0.2702707235	
595.0	0.2911797216	-0.04900444025	
595.625	0.08197067257	0.09067340729	
596.25	0.2906618284	0.1421831557	
596.875	0.1547848793	-0.05613682564	
597.5	0.1000535311	0.1597946269	
598.125	0.3084783966	0.1998638828	
598.75	0.1785102192	0.005651069977	
599.375	0.2575142542	0.04697946834	
600.0	0.2087094309	-0.2320261791	
600.625	0.05563858605	-0.2326317343	
601.25	0.1689975167	-0.1673052951	
601.875	-0.1711540744	-0.2704621713	
602.5	-0.08734067957	0.08438183852	
603.125	-0.1977334442	-0.04394128751	
603.75	-0.137727099	0.2517846907	
604.375	-0.03099708143	-0.01787841224	
605.0	-0.2178706737	0.09070706413	
605.625	0.1395452755	0.04239354455	
606.25	-0.1939040004	-0.07509690635	
606.875	-0.3062011251	0.2505419191	
607.5	-0.09783935257	0.1754346657	
608.125	0.01420119105	0.4405859284	
608.75	0.3646789924	0.2267532949	
609.375	0.2352111246	-0.08481950324	
610.0	0.2988209528	-0.05832793204	
610.625	0.166360469	-0.180841478	
611.25	-0.02428515059	-0.07399893691	
611.875	-0.074538049	-0.283266873	
612.5	-0.2894890432	0.04785483922	
613.125	-0.09966734643	0.0001161072664	
613.75	-0.2507036653	0.2309224127	
614.375	0.2132522557	0.1213338974	
615.0	-0.1431565627	0.07314166433	
615.625	0.1537208446	0.1904345822	
616.25	-0.1390626458	0.07490747931	
616.875	-0.2569203831	0.2674790542	
617.5	0.04253269337	0.3128904808	
618.125	-0.05599294281	0.2119563075	
618.75	0.03944942339	0.2448886383	
619.375	0.2394225581	0.1404349065	
620.0	0.18274471	0.02892676209	
620.625	0.1565409973	-0.1301929236	
621.25	-0.221740301	-0.1587539952	
621.875	-0.1615692864	-0.1307710867	
622.5	-0.3486572993	-0.009036171279	
623.125	0.06672550234	0.2844584021	
623.75	0.00165626027	0.01559000594	
624.375	0.158866627	-0.1241462503	
625.0	-0.0586339632	0.01685242906	
625.625	0.15655253	-0.1505945462	
626.25	-0.1717592232	-0.1919651393	
626.875	-0.06491430319	-0.05211889836	
627.5	-0.2514418434	-0.1484061945	
628.125	-0.1982757496	-0.002005007492	
628.75	-0.03591784139	-0.1355914377	
629.375	-0.1919344025	-0.2779587313	
630.0	-0.2148777358	0.005865446737	
630.625	-0.2822780961	0.003483101511	
631.25	-0.2915269277	0.2512829693	
631.875	0.06518786855	0.2914864285	
632.5	0.1036218192	0.2376316129	
633.125	0.3891846496	0.07713675311	
633.75	0.121627483	-0.2325278229	
634.375	0.1445367232	-0.1280059805	
635.0	-0.0999224728	-0.2827729202	
635.625	-0.09836106137	0.02854959982	
636.25	-0.2902851597	0.02850114011	
636.875	-0.01004374338	0.3270293663	
637.5	-0.007566049551	4.386995684e-05	
638.125	-0.165822848	0.2073124692	
638.75	0.07609066712	0.1921696065	
639.375	-0.1071576025	0.2271656122	
640.0	0.2828788264	0.4130631915	
640.625	0.3338940973	0.01342514952	
641.25	0.2366164895	0.03290181484	
641.875	0.3349623118	-0.3170928352	
642.5	-0.1461261429	-0.19253312	
643.125	-0.0259819359	-0.1889579345	
643.75	-0.3505135155	-0.09206866904	
644.375	-0.0002553347623	0.217147234	
645.0	-0.3284705102	0.1172639983	
645.625	0.2393412955	0.3205101397	
646.25	0.0717667376	-0.09286436892	
646.875	0.2153480896	0.2101093784	
647.5	0.01571206009	-0.2073717457	
648.125	0.1763379446	0.2724174653	
648.75	0.4776753014	-0.3296675266	
649.375	0.07477010745	-0.2559115785	
650.0	0.3764579331	-0.2312038037	
650.625	0.1822489398	-0.6250318961	
651.25	0.004753465755	-0.1864269438	
651.875	0.4719374962	-0.1054116658	
652.5	0.4003338782	-0.3920297356	
653.125	0.1192489936	-0.1086199402	
653.75	0.4076215756	-0.2903406031	
654.375	-0.3330228415	-0.4540408668	
655.0	-0.1950514633	-0.01499559016	
655.625	-0.3705916257	0.1705114378	
656.25	0.3028455902	0.3701760834	
656.875	-0.07391153237	-0.008674286813	
657.5	0.2419495871	0.3945070396	
658.125	0.2008340607	-0.02564731732	
658.75	0.3000172383	0.2499453638	
659.375	0.5723165739	-0.3871449007	
660.0	-0.00409979084	-0.2991955889	
660.625	0.287034829	-0.3232651149	
661.25	0.2189405686	-0.5593967182	
661.875	-0.0057262521	-0.2861207997	
662.5	0.4935714562	-0.1332771497	
663.125	0.3183154225	-0.4562864349	
663.75	0.06099310038	-0.2708923193	
664.375	0.04998019497	-0.4775690858	
665.0	-0.5423244629	-0.159002724	
665.625	-0.2363709145	0.1229424732	
666.25	-0.2503871532	0.3408466548	
666.875	0.3167093716	0.289972902	
667.5	0.07772818566	4.254931249e-05	
668.125	0.405223478	0.06311406075	
668.75	0.1107318869	-0.3734069039	
669.375	0.107728172	-0.1600937019	
670.0	0.1350420176	-0.5339888952	
670.625	-0.2231927654	-0.2119602873	
671.25	0.1998191085	-0.1195827417	
671.875	0.1979953629	-0.3616811578	
672.5	0.06633762536	-0.1596631693	
673.125	0.3247426102	-0.09213010522	
673.75	0.1373523419	-0.5137374012	
674.375	-0.05781295606	-0.179835003	
675.0	-0.01657918734	-0.3559216732	
675.625	-0.4035107492	-0.1688769278	
676.25	-0.06733401065	0.09450216508	
676.875	-0.2739710766	-0.1315731365	
677.5	-0.1609463451	0.2106315455	
678.125	-0.08336103657	0.05035663725	
678.75	-0.01767901009	0.4280913722	
679.375	0.3985448603	-0.09866490572	
680.0	-0.06418705248	0.04014763982	
680.625	0.2961217014	-0.1066163557	
681.25	-0.002621208807	-0.2226723765	
681.875	0.06512124988	0.4400150072	
682.5	0.583476364	0.04971307717	
683.125	-0.1552520946	0.02396663293	
683.75	0.2918699106	0.309069458	
684.375	0.6094072497	-0.01427913761	
685.0	0.08572257219	-0.06144548719	
685.625	0.7173262047	-0.01351473148	
686.25	0.3795206124	-0.3420870463	
686.875	0.1760420507	-0.1123079546	
687.5	0.5248147638	-0.4071236838	
688.125	-0.278023758	-0.4627533942	
688.75	-0.2918245919	-0.14283321	
689.375	-0.5381306276	0.4689239843	
690.0	0.3696841852	0.4696874264	
690.625	0.08392778948	0.1604887811	
691.25	0.6117204969	0.5494586366	
691.875	0.6178981955	0.08598550806	
692.5	0.5072428615	0.4854143316	
693.125	1.097858832	0.005980020217	
693.75	0.2046648684	-0.442449561	
694.375	0.6235007653	-0.1785267834	
695.0	0.7539145833	-0.5307825874	
695.625	0.3699973487	-0.1195951541	
696.25	0.694044657	0.3682965265	
696.875	0.6638722085	0.2971876559	
697.5	0.4336933441	0.227936836	
698.125	0.7838466077	0.1855536856	
698.75	0.4922440342	-0.7465236328	
699.375	-0.6093605119	-0.1052090322	
700.0	-0.489040631	0.2562627862	
700.625	0.4013899709	0.5101912064	
701.25	0.2647573697	0.01215520738	
701.875	0.2505694709	0.4766062514	
702.5	0.6918709158	0.2260794968	
703.125	0.2900261715	0.02314305264	
703.75	0.5953117292	0.0210649991	
704.375	0.2777663594	-0.4274386795	
705.0	0.07275365831	-0.1092901514	
705.625	0.4977401817	0.1697877259	
706.25	0.4077051216	0.02245772836	
706.875	0.3079120169	0.4448949454	
707.5	0.5077787119	0.5711951132	
708.125	0.6027082402	-0.2458987359	
708.75	0.300210533	-0.4316699193	
709.375	-0.2895030889	-0.2890127614	
710.0	-0.1112560212	0.5017651497	
710.625	0.01561090384	0.08272404617	
711.25	0.25127917	0.3452682619	
711.875	0.2375268701	-0.2564890589	
712.5	0.4415887049	0.08435016828	
713.125	0.3726257553	-0.3832462382	
713.75	-0.03392659475	-0.2698294446	
714.375	0.1828154204	-0.2864949434	
715.0	-0.1464838228	-0.3513132393	
715.625	-0.006544659678	-0.1107468143	
716.25	0.3974759722	-0.3331916794	
716.875	0.3434763216	-0.5136385009	
717.5	0.4667029837	-0.03131355108	
718.125	1.131307482	0.1556690632	
718.75	0.9004947757	-0.760082893	
719.375	0.5668626154	-0.6293876922	
720.0	0.8781087182	-1.819469253	
720.625	-0.8796866907	-2.146241812	
721.25	0.1262452215	-1.136944975	
721.875	-0.5947406061	-1.779850566	
722.5	-1.579214924	-0.3827162286	
723.125	-0.784704455	-0.297754773	
723.75	-0.5700274325	0.8991032194	
724.375	0.4272716014	0.3812245776	
725.0	-0.06850229554	0.4529039536	
725.625	0.5064575137	0.8854989642	
726.25	0.2515405523	0.4844657259	
726.875	-0.4626703511	1.218513816	
727.5	0.1979080901	2.306875121	
728.125	1.003426388	1.858172026	
728.75	-0.9540902855	3.162539684	
729.375	0.3862943473	6.305297492	
730.0	2.264584289	3.005336356	
730.625	-2.591880918	5.46667808	
731.25	0.8954690601	8.82653222	
731.875	-1.13106477	2.38576303	
732.5	-5.385310659	1.26379916	
733.125	-3.376801798	2.469367035	
733.75	0.8711763373	1.033242649	
734.375	1.180132215	0.8955139263	
735.0	-0.9910247144	-1.106123431	
735.625	-0.1255699042	-0.01230264993	
736.25	-0.3456851782	1.122683356	
736.875	1.152084995	0.4453494574	
737.5	0.2265361968	0.4679413682	
738.125	2.883620545	-0.4433476886	
738.75	1.215730007	-3.114503559	
739.375	1.059207147	-0.6258796812	
740.0	6.787634353	-0.9052748751	
740.625	5.721983679	-7.266479584	
741.25	-5.087304819	0.4653083469	
741.875	-7.430252307	2.577752214	
742.5	-1.560500381	0.1083250422	
743.125	1.482490895	-2.068157882	
743.75	-0.8841312783	-2.288989284	
744.375	-0.334580383	0.2758803965	
745.0	-0.09181577444	0.2111028519	
745.625	0.02022968361	-0.180515202	
746.25	0.1364474768	-0.1167327598	
746.875	-0.4241593572	0.1095479477	
747.5	0.05533009118	0.4573743744	
748.125	-0.0578136533	0.5455456439	
748.75	0.4489262916	0.7983415344	
749.375	0.3129449556	0.4364326567	
750.0	-0.4824853346	0.04337590877	
