!Created with skrf (http://scikit-rf.org).
# GHz S RI R (50+0j) 
!freq	ReS11	ImS11	
500.0	0.28136055	-0.4076273513	
500.625	0.3040834272	-1.22367302	
501.25	-0.4509684063	-0.1971429165	
501.875	-0.03080486777	-0.4107091388	
502.5	-0.1092444548	-0.1476000469	
503.125	-0.01559975912	0.01850414392	
503.75	-0.04120621927	0.09375429545	
504.375	0.0285084354	-0.03127093575	
505.0	0.03538930553	0.01426249894	
505.625	-0.04553983209	-0.07324766534	
506.25	0.01812507511	0.01958771399	
506.875	-0.3109877658	-0.02499567539	
507.5	-0.04943009827	0.04675410854	
508.125	0.3904547149	-0.7794599662	
508.75	0.2198866856	-1.163908488	
509.375	-0.326550873	-0.3899424002	
510.0	-0.2721982973	-0.4808155335	
510.625	-0.1836476915	-0.09846494223	
511.25	-0.02027993465	-0.01827002115	
511.875	-0.1453195294	-0.05352434281	
512.5	0.02026447515	0.07204360939	
513.125	0.01117868919	-0.03907979212	
513.75	-0.09396011745	-0.05983299462	
514.375	0.02996889957	0.05010467801	
515.0	-0.01512742869	-0.3004880701	
515.625	-0.08322059125	0.168947456	
516.25	0.4133115183	-0.7976699651	
516.875	-0.5313101568	-0.2328776911	
517.5	-0.0478955956	0.02833049643	
518.125	-0.09479009004	-0.06536866149	
518.75	-0.04997290374	0.01489455344	
519.375	-0.0640796645	0.02794323896	
520.0	0.1105502557	0.02241009767	
520.625	0.08704161992	-0.05723936845	
521.25	0.04450598303	-0.1723863982	
521.875	-0.1379636615	-0.01203118115	
522.5	0.01573257653	0.05795435968	
523.125	-0.03461143306	-0.03441720195	
523.75	-0.1267170389	0.07485337382	
524.375	-0.01668979865	-0.02147131184	
525.0	-0.1368085638	0.1850426656	
525.625	0.1088974618	-0.01345705158	
526.25	-0.06122064118	0.04342979639	
526.875	0.01628979013	0.009847472225	
527.5	-0.1376257126	0.1528481552	
528.125	0.1481393473	0.3113749639	
528.75	0.05518791368	0.03479493862	
529.375	0.04211222549	0.09388991792	
530.0	-0.04168179327	0.1145324262	
530.625	0.05958983227	0.2726141058	
531.25	0.4636842094	0.03035253409	
531.875	0.1174239453	-0.1767490218	
532.5	-0.02155893204	0.01306994422	
533.125	-0.05994514817	-0.05698824716	
533.75	0.154567397	-0.113229477	
534.375	-0.1361165368	-0.3335714051	
535.0	-0.1722572695	0.01189910278	
535.625	-0.1474227957	0.05017691572	
536.25	0.01600834592	0.1100230011	
536.875	0.04744021982	-0.01792607398	
537.5	0.0873294141	-0.01717767749	
538.125	0.06488005216	-0.1079396633	
538.75	0.10313452	-0.04221745327	
539.375	-0.09692282964	-0.1943072019	
540.0	-0.1466045829	-0.05731080625	
540.625	-0.12559342	-0.05947636405	
541.25	-0.1252871635	0.0219522391	
541.875	0.004499893368	0.01459901266	
542.5	0.03872174378	-0.06117375352	
543.125	-0.1111809789	-0.02089787905	
543.75	-0.03406591989	-0.02665171435	
544.375	-0.1093774051	0.04480191579	
545.0	0.04720607021	0.01085906275	
545.625	0.02151607137	0.1155155222	
546.25	0.1252785962	-0.03241129251	
546.875	0.05779283172	0.03082962125	
547.5	0.08694053763	-0.1694514536	
548.125	-0.09258430611	-0.09489300662	
548.75	-0.0623360441	-0.1056612586	
549.375	-0.1389619488	-0.09107541963	
550.0	-0.04377799314	0.05453538311	
550.625	-0.06212490294	-0.02919277051	
551.25	-0.05275186915	0.0626615594	
551.875	-0.0548977004	0.03649510124	
552.5	-0.04237030459	0.09101613133	
553.125	-0.004203003451	0.03970947241	
553.75	0.05133576087	0.04423655275	
554.375	0.08209600719	-0.01879365248	
555.0	0.07841218526	-0.06309682079	
555.625	0.07321394477	-0.1041529759	
556.25	0.0437170035	-0.1329741131	
556.875	-0.04125321861	-0.1349959932	
557.5	-0.09146128461	-0.08920867465	
558.125	-0.1121508872	-0.03056940138	
558.75	-0.0967044609	0.01223846253	
559.375	-0.09759738809	0.01721185457	
560.0	-0.08708731367	0.08682264832	
560.625	-0.02466681265	0.08683421535	
561.25	-0.01082661722	0.1004807969	
561.875	0.06522897685	0.03108627927	
562.5	-0.01991524901	0.04280049472	
563.125	0.1040111338	0.07467373307	
563.75	0.09706528589	-0.03369343896	
564.375	0.1127807224	-0.05203202379	
565.0	0.06776227323	-0.1866012903	
565.625	-0.05309648427	-0.09150470341	
566.25	-0.09382835014	-0.1328823412	
566.875	-0.1667672991	-0.005160541289	
567.5	-0.0845166239	-0.1031477504	
568.125	-0.2083018548	-0.1834844576	
568.75	-0.1698369267	0.01924146611	
569.375	-0.2077427261	0.03463592264	
570.0	-0.1149552218	0.2714404493	
570.625	0.06306192997	0.1063291195	
571.25	-0.07702107727	0.07603435977	
571.875	0.13512791	0.06382797335	
572.5	0.0278761826	0.01660045592	
573.125	0.1628784475	-0.1732986474	
573.75	-0.07039897153	-0.1076136963	
574.375	0.1029971064	-0.02540520024	
575.0	-0.05255360221	-0.1013928616	
575.625	0.1071976656	0.01060584502	
576.25	0.06964062856	-0.1771233137	
576.875	-0.09024158771	-0.1111207949	
577.5	0.01127684455	-0.06502347712	
578.125	0.0159375038	-0.2167638894	
578.75	-0.1999580508	-0.09727143476	
579.375	0.01909246475	0.01599292681	
580.0	-0.1010559843	-0.1090805533	
580.625	0.05907733797	0.08715870574	
581.25	-0.2208158105	0.02179115721	
581.875	0.1113820247	0.1790882075	
582.5	0.00471627051	-0.006318225573	
583.125	0.0606865516	0.2224276617	
583.75	0.1020145332	-0.0908439915	
584.375	-0.05060988882	0.1158588057	
585.0	0.2105100826	0.00076423973	
585.625	0.03577059472	-0.05767731414	
586.25	0.1600731332	0.02805136385	
586.875	0.04725922176	-0.2181157428	
587.5	-0.0150883456	-0.03535326418	
588.125	0.008299632325	-0.1977719322	
588.75	-0.06440079074	-0.127777888	
589.375	0.1031518184	-0.06774717699	
590.0	-0.1076301979	-0.2129119569	
590.625	-0.1278073079	0.05736629955	
591.25	-0.1112460855	0.02111478141	
591.875	-0.08079081895	0.2021850473	
592.5	0.1300993981	-0.0651660972	
593.125	-0.1013380907	0.1534585778	
593.75	0.1325246047	0.02034917517	
594.375	0.03252233192	0.1209621272	
595.0	0.2745892825	0.09292566267	
595.625	0.07293523011	-0.04354108545	
596.25	0.1611411232	0.1240631139	
596.875	0.1757835795	-0.06616723146	
597.5	0.05848150564	0.07697925323	
598.125	0.1762712552	0.1604581131	
598.75	0.2034431164	-0.01282175781	
599.375	0.106308659	-0.02510393229	
600.0	0.1882215925	-0.1344448537	
600.625	0.1015997953	-0.2045799724	
601.25	0.00774674056	-0.106535165	
601.875	-0.04427976191	-0.1854119639	
602.5	-0.1417870897	0.07625578198	
603.125	-0.05065128075	-0.02445958331	
603.75	-0.2024140481	0.1541433991	
604.375	0.04469378946	0.0882014471	
605.0	-0.1285813909	-0.007607600058	
605.625	-0.04020182436	0.1766390952	
606.25	-0.08389485271	-0.08545694672	
606.875	-0.2643393108	0.1154255803	
607.5	-0.03689103892	0.2416295021	
608.125	-0.04919981708	0.1324944139	
608.75	0.2356017014	0.08404168406	
609.375	0.1679308022	-0.09690571587	
610.0	0.1386748532	-0.05510218048	
610.625	0.08915136742	-0.2108735955	
611.25	-0.01370930724	-0.1612941858	
611.875	-0.03965310434	-0.1154043374	
612.5	-0.2400435099	-0.04304995827	
613.125	-0.1214369623	0.1560191707	
613.75	-0.1304916211	0.04557407121	
614.375	0.1260805707	0.1896872116	
615.0	-0.001954218661	-0.08210722991	
615.625	0.02340558404	0.2189010093	
616.25	0.08635475016	0.07519909365	
616.875	-0.1500120567	0.2084303843	
617.5	-0.02553499193	0.3205265041	
618.125	-0.03841766425	0.1124043975	
618.75	-0.07364346993	0.1963931583	
619.375	0.06007806655	0.09748191982	
620.0	0.1201260956	-0.003435179273	
620.625	0.03026129747	-0.1224523698	
621.25	-0.06089626923	-0.2270810947	
621.875	-0.1899349905	0.03619246554	
622.5	-0.1807800364	0.01867251732	
623.125	-0.0412687998	0.2539865862	
623.75	0.08285162945	-0.03458098605	
624.375	0.1405889532	0.04247394135	
625.0	-0.04745643399	-0.07109177254	
625.625	0.096423609	-0.04131274477	
626.25	-0.0970276104	-0.1788567503	
626.875	-0.1248294467	0.01254286111	
627.5	-0.09304631291	-0.1118180278	
628.125	-0.1875294814	-0.04264328193	
628.75	-0.0432497576	-0.05008777779	
629.375	-0.07925330348	-0.1577605069	
630.0	-0.2245195307	-0.02028664573	
630.625	-0.1472643662	0.01753799733	
631.25	-0.1425916376	0.2236057297	
631.875	0.02268317211	0.2914648472	
632.5	0.1577675794	0.1029678793	
633.125	0.2140584143	0.07041854416	
633.75	0.2109104925	-0.2235151087	
634.375	0.008469344998	-0.0299720156	
635.0	0.0238129218	-0.2644873746	
635.625	-0.1888957474	0.04647469076	
636.25	-0.1006267128	-0.01978929063	
636.875	-0.09261267887	0.208750834	
637.5	0.07643411883	0.03246304045	
638.125	-0.1403699601	0.08453511776	
638.75	0.03944329475	0.2118862355	
639.375	-0.004078464339	0.0880173428	
640.0	0.1225709092	0.3069287076	
640.625	0.3063809828	0.02745668385	
641.25	0.150383338	-0.0222438918	
641.875	0.2154280777	-0.140434836	
642.5	-0.1170478146	-0.2695014651	
643.125	-0.0759856143	-0.02013316575	
643.75	-0.1833636718	-0.1144348904	
644.375	-0.1276987517	0.1685534064	
645.0	-0.1423766387	-0.06755091532	
645.625	0.118755372	0.3088501255	
646.25	0.1686119339	-0.09485908326	
646.875	0.00368062722	0.1990017506	
647.5	0.1889347514	-0.132179985	
648.125	-0.02918126826	0.15705547	
648.75	0.4254150338	-0.1057507877	
649.375	0.006037380329	-0.3085040655	
650.0	0.1497802666	-0.1314572331	
650.625	0.2841168144	-0.4037414787	
651.25	-0.04334120403	-0.2693085478	
651.875	0.2512300005	-0.006459215307	
652.5	0.3531435585	-0.2434531796	
653.125	0.04929165197	-0.1547078522	
653.75	0.2504500653	-0.1384488912	
654.375	-0.1609023765	-0.3993568832	
655.0	-0.226216816	0.1013702249	
655.625	-0.1369503652	-0.01333576318	
656.25	0.02966639063	0.3432976347	
656.875	0.05121333665	-0.1163204533	
657.5	0.02554892202	0.2325166049	
658.125	0.251164585	-0.05324992578	
658.75	0.104752223	0.1285000528	
659.375	0.451916017	-0.2024437379	
660.0	-0.09520044674	-0.2801413836	
660.625	0.1953578007	-0.1482842736	
661.25	0.1944974811	-0.3852409983	
661.875	0.0311229561	-0.3114838045	
662.5	0.182206663	-0.02629020987	
663.125	0.3218507235	-0.3111780275	
663.75	-0.02189468218	-0.2520357687	
664.375	0.0392311227	-0.266838948	
665.0	-0.385892647	-0.1622490953	
665.625	-0.1420175506	0.1090720774	
666.25	-0.1570839644	0.2319935163	
666.875	0.2198201724	0.2218205892	
667.5	0.1225725855	-0.02099425986	
668.125	0.2259674077	0.135170051	
668.75	0.1767884949	-0.2937758916	
669.375	-0.02167411319	-0.1160070833	
670.0	0.1065437769	-0.2108930298	
670.625	-0.2407524921	-0.238665821	
671.25	0.1133291519	0.02025491266	
671.875	0.1820883951	-0.2671035122	
672.5	0.01834458824	-0.1603129333	
673.125	0.2596090709	-0.03864512508	
673.75	0.1580066914	-0.3646400464	
674.375	-0.09253273728	-0.1204437586	
675.0	0.003898266195	-0.1955530215	
675.625	-0.2867962366	-0.132421286	
676.25	-0.1281687378	0.1242545636	
676.875	-0.1228649065	-0.1081144949	
677.5	-0.1857117013	0.1632930887	
678.125	-0.04072328027	0.06526635691	
678.75	-0.02875140362	0.260732701	
679.375	0.2990734809	-0.04538558872	
680.0	-0.0083867309	-0.04665318107	
680.625	0.2267576532	-0.02875614086	
681.25	0.01736068276	-0.2199829223	
681.875	-0.04565742616	0.1935177362	
682.5	0.4854497232	0.08391871962	
683.125	0.1459411323	-0.1903003582	
683.75	0.2351339352	0.3142742267	
684.375	0.4452162336	-0.01481861867	
685.0	0.1193223072	-0.1938547995	
685.625	0.2947873093	0.2119747192	
686.25	0.1896583002	-0.2444560927	
686.875	0.1477422342	-0.07859434946	
687.5	0.3246768291	-0.2776110136	
688.125	-0.2861530654	-0.3971487515	
688.75	-0.2646557089	-0.1195136763	
689.375	-0.3490879285	0.3247279389	
690.0	0.2620862187	0.3262354164	
690.625	0.1701641874	0.04748883457	
691.25	0.3121914266	0.4238070663	
691.875	0.5903651594	-0.02316169461	
692.5	0.3142374974	0.1597798676	
693.125	0.7633494713	0.03736829854	
693.75	0.3571059653	-0.5163445415	
694.375	0.5156744766	-0.0927457501	
695.0	0.5297614691	-0.4402061548	
695.625	0.2100900314	-0.2505367838	
696.25	0.6060809539	0.3232957268	
696.875	0.6750772346	0.3213793125	
697.5	0.2339473661	0.4371382971	
698.125	0.5712460938	0.1432605708	
698.75	0.2725022529	-0.3789830993	
699.375	-0.4833880936	-0.2348129749	
700.0	-0.2084060773	0.1997708602	
700.625	0.2765602418	0.3278858129	
701.25	0.3026496738	0.002422570192	
701.875	0.1644356383	0.2621088572	
702.5	0.4821881436	0.1546496582	
703.125	0.2599218002	-0.03649535386	
703.75	0.3897136933	0.005459468078	
704.375	0.3016429892	-0.3160171543	
705.0	0.07030522153	-0.06066784136	
705.625	0.3213469035	0.1364816786	
706.25	0.3670480873	-0.01033515183	
706.875	0.133544956	0.2491594704	
707.5	0.3413988613	0.2788106284	
708.125	0.3794403852	-0.1011966418	
708.75	0.2624722759	-0.2475091172	
709.375	-0.2181887569	-0.105258097	
710.0	-0.09235838179	0.2373351498	
710.625	0.1732206584	-0.120101674	
711.25	0.128287962	0.175847971	
711.875	0.1679086728	-0.1007651887	
712.5	0.1733430074	0.09418360786	
713.125	0.2926203234	-0.2469151682	
713.75	-0.0370367767	-0.2483190493	
714.375	0.1216351256	-0.1591863829	
715.0	-0.123024154	-0.2637338454	
715.625	-0.02429160692	-0.08559317806	
716.25	0.2564543251	-0.2344248265	
716.875	0.1927328578	-0.3649951308	
717.5	0.2842254075	0.003121058671	
718.125	0.732164764	0.0154948077	
718.75	0.6228274592	-0.4404477	
719.375	0.4741038986	-0.3529281163	
720.0	0.4611870922	-1.02772677	
720.625	-0.211563318	-0.6807789942	
721.25	-0.1134878638	-0.3400282633	
721.875	-0.3479098302	-0.9184342038	
722.5	-1.012723863	-0.3093735438	
723.125	-0.2031581775	-0.194702507	
723.75	-0.415472044	0.6481345115	
724.375	0.3213741136	0.294424635	
725.0	-0.1133004507	0.2765040523	
725.625	0.3421901758	0.5916872192	
726.25	0.2467153119	0.2428094088	
726.875	-0.2844726375	0.7667453483	
727.5	0.1748603981	1.477852718	
728.125	0.7265051364	1.193304281	
728.75	-0.693740819	1.856652049	
729.375	0.5453642121	4.103864462	
730.0	1.242401973	2.034110627	
730.625	-1.226345087	3.859474542	
731.25	1.336624857	4.016470526	
731.875	-0.1052309194	1.394558518	
732.5	-2.829472104	0.8406573129	
733.125	-1.93582851	1.282080933	
733.75	0.03986997533	0.9845506848	
734.375	0.5867071228	0.8547089566	
735.0	-0.5336719396	-0.8252295334	
735.625	0.05915099066	-0.02258148288	
736.25	-0.270164341	0.6005679762	
736.875	0.8889538323	0.08872883459	
737.5	0.1406442767	0.3243181495	
738.125	1.943210349	-0.4287065516	
738.75	0.5745893019	-1.944622896	
739.375	0.9527999702	-0.02220731015	
740.0	4.702817018	-1.021255809	
740.625	1.928109626	-3.319032881	
741.25	-3.090655893	0.6014661188	
741.875	-3.41471239	1.693429376	
742.5	-1.519453244	0.765968269	
743.125	0.8497582032	-1.773456299	
743.75	-0.7337607223	-1.205139101	
744.375	-0.2061785223	0.2530541892	
745.0	-0.07330894457	0.1128382815	
745.625	0.008961709958	-0.09361822881	
746.25	0.1141413869	-0.1149027247	
746.875	-0.2482367501	0.04849417688	
747.5	0.09589765488	0.2477389247	
748.125	-0.02851074299	0.32667093	
748.75	0.3147065485	0.4798252992	
749.375	0.2512707744	0.2322313162	
750.0	-0.3337713941	0.0995855178	
