!Created with skrf (http://scikit-rf.org).
# GHz S RI R (50+0j) 
!freq	ReS11	ImS11	
500.0	0.2452301338	-1.1849184	
500.625	-0.1105152649	-0.7287162677	
501.25	0.1684856024	-0.637477866	
501.875	-0.4077902923	-0.4645573926	
502.5	-0.01832402801	-0.05178290231	
503.125	-0.08413762257	-0.01959464768	
503.75	0.05069804335	0.05744822157	
504.375	0.02537449365	0.03596554699	
505.0	0.01417923858	-0.05086721685	
505.625	-0.0007463156404	0.004773101413	
506.25	-0.06420124619	-0.1285766261	
506.875	0.09671933483	0.1089403416	
507.5	0.1448053419	-0.4560875103	
508.125	-0.2208014434	-0.6153082307	
508.75	0.3719856836	-0.3222419452	
509.375	0.04669504202	-1.155466625	
510.0	-0.4766149989	-0.1194904062	
510.625	-0.004664472495	-0.08355705097	
511.25	-0.1588203722	-0.1151907569	
511.875	-0.06216316415	0.007945202478	
512.5	-0.02281998669	0.02151197251	
513.125	-0.02060992458	-0.0890326947	
513.75	-0.02621498686	0.006831229793	
514.375	-0.03587744244	-0.07306329888	
515.0	-0.1080053958	0.1286765665	
515.625	0.3679116165	-0.9348485381	
516.25	-0.6326518422	-0.2899081505	
516.875	-0.0139591159	-0.09377218338	
517.5	0.03035968469	-0.2293621946	
518.125	-0.0215586599	0.03352964292	
518.75	-0.05487690475	-0.2040981556	
519.375	-0.04294256336	0.05466661029	
520.0	0.05720016274	0.01037997385	
520.625	0.150436112	-0.01323468991	
521.25	-0.05658367106	-0.2237216919	
521.875	-0.07318243984	0.05702990564	
522.5	-0.0534060215	-0.0424659136	
523.125	-0.06865723068	0.1080373993	
523.75	0.0149784764	-0.05606462069	
524.375	-0.2822054968	0.01184717202	
525.0	0.09474841841	0.09719433916	
525.625	-0.05412848034	0.0285045839	
526.25	0.06977027186	-0.04089203425	
526.875	-0.1177670817	0.03849065492	
527.5	0.04761768315	0.2245791673	
528.125	0.04102428331	0.075879727	
528.75	0.009653545495	0.2470484184	
529.375	0.08941364772	0.02539732097	
530.0	0.02479532193	0.1113543639	
530.625	0.1717304925	0.3043619367	
531.25	0.4215253938	0.01842583076	
531.875	0.2383945308	-0.06401536257	
532.5	-0.09603500675	-0.1690476173	
533.125	0.1483733958	0.05505600929	
533.75	0.1559968704	-0.3089541033	
534.375	-0.07416420996	-0.1247017519	
535.0	-0.1899896059	-0.1766454459	
535.625	-0.1541640071	0.1617085386	
536.25	0.01819021244	0.04366482994	
536.875	0.09338743307	0.0457521628	
537.5	0.0441866809	-0.07297873723	
538.125	0.07888352747	0.008671417499	
538.75	0.1266586976	-0.1505068608	
539.375	-0.0777454226	-0.07982740913	
540.0	-0.08116544517	-0.1630398795	
540.625	-0.2092692987	-0.0160342514	
541.25	-0.08235309395	0.04927772495	
541.875	-0.03480003833	-0.0671582733	
542.5	-0.1007281143	-0.06048993046	
543.125	-0.01780332205	-0.06584572581	
543.75	-0.1530910313	-0.09541772527	
544.375	0.01379472388	0.04100424428	
545.0	-0.04354068796	0.07880142018	
545.625	0.1013253548	0.02283219951	
546.25	0.01087404831	0.03861180555	
546.875	0.1622382103	-0.04009313666	
547.5	0.001194724754	-0.09489831015	
548.125	0.008852413361	-0.1351433058	
548.75	-0.1560815418	-0.1429458881	
549.375	-0.09324032317	-0.000903982781	
550.0	-0.0734704882	-0.03763007401	
550.625	-0.045009169	0.05271113332	
551.25	-0.05218713289	-0.004145654425	
551.875	-0.0804508801	0.08384281589	
552.5	-0.007858519863	0.0570079773	
553.125	-0.02745231887	0.05900238173	
553.75	0.05806375625	0.03795126868	
554.375	0.07627134574	-9.830892734e-05	
555.0	0.09019496197	-0.07040048273	
555.625	0.06665691984	-0.1017664517	
556.25	0.05441267748	-0.1203029216	
556.875	-0.03372058666	-0.1426700752	
557.5	-0.09513216591	-0.08766103526	
558.125	-0.1047895367	-0.02476223503	
558.75	-0.09731352402	-0.003528076437	
559.375	-0.1054881244	0.02865152585	
560.0	-0.07425641872	0.06788260493	
560.625	-0.05876613714	0.09600439563	
561.25	0.02812173068	0.1090628993	
561.875	0.008593606394	0.01856822493	
562.5	0.03295642252	0.07457729061	
563.125	0.04375296101	0.03054889992	
563.75	0.1330021642	0.03876554851	
564.375	0.1206187559	-0.1280331131	
565.0	0.03234491418	-0.1008490908	
565.625	0.01076891957	-0.1602807991	
566.25	-0.1758871341	-0.07583687506	
566.875	-0.0744017169	-0.06570674815	
567.5	-0.1604379374	-0.1358229125	
568.125	-0.164781468	-0.03332557193	
568.75	-0.1747576589	-0.1167535271	
569.375	-0.264237465	0.2025774418	
570.0	-0.01412544075	0.1442901802	
570.625	-0.1384798772	0.1307308418	
571.25	0.06893518227	0.1725979936	
571.875	-0.0266386607	0.01044907821	
572.5	0.1848861627	0.02576080465	
573.125	-0.02636739921	-0.1439826328	
573.75	0.07251375979	-0.02280535301	
574.375	-0.005068844141	-0.1616236354	
575.0	-0.004096654796	0.04572331902	
575.625	0.08316861652	-0.1424649251	
576.25	-0.04909861889	-0.09841878031	
576.875	0.03968222934	-0.06582013494	
577.5	0.01280677839	-0.2159807128	
578.125	-0.1366157206	-0.1142643679	
578.75	0.00574168512	-0.04656059014	
579.375	-0.1071286535	-0.1481164724	
580.0	-0.08209442812	0.08802854434	
580.625	-0.06529368266	-0.1799981819	
581.25	-0.0691069258	0.1808113454	
581.875	-0.02792562319	-0.03274323945	
582.5	-0.03090216087	0.2068160224	
583.125	0.1767792655	0.05771263498	
583.75	-0.05964602749	-0.007613783462	
584.375	0.1522632408	0.07386697354	
585.0	0.04022549274	-0.02431997339	
585.625	0.150727886	0.08881383288	
586.25	0.1718575516	-0.140827468	
586.875	0.02456849244	-0.03081673789	
587.5	0.05195095535	-0.1675799874	
588.125	-0.1013755818	-0.1418297057	
588.75	0.04310945319	-0.043050013	
589.375	0.107242406	-0.2061178222	
590.0	-0.1310769328	-0.1032144792	
590.625	-0.09893621176	-0.07754155258	
591.25	-0.1941680224	0.1501502	
591.875	0.110872532	0.07610751298	
592.5	-0.08564010807	0.02710346455	
593.125	0.05949549656	0.06640795156	
593.75	-0.03786731418	0.08026738642	
594.375	0.2801523446	0.09661612898	
595.0	0.134587835	-0.02856343983	
595.625	0.0859269996	0.1159644999	
596.25	0.2123851063	0.007803037018	
596.875	0.06617112203	-0.009804117837	
597.5	0.1220197916	0.1457437943	
598.125	0.2077230225	0.05106724553	
598.75	0.0892276785	0.04456200504	
599.375	0.2217726995	-0.05739205513	
600.0	0.1256971993	-0.1983873188	
600.625	0.05823784318	-0.1145263652	
601.25	0.119884876	-0.1742583364	
601.875	-0.1589074535	-0.1358955404	
602.5	-0.02743317818	0.004275986479	
603.125	-0.1849283165	0.03205682079	
603.75	0.0278395856	0.1187806741	
604.375	-0.09522708439	-0.02458187779	
605.0	-0.08075058381	0.1982711745	
605.625	0.04796372388	0.0004972225678	
606.25	-0.202182331	0.07343745959	
606.875	-0.1145898869	0.184449906	
607.5	-0.2095773746	0.1140988362	
608.125	-0.0605328223	0.2676743086	
608.75	0.1915558947	0.113220329	
609.375	0.1446246643	-0.004624673204	
610.0	0.1687744978	-0.1160538981	
610.625	-0.003856751714	-0.1780092409	
611.25	0.0103657712	-0.08024969116	
611.875	-0.1458576535	-0.1902474823	
612.5	-0.1873798734	0.05271063542	
613.125	-0.1493121869	-0.06054664113	
613.75	-0.1207406065	0.2271666087	
614.375	0.1181243766	-0.01059183464	
615.0	-0.03211685202	0.1551719869	
615.625	0.1145734075	0.04536127704	
616.25	-0.1010208545	0.04007449959	
616.875	-0.04007241742	0.2660439106	
617.5	-0.01995319178	0.1163636985	
618.125	-0.1078796376	0.1474486543	
618.75	0.0541433701	0.2530180344	
619.375	0.09694071367	0.1438666857	
620.0	0.1357544154	-0.04190703461	
620.625	0.113740897	-0.1975242845	
621.25	-0.09199392095	-0.07534203178	
621.875	-0.12676262	-0.1073773586	
622.5	-0.2910594185	0.04682066966	
623.125	0.05984852649	0.1257433574	
623.75	0.06427315302	0.107746232	
624.375	0.07371645029	-0.1394555396	
625.0	0.01718593266	0.05503270313	
625.625	0.07815206731	-0.1492544212	
626.25	-0.1018830138	-0.05344139095	
626.875	-0.05641466495	-0.1154634599	
627.5	-0.2129557786	-0.04249484912	
628.125	-0.09302706538	-0.01441738005	
628.75	-0.0173993489	-0.1623990219	
629.375	-0.1682419147	-0.1394613193	
630.0	-0.1168724566	-0.05526442176	
630.625	-0.1374507891	0.004354474647	
631.25	-0.1156020788	0.2260400029	
631.875	0.05778419445	0.1798010828	
632.5	0.1015714249	0.2384201765	
633.125	0.3374738036	0.03421806568	
633.75	0.07908889119	-0.06124461994	
634.375	0.1245778177	-0.1415740549	
635.0	-0.1442139613	-0.1600393684	
635.625	-0.02452293383	-0.08203803338	
636.25	-0.2471078702	0.08081060237	
636.875	0.03139028524	0.1442788848	
637.5	-0.07592076406	0.008127210915	
638.125	-0.05501193371	0.1806245258	
638.75	0.0276935758	0.05800224904	
639.375	-0.0882730959	0.2602621196	
640.0	0.2349691355	0.2244372736	
640.625	0.1434396664	0.04731112415	
641.25	0.246940724	0.08729119708	
641.875	0.1399358337	-0.2582565758	
642.5	-0.08435007695	-0.1129190484	
643.125	-0.07530082198	-0.1998632865	
643.75	-0.3394314042	-0.01940992821	
644.375	-0.03107829746	-0.04121634884	
645.0	-0.2555808146	0.1967902099	
645.625	0.1841111822	0.1459158314	
646.25	-0.07731571828	0.05827265116	
646.875	0.2492219233	0.02246555549	
647.5	-0.09392500893	-0.03087633875	
648.125	0.2772295634	0.1608733194	
648.75	0.1744750603	-0.2298148918	
649.375	0.1321112528	-0.0856291747	
650.0	0.2908914724	-0.3227781389	
650.625	-0.03423240519	-0.3857519614	
651.25	0.1341618939	-0.05006598736	
651.875	0.3833329417	-0.1991609443	
652.5	0.1597997881	-0.2268315914	
653.125	0.1837691077	0.04415027452	
653.75	0.2792901757	-0.2953343627	
654.375	-0.1724515684	-0.217676809	
655.0	-0.146606605	-0.1470187465	
655.625	-0.3598123937	0.2084414233	
656.25	0.1903111176	0.1084406182	
656.875	-0.1173962469	0.07845384454	
657.5	0.1932771331	0.1306660912	
658.125	0.005882255344	0.05900585827	
658.75	0.3511025894	0.194501726	
659.375	0.1858881658	-0.3622737635	
660.0	0.1278817479	-0.123294371	
660.625	0.2348445431	-0.3213334246	
661.25	0.04746553478	-0.3828608359	
661.875	0.1067490485	-0.06523642443	
662.5	0.3583391636	-0.1974425112	
663.125	0.1402221393	-0.2785626734	
663.75	0.1350133551	-0.1469496126	
664.375	-0.03423899914	-0.4387963084	
665.0	-0.2773519877	-0.06549585548	
665.625	-0.231460517	-0.009978940844	
666.25	-0.157275073	0.3175525218	
666.875	0.1960815075	0.128069525	
667.5	0.06740860487	0.1238472966	
668.125	0.3392753856	-0.05138703561	
668.75	0.02806699116	-0.1492917982	
669.375	0.2012437838	-0.1101833076	
670.0	-0.04934391887	-0.3394176341	
670.625	-0.02060775081	0.04117172469	
671.25	0.1524285261	-0.1941889191	
671.875	-0.01055156754	-0.2305130844	
672.5	0.0969605691	-0.03867325262	
673.125	0.3264923621	-0.1901626784	
673.75	0.01270717948	-0.266675461	
674.375	0.06210028529	-0.134666049	
675.0	-0.04265639192	-0.2909487692	
675.625	-0.2617858637	-0.00587525848	
676.25	-0.0375702736	-0.09356876769	
676.875	-0.2508711567	0.0005235078819	
677.5	-0.0548812383	0.1043285014	
678.125	-0.1619760042	0.02384086504	
678.75	0.06455590177	0.3254567009	
679.375	0.1686754145	-0.1315656906	
680.0	0.102058268	0.07680851966	
680.625	0.1540380408	-0.1807255075	
681.25	-0.1446147496	-0.005051014602	
681.875	0.3745346167	0.2201815105	
682.5	0.2420957997	-0.1175367358	
683.125	0.04030024966	0.1216423614	
683.75	0.443349074	0.1631924387	
684.375	0.3219495165	-0.1725235289	
685.0	0.1557052055	0.2779591436	
685.625	0.428048014	-0.0241418538	
686.25	0.1972890703	-0.1553742382	
686.875	0.2022957998	0.0118515142	
687.5	0.1694314976	-0.4339043621	
688.125	-0.1517688366	-0.2315078346	
688.75	-0.2674555658	-0.2824451484	
689.375	-0.3430683281	0.4041243467	
690.0	0.209005984	0.2128333443	
690.625	0.0471980742	0.3252033652	
691.25	0.4754796487	0.2103945072	
691.875	0.233333781	0.08317747094	
692.5	0.5427471116	0.4212687266	
693.125	0.7056339429	-0.3000840959	
693.75	0.2619942945	-0.1393877342	
694.375	0.5881026404	-0.3841572644	
695.0	0.3945961761	-0.4439843389	
695.625	0.354634892	0.1316865561	
696.25	0.5955876989	0.3095772983	
696.875	0.4836480372	0.1448827761	
697.5	0.3588861511	0.4559320175	
698.125	0.5164639042	0.2674103223	
698.75	0.3578752419	-0.5360553017	
699.375	-0.2049777824	-0.1627213385	
700.0	-0.4322081726	0.3095889848	
700.625	0.2584232439	0.3739009332	
701.25	0.06004211987	0.1241059511	
701.875	0.3486008959	0.3373108869	
702.5	0.3353193052	0.01459415934	
703.125	0.2452398759	0.1979759053	
703.75	0.4690598827	-0.1279787757	
704.375	0.1330894616	-0.2984637588	
705.0	0.2411998718	0.01578924509	
705.625	0.398195851	-0.04091025076	
706.25	0.1509026194	0.1937962949	
706.875	0.1412195827	0.3564178067	
707.5	0.4107784558	0.3432244631	
708.125	0.2628416012	0.02672356761	
708.75	0.1340419658	-0.2993949397	
709.375	-0.2880182935	-0.2508257034	
710.0	-0.03731822414	0.1801292649	
710.625	-0.08820964905	-0.001724407331	
711.25	0.2910342904	0.1793311199	
711.875	0.0652006371	0.08893664678	
712.5	0.3726222714	0.01271577466	
713.125	0.1737763248	-0.2674125637	
713.75	0.08923712737	-0.08093536134	
714.375	0.06196957422	-0.3174054681	
715.0	-0.1296243947	-0.134405435	
715.625	0.08891385809	-0.1151051049	
716.25	0.1785880925	-0.3519688063	
716.875	0.2020684736	-0.2181740118	
717.5	0.44089705	0.1160857211	
718.125	0.7958410514	-0.06551430183	
718.75	0.4467349271	-0.2563509247	
719.375	0.6526845529	-0.1664820573	
720.0	0.7402829946	-1.024157353	
720.625	0.007227009153	-0.6143986548	
721.25	0.2771245292	-0.7552081744	
721.875	-0.4664121165	-1.397358835	
722.5	-0.4548534717	-0.269977183	
723.125	-0.7674474079	-0.3285251472	
723.75	-0.2768802762	0.6066333378	
724.375	0.08924473131	0.1667486525	
725.0	0.05870842884	0.5068260386	
725.625	0.3970158513	0.2748934055	
726.25	-0.1346304218	0.3896361063	
726.875	-0.1427614149	1.008929047	
727.5	0.3118064818	1.27131738	
728.125	-0.1111374499	1.007548403	
728.75	-0.5775646108	2.905701354	
729.375	0.6984149588	3.222341586	
730.0	-0.09866344635	1.7478288	
730.625	-1.013127844	4.315165913	
731.25	0.8231962185	2.810812336	
731.875	-1.349846677	0.6699328992	
732.5	-3.609956623	1.213873631	
733.125	-1.770505398	1.933891383	
733.75	-0.6925450714	0.4168798494	
734.375	1.16351661	0.7055854417	
735.0	-0.44834383	-0.3252501078	
735.625	-0.2944874727	-0.1484029286	
736.25	-0.04790415097	0.7661090767	
736.875	0.4070370874	-0.09731885627	
737.5	0.7792857866	0.7555372055	
738.125	1.569587343	-0.989188185	
738.75	0.4744298665	-1.030195111	
739.375	1.923612353	0.3564792545	
740.0	3.717322776	-3.175893314	
740.625	-1.130051803	-1.8872889	
741.25	-1.933671632	2.825049949	
741.875	-1.522610589	3.867923601	
742.5	0.7345010774	-0.1894773618	
743.125	1.164396787	-2.362293863	
743.75	-0.4567719126	-1.056198931	
744.375	-0.1286296585	-0.07943414004	
745.0	-0.01488783601	0.2506054731	
745.625	-0.1323263085	-0.053976021	
746.25	0.0425648363	-0.1664586365	
746.875	-0.2241341456	0.0864829765	
747.5	-0.02062918961	0.1531437202	
748.125	0.008992262889	0.4723349912	
748.75	0.4438446016	0.3239369561	
749.375	0.09972140413	0.2578189531	
750.0	-0.4311015676	0.1449400162	
