!Created with skrf (http://scikit-rf.org).
# GHz S RI R (50+0j) 
!freq	ReS11	ImS11	
500.0	-0.06235919886	-0.4187425695	
500.625	0.4752661028	-0.891082547	
501.25	-0.5102246566	-0.2483798727	
501.875	0.03324505092	-0.3518328729	
502.5	-0.09558622899	-0.1335043622	
503.125	-0.02516218296	0.01645366643	
503.75	-0.04204157282	0.09662701834	
504.375	0.03373011351	-0.02850357772	
505.0	0.01108480348	0.009280520132	
505.625	-0.01740848922	-0.0829183803	
506.25	-0.02832227017	0.03354868804	
506.875	-0.2739893566	-0.08255080218	
507.5	-0.1186507528	0.03577487469	
508.125	0.412769502	-0.5015691352	
508.75	0.1450838067	-1.165308584	
509.375	-0.4721088441	-0.5184664376	
510.0	-0.0942457928	-0.4465415911	
510.625	-0.2525478413	-0.2488493632	
511.25	-0.04419430503	0.0001206133573	
511.875	-0.1244367727	-0.07823351782	
512.5	0.006433411595	0.03783335506	
513.125	0.01625813674	-0.02670556023	
513.75	-0.08108436983	-0.07605426652	
514.375	-0.01484444424	0.0704256497	
515.0	0.04417133522	-0.3154480804	
515.625	-0.1943113922	0.05118470898	
516.25	0.2788515762	-1.249714005	
516.875	-0.3806704975	-0.4919586226	
517.5	-0.07207282455	0.005660825241	
518.125	-0.02073179429	-0.08464951261	
518.75	-0.0783204254	0.001766980939	
519.375	-0.05451977955	0.00200727961	
520.0	0.1167268634	0.04162505263	
520.625	0.09888990463	-0.08145400459	
521.25	-0.01698195666	-0.1505971089	
521.875	-0.153566181	-0.0903380986	
522.5	-0.04080300227	0.07520713518	
523.125	-0.101265189	-0.06716999393	
523.75	-0.1818411212	0.06130872416	
524.375	-0.01425898436	-0.03625400997	
525.0	-0.1485740915	0.1804904712	
525.625	0.1211391996	-0.003644895454	
526.25	-0.08544255339	0.02227716947	
526.875	0.02442620673	0.05155574227	
527.5	-0.1073316725	0.1393481512	
528.125	0.1032233025	0.2723926952	
528.75	0.03422117851	0.1228241018	
529.375	-0.02018222662	0.09750362775	
530.0	0.1352050826	0.04284650052	
530.625	0.1714099386	0.2050118116	
531.25	0.4590115511	0.06928730354	
531.875	0.0415133733	-0.2086288879	
532.5	0.04013875714	-0.02737653643	
533.125	0.02235658651	-0.1654380236	
533.75	0.1135044808	-0.02443782114	
534.375	-0.101751454	-0.3411006672	
535.0	-0.2140329687	0.008283009813	
535.625	-0.141817988	0.03409853607	
536.25	0.01864254211	0.1109403478	
536.875	0.04026962965	-0.002770409422	
537.5	0.09116487469	-0.02575481551	
538.125	0.0800494106	-0.1007623461	
538.75	0.07986261862	-0.04747174566	
539.375	-0.04996019703	-0.1978488661	
540.0	-0.165684981	-0.1106161523	
540.625	-0.1233681775	0.00699990166	
541.25	-0.1135170497	-0.005247284567	
541.875	-0.0007749284887	0.03047819467	
542.5	-0.05256088828	-0.1038346339	
543.125	-0.1405489919	-0.02866673748	
543.75	-0.0261899362	-0.02123334758	
544.375	-0.08179818158	0.06986512784	
545.0	0.07018691474	0.02005183955	
545.625	-0.0005571044583	0.09955435449	
546.25	0.1540944022	-0.005838843153	
546.875	0.04983534846	-0.0036190976	
547.5	0.1100372085	-0.1388413214	
548.125	-0.1088280346	-0.1107499799	
548.75	-0.05494151398	-0.09877200996	
549.375	-0.1359225761	-0.08590181423	
550.0	-0.04818036099	0.05595521259	
550.625	-0.05428830252	-0.0309144639	
551.25	-0.07333481172	0.05927850681	
551.875	-0.05158846728	0.03110831525	
552.5	-0.05241931715	0.08218381285	
553.125	0.007753796343	0.04764679138	
553.75	0.04209575431	0.04947941121	
554.375	0.08219341039	-0.01379756747	
555.0	0.07645768039	-0.06045707264	
555.625	0.07637783093	-0.1000329434	
556.25	0.05045271841	-0.1324315817	
556.875	-0.03960565789	-0.1353600811	
557.5	-0.08892475559	-0.09191959725	
558.125	-0.110931484	-0.03066414513	
558.75	-0.09648145366	0.01015897356	
559.375	-0.09752018392	0.01734954753	
560.0	-0.08988016624	0.08544027386	
560.625	-0.02789254844	0.09067835626	
561.25	-0.0178476651	0.0894516821	
561.875	0.05603334344	0.0497411261	
562.5	-0.0131019726	0.02418877917	
563.125	0.07994763764	0.09303070194	
563.75	0.111217028	-0.03788779167	
564.375	0.1240116336	-0.05214114926	
565.0	0.06151393409	-0.1801708603	
565.625	-0.03290658114	-0.09372429265	
566.25	-0.108022851	-0.1474542826	
566.875	-0.1540638532	-0.01635778289	
567.5	-0.07514094666	-0.1014765898	
568.125	-0.1666927165	-0.1745572665	
568.75	-0.2121414694	0.04655583695	
569.375	-0.1504031356	0.03144030154	
570.0	-0.151486398	0.2229003476	
570.625	0.03801060026	0.1543986027	
571.25	-0.09086278866	0.09353775938	
571.875	0.1324980143	0.03814185993	
572.5	0.05531556544	0.05457530088	
573.125	0.1243967291	-0.1622157666	
573.75	-0.07684999242	-0.09931603975	
574.375	0.06041247888	0.01939341427	
575.0	0.02503565351	-0.1258404226	
575.625	-0.007748815129	0.004246321218	
576.25	0.1130841616	-0.1084001346	
576.875	-0.08698457813	-0.1439695156	
577.5	0.009372596594	-0.05088278816	
578.125	-0.01576375738	-0.2207096924	
578.75	-0.1940743234	-0.03965690562	
579.375	0.01512247188	-0.02126664944	
580.0	-0.1119529244	-0.08644575489	
580.625	-0.01438650041	0.05818324881	
581.25	-0.215169418	-0.05560645066	
581.875	0.07291329775	0.2382802999	
582.5	0.09059865962	0.03093054749	
583.125	-0.00885978801	0.1453497262	
583.75	0.1379100423	-0.04500421245	
584.375	-0.0601468481	0.09267897356	
585.0	0.1916736804	0.03859769049	
585.625	0.05145459491	-0.05149124574	
586.25	0.1763878391	0.02855199204	
586.875	0.06922176949	-0.2136933268	
587.5	-0.04962879476	-0.04693632002	
588.125	0.04624033439	-0.1511976956	
588.75	-0.03993431749	-0.1793106194	
589.375	0.04674779751	-0.04713063563	
590.0	-0.05978456751	-0.242727293	
590.625	-0.158344993	0.07980432971	
591.25	-0.08989820354	-0.0007141058084	
591.875	-0.102171559	0.2128858017	
592.5	0.1227013151	0.003248784956	
593.125	-0.1425282574	0.1602395008	
593.75	0.1353124623	0.01515900452	
594.375	0.043569944	0.09076054603	
595.0	0.2205240821	0.1328015461	
595.625	0.06868663585	-0.03035978176	
596.25	0.1430377052	0.1134139026	
596.875	0.1612243003	-0.06444601078	
597.5	0.07858115315	0.01325310883	
598.125	0.1150741794	0.1635996661	
598.75	0.1971454648	0.03505333145	
599.375	0.1147902797	-0.06931059757	
600.0	0.184647982	-0.08704927056	
600.625	0.1061370224	-0.2284847298	
601.25	-0.001656676405	-0.1108652994	
601.875	-0.05412117525	-0.1932649411	
602.5	-0.1314424327	0.07257446542	
603.125	-0.03986635732	-0.03781988159	
603.75	-0.1830035554	0.08989948099	
604.375	0.08877855904	0.08605567756	
605.0	-0.08026750706	-0.03660692744	
605.625	-0.13059571	0.1201643492	
606.25	-0.01569768914	0.04502043061	
606.875	-0.2162192401	0.1075003144	
607.5	-0.09456735833	0.2639587251	
608.125	-0.04195688495	0.1275660288	
608.75	0.2125074596	0.2154099601	
609.375	0.180548097	0.01317622337	
610.0	0.1061793439	-0.04048265906	
610.625	0.1574795364	-0.19402023	
611.25	-0.09637926483	-0.1679179941	
611.875	-0.03006697506	-0.03095762553	
612.5	-0.2142138293	-0.1272523183	
613.125	-0.1266781504	0.1588961569	
613.75	-0.1347190103	0.01438420056	
614.375	0.09294618256	0.1923041858	
615.0	-0.04099197716	-0.05841448043	
615.625	-0.007635404199	0.212682618	
616.25	0.06609260025	0.06831645713	
616.875	-0.1241744824	0.0735021091	
617.5	-0.06325976686	0.2340530237	
618.125	0.08987012553	0.1886072577	
618.75	0.03859299013	0.1623310471	
619.375	0.1354937442	0.2213991827	
620.0	0.142646005	-0.0311019117	
620.625	0.1428641539	-0.1007953169	
621.25	-0.08399053052	-0.2302853484	
621.875	-0.1573496236	0.002202993797	
622.5	-0.1655421802	-0.04721661745	
623.125	-0.0327210498	0.2417128632	
623.75	0.1243583687	-0.06330332733	
624.375	0.06872533972	0.03304767322	
625.0	-0.005867074506	-0.1041404294	
625.625	0.07943510614	-0.01365096141	
626.25	-0.07851145905	-0.1915293072	
626.875	-0.1227743003	0.01238237667	
627.5	-0.0904275653	-0.09721985179	
628.125	-0.1812972192	-0.04923511217	
628.75	-0.04659274777	-0.02945812499	
629.375	-0.05348642661	-0.1595402748	
630.0	-0.2223468909	-0.08885398239	
630.625	-0.1382801138	0.07221448458	
631.25	-0.1678527738	0.1591854932	
631.875	0.02671571067	0.2667156418	
632.5	0.1702119377	0.07525271775	
633.125	0.2074460257	0.1147331596	
633.75	0.159092446	-0.1441163856	
634.375	-0.009734099013	-0.001883679629	
635.0	0.01826758002	-0.203136972	
635.625	-0.1894565811	0.01860340996	
636.25	-0.06810010941	0.01294229057	
636.875	-0.1352555843	0.1656638052	
637.5	0.0727060629	0.1018087334	
638.125	-0.1331914781	0.02588805336	
638.75	0.0001390986095	0.2297555183	
639.375	-0.01342402564	0.1113498482	
640.0	0.0879265667	0.3143707814	
640.625	0.3039351944	0.06855449166	
641.25	0.1588368857	-0.05180271224	
641.875	0.2389984925	-0.1133962845	
642.5	-0.07722559291	-0.2886200982	
643.125	-0.1254357012	0.06513509786	
643.75	-0.1161940239	-0.178509108	
644.375	-0.1430210263	0.1307873521	
645.0	-0.1351253489	-0.03463852923	
645.625	0.08449246184	0.3595942111	
646.25	0.1331916002	-0.0773570597	
646.875	0.01229980448	0.1263209803	
647.5	0.2108205317	-0.1041546772	
648.125	-0.02753367296	0.06578253705	
648.75	0.4210100028	0.03330526281	
649.375	0.1287012292	-0.3672134467	
650.0	0.07195497024	-0.1277717817	
650.625	0.2709441205	-0.3005476043	
651.25	-0.02977808416	-0.3398332099	
651.875	0.2191169193	0.01463019742	
652.5	0.367807479	-0.183818511	
653.125	0.09637094472	-0.1607922835	
653.75	0.195670572	-0.02920156182	
654.375	-0.05283294686	-0.4012159222	
655.0	-0.349359745	0.1017623584	
655.625	-0.1106771534	0.04533957594	
656.25	-0.0960268405	0.3959072307	
656.875	0.1247079162	-0.1077917059	
657.5	0.0152817175	0.2116884025	
658.125	0.2546216044	0.002150815367	
658.75	0.04916963189	0.1371280061	
659.375	0.4633944543	-0.1204834451	
660.0	0.04606962592	-0.3729499201	
660.625	0.1450672158	-0.1208361545	
661.25	0.2410535789	-0.3037137347	
661.875	0.1171729305	-0.3596562563	
662.5	0.147184656	-0.07426713357	
663.125	0.3383152024	-0.2304284173	
663.75	0.002283792688	-0.247282094	
664.375	0.06283626264	-0.2560320208	
665.0	-0.3396843384	-0.2363005534	
665.625	-0.2052625641	0.1650167231	
666.25	-0.1248088936	0.1356596347	
666.875	0.1231533424	0.2852609943	
667.5	0.1917638089	-0.04625997771	
668.125	0.1690654768	0.09136208927	
668.75	0.2033035909	-0.3033162873	
669.375	-0.004758259572	-0.1090734608	
670.0	0.1113478722	-0.2260095778	
670.625	-0.1000273291	-0.2437613246	
671.25	0.1036758554	0.04627402453	
671.875	0.2351570168	-0.2306022654	
672.5	0.1129614919	-0.2107046157	
673.125	0.1273594937	-0.08827220431	
673.75	0.2698589588	-0.2406952644	
674.375	-0.09378305334	-0.2419234291	
675.0	0.03008993789	-0.2000244897	
675.625	-0.2347805457	-0.1834058998	
676.25	-0.118816814	0.0945987476	
676.875	-0.0815427327	-0.1134319836	
677.5	-0.226914992	0.1010561616	
678.125	-0.008707529165	0.1167895226	
678.75	-0.1121455317	0.143217695	
679.375	0.3318531954	0.1429877657	
680.0	-0.004451549215	-0.1557729256	
680.625	0.2156332269	0.07280603763	
681.25	0.08810616167	-0.1976930256	
681.875	-0.0511552796	0.1872887322	
682.5	0.4148869611	0.1820472803	
683.125	0.1631768018	-0.1271428412	
683.75	0.1102021679	0.1721330501	
684.375	0.4093998942	0.002790218243	
685.0	0.2495899255	-0.159904846	
685.625	0.09188170641	0.129190051	
686.25	0.3988131791	-0.1128463954	
686.875	0.157852495	-0.1401347161	
687.5	0.3053625965	-0.1379992538	
688.125	-0.1311290251	-0.5555138631	
688.75	-0.2606391579	-0.08874827071	
689.375	-0.3521248699	0.2402116171	
690.0	0.1883572688	0.4014658331	
690.625	0.1566063605	0.04346189068	
691.25	0.2173945869	0.5154703666	
691.875	0.6059558088	0.1552265805	
692.5	0.2310642406	0.2335887952	
693.125	0.7089505244	0.1415586772	
693.75	0.5582049137	-0.4389763848	
694.375	0.2908631487	-0.1192813535	
695.0	0.5297533276	-0.4327234404	
695.625	0.2770943682	-0.1482891187	
696.25	0.2818962523	0.2163542357	
696.875	0.4840733327	0.3488220775	
697.5	0.4569748883	0.1679484323	
698.125	0.6034686953	0.1010325705	
698.75	0.4801043652	-0.3588915072	
699.375	-0.4684630787	-0.3154528048	
700.0	-0.1686001983	0.2270487806	
700.625	0.1773934085	0.4185598677	
701.25	0.1939432861	0.01072476785	
701.875	0.08339039023	0.2534658384	
702.5	0.4699928476	0.2672670982	
703.125	0.2287382679	-0.05944442164	
703.75	0.3244662885	0.07425438058	
704.375	0.3385762813	-0.2702954562	
705.0	0.06496162373	-0.1755336227	
705.625	0.3208944537	0.07114401759	
706.25	0.3529139369	0.05234834181	
706.875	0.08923863635	0.1649650093	
707.5	0.3106363004	0.2337443998	
708.125	0.4165846974	0.06191075975	
708.75	0.1752672234	-0.213297218	
709.375	-0.2109364909	-0.3532273117	
710.0	-0.313412376	0.2504205143	
710.625	0.05601532002	0.01525606721	
711.25	0.05031617998	0.2703201364	
711.875	0.1623753664	-0.06890407663	
712.5	0.1776507349	0.1265107963	
713.125	0.340225203	-0.2222562099	
713.75	-0.0223729703	-0.2144382437	
714.375	0.1210756702	-0.1534092349	
715.0	-0.077365976	-0.2705459244	
715.625	-0.05040667731	-0.08380368813	
716.25	0.2042362376	-0.1461168481	
716.875	0.3362728229	-0.3182903728	
717.5	0.2115786962	-0.08700799566	
718.125	0.5053280849	0.09974165687	
718.75	0.7347777664	-0.2613950374	
719.375	0.3668099288	-0.6842066441	
720.0	0.6170072229	-0.729257759	
720.625	-0.2092397732	-0.7488640142	
721.25	0.1060954011	-0.600367623	
721.875	-0.1452048211	-1.077444297	
722.5	-0.7993899509	-0.4673064897	
723.125	-0.2632347252	-0.05338081488	
723.75	-0.6309318846	0.4143777795	
724.375	0.3281971249	0.3637	
725.0	-0.01227334415	0.216152523	
725.625	0.2364255255	0.5991788859	
726.25	0.234338791	0.3518137261	
726.875	-0.3304250811	0.6696111837	
727.5	-0.02168629718	1.469947327	
728.125	0.5338794404	1.236418587	
728.75	-0.6210799015	1.485159173	
729.375	-0.7903682337	3.942836794	
730.0	1.34241299	2.916668024	
730.625	-0.5619880815	2.456361458	
731.25	-0.5900670103	4.686679228	
731.875	-0.6105140145	1.587702485	
732.5	-2.576046675	-0.849023024	
733.125	-2.465614171	0.9154892062	
733.75	-0.1789520302	0.8989424996	
734.375	0.3953699064	0.7127150492	
735.0	-0.3533573528	-0.9592118257	
735.625	-0.06591312326	0.1286852995	
736.25	-0.3488943729	0.5500625458	
736.875	0.6840907062	0.4479139184	
737.5	0.1407568363	0.009742613921	
738.125	1.799811841	0.05755665414	
738.75	1.087905886	-1.836056379	
739.375	0.6155006848	-0.6262966053	
740.0	3.769862319	0.9633916294	
740.625	3.574696014	-2.978359714	
741.25	-1.818673593	-0.4794307361	
741.875	-5.191411379	1.701541037	
742.5	-1.780825147	-0.1878138579	
743.125	1.055892748	-0.8861719398	
743.75	-0.2874122128	-1.41945231	
744.375	-0.3533102982	0.2351633654	
745.0	-0.1319037459	0.04606773644	
745.625	0.05208613965	-0.09717005004	
746.25	0.07741416224	-0.0576605516	
746.875	-0.2899144726	0.00805806406	
747.5	0.01318135718	0.2941132687	
748.125	-0.001541308529	0.2990351458	
748.75	0.2060255596	0.4858734882	
749.375	0.2189305632	0.3475524322	
750.0	-0.3567262737	0.08405293179	
