!Created with skrf (http://scikit-rf.org).
# GHz S MA R 50.0 
!freq magS11 angS11
500.0 0.017443129548 -173.686908963
500.625 0.00788339724638 165.166414324
501.25 0.0138443908377 -40.2825374602
501.875 0.0624117113163 -175.638023479
502.5 0.0292901593726 163.255548496
503.125 0.0162012903608 71.7104632903
503.75 0.00426442104263 119.472990809
504.375 0.00197685514736 -35.0713621509
505.0 0.0175661020297 -55.526168687
505.625 0.0266179327173 -70.6876803593
506.25 0.0514905379072 -102.478833166
506.875 0.0580454128746 -103.234254841
507.5 0.0424159461078 -132.457440699
508.125 0.0703007248631 -80.9172413497
508.75 0.0551066633139 -166.283425297
509.375 0.0453664404144 -159.64873505
510.0 0.0283995352807 -147.905292715
510.625 0.0496152828603 -155.856722289
511.25 0.044480667861 175.37916179
511.875 0.0523342966707 150.04703791
512.5 0.0444499290299 109.994887161
513.125 0.0546640574892 51.5216589845
513.75 0.0489170064326 6.92639855554
514.375 0.0337167291952 16.0409973956
515.0 0.051991492928 9.35411542087
515.625 0.103352312675 54.6275766791
516.25 0.0663322053155 21.3949935124
516.875 0.0920268211577 69.6862428559
517.5 0.110605860243 17.4799208547
518.125 0.220433616422 74.1380358102
518.75 0.0820849034925 10.5948712607
519.375 0.0750727930392 25.3591238299
520.0 0.0959871277047 -1.23884921783
520.625 0.111677654025 0.525952105983
521.25 0.0822711911831 -24.5905438298
521.875 0.0580534714967 -1.46325343059
522.5 0.0915864307315 -32.5668727177
523.125 0.194554637194 -31.4823359575
523.75 0.198130634252 -69.2512325319
524.375 0.191716798994 -58.0349398496
525.0 0.0681239957272 -45.3670195262
525.625 0.0390863220775 -38.3773111084
526.25 0.0440645231183 -10.1503184707
526.875 0.0602507222481 -21.7408573
527.5 0.0468949900233 -28.6891018093
528.125 0.0470661225936 -55.5953834069
528.75 0.0569329423224 -75.6239295569
529.375 0.0963704213105 -107.284447284
530.0 0.0590129354388 -127.945559503
530.625 0.0179900298134 -120.153268908
531.25 0.107757396141 -131.360361511
531.875 0.179846336255 -148.99730115
532.5 0.148516200824 -170.058354569
533.125 0.107605193533 176.656503764
533.75 0.114378683098 168.969849519
534.375 0.119541058773 -179.419184178
535.0 0.0864744105539 162.11692404
535.625 0.0730250166422 177.286768018
536.25 0.0586805952519 163.706873871
536.875 0.0706801752879 -165.164077404
537.5 0.107778519829 -147.159515787
538.125 0.0818293979965 -174.796090929
538.75 0.101327417903 178.885541858
539.375 0.0779965916416 -165.4907233
540.0 0.0913134685071 -156.064914881
540.625 0.106209594172 -153.647381041
541.25 0.118406990537 -141.394425332
541.875 0.0905945741637 -144.195819155
542.5 0.118695923877 -147.008371142
543.125 0.127905620912 -169.315115459
543.75 0.125071826152 158.096859041
544.375 0.100414770895 135.388778611
545.0 0.0879524830605 90.2760032704
545.625 0.109322066388 81.8976765471
546.25 0.0754080021793 65.2867749384
546.875 0.079084231231 54.5186521866
547.5 0.111113808982 58.3130596324
548.125 0.0989473451847 75.6133030233
548.75 0.085460308496 90.6175627445
549.375 0.105128586422 87.1557695533
550.0 0.0864971017035 126.098564835
550.625 0.0572172431876 153.747147867
551.25 0.034660788103 -127.724008886
551.875 0.0679208081706 -165.895267638
552.5 0.112001917479 -164.650067691
553.125 0.0914289999419 -168.257762478
553.75 0.0911722963644 -168.131733018
554.375 0.110330995453 167.748226257
555.0 0.125398712775 163.940185824
555.625 0.102767492979 155.90485327
556.25 0.0849048381129 167.545890401
556.875 0.109995748225 167.743509895
557.5 0.109683992355 165.978013614
558.125 0.10444701827 162.382803973
558.75 0.0702780147922 177.95438981
559.375 0.0684450518408 -172.991179541
560.0 0.044551800049 -145.642860412
560.625 0.061083440962 -144.440245796
561.25 0.085093071289 -148.570419367
561.875 0.103204300271 -160.755681328
562.5 0.0910186555093 174.199969354
563.125 0.110054331958 142.761018053
563.75 0.128360683747 131.587988463
564.375 0.108499855873 119.901232154
565.0 0.0874268031343 119.505035896
565.625 0.0882894323645 114.865523162
566.25 0.090421960756 154.293409355
566.875 0.0688767851592 -177.264217674
567.5 0.0671578740796 -177.276358982
568.125 0.0885400691902 -175.983139253
568.75 0.0617678223539 -143.083118016
569.375 0.0486948961285 -108.149286643
570.0 0.0589910504785 -107.232320197
570.625 0.0951551200035 -122.561075545
571.25 0.0838845658148 -112.941553829
571.875 0.0868919059154 -125.192609035
572.5 0.108968320757 -153.681305787
573.125 0.147615226071 -178.482085138
573.75 0.0980727634633 163.344515581
574.375 0.0788072143548 154.197335581
575.0 0.10392895889 155.760139261
575.625 0.114396904367 151.177983866
576.25 0.0854236217023 145.068766305
576.875 0.0865675491938 127.041411747
577.5 0.0846634999957 135.87631859
578.125 0.0634928553059 155.31850025
578.75 0.0429570237607 176.640746865
579.375 0.0528706544079 171.124151928
580.0 0.0634346176001 -172.300226898
580.625 0.0783662585801 -158.329423081
581.25 0.0915632834936 -154.946984945
581.875 0.114814349303 -175.500115245
582.5 0.113563092023 -176.691814408
583.125 0.0944679294645 -168.989576168
583.75 0.0818074399899 -168.909494347
584.375 0.102777310776 -157.932790125
585.0 0.0941149856132 -142.018091375
585.625 0.0733951517744 -149.951751147
586.25 0.0662130416295 -131.368387454
586.875 0.0811443795607 -132.488565476
587.5 0.0678957610389 -142.56381579
588.125 0.0593206408318 -176.478852871
588.75 0.0678780173282 -164.492405347
589.375 0.081611045928 -153.990150381
590.0 0.0937125984043 -168.223001025
590.625 0.105108716102 164.68249763
591.25 0.123924871046 148.36525746
591.875 0.0923896410332 161.826165438
592.5 0.0629682804114 150.893623977
593.125 0.0650894840667 151.179094348
593.75 0.0697269391937 165.221445547
594.375 0.0568585581437 -150.738374937
595.0 0.0420770332673 -126.628291008
595.625 0.0601393501397 -100.873701782
596.25 0.071343925989 -94.7632281696
596.875 0.0724399339438 -61.2884930559
597.5 0.0634803424819 -55.2259109079
598.125 0.0647523213532 -61.0633033658
598.75 0.0918859481556 -50.2243125366
599.375 0.092453176269 -63.9270087123
600.0 0.0991485167842 -66.1221954909
600.625 0.0985903043782 -73.0457299263
601.25 0.0829008720524 -78.7755161284
601.875 0.0689673552968 -87.9126390023
602.5 0.064485217637 -82.0782740655
603.125 0.0465083117562 -55.4224227389
603.75 0.0268916462617 -58.553007702
604.375 0.055934307518 -8.00022943023
605.0 0.07053451544 -12.428741827
605.625 0.0456313405219 -5.24846909013
606.25 0.0209362798654 -12.1536828643
606.875 0.051114191477 52.9274850075
607.5 0.0601090931504 44.4530275555
608.125 0.0784885661231 31.661121591
608.75 0.0522459161615 12.8686100028
609.375 0.0864643952044 40.155688425
610.0 0.0836452689174 48.92058664
610.625 0.0623375578706 43.6558618431
611.25 0.0428973286492 17.1010351209
611.875 0.0534225934655 76.2593346375
612.5 0.0199572968492 89.1633797012
613.125 0.0251826966696 121.312541719
613.75 0.0466717755663 122.2301366
614.375 0.0307922406472 114.632802178
615.0 0.0470354982816 122.290022841
615.625 0.0435173158219 131.455622139
616.25 0.0601647129709 136.751245075
616.875 0.0283000671722 126.087693761
617.5 0.041102707908 121.629617294
618.125 0.0260862778609 124.084169855
618.75 0.0343644154712 140.80945087
619.375 0.00586059503847 114.474918103
620.0 0.00588589435748 132.878185511
620.625 0.0226315691814 -70.0669456285
621.25 0.0425493355712 -97.141709656
621.875 0.0621123115544 -97.1400080394
622.5 0.0749608730645 -170.351314245
623.125 0.087306538533 160.837006597
623.75 0.0642694556681 162.959926259
624.375 0.0321616197238 -161.010450651
625.0 0.0728010797009 -158.912835307
625.625 0.0551622379609 -160.188146329
626.25 0.0276638871276 -165.717806559
626.875 0.0211637720456 -5.03813590714
627.5 0.0259425174718 -101.844687157
628.125 0.0384035168559 -21.62142797
628.75 0.0437048539029 -10.7482775439
629.375 0.0521123107874 -1.9261350876
630.0 0.0763167155859 5.80208994882
630.625 0.0707930767932 3.27793855223
631.25 0.0693936116212 -7.28866668535
631.875 0.0745107277384 8.55572557
632.5 0.0712234831212 -29.4866362907
633.125 0.0467102295604 7.4816778868
633.75 0.0388868848885 8.93363986766
634.375 0.0418475909225 11.8086643582
635.0 0.0450631919109 38.445321141
635.625 0.0288401154256 -13.5621326598
636.25 0.0413626780266 25.5479727769
636.875 0.0651168760961 29.785963123
637.5 0.0436633271738 48.0803197701
638.125 0.0398818411073 64.9985033412
638.75 0.072454700233 75.0245084322
639.375 0.0948112597763 96.7975064654
640.0 0.0684213814192 102.412185658
640.625 0.0604505531592 106.863793507
641.25 0.0587466573182 114.22406788
641.875 0.0715260488676 154.644192663
642.5 0.0680544551295 163.136587868
643.125 0.0438952582861 134.256914431
643.75 0.0665903321951 172.640040475
644.375 0.0800925090577 -173.892806053
645.0 0.0839254115244 -179.234269382
645.625 0.0989556867604 168.508213564
646.25 0.0896408307454 163.421447029
646.875 0.0608440608006 176.9013707
647.5 0.0650302770992 -175.740542665
648.125 0.0960818842176 -173.409308756
648.75 0.0637596663083 -177.918910596
649.375 0.03897319592 -161.579341265
650.0 0.044407580118 -117.49470287
650.625 0.0817709841493 -89.3896994002
651.25 0.0463096457622 -72.4404294416
651.875 0.0547380906215 -43.2168257264
652.5 0.0828922374547 -26.655773683
653.125 0.134292299749 -2.220877909
653.75 0.0924442866234 3.04232083111
654.375 0.112201825496 7.19112673313
655.0 0.11369310439 12.8287536765
655.625 0.10590738621 29.4547583185
656.25 0.0453595680195 5.23779050324
656.875 0.055137655381 4.37908399359
657.5 0.0723679662349 18.1948912367
658.125 0.0726003855523 49.3471341966
658.75 0.054452938312 63.3383530362
659.375 0.0819319111695 38.2142069036
660.0 0.120456585501 26.4036301552
660.625 0.112161883283 18.9722077261
661.25 0.114806495953 3.96608205361
661.875 0.112508140034 -15.078658055
662.5 0.132797512516 -20.2337924689
663.125 0.117919692307 -16.7995504514
663.75 0.0945838202173 2.35222380043
664.375 0.0939312754681 53.7710836679
665.0 0.0634633230647 87.358996013
665.625 0.0724708750199 110.018597362
666.25 0.0783655954832 132.815538772
666.875 0.115495376762 171.418124497
667.5 0.0985098994447 -169.377433526
668.125 0.110948866062 178.367014042
668.75 0.115281720456 166.45159249
669.375 0.112912657087 176.334519273
670.0 0.0800675190382 -172.848538964
670.625 0.097445259987 -174.739287737
671.25 0.0890271722438 175.241680907
671.875 0.0975055339415 168.87252697
672.5 0.0807472888695 153.82612323
673.125 0.0928044616391 148.663912666
673.75 0.103079308631 159.63489106
674.375 0.111549597299 169.86864264
675.0 0.116014901194 -174.864888885
675.625 0.140572709887 -153.399609919
676.25 0.119294220711 -124.670174608
676.875 0.106973242105 -119.040728691
677.5 0.125358225074 -128.387967012
678.125 0.144442518231 -119.11643331
678.75 0.0562432860416 -93.333614404
679.375 0.0505398845147 -73.5075419579
680.0 0.0729002045599 -77.9247566329
680.625 0.124488420841 -78.2940862893
681.25 0.112504060825 -76.553724714
681.875 0.0981014932987 -91.3811203893
682.5 0.130855952701 -116.248957385
683.125 0.153171077341 -120.974072141
683.75 0.150450215212 -108.916034478
684.375 0.104766215234 -76.8694875206
685.0 0.133250275579 -40.3170432996
685.625 0.121265570973 -3.30532690871
686.25 0.115766696406 20.0335695004
686.875 0.0819906379784 46.6565612706
687.5 0.0784455678249 86.8685187873
688.125 0.0782310603915 111.661089371
688.75 0.106077772105 111.225499256
689.375 0.137678600871 119.605521627
690.0 0.131803450385 134.970093816
690.625 0.123631177757 125.037406248
691.25 0.142781683373 98.5885383994
691.875 0.200727656318 65.0301070689
692.5 0.131342271252 40.8231266799
693.125 0.080832025167 -11.1571234806
693.75 0.0880858962665 -38.2345295704
694.375 0.146514738323 -36.992393881
695.0 0.125075384663 11.3988569964
695.625 0.101121511646 55.917248993
696.25 0.119341283421 109.525982967
696.875 0.139824464558 172.075904218
697.5 0.149743942018 -151.419616393
698.125 0.124267933584 -123.863953918
698.75 0.131065890049 -131.02327431
699.375 0.112016784779 -127.052781463
700.0 0.0964609527791 -111.285718466
700.625 0.11216109248 -89.6256502625
701.25 0.104852101145 -67.8007564245
701.875 0.0825718490327 -58.6544099862
702.5 0.0983122325127 -86.9282233952
703.125 0.166648504226 -118.185521983
703.75 0.175121241556 -148.69413784
704.375 0.124371254623 171.548951598
705.0 0.115051150941 151.945859817
705.625 0.138818171671 -168.543952169
706.25 0.141681506388 -111.74938994
706.875 0.0899854726472 -66.3909711107
707.5 0.0762364873582 -34.529769727
708.125 0.0917088508856 12.512614865
708.75 0.112458329806 64.3976977496
709.375 0.106762248364 99.5232234991
710.0 0.103501103361 130.946397856
710.625 0.107321365861 146.345339541
711.25 0.121183530747 172.567116376
711.875 0.13328158711 169.393233249
712.5 0.155110853975 141.669991872
713.125 0.119716959737 100.372117856
713.75 0.0999381083513 48.1141378546
714.375 0.113053720308 30.8604577796
715.0 0.114845207356 28.0006536303
715.625 0.0852310714242 36.1876135848
716.25 0.0880602840092 88.121446599
716.875 0.122450246012 104.837853403
717.5 0.142961868272 137.926664727
718.125 0.117346549391 167.842719742
718.75 0.0986743189783 164.039111205
719.375 0.121352693085 -161.575279037
720.0 0.132192302138 -122.438223917
720.625 0.112249397467 -69.3866396119
721.25 0.0991134879714 -32.2602462166
721.875 0.0841452671609 32.8003344144
722.5 0.0647372660142 64.4555605672
723.125 0.0775130887858 63.3824166547
723.75 0.100191167459 35.6122057694
724.375 0.113623253207 6.55762242447
725.0 0.100535263804 -37.9360754993
725.625 0.106386267919 -61.9622875364
726.25 0.101591338315 -81.5814878684
726.875 0.111363535805 -31.7441737244
727.5 0.0858500665144 -28.6478676507
728.125 0.0713459099963 -9.7148446687
728.75 0.0949775360023 21.1369636634
729.375 0.077287842047 9.74478198207
730.0 0.077913002256 10.2967406557
730.625 0.0841310301655 31.8020331249
731.25 0.0790272099334 69.1055813726
731.875 0.0504682135005 96.5937269328
732.5 0.10193405862 162.779044165
733.125 0.0846805583139 174.163753187
733.75 0.087521246257 -177.060668973
734.375 0.0478940981402 149.478305181
735.0 0.0667931593761 155.138614981
735.625 0.0554564896882 137.856524315
736.25 0.0446995297538 143.546695054
736.875 0.0301191129644 -178.837360142
737.5 0.0960146572731 179.805482589
738.125 0.114973838229 -172.712749154
738.75 0.0875130590635 -168.896284413
739.375 0.0206558820889 153.515579075
740.0 0.0978838554487 -138.530311457
740.625 0.0495226051696 -148.958990465
741.25 0.0369243369257 -159.371618444
741.875 0.0418825579804 -111.886248847
742.5 0.0169824020085 21.9680894906
743.125 0.0331129696632 54.3133901132
743.75 0.0213502733555 136.30551076
744.375 0.0336702406991 143.219611447
745.0 0.0549272267548 123.272340815
745.625 0.0668994858629 112.111661295
746.25 0.0685929697833 86.8240464091
746.875 0.0660859969587 40.7878985581
747.5 0.0273723604262 25.9742243402
748.125 0.0500394794062 -14.3756155348
748.75 0.0266916311416 -13.8044892707
749.375 0.0315851786256 -6.65424486964
750.0 0.0305608783368 -66.456563275
