!Created with skrf (http://scikit-rf.org).
# GHz S MA R 50.0 
!freq magS11 angS11
500.0 0.0175607765229 -172.091504584
500.625 0.00908361170566 124.699430838
501.25 0.0164954565941 -161.675007909
501.875 0.0184899101666 -118.166588848
502.5 0.037829164401 173.682296576
503.125 0.0141093602533 66.1629427676
503.75 0.00637710453338 19.4950625209
504.375 0.00740639101719 -73.4127877248
505.0 0.0121563626509 -52.4946828878
505.625 0.0277911711114 -66.0330176789
506.25 0.0354172908445 -109.305341357
506.875 0.0738414477539 -94.3502540077
507.5 0.0415980942002 -128.013857966
508.125 0.0501982191259 -100.363095993
508.75 0.0841946022604 -120.800266747
509.375 0.0503883209381 -176.309695397
510.0 0.030145616847 -129.665924322
510.625 0.0432453211635 -160.829113165
511.25 0.0668873587733 -173.292138194
511.875 0.0625490022519 148.508971361
512.5 0.0394372283606 101.978805465
513.125 0.0586889579523 48.5969472292
513.75 0.0746805612813 43.5951801163
514.375 0.0311340784423 -6.46429408837
515.0 0.0390330464887 -5.29320319026
515.625 0.079358614077 46.3343945586
516.25 0.110175390983 27.7008715387
516.875 0.0835048370516 62.0466762107
517.5 0.115143728516 18.395097236
518.125 0.188458296534 61.722917512
518.75 0.0948739320829 13.848096972
519.375 0.068657427924 16.8189343834
520.0 0.0953914484018 -2.89038020235
520.625 0.101566424407 -5.76163125782
521.25 0.0967823591444 -22.2414013331
521.875 0.0534804655319 -10.3789666774
522.5 0.0858340098424 -38.4010702983
523.125 0.174825547647 -40.6012288325
523.75 0.235258768091 -55.7971646201
524.375 0.194765562998 -66.7057857306
525.0 0.0703170949451 -55.7591416853
525.625 0.0401418153949 -37.3226069418
526.25 0.0505500805182 -12.7847497739
526.875 0.0582301710475 -25.6144994968
527.5 0.0494961882566 -32.2486109522
528.125 0.042448930149 -61.0909022328
528.75 0.0768482545655 -76.2032185617
529.375 0.0891407496507 -116.1049851
530.0 0.0498253207059 -143.576792851
530.625 0.045386616628 -153.764364927
531.25 0.0937628773193 -132.821671369
531.875 0.17815814912 -151.875092698
532.5 0.155464413907 -173.96478794
533.125 0.102065733535 173.163477305
533.75 0.129138535349 162.874897848
534.375 0.111868175713 174.487339115
535.0 0.0818603117987 157.636318644
535.625 0.0669276941254 173.860762533
536.25 0.0638498504116 157.71658097
536.875 0.0780456692737 -164.842335596
537.5 0.0933347441051 -149.935630183
538.125 0.113193193644 -178.580658612
538.75 0.109572289562 175.142622367
539.375 0.0818009924692 -169.251739624
540.0 0.092956375007 -158.347721392
540.625 0.136229814493 -162.554090676
541.25 0.114030037229 -146.63085395
541.875 0.0957693844817 -146.191142974
542.5 0.101900355058 -146.052427765
543.125 0.144143479536 -171.059873363
543.75 0.131499278073 155.92196463
544.375 0.097351842687 132.846854563
545.0 0.0820001811713 87.1235476123
545.625 0.101838354136 79.0877559808
546.25 0.106117833152 62.0020244686
546.875 0.0728922835892 51.0264134527
547.5 0.114011091225 55.0378288919
548.125 0.127739705214 73.9958542935
548.75 0.0869234210604 85.7271236057
549.375 0.0992217356591 82.5106730673
550.0 0.0841533216949 120.097280335
550.625 0.0531811782695 147.285660929
551.25 0.0439991392533 -159.357369201
551.875 0.0595978850674 -166.275441362
552.5 0.113019967113 -171.22901945
553.125 0.0923972217824 -171.996060003
553.75 0.0927454358711 -173.977719329
554.375 0.103648555047 164.858836069
555.0 0.124782008164 161.039909272
555.625 0.0948433914418 155.01116888
556.25 0.10516731725 155.587014304
556.875 0.103554811237 165.966419078
557.5 0.11722857468 162.78382375
558.125 0.100587899161 159.562456605
558.75 0.0932900087563 171.467578244
559.375 0.0668899570651 -177.103888136
560.0 0.0464558589899 -153.287932487
560.625 0.0551265595274 -142.476496776
561.25 0.0910182959048 -159.215604887
561.875 0.0967698119541 -163.199381759
562.5 0.0910461571571 172.242367127
563.125 0.106504332533 141.783004841
563.75 0.138863023464 124.339644556
564.375 0.106233388818 117.657614935
565.0 0.0899593402783 116.914651257
565.625 0.0840928763164 114.102277741
566.25 0.103596218687 143.519517072
566.875 0.0657488618443 -177.395944812
567.5 0.0734476547017 178.856850213
568.125 0.0766810979166 -175.09416909
568.75 0.0750500588359 -157.362583682
569.375 0.0501356982423 -115.947324226
570.0 0.0584053737944 -116.428274026
570.625 0.084697679605 -116.433045166
571.25 0.0933476516807 -130.082654754
571.875 0.0836717632792 -126.330028857
572.5 0.110939762256 -158.788700894
573.125 0.131836497365 -177.294387577
573.75 0.110672866061 157.121886222
574.375 0.0754365267214 152.734698914
575.0 0.1031724733 153.595951503
575.625 0.102159435743 154.658587199
576.25 0.0956439044893 139.807199898
576.875 0.0845935201941 126.254088131
577.5 0.080566264326 135.699330197
578.125 0.0608324506512 155.48449759
578.75 0.0533296173103 148.725564735
579.375 0.0496240770771 172.114326192
580.0 0.067072969823 178.036424613
580.625 0.0723167979687 -152.773983162
581.25 0.0854189883759 -172.928538219
581.875 0.112254442203 178.777968836
582.5 0.119217040207 178.804784241
583.125 0.0973785261036 -174.372017227
583.75 0.0824459332088 -171.950799612
584.375 0.105602907508 -168.577798836
585.0 0.0908190039514 -143.261090095
585.625 0.0747976573417 -154.466857309
586.25 0.071398211678 -149.575109084
586.875 0.0821413900741 -139.267793117
587.5 0.0750377297507 -149.437597692
588.125 0.0618306649421 177.836848067
588.75 0.0668687238625 -172.252485709
589.375 0.0820535745593 -163.266090669
590.0 0.0891009846603 -167.851655998
590.625 0.106326790921 163.128379593
591.25 0.123167911752 150.166420799
591.875 0.106843114742 146.46819134
592.5 0.0618807049191 153.359504567
593.125 0.0608906110269 149.171025368
593.75 0.073328888428 165.335888825
594.375 0.0616700514853 -168.595494841
595.0 0.0426406333374 -124.324628091
595.625 0.060615339483 -100.634400211
596.25 0.0735993105505 -91.8182200207
596.875 0.0636915632797 -89.7478093617
597.5 0.0661728581675 -53.8978901727
598.125 0.0622891380872 -68.0675562629
598.75 0.0689977084065 -76.476083629
599.375 0.0866538924798 -69.1328344925
600.0 0.0989334407629 -71.4264274426
600.625 0.098541566242 -72.5323722153
601.25 0.0861099747774 -79.3255010545
601.875 0.0705786492173 -100.553175467
602.5 0.0665963599042 -78.9801908202
603.125 0.049626548571 -55.457273892
603.75 0.0327451284747 -29.60377283
604.375 0.0293405410882 -47.1681983157
605.0 0.0736303463665 -10.2788567236
605.625 0.0500666050054 -18.7672224297
606.25 0.0235474144527 -6.01660693213
606.875 0.023271043057 40.046553727
607.5 0.0438556979951 34.43816553
608.125 0.0712559831533 24.7643908801
608.75 0.0625245580933 22.4621657027
609.375 0.0459643206144 16.5497773523
610.0 0.0903745491075 50.8776443113
610.625 0.0642851668818 32.9494417796
611.25 0.049195593477 29.3767589799
611.875 0.0343555030085 24.8612419177
612.5 0.0159654845193 56.9123349558
613.125 0.0304899011036 123.747319743
613.75 0.0460539891337 119.990435655
614.375 0.0498957551029 120.786182964
615.0 0.0151961987057 96.6820192294
615.625 0.0508465744435 129.761455124
616.25 0.0563644130298 132.549661775
616.875 0.0650230742672 128.866624408
617.5 0.0218310683664 106.292242205
618.125 0.0342715449751 124.655865998
618.75 0.0486168633406 138.941345311
619.375 0.0277847674542 142.842563299
620.0 0.0113436200923 -11.862244582
620.625 0.0141635709495 -97.3650902567
621.25 0.0378763415868 -93.8636755576
621.875 0.0592905125781 -109.965304066
622.5 0.0685556059258 -154.222929681
623.125 0.0979147826729 156.954571824
623.75 0.076336852537 157.616133435
624.375 0.052246035413 179.801490849
625.0 0.0311048522453 -114.338052956
625.625 0.0689767789393 -162.565978942
626.25 0.021334513252 170.808751571
626.875 0.0040534645437 10.1378205789
627.5 0.0381785248499 -17.826836751
628.125 0.0454899191506 -14.4576042228
628.75 0.037236098262 -15.0469989738
629.375 0.054533387562 -1.99625549962
630.0 0.0639061616616 -2.90101957682
630.625 0.072239982052 7.80309787693
631.25 0.0679697886667 -7.1564759791
631.875 0.0713691493621 -4.95531490439
632.5 0.0666750900129 2.52356989616
633.125 0.0510868670222 14.7130810275
633.75 0.040413678072 -7.55369854212
634.375 0.0432533980091 5.08245347432
635.0 0.0359439339243 3.40639136149
635.625 0.052892881343 43.1534101718
636.25 0.0385951287747 7.16194477433
636.875 0.0657988160731 35.621486183
637.5 0.0454138139396 44.2310062994
638.125 0.0395371018458 64.0573791214
638.75 0.080758855489 72.390087861
639.375 0.0937408732277 88.3105447519
640.0 0.0712877308316 102.495161816
640.625 0.0562108963123 100.463276124
641.25 0.0820367420539 123.15389262
641.875 0.0654301885653 143.359607174
642.5 0.0628991818412 148.001077156
643.125 0.0692317005747 158.493151862
643.75 0.0751160780032 170.043139888
644.375 0.0801805778272 -177.777654595
645.0 0.0879768385667 177.606214752
645.625 0.0917137377121 163.82479863
646.25 0.105501988714 164.367989466
646.875 0.0596688223681 162.08016986
647.5 0.0577510128613 175.052977645
648.125 0.0852125679562 -179.771356005
648.75 0.094335858461 -163.144198492
649.375 0.0384352157869 -179.575156838
650.0 0.0346027138713 -129.240812483
650.625 0.0598314559085 -99.9345481134
651.25 0.0818415412333 -71.2777387967
651.875 0.0456693159155 -48.4262335128
652.5 0.0888575683043 -28.873251487
653.125 0.121829914465 -7.96294909707
653.75 0.124356262616 2.8563495294
654.375 0.108459645415 1.77260224631
655.0 0.116655279363 9.26235076779
655.625 0.0952554582922 18.2732601153
656.25 0.0753797756553 18.9340094158
656.875 0.0503366475028 -8.45247959058
657.5 0.0808642462999 15.9477968612
658.125 0.0753719378281 41.7316748559
658.75 0.0586945066079 57.7918171706
659.375 0.0841146419138 32.7572566339
660.0 0.110930474569 19.6415057736
660.625 0.114250133024 14.366906376
661.25 0.109468619136 0.632094797293
661.875 0.136260167721 -18.4714764022
662.5 0.126692927403 -24.2827243383
663.125 0.105125154735 -24.3683047696
663.75 0.105997488023 0.488714613921
664.375 0.105970242122 47.1636390366
665.0 0.0748788777347 81.6418947863
665.625 0.0653740620311 105.926908594
666.25 0.0905156505452 122.465749136
666.875 0.106082611804 165.969358225
667.5 0.0907990385721 -170.778268574
668.125 0.0970852376875 176.970708126
668.75 0.139244642078 160.160507992
669.375 0.105534061846 171.436233663
670.0 0.0849205304043 -173.988441942
670.625 0.0793570521044 -178.134319051
671.25 0.122817715725 167.629853612
671.875 0.0950156408696 160.951037599
672.5 0.0816952029574 147.311944659
673.125 0.073785521666 147.760303567
673.75 0.120695941026 150.050489322
674.375 0.102299133738 166.122530845
675.0 0.10740661405 -177.475430899
675.625 0.11606061324 -154.120175339
676.25 0.132905664751 -131.631352566
676.875 0.100088166558 -122.0760235
677.5 0.116454875159 -130.744818247
678.125 0.120214365579 -126.254178854
678.75 0.0817809598553 -101.213044736
679.375 0.049066106959 -80.6602918427
680.0 0.0753539253801 -86.0567325859
680.625 0.126600918958 -85.1127310006
681.25 0.109032268754 -79.3867597821
681.875 0.102878180617 -100.066860364
682.5 0.120405692929 -116.736840612
683.125 0.161646059897 -126.200816767
683.75 0.131934584388 -109.923819432
684.375 0.124451789368 -85.3320854519
685.0 0.14353544888 -47.4029346927
685.625 0.130725702193 -6.2582092661
686.25 0.121121765098 14.6621994056
686.875 0.0993297127733 37.5242515076
687.5 0.0746720781564 73.2892533616
688.125 0.0799112888135 102.302386116
688.75 0.102110613319 106.18276239
689.375 0.142198922728 113.675193467
690.0 0.142355405983 125.242661622
690.625 0.118696133168 122.544829535
691.25 0.140354389223 93.7990817874
691.875 0.186849573877 64.2172631502
692.5 0.165077838263 31.5193585489
693.125 0.0766840431638 -14.4121334394
693.75 0.09410685571 -46.4408952815
694.375 0.130371567567 -37.5003287697
695.0 0.134578123969 5.50587884031
695.625 0.106547880278 45.2637823849
696.25 0.113708246945 108.697585785
696.875 0.132714937321 172.214775184
697.5 0.135359938358 -149.074911573
698.125 0.147339822009 -143.418854957
698.75 0.125223140537 -133.344949783
699.375 0.114849711539 -132.352650902
700.0 0.0992905134879 -120.693576719
700.625 0.118660564257 -98.5409431329
701.25 0.103971894011 -70.6162858062
701.875 0.0833964466018 -67.6059272254
702.5 0.0965883430194 -89.9374980422
703.125 0.165930172337 -134.762304533
703.75 0.171378818066 -151.484222813
704.375 0.129272510739 169.599613495
705.0 0.107074568658 155.04558531
705.625 0.146239966903 -179.905430162
706.25 0.154299679412 -120.84011177
706.875 0.0984036158208 -70.6068415093
707.5 0.0771306760585 -44.8524969554
708.125 0.0916676516195 7.83185879716
708.75 0.111035077745 50.0917574904
709.375 0.107479356178 99.3358764162
710.0 0.100337093928 130.010944125
710.625 0.104178526782 155.507478347
711.25 0.1167121819 160.982942806
711.875 0.144594657635 162.150052473
712.5 0.159390799059 135.654617202
713.125 0.131556406609 94.0824043833
713.75 0.109383438697 34.9678971404
714.375 0.110053147954 31.8357200917
715.0 0.115980718068 31.2004410398
715.625 0.0808644611207 49.1877607051
716.25 0.0750759011712 62.4641714448
716.875 0.107868889029 104.210073684
717.5 0.142551966827 137.640066294
718.125 0.12243943516 164.945300858
718.75 0.0993549908839 164.247966816
719.375 0.105587019417 170.950592022
720.0 0.138373693293 -121.378672083
720.625 0.116623985568 -76.0304615
721.25 0.10047013308 -28.6880745545
721.875 0.0855953579092 18.2245558875
722.5 0.073175436403 55.9462043633
723.125 0.0715211148094 49.2477597405
723.75 0.104618697355 33.3579905413
724.375 0.0958094414054 -20.4901819764
725.0 0.101921226221 -36.7988562794
725.625 0.106390596155 -66.0404603368
726.25 0.108162341612 -72.5235843593
726.875 0.0971263469847 -67.0249201079
727.5 0.0925095054131 -27.3284184901
728.125 0.0769543422927 -14.6666575442
728.75 0.0927465006834 13.3919907321
729.375 0.0859836193304 10.0973133328
730.0 0.0560842577817 -20.1232730502
730.625 0.0912017373206 31.4057553118
731.25 0.0802947133795 64.2550034896
731.875 0.0808215784153 116.193357282
732.5 0.0555352245588 137.898016067
733.125 0.0737032924601 165.586403235
733.75 0.0867106347925 169.62419287
734.375 0.0594496731713 158.041463409
735.0 0.0362414973609 122.444169282
735.625 0.0599977408164 138.782699923
736.25 0.0619869520628 141.137557618
736.875 0.0535259728189 162.594553094
737.5 0.0484289967262 -173.135928371
738.125 0.128127222381 -173.30266367
738.75 0.0865880702888 -173.409760177
739.375 0.0659968228484 -168.648017507
740.0 0.0188813786487 -139.590388987
740.625 0.0345706332111 -151.36139314
741.25 0.0396468813036 -160.655824949
741.875 0.0454763871443 -119.672431313
742.5 0.039550196588 -26.3563667833
743.125 0.0177372259432 96.6375271519
743.75 0.0346185034989 107.377308044
744.375 0.031688585755 151.748240366
745.0 0.0469983131452 140.242172831
745.625 0.0644144152829 123.479096695
746.25 0.0764109801386 81.7657730082
746.875 0.0824293532937 27.4925184058
747.5 0.0446023003598 6.69748639615
748.125 0.0173081763868 59.8507558243
748.75 0.0299312400286 -24.5208850911
749.375 0.0287020793912 -31.3450007872
750.0 0.0350645215534 -66.2028987252
