!Created with skrf (http://scikit-rf.org).
# GHz S RI R (50+0j) 
!freq	ReS11	ImS11	
500.0	-0.4413976326	-1.325040938	
500.625	0.5635032335	-0.470324466	
501.25	-0.6520464734	-1.083810112	
501.875	-0.3394271991	-0.1508667294	
502.5	0.02904804461	-0.1383466656	
503.125	-0.1118159231	0.04755812912	
503.75	-0.0003876745873	0.02220190597	
504.375	0.05700684357	0.009614535058	
505.0	-0.01525591308	-0.0299685275	
505.625	0.0631967618	-0.06773189894	
506.25	-0.1596883096	-0.07500540112	
506.875	0.05212836122	-0.209582735	
507.5	-0.2968308265	-0.6670411068	
508.125	-0.0405648623	-0.316771568	
508.75	1.008696494	-0.9906869357	
509.375	-0.05175607875	-2.165328837	
510.0	-0.2616612668	-0.1180694747	
510.625	-0.05286749814	-0.2498180957	
511.25	-0.1425419257	0.03973185031	
511.875	-0.03579302256	-0.02512742297	
512.5	-0.05367642181	0.07082662455	
513.125	-0.03264140385	-0.03372305334	
513.75	0.02097961149	-0.0808036777	
514.375	-0.1694585402	-0.04119171614	
515.0	0.2626614059	0.1559005796	
515.625	-0.287957757	-0.8389137689	
516.25	0.1157488417	-0.1296937735	
516.875	0.1247654204	-0.6726568805	
517.5	-0.1480983605	-0.2628152707	
518.125	0.047647202	0.01656956147	
518.75	-0.1502443776	-0.1464131219	
519.375	-0.02390372615	0.04295426754	
520.0	0.08781224923	0.08900070241	
520.625	0.2421733178	-0.05488681998	
521.25	0.008674744743	-0.3045969631	
521.875	-0.04520410917	-0.07054138333	
522.5	-0.1473819611	0.04219908052	
523.125	0.09084279343	-0.01480642628	
523.75	-0.1854021884	-0.1393293956	
524.375	-0.1440274536	0.1858793619	
525.0	-0.0539770476	-0.01587248705	
525.625	0.009707159073	0.158548198	
526.25	-0.04629685455	-0.1015279756	
526.875	-0.07034010276	0.1382879207	
527.5	-0.01365178675	0.1025750205	
528.125	-0.1005407734	0.2535712194	
528.75	0.05806686918	0.1305401843	
529.375	0.01356248007	-0.03136882631	
530.0	0.00665199433	0.2372787053	
530.625	0.1531723322	0.3325298038	
531.25	0.2238197165	0.2714957126	
531.875	0.4062653283	-0.2426050409	
532.5	-0.1937720893	-0.1159412197	
533.125	0.2222489641	-0.1395165613	
533.75	-0.04820964114	-0.2269557609	
534.375	0.0751552576	-0.2907480592	
535.0	-0.354396344	-0.138283517	
535.625	-0.09694211064	0.09220519137	
536.25	-0.04558871662	0.09778744128	
536.875	0.1384490956	0.002157687865	
537.5	0.02819853833	-0.02079018851	
538.125	0.1820476241	-0.0515447096	
538.75	0.09436031546	-0.1557357316	
539.375	-0.009755571281	-0.1469688724	
540.0	-0.1672639689	-0.2096701327	
540.625	-0.1858316716	0.006148267906	
541.25	-0.04669634189	-0.05629988913	
541.875	-0.1241903709	-0.007736403005	
542.5	-0.001669852353	-0.006494944388	
543.125	-0.08684235907	-0.1245575873	
543.75	-0.09521109781	0.07881853495	
544.375	-0.05939043182	-0.02156641272	
545.0	0.01885833036	0.1175106706	
545.625	0.007938602244	0.01764387609	
546.25	0.1108671901	0.1316015898	
546.875	0.117201295	-0.08367853171	
547.5	0.08160646406	-0.05569236975	
548.125	-0.02335465485	-0.2407460098	
548.75	-0.1546304309	-0.06816058135	
549.375	-0.05239542594	-0.09246534853	
550.0	-0.1331261355	0.004420857496	
550.625	-0.007510348316	0.004699002926	
551.25	-0.1126453347	0.0006408626777	
551.875	-0.05331666883	0.09139150313	
552.5	-0.04879354442	0.04667512239	
553.125	-0.01743426917	0.08527970593	
553.75	0.03812629285	0.03863446447	
554.375	0.1077270303	0.01232431638	
555.0	0.1068465481	-0.08115104896	
555.625	0.09917554755	-0.1042102986	
556.25	0.08458505927	-0.1492502919	
556.875	-0.02969173949	-0.1716401827	
557.5	-0.09939833786	-0.1144916894	
558.125	-0.1192565871	-0.05243903683	
558.75	-0.1261303092	-0.01202338508	
559.375	-0.1143833171	0.02396154728	
560.0	-0.1097278859	0.06098892419	
560.625	-0.068454745	0.1327359879	
561.25	0.02865559322	0.08355661173	
561.875	0.0005999901828	0.0699919907	
562.5	0.03843616932	0.03783652635	
563.125	0.03603287291	0.1029222943	
563.75	0.1968674133	0.009150971552	
564.375	0.09656699532	-0.0979783621	
565.0	0.1368270704	-0.1076728216	
565.625	-0.06780902123	-0.1978064947	
566.25	-0.08106091134	-0.03299743985	
566.875	-0.1358011396	-0.1519313684	
567.5	-0.1871673148	-0.07571151488	
568.125	-0.05083394275	-0.1521624249	
568.75	-0.315050302	-0.1409961263	
569.375	-0.1861860575	0.1448435053	
570.0	-0.1752324688	0.1248548852	
570.625	-0.08801407183	0.2718201871	
571.25	0.05785176661	0.02984550801	
571.875	0.02112398924	0.1622867447	
572.5	0.1495909803	-0.08077485741	
573.125	0.07126944593	-0.006903455256	
573.75	0.145050875	-0.1813739011	
574.375	-0.08346565812	-0.08315970097	
575.0	0.1159903894	0.008342888253	
575.625	-0.01724128232	-0.1439537667	
576.25	0.02134057941	-0.004252572857	
576.875	0.06355167896	-0.2234606914	
577.5	-0.08914502232	-0.1813585166	
578.125	0.007804035668	-0.09110603743	
578.75	-0.01151821598	-0.2683760732	
579.375	-0.2084269259	-0.02699298201	
580.0	0.05563068892	-0.03598394094	
580.625	-0.2172628122	-0.03291991357	
581.25	0.03562503397	0.02849619348	
581.875	-0.1349583159	0.1767953717	
582.5	0.1425007034	0.2380927952	
583.125	0.03427071136	-0.04296598434	
583.75	0.01543458109	0.1366446785	
584.375	0.06762872107	-0.06917005785	
585.0	0.02670030687	0.1563424334	
585.625	0.2707949254	-0.04996948026	
586.25	0.06433445693	-0.08561669665	
586.875	0.1616710945	-0.07940853964	
587.5	-0.05459105583	-0.2339694704	
588.125	-0.03096905786	-0.04290985766	
588.75	0.1349891221	-0.1845775063	
589.375	-0.02030657449	-0.2360530608	
590.0	0.01228593616	-0.09388210109	
590.625	-0.2801007052	-0.1640578908	
591.25	-0.07959241236	0.1879533641	
591.875	-0.1131853881	-0.02753302658	
592.5	-0.01610049127	0.1717350237	
593.125	-0.04536034451	-0.06403055416	
593.75	0.0478506738	0.249524897	
594.375	0.1205428321	-0.01953292079	
595.0	0.0722042945	0.1352700197	
595.625	0.257035783	0.1523162774	
596.25	0.1632597585	-0.05646386165	
596.875	0.147119286	0.153228456	
597.5	0.2530611985	0.09659514764	
598.125	0.1014570031	0.0702643985	
598.75	0.1693344206	0.1661416223	
599.375	0.2821763646	-0.07776831802	
600.0	0.1009238483	-0.1045044563	
600.625	0.2232279769	-0.1382795252	
601.25	0.04255076372	-0.2851681506	
601.875	-0.07158827193	-0.01199248328	
602.5	-0.1544360135	-0.14869033	
603.125	-0.1053278471	0.1496014435	
603.75	-0.05421413406	-0.01463512902	
604.375	-0.2274948495	0.1385968802	
605.0	0.02783357228	0.1396184018	
605.625	-0.1482423309	-0.047783732	
606.25	-0.05237965557	0.1436261304	
606.875	-0.1406499786	0.01706123282	
607.5	-0.2000475709	0.2329855803	
608.125	0.0473692415	0.3455990154	
608.75	0.09209895224	0.1025385637	
609.375	0.2740700851	0.02023913329	
610.0	0.1764755915	-0.2217475939	
610.625	0.04660199968	-0.06188488383	
611.25	0.1036393473	-0.2100458638	
611.875	-0.180524831	-0.07731951392	
612.5	-0.04334885151	-0.1318602656	
613.125	-0.3294392183	0.03071350399	
613.75	0.04203958419	0.1700029344	
614.375	-0.08889387752	0.089882296	
615.0	0.1686957334	0.009327102101	
615.625	-0.06904064838	-0.03175539178	
616.25	-0.1415658261	0.2459137541	
616.875	0.04884999192	0.2132787342	
617.5	-0.1007117413	0.3230162214	
618.125	-0.07064230876	0.3249772424	
618.75	0.1374502888	0.1836371322	
619.375	-0.03810864312	0.1444916141	
620.0	0.1415855694	0.2069426291	
620.625	0.05459999327	-0.1546179087	
621.25	-0.01449367916	-0.140288373	
621.875	-0.3047395902	-0.1363440329	
622.5	-0.1892566164	0.2070589385	
623.125	-0.1300939022	0.1290707612	
623.75	0.2302125962	0.08167461282	
624.375	-0.04624769719	-0.05544514318	
625.0	0.1443511841	-0.01164274947	
625.625	-0.03986232677	-0.1065000301	
626.25	0.04762723281	-0.1234203258	
626.875	-0.199068917	-0.1368321119	
627.5	-0.1481363466	0.01858070787	
628.125	-0.07512583098	-0.09590060111	
628.75	-0.1549213046	-0.1695196255	
629.375	-0.1169222966	-0.143127467	
630.0	-0.1669715956	-0.1972319621	
630.625	-0.3069856199	0.06192689061	
631.25	-0.0864460644	0.1419556391	
631.875	-0.1300154431	0.1671460643	
632.5	0.215407929	0.2967553597	
633.125	0.1555044502	-0.04300015178	
633.75	0.205161945	0.03171637967	
634.375	0.04660613415	-0.2507150252	
635.0	0.03908037825	-0.06737753098	
635.625	-0.1722528066	-0.230901182	
636.25	-0.1523195019	0.1478105382	
636.875	-0.05789651855	0.03243960407	
637.5	-0.1470482384	0.1737005038	
638.125	0.02486745622	0.04120449189	
638.75	-0.2037070241	0.1484226114	
639.375	0.05125816086	0.3500791338	
640.0	0.1382245413	0.1596990077	
640.625	0.1831669288	0.2925333427	
641.25	0.4357485245	0.07049189271	
641.875	0.1028463101	-0.1722020352	
642.5	0.1560662751	-0.1362633444	
643.125	-0.2758160629	-0.2435628408	
643.75	0.05864501338	0.03857407354	
644.375	-0.2827627479	-0.1169455221	
645.0	-0.04510874791	0.3584618545	
645.625	-0.05824321162	0.11449423	
646.25	0.3154352307	0.3634002714	
646.875	0.08311201658	-0.1868729448	
647.5	0.03227363946	0.1931513972	
648.125	0.2511532185	-0.04909984747	
648.75	0.0807010645	-0.01853024779	
649.375	0.4496837512	-0.2085298912	
650.0	0.06666094767	-0.4337117306	
650.625	0.118920924	-0.1065699955	
651.25	0.405622626	-0.2353408892	
651.875	0.2025875239	-0.3302620311	
652.5	0.1911650258	0.05968224082	
653.125	0.4710658047	-0.01901345823	
653.75	0.1279808565	-0.376258819	
654.375	0.07668547729	-0.1924735759	
655.0	-0.422870054	-0.3145986432	
655.625	-0.1014755923	0.2582539571	
656.25	-0.09536767548	-0.02799352364	
656.875	0.08799395221	0.2459464735	
657.5	-0.005984591818	-0.07108121239	
658.125	0.1192376348	0.4603261315	
658.75	0.394632017	-0.01528404553	
659.375	0.2118466678	-0.02627350171	
660.0	0.4270534197	-0.2232133555	
660.625	0.06718903128	-0.5129212452	
661.25	0.1253802723	-0.15173136	
661.875	0.4224634433	-0.281955538	
662.5	0.2517284647	-0.3203645057	
663.125	0.1944242953	-0.06263048811	
663.75	0.3461397312	-0.3342802266	
664.375	-0.1466735168	-0.3373766106	
665.0	-0.1381735406	-0.2376871067	
665.625	-0.4540921425	0.01701542112	
666.25	0.003020652159	0.4083766634	
666.875	-0.01377360571	0.1583568825	
667.5	0.2739901887	0.1825333023	
668.125	0.1720228944	-0.08680894582	
668.75	0.2762439418	0.0778432396	
669.375	0.1573040974	-0.3711085911	
670.0	-0.04916311268	-0.1402657312	
670.625	0.1472842287	-0.2185742403	
671.25	0.008971011958	-0.3043761975	
671.875	0.05685855994	-0.06482818622	
672.5	0.3838336487	-0.09804091184	
673.125	0.1607031652	-0.2743681364	
673.75	0.1623096355	-0.1134099535	
674.375	0.208853784	-0.3026440871	
675.0	-0.2081429322	-0.285091878	
675.625	-0.03415510633	-0.1133350307	
676.25	-0.2874111488	-0.1253200862	
676.875	-0.1682552499	0.1146260512	
677.5	-0.07890207125	-0.1067349679	
678.125	-0.3281786485	0.2149750861	
678.75	0.1717031009	0.162734275	
679.375	0.04600789988	0.1974978777	
680.0	0.3505317881	-0.1063073808	
680.625	-0.2184345046	-0.0992699052	
681.25	0.2028165333	0.1625225548	
681.875	0.09274389291	-0.2658862337	
682.5	0.006237274964	0.08283788949	
683.125	0.3177069867	0.3136538251	
683.75	0.3465723237	-0.1722401248	
684.375	0.1131306076	0.2153603681	
685.0	0.4071972838	0.0615313783	
685.625	0.3455100017	-0.1396498334	
686.25	0.1779872287	0.1620050254	
686.875	0.595919374	-0.1691059123	
687.5	0.1678152858	-0.2866502703	
688.125	0.2107697335	-0.3792216344	
688.75	-0.5151936506	-0.3986073077	
689.375	-0.1612484139	0.3823721273	
690.0	-0.2150607089	0.2832959886	
690.625	0.4184508179	0.3930142304	
691.25	0.207811377	0.1090058599	
691.875	0.338433712	0.5746866351	
692.5	0.8345037684	-0.09332523943	
693.125	0.4522941896	-0.007733725364	
693.75	0.7639603205	-0.04117489802	
694.375	0.3399768353	-0.55507169	
695.0	0.2346800267	-0.2048880275	
695.625	0.6665443399	-0.2524778306	
696.25	0.5788823293	0.02212396187	
696.875	0.2223625227	0.3392106789	
697.5	0.2836045123	0.6718680607	
698.125	0.6578928767	0.2926482059	
698.75	0.4172561712	-0.1429629122	
699.375	-0.2176076162	-0.5855342264	
700.0	-0.3445204029	0.4614339959	
700.625	0.09818023764	0.1145582597	
701.25	0.2600398372	0.4342134654	
701.875	0.3469269857	0.06528201612	
702.5	0.1769834011	0.3239359	
703.125	0.6216442818	0.1832952285	
703.75	0.3507804632	-0.2609284849	
704.375	0.256851785	0.003847373024	
705.0	0.2916818361	-0.2571133004	
705.625	0.1629603811	-0.08784113765	
706.25	0.2606822204	0.1901123717	
706.875	0.4035746676	0.3612285802	
707.5	0.2493386185	0.3077202274	
708.125	0.397386325	0.3742229482	
708.75	0.6699290484	-0.1662942587	
709.375	-0.2711569381	-0.2312619761	
710.0	-0.3294990636	-0.01552355603	
710.625	0.1537692423	0.3112042871	
711.25	-0.06643350984	-0.1146768259	
711.875	0.2625630516	0.2816355974	
712.5	0.3458790931	-0.1669684861	
713.125	0.230898844	-0.003396671296	
713.75	0.2651948892	-0.290594381	
714.375	-0.08158275859	-0.2709579546	
715.0	0.07149756826	-0.1110458108	
715.625	0.05989394582	-0.3540086698	
716.25	0.04365430669	-0.2290671541	
716.875	0.3668821606	-0.009210689941	
717.5	0.7441219044	-0.07895740158	
718.125	0.483362548	-0.1025165464	
718.75	0.8789052815	0.4320215498	
719.375	1.264778179	-0.2103625115	
720.0	0.2891822264	-0.5468155497	
720.625	0.9734542089	-0.955882137	
721.25	-0.3514947228	-1.27237469	
721.875	-0.09950386743	-0.1700982429	
722.5	-0.3325236105	-1.167577399	
723.125	-1.115285332	-0.1203617295	
723.75	-0.2771859685	0.2697828577	
724.375	-0.3371227219	0.5810219241	
725.0	0.3860197282	0.3596007647	
725.625	-0.02750002303	0.3658878598	
726.25	-0.1142649753	0.920145938	
726.875	0.1695889069	1.058323965	
727.5	-0.4592676542	0.8805364281	
728.125	-0.566451736	2.495699359	
728.75	0.559387896	2.846764112	
729.375	-1.485782391	2.056277161	
730.0	-2.445295736	4.264453306	
730.625	1.139971525	4.185037209	
731.25	-2.176623892	1.900121801	
731.875	-4.849376042	2.825161771	
732.5	-3.125560545	2.985396932	
733.125	-1.148191434	-1.787849599	
733.75	-1.488483104	1.664052992	
734.375	0.8197989617	0.3256292763	
735.0	0.5139935403	-0.1616236408	
735.625	-0.9376138817	0.04065243035	
736.25	0.08357195808	0.2423676543	
736.875	0.07934458894	0.8966862343	
737.5	1.495771958	0.1869865639	
738.125	0.9427412253	-0.6810686026	
738.75	2.144237231	0.2613102477	
739.375	3.878194514	-2.924305543	
740.0	0.04556559998	-2.146257146	
740.625	1.41121954	4.185914991	
741.25	3.340620229	3.824605284	
741.875	0.6034634476	-2.135844326	
742.5	-1.800150674	-4.751400973	
743.125	-1.544967073	-3.174173137	
743.75	0.1351063735	-0.318237714	
744.375	-0.6623005841	-0.6910624283	
745.0	0.1940598208	0.08679763132	
745.625	0.08852813739	0.1643416174	
746.25	-0.08749618931	-0.203053627	
746.875	-0.1461351596	-0.02899116074	
747.5	-0.2680409925	0.345250586	
748.125	0.1830540428	0.5663382751	
748.75	0.1508192611	0.3859025	
749.375	-0.03877903541	0.5713754192	
750.0	-0.3953590942	0.3913433383	
