!Created with skrf (http://scikit-rf.org).
# GHz S RI R (50+0j) 
!freq	ReS11	ImS11	
500.0	0.4343791197	-0.9812189149	
500.625	0.3138675315	-1.09030065	
501.25	-0.4351931615	-0.7066101344	
501.875	-0.2722233046	-0.4882096703	
502.5	-0.07052230351	-0.1417506718	
503.125	-0.07656908816	0.001937576432	
503.75	0.01032110421	0.08723750281	
504.375	0.03016481621	-0.003242167125	
505.0	0.02321674974	-0.0207182137	
505.625	0.002463422843	-0.05300662749	
506.25	-0.06123144022	-0.06156161699	
506.875	-0.1306432356	-0.007211918922	
507.5	-0.08901920885	-0.3786709098	
508.125	0.1772523757	-0.6629352357	
508.75	0.5388794115	-0.9295487482	
509.375	-0.1327478484	-1.604123202	
510.0	-0.3523181885	-0.2914489399	
510.625	-0.147673217	-0.2661057488	
511.25	-0.0367759198	-0.09847477753	
511.875	-0.1153626185	-0.01820119588	
512.5	-0.04310718377	0.01697185605	
513.125	-0.003307976554	-0.07502534226	
513.75	-0.05960061267	-0.06560827368	
514.375	-0.0538503731	-0.03120320457	
515.0	0.01412733079	-0.07973913509	
515.625	0.04780826945	-0.3758820991	
516.25	-0.2765893952	-0.6986153095	
516.875	-0.1648775781	-0.4230540328	
517.5	-0.03666032836	-0.1467856092	
518.125	-0.02580032227	-0.03257950731	
518.75	-0.04462590831	-0.1575592333	
519.375	-0.05840242477	0.03226789719	
520.0	0.1121485082	0.06038471573	
520.625	0.170400128	-0.05189737741	
521.25	-0.003611404342	-0.262600178	
521.875	-0.1491290334	-0.03266817615	
522.5	-0.048589496	0.02724241001	
523.125	-0.06120106847	0.02080481182	
523.75	-0.1105997218	-0.01312841668	
524.375	-0.1599737511	0.02422796949	
525.0	-0.05554595395	0.1356645852	
525.625	0.03525453201	0.04777075397	
526.25	-0.01409698615	-0.01310877215	
526.875	-0.05215480029	0.05185279867	
527.5	-0.05355423844	0.1898207629	
528.125	0.05456893258	0.2655866983	
528.75	0.03532915166	0.2237705671	
529.375	0.03793833558	0.06914498533	
530.0	0.01624601595	0.1558406519	
530.625	0.08960165366	0.3058371714	
531.25	0.4177994483	0.1373171215	
531.875	0.2337096379	-0.1643176026	
532.5	-0.05043318287	-0.1175297883	
533.125	0.05462950652	-0.04822639127	
533.75	0.1220888254	-0.1749720982	
534.375	-0.06459936054	-0.2962393805	
535.0	-0.2295664876	-0.120164823	
535.625	-0.1753753401	0.09683282096	
536.25	-0.00651278667	0.09963954699	
536.875	0.09669847445	0.01854827306	
537.5	0.07076460198	-0.04216171784	
538.125	0.1189690303	-0.06023817055	
538.75	0.1365730868	-0.1226989988	
539.375	-0.07447734814	-0.1737418729	
540.0	-0.1629127877	-0.1603502983	
540.625	-0.167299677	-0.03354900028	
541.25	-0.09012479395	-0.002178864919	
541.875	-0.04716261813	-0.02262530826	
542.5	-0.04399191568	-0.05539334486	
543.125	-0.07938713882	-0.05264388031	
543.75	-0.09196037862	-0.01093242265	
544.375	-0.04988311677	0.0417247303	
545.0	-0.006655915282	0.05932108126	
545.625	0.05015964082	0.07035828929	
546.25	0.1002361911	0.04660860295	
546.875	0.1244608282	-0.02320604265	
547.5	0.07596813384	-0.1248044335	
548.125	-0.03693097624	-0.1714143029	
548.75	-0.1223658117	-0.1265070816	
549.375	-0.1161785877	-0.07646320117	
550.0	-0.08071364089	0.003440673175	
550.625	-0.05596416864	0.002662386786	
551.25	-0.08304941508	0.02574891646	
551.875	-0.07870442192	0.06953933301	
552.5	-0.0517985897	0.07472563821	
553.125	-0.02042465781	0.06508158857	
553.75	0.04764463149	0.05188508375	
554.375	0.1002542945	0.003925603991	
555.0	0.1094439118	-0.07004251908	
555.625	0.09851620185	-0.1129842761	
556.25	0.07691385767	-0.1475264469	
556.875	-0.03144087587	-0.1716830173	
557.5	-0.1017124957	-0.1159565469	
558.125	-0.1233722673	-0.04527064464	
558.75	-0.117299387	-0.00631435335	
559.375	-0.1200523208	0.0174924008	
560.0	-0.1073842246	0.07786200925	
560.625	-0.05783763768	0.1173237821	
561.25	0.004963781805	0.1052765576	
561.875	0.02784301773	0.05113587803	
562.5	0.009670987974	0.05758101908	
563.125	0.07007816358	0.0802422827	
563.75	0.149617009	0.01378453283	
564.375	0.144516912	-0.09797444842	
565.0	0.08454361658	-0.155719888	
565.625	-0.02580156193	-0.167052076	
566.25	-0.1157634633	-0.1219587688	
566.875	-0.1452960008	-0.09040719864	
567.5	-0.1451825313	-0.1182857173	
568.125	-0.1451814348	-0.168071091	
568.75	-0.2331212443	-0.09484798943	
569.375	-0.2539756648	0.09002725982	
570.0	-0.1390307488	0.208022293	
570.625	-0.06293234314	0.1830226918	
571.25	-0.0006664882627	0.1215396928	
571.875	0.05472819413	0.08282095814	
572.5	0.1362937826	0.007526942675	
573.125	0.09931985232	-0.1163891765	
573.75	0.04829390479	-0.1181560326	
574.375	0.01326590195	-0.07148862609	
575.0	0.03277978472	-0.03720797649	
575.625	0.04678396877	-0.0764938358	
576.25	0.05378068667	-0.1159720377	
576.875	0.0006471001709	-0.1531444741	
577.5	0.0008453168091	-0.1700808983	
578.125	-0.04410093029	-0.169079324	
578.75	-0.08563424901	-0.1305265278	
579.375	-0.08824009593	-0.07184877494	
580.0	-0.0522578527	-0.03502372046	
580.625	-0.07267134882	-0.03633248729	
581.25	-0.114987718	0.07378626583	
581.875	-0.000747874178	0.1658580664	
582.5	0.05560290308	0.1496012264	
583.125	0.07853495908	0.08134050813	
583.75	0.04063767734	0.0233459032	
584.375	0.03216815541	0.06476932633	
585.0	0.1144597357	0.06940387419	
585.625	0.164548337	0.007024086038	
586.25	0.1612264949	-0.06201681987	
586.875	0.08403266455	-0.1374785919	
587.5	-0.003680359838	-0.1478243772	
588.125	-0.01041614659	-0.1473929428	
588.75	0.04041778314	-0.1525893891	
589.375	0.07137113378	-0.16227854	
590.0	-0.05211343843	-0.1859586215	
590.625	-0.188496415	-0.05822691664	
591.25	-0.1439904503	0.106074764	
591.875	-0.04278699352	0.1234652507	
592.5	0.006534238426	0.05310565641	
593.125	-0.03258078099	0.05117454511	
593.75	0.04977303996	0.1276260702	
594.375	0.1540789628	0.1105401582	
595.0	0.1786048376	0.1065737535	
595.625	0.1811271231	0.08504540835	
596.25	0.1688225572	0.04635396741	
596.875	0.1649314536	0.04163358135	
597.5	0.1504087413	0.09001546577	
598.125	0.1499651906	0.1252037913	
598.75	0.1818491823	0.1002973485	
599.375	0.2282193167	-0.02405768028	
600.0	0.1841158458	-0.1455736485	
600.625	0.1502668654	-0.1863107974	
601.25	0.06716831026	-0.2016077212	
601.875	-0.07882189328	-0.1504915562	
602.5	-0.1325450226	-0.02500133531	
603.125	-0.1178466942	0.03951707328	
603.75	-0.1183396642	0.06876297111	
604.375	-0.1103568906	0.07603409964	
605.0	-0.07746262262	0.08220206938	
605.625	-0.07602587347	0.06593297091	
606.25	-0.1174816402	0.0645931916	
606.875	-0.1820516566	0.08472541499	
607.5	-0.1790943226	0.1817762926	
608.125	-0.04611338773	0.2589518665	
608.75	0.1784460626	0.1908901896	
609.375	0.2505827972	-0.01531301969	
610.0	0.184030907	-0.1168979816	
610.625	0.1016938187	-0.16598804	
611.25	0.01485154639	-0.1691421806	
611.875	-0.08610079782	-0.1366414231	
612.5	-0.1705572126	-0.07578743727	
613.125	-0.202886166	0.03023597639	
613.75	-0.1002037122	0.1491813432	
614.375	0.0432174891	0.1174403646	
615.0	0.04015395652	0.04796956887	
615.625	-0.005988662651	0.0905299204	
616.25	-0.0466552816	0.1525493189	
616.875	-0.09170364327	0.1984375929	
617.5	-0.07816040398	0.2344303736	
618.125	-0.02743160564	0.2294193801	
618.75	0.01758065159	0.2061660327	
619.375	0.08998721699	0.1786254058	
620.0	0.1984428731	0.06450615863	
620.625	0.1302977642	-0.1565817257	
621.25	-0.07828920486	-0.2028406025	
621.875	-0.2098248887	-0.1053204216	
622.5	-0.2333146377	0.04946585267	
623.125	-0.05537992609	0.1950791315	
623.75	0.1357350991	0.05520723148	
624.375	0.04557423845	-0.05293260363	
625.0	0.04580915922	-0.02339318733	
625.625	0.06136256502	-0.09205784647	
626.25	-0.04361977775	-0.150328031	
626.875	-0.1452291122	-0.09677861354	
627.5	-0.1542730154	-0.04892218134	
628.125	-0.1165885478	-0.07533142183	
628.75	-0.07340219956	-0.1313913614	
629.375	-0.08953564012	-0.1650860732	
630.0	-0.1895012616	-0.119953477	
630.625	-0.2416913144	0.05037786734	
631.25	-0.1712845994	0.1939349079	
631.875	-0.04799842216	0.2625518273	
632.5	0.1381376623	0.2254363334	
633.125	0.2230707893	0.07400687813	
633.75	0.1851800268	-0.0604797021	
634.375	0.07743480065	-0.1382190827	
635.0	0.0007795716282	-0.1577775438	
635.625	-0.1440517619	-0.1122120602	
636.25	-0.1763541199	0.05952515456	
636.875	-0.08145296534	0.132259367	
637.5	-0.04186927238	0.09400720285	
638.125	-0.07363850247	0.0883064279	
638.75	-0.08789164766	0.1680926922	
639.375	-0.02126697033	0.2642885675	
640.0	0.1286142987	0.2731045395	
640.625	0.2468410289	0.1804333047	
641.25	0.2987043077	0.02033012505	
641.875	0.2003675153	-0.1824798048	
642.5	0.009803749839	-0.226528269	
643.125	-0.1151386159	-0.1379249895	
643.75	-0.1321880056	-0.09381999338	
644.375	-0.1918768696	-0.02016079111	
645.0	-0.1715752727	0.1556083676	
645.625	0.04477820053	0.2335259462	
646.25	0.1710707609	0.08868341585	
646.875	0.1028475375	-0.01154342115	
647.5	0.05496042896	0.04375064861	
648.125	0.1671513877	0.06981687306	
648.75	0.284080531	-0.05721865262	
649.375	0.2493052729	-0.2424029327	
650.0	0.1892836032	-0.3085251324	
650.625	0.1809144427	-0.2893149187	
651.25	0.2242422465	-0.2355252843	
651.875	0.2805740945	-0.1598129881	
652.5	0.3026126762	-0.08068274935	
653.125	0.2971210334	-0.08795764008	
653.75	0.2398259542	-0.216066681	
654.375	-0.01597614021	-0.3319622705	
655.0	-0.2860754984	-0.141522684	
655.625	-0.2120515081	0.1685241601	
656.25	0.01043877061	0.1877939709	
656.875	0.04659581209	0.07973752464	
657.5	0.02608504458	0.1116544194	
658.125	0.1322649488	0.186081024	
658.75	0.3030605307	0.1162394995	
659.375	0.3620911113	-0.1193366204	
660.0	0.2644019785	-0.2964528935	
660.625	0.1670820599	-0.3356071204	
661.25	0.1895425403	-0.2980517759	
661.875	0.2486073947	-0.2502965173	
662.5	0.2962331977	-0.1937872967	
663.125	0.2961808948	-0.1854860644	
663.75	0.198915635	-0.2834544766	
664.375	-0.003165047176	-0.3507282796	
665.0	-0.2555764628	-0.2555708477	
665.625	-0.3522648459	0.05410256973	
666.25	-0.1382442988	0.2789718938	
666.875	0.09882259824	0.2319668649	
667.5	0.181718607	0.1245593047	
668.125	0.2386778507	0.01271436301	
668.75	0.2186635908	-0.133626578	
669.375	0.1213037848	-0.2232335102	
670.0	0.03037038201	-0.2336342234	
670.625	0.02210399546	-0.2064575447	
671.25	0.06865655074	-0.1854228027	
671.875	0.1535705458	-0.1663943432	
672.5	0.2301974958	-0.1416737024	
673.125	0.2349766877	-0.1687056941	
673.75	0.1873632033	-0.2120600233	
674.375	0.09187607965	-0.2689538725	
675.0	-0.0654874891	-0.2704048926	
675.625	-0.1869812829	-0.1566069593	
676.25	-0.1870564831	-0.0572765202	
676.875	-0.1628059221	-0.01457509329	
677.5	-0.1607635618	0.006723414012	
678.125	-0.1781355603	0.1196472736	
678.75	-0.0004432702556	0.2509049991	
679.375	0.2094408434	0.1061639847	
680.0	0.1689952758	-0.06958233879	
680.625	0.08207802683	-0.08404556645	
681.25	0.0905995802	-0.006616389836	
681.875	0.1602233091	0.06578927667	
682.5	0.2137667473	0.1029507019	
683.125	0.2490637192	0.1004759133	
683.75	0.2764415689	0.1018100002	
684.375	0.2922590325	0.06045657115	
685.0	0.2858292459	0.06904787549	
685.625	0.3130647482	0.04099199522	
686.25	0.3178514984	-0.01159360849	
686.875	0.340857158	-0.1017290857	
687.5	0.3247444239	-0.2773760744	
688.125	0.0443524229	-0.46126819	
688.75	-0.3909375808	-0.2839281913	
689.375	-0.365747072	0.2807782419	
690.0	0.04996011024	0.3812076612	
690.625	0.2108653103	0.3039406042	
691.25	0.3179078603	0.3143094799	
691.875	0.4463529106	0.3575989305	
692.5	0.6244170884	0.2782480264	
693.125	0.7044683109	0.02038567022	
693.75	0.6305293018	-0.2080938968	
694.375	0.5012346662	-0.3778514886	
695.0	0.4925263794	-0.2778533788	
695.625	0.5338592964	-0.03805904526	
696.25	0.5210041239	0.2328769094	
696.875	0.3740597517	0.4461932141	
697.5	0.3268187711	0.5410329653	
698.125	0.5710793581	0.3460278753	
698.75	0.5421172587	-0.3283637433	
699.375	-0.3062960222	-0.5094888812	
700.0	-0.355244483	0.3074247626	
700.625	0.08584616802	0.324733779	
701.25	0.223027324	0.2251858032	
701.875	0.2531578261	0.2610953122	
702.5	0.340371603	0.2880747813	
703.125	0.4394495357	0.1525680037	
703.75	0.4045785703	-0.0789261791	
704.375	0.3091152162	-0.1763651584	
705.0	0.2601583468	-0.1370825369	
705.625	0.269481971	0.01641840037	
706.25	0.2605111721	0.2056293775	
706.875	0.2247132162	0.3220532159	
707.5	0.229159811	0.3997723993	
708.125	0.4480905299	0.2148757631	
708.75	0.3748966354	-0.295755783	
709.375	-0.2028828524	-0.3622426017	
710.0	-0.2515407577	0.1816681341	
710.625	0.03887017203	0.1654442246	
711.25	0.07585327152	0.1460605903	
711.875	0.1993736403	0.1471724632	
712.5	0.3247229858	0.02570980721	
713.125	0.3038897333	-0.1511644947	
713.75	0.1649084908	-0.2480855152	
714.375	0.04048798659	-0.2443075007	
715.0	-0.01131020147	-0.2196981257	
715.625	0.0274202162	-0.2209807003	
716.25	0.180654345	-0.2330768943	
716.875	0.3670644462	-0.1697106697	
717.5	0.5290981804	0.004857704864	
718.125	0.685018867	0.1447468269	
718.75	0.8324943865	-0.005323444892	
719.375	0.8151065386	-0.2995835829	
720.0	0.6797703773	-0.7368136336	
720.625	0.4011245644	-0.9239998695	
721.25	0.1199811392	-0.990032939	
721.875	-0.07577404843	-1.100644603	
722.5	-0.514695851	-0.8926549915	
723.125	-0.7660662149	-0.2915754516	
723.75	-0.5013796509	0.3734784555	
724.375	-0.02197988237	0.4765671887	
725.0	0.1396788927	0.393729558	
725.625	0.1470248119	0.4891647822	
726.25	0.02227094836	0.6921899621	
726.875	-0.1487496991	0.9456161417	
727.5	-0.2558424743	1.397702781	
728.125	-0.2053366976	1.943666182	
728.75	-0.4838517671	2.598789506	
729.375	-1.401983626	3.395239139	
730.0	-0.3552597237	3.737501728	
730.625	-0.2667271447	4.425565071	
731.25	-1.133013021	4.334503983	
731.875	-3.054488042	2.716797766	
732.5	-3.527849778	0.2629457072	
733.125	-2.563118098	0.058265136	
733.75	-1.126778244	1.162958307	
734.375	0.7208819775	0.6889473604	
735.0	0.1284561558	-0.6383011965	
735.625	-0.4852464137	0.02831656164	
736.25	-0.1571165266	0.5206776655	
736.875	0.3661230057	0.6378306536	
737.5	1.03299418	0.3118881265	
738.125	1.551872011	-0.2432540891	
738.75	1.902168365	-1.02606512	
739.375	2.288654286	-1.361226714	
740.0	2.798647262	-0.9323303123	
740.625	2.774327915	0.1931674446	
741.25	0.452374712	3.059156573	
741.875	-2.610104335	-0.1007433218	
742.5	-0.8759351639	-2.603436367	
743.125	0.4795940432	-1.855278461	
743.75	0.1520963346	-0.9939535675	
744.375	-0.4913750623	-0.2668020857	
745.0	0.02634122403	0.1328215564	
745.625	0.03727244495	0.01256848835	
746.25	0.01536237507	-0.1361026447	
746.875	-0.2361884377	-0.01503457294	
747.5	-0.1567843977	0.3296880249	
748.125	0.06311029404	0.554132165	
748.75	0.2526801772	0.5250137124	
749.375	0.09915678001	0.5277116987	
750.0	-0.301769085	0.2200100088	
