!Created with skrf (http://scikit-rf.org).
# GHz S MA R 50.0 
!freq magS11 angS11
500.0 0.0119917902825 160.596358448
500.625 0.00870551218587 120.135051809
501.25 0.0111709294032 -65.4557265299
501.875 0.0456940899078 -172.900733924
502.5 0.0154760415964 134.648466656
503.125 0.0156382868844 27.3602309431
503.75 0.0185172158177 126.138862715
504.375 0.00177435337041 158.880667545
505.0 0.016950815055 -78.555937101
505.625 0.0383053979299 -81.6840591283
506.25 0.0459153246048 -106.618707387
506.875 0.057006412982 -107.529328702
507.5 0.0435119744246 -126.384473716
508.125 0.0690176813459 -83.4117076778
508.75 0.0534317846805 -152.359264329
509.375 0.0448410326343 -160.155776579
510.0 0.0342651024758 -117.276391628
510.625 0.0562506132195 -157.758817758
511.25 0.0414051882853 166.864582476
511.875 0.0506007242925 143.512519322
512.5 0.0396507861455 97.2783416962
513.125 0.0650193865548 56.422314236
513.75 0.0465389773184 19.901580567
514.375 0.0493350365781 28.668487561
515.0 0.0523687808147 9.95577096711
515.625 0.0936295101765 48.9955177404
516.25 0.0871898071826 28.2185300195
516.875 0.107946442721 69.5767016415
517.5 0.116732629695 19.9268267896
518.125 0.21578914996 73.4079032392
518.75 0.0822936635256 8.16685351557
519.375 0.0723919886175 17.0104206213
520.0 0.110943720104 -1.83975043371
520.625 0.105180028067 -3.7935161749
521.25 0.0848271848728 -24.4349996693
521.875 0.0665716836788 1.59251348877
522.5 0.0964016584982 -32.2782903581
523.125 0.193097190451 -32.5439375835
523.75 0.201402577831 -63.6145668548
524.375 0.194428826738 -56.7242494294
525.0 0.0708919947442 -43.006125606
525.625 0.0328633969124 -61.4234864615
526.25 0.0406154943486 -11.3026874403
526.875 0.0512621475221 -28.0826373428
527.5 0.0543544207004 -25.9076777555
528.125 0.036278758434 -63.229470431
528.75 0.0639875187704 -70.6841658802
529.375 0.0876897675235 -112.462305053
530.0 0.0603269908877 -126.885759309
530.625 0.0233023462823 -123.71494476
531.25 0.102769958837 -130.59338977
531.875 0.162158349903 -150.800385923
532.5 0.158893271565 -170.776480617
533.125 0.0908999642918 173.791688319
533.75 0.110567011016 167.637025487
534.375 0.110506783963 175.178751203
535.0 0.0901017921181 163.237701758
535.625 0.0650894291011 178.595193667
536.25 0.0548817217751 165.227223185
536.875 0.0766371283204 -157.338670251
537.5 0.107884374987 -146.154091513
538.125 0.0872462432689 -172.0354889
538.75 0.0969226194696 179.399815948
539.375 0.0693317623817 -163.548306835
540.0 0.101241926303 -156.982141074
540.625 0.100889754691 -152.202489404
541.25 0.115381985494 -140.748647957
541.875 0.0966728900108 -142.347814327
542.5 0.118207699622 -144.406280301
543.125 0.117633522759 -164.763298477
543.75 0.122127654431 159.689166175
544.375 0.0944291281162 134.120034687
545.0 0.0911407897516 92.2323163058
545.625 0.100999022584 84.3141313121
546.25 0.0897169255076 67.8556341786
546.875 0.0899181553319 56.5527464734
547.5 0.119838314059 58.6387649368
548.125 0.0922423279465 76.9431268477
548.75 0.0794622630958 90.7764755348
549.375 0.0906305597805 84.0138189477
550.0 0.0942815652718 126.042765203
550.625 0.0459846843212 154.550539087
551.25 0.0384729616001 -137.162013183
551.875 0.0608500532086 -163.253941175
552.5 0.120213942491 -168.271804877
553.125 0.0832430360826 -162.410321711
553.75 0.0905968686888 -168.916132039
554.375 0.112941509592 164.211544138
555.0 0.132354368641 162.882705846
555.625 0.102713447907 156.86502565
556.25 0.0935002036658 164.961370367
556.875 0.115245757966 166.964992428
557.5 0.109644544142 167.420113973
558.125 0.105104222365 163.380882633
558.75 0.0808922181986 178.785024117
559.375 0.0670027433951 -175.013354442
560.0 0.0493965098122 -150.168132644
560.625 0.0597847069104 -141.697350956
561.25 0.0896515084264 -150.202344481
561.875 0.10807956691 -164.170789755
562.5 0.0944988360349 173.247836447
563.125 0.1032619059 146.871565802
563.75 0.127517413009 132.940654293
564.375 0.10192005154 120.201890028
565.0 0.0924144660966 118.326892695
565.625 0.0821802748076 116.719728091
566.25 0.0945708352622 154.586707752
566.875 0.0758923640004 -179.226123217
567.5 0.0723864999056 -176.870129786
568.125 0.0877781307572 -174.010637868
568.75 0.0556817551047 -137.75067312
569.375 0.0477631674728 -104.36460663
570.0 0.0593365040606 -103.800852558
570.625 0.0943000993082 -120.728257884
571.25 0.0891388752 -118.867675404
571.875 0.0871688702705 -123.473457956
572.5 0.112745234746 -155.891661253
573.125 0.147261859391 -177.524889225
573.75 0.0924397453785 167.338645719
574.375 0.0810329115822 150.115140855
575.0 0.106741956261 153.418521049
575.625 0.113850766434 151.953991964
576.25 0.089635471276 146.755520903
576.875 0.0776308952025 127.117601595
577.5 0.086036200502 136.762391142
578.125 0.0614503070342 159.030568039
578.75 0.0480295687804 165.615644326
579.375 0.0570096583727 162.849014981
580.0 0.0674509841395 -174.995288716
580.625 0.0788921184331 -157.093923564
581.25 0.0909660163507 -157.876331522
581.875 0.115344093766 -173.843581962
582.5 0.110788668052 -172.512380593
583.125 0.0975488141165 -173.590345804
583.75 0.0791748295753 -160.737044724
584.375 0.102518664714 -156.094112614
585.0 0.0986861836966 -147.929792049
585.625 0.0761186361411 -153.670585616
586.25 0.0672357699571 -125.001223454
586.875 0.081850218089 -130.225223349
587.5 0.0694047196247 -140.051837659
588.125 0.0609054802844 176.854932992
588.75 0.0680080382341 -148.176624665
589.375 0.0860290035215 -150.80347771
590.0 0.0901902134109 -170.558069683
590.625 0.103368517278 161.790413197
591.25 0.117598731088 157.705489949
591.875 0.0975504012464 159.368294344
592.5 0.065177491228 144.714629077
593.125 0.0612087599833 145.713243647
593.75 0.0622510267397 -175.094580767
594.375 0.0591790663273 -145.965678725
595.0 0.0402802353405 -112.839402264
595.625 0.0569996849899 -105.944496853
596.25 0.0715201500334 -84.1826732598
596.875 0.0685726329471 -69.6682369803
597.5 0.0582820162426 -64.1990346307
598.125 0.0577704011702 -69.4864995119
598.75 0.0876250339645 -53.9082462545
599.375 0.0927286926005 -60.9190523249
600.0 0.102506354929 -60.4619759853
600.625 0.097033117992 -76.0335535333
601.25 0.0830695298322 -66.7650302502
601.875 0.0695999891452 -84.0685263129
602.5 0.0619318355462 -93.4731415334
603.125 0.0444059053839 -67.172173096
603.75 0.027637587715 -54.4194359318
604.375 0.0505491156637 -13.8022531321
605.0 0.0675696206375 -10.8607775016
605.625 0.0561558396681 3.37943787956
606.25 0.0186428771003 -25.8697702389
606.875 0.0568662642118 55.5892925476
607.5 0.065410785424 46.2054978021
608.125 0.0704598071255 30.3961040441
608.75 0.0521056810805 14.0122230644
609.375 0.0739657901803 35.2623612613
610.0 0.0787483376714 45.9582000813
610.625 0.0686753697441 45.4519549516
611.25 0.0418104725043 11.8401767256
611.875 0.0524319641103 74.9540274964
612.5 0.0257759964806 94.525685108
613.125 0.0216039572185 132.593859595
613.75 0.0326399200176 124.260932563
614.375 0.0320480248992 115.435655585
615.0 0.0343401123407 117.327369336
615.625 0.0221520722638 136.982731056
616.25 0.0449579236342 135.761115874
616.875 0.0324097631243 125.48308157
617.5 0.0352017901775 121.545467688
618.125 0.020356799224 132.322583031
618.75 0.0291281175959 140.371638867
619.375 0.00588901426317 119.134507871
620.0 0.00968448953447 141.687952392
620.625 0.0238548551033 -108.508325789
621.25 0.0530700095965 -79.3782751529
621.875 0.0657921773019 -108.153227045
622.5 0.0711480245798 -164.412949833
623.125 0.0703685203147 169.463209522
623.75 0.0587216401248 164.54714134
624.375 0.0317628622657 -160.619738444
625.0 0.052559896199 -159.557949208
625.625 0.0461540562274 -159.607223008
626.25 0.031901699688 -172.940081107
626.875 0.0244662326391 -9.04705350627
627.5 0.0248484307686 -101.069451902
628.125 0.0341957744959 -29.7983190157
628.75 0.038030122312 -30.0027227507
629.375 0.0650731244693 1.12452566965
630.0 0.0660876982568 -9.0842118721
630.625 0.0659813245472 -0.12166922156
631.25 0.0654615743185 3.7496725548
631.875 0.0773713819031 10.8316033393
632.5 0.0710206798105 -31.3286273948
633.125 0.0474749617714 0.616733523938
633.75 0.0443812956464 12.5440422364
634.375 0.0486215132049 27.1294769739
635.0 0.045338092318 39.6161266517
635.625 0.0302520171711 20.6689504074
636.25 0.0467079254355 36.2270939535
636.875 0.0640076368859 29.4921396039
637.5 0.0569863814153 54.7323788895
638.125 0.0255404832817 40.9955152349
638.75 0.0697314204419 71.7615451638
639.375 0.0979951425605 92.8373378897
640.0 0.0766127607142 108.414184025
640.625 0.0535211403737 91.4392395721
641.25 0.0665532157129 123.544102212
641.875 0.064195963517 143.784274399
642.5 0.0689039229239 164.02929007
643.125 0.0439826285222 142.520181997
643.75 0.0619635827114 171.856077597
644.375 0.0703082967843 179.927733906
645.0 0.0922155454615 -178.820131451
645.625 0.0827112437747 161.185618175
646.25 0.0881196571639 162.585413307
646.875 0.0798447413073 -176.811777406
647.5 0.070166241075 -174.15133681
648.125 0.0858320184627 -176.454179714
648.75 0.0753285469053 -165.176141276
649.375 0.048129462707 -146.061610473
650.0 0.0479175867526 -116.784122791
650.625 0.08020994972 -87.7788941008
651.25 0.0586158479256 -65.883729459
651.875 0.0603339010232 -40.0667409397
652.5 0.0802931546576 -23.3327802119
653.125 0.137775118899 -1.82279972622
653.75 0.108107330157 6.87840504851
654.375 0.112466649335 5.81615740996
655.0 0.12458274121 12.9885113789
655.625 0.104375536489 28.5536431031
656.25 0.0555686720974 15.5436659259
656.875 0.0644688887787 5.78990114152
657.5 0.0729600657836 21.5683003343
658.125 0.0836032534971 48.1010419825
658.75 0.0406872827933 70.2683894882
659.375 0.0799608370161 42.9460385226
660.0 0.119412769033 24.5720601597
660.625 0.121225143769 17.3865322766
661.25 0.0998019548751 4.34276706933
661.875 0.124033715161 -12.6180212605
662.5 0.11878913478 -23.1706077373
663.125 0.117509215007 -15.9157244234
663.75 0.0775417762566 1.22903022999
664.375 0.0898411611115 55.5584218949
665.0 0.0760357817657 92.0011134276
665.625 0.0672186698977 111.403183008
666.25 0.0833177646876 131.124010886
666.875 0.124725934029 167.106027041
667.5 0.100758286353 -169.302180303
668.125 0.110245125481 179.28712037
668.75 0.128788749403 169.964222854
669.375 0.121431545927 178.493717629
670.0 0.0889441766678 -169.899028199
670.625 0.0954872052647 -173.92729348
671.25 0.0902190825025 175.735677049
671.875 0.0919546787887 170.095527498
672.5 0.0715035656436 155.10876715
673.125 0.0918776240436 150.046232862
673.75 0.111549817762 159.040694413
674.375 0.119913913491 168.074193611
675.0 0.118628445408 -174.943490402
675.625 0.138698263268 -151.992297918
676.25 0.124612619965 -124.402267113
676.875 0.11883833093 -120.885708116
677.5 0.127602070158 -127.975428441
678.125 0.141846769341 -117.754004858
678.75 0.051323044269 -91.8336471657
679.375 0.0472508243146 -68.0757820065
680.0 0.0725500868891 -78.6209062468
680.625 0.132893307708 -81.2295901077
681.25 0.103931724235 -72.556635986
681.875 0.0998730329954 -92.5726950267
682.5 0.141176568321 -121.51335132
683.125 0.167902529463 -121.499306345
683.75 0.148523328426 -106.901537674
684.375 0.100385740269 -73.9232743071
685.0 0.131196506889 -37.5765526081
685.625 0.129459743545 -0.621775773154
686.25 0.121010809644 18.5672667702
686.875 0.0674896575965 52.6107535425
687.5 0.0684192811195 86.8688545835
688.125 0.0768905930357 111.81178996
688.75 0.10714528394 107.65246299
689.375 0.127428923964 129.319389384
690.0 0.134524705083 133.109634509
690.625 0.122070203311 125.016452526
691.25 0.146813003852 95.4291470606
691.875 0.19861799764 64.9046471207
692.5 0.14204979666 38.9399104771
693.125 0.0875857043876 -13.0710937665
693.75 0.0900776015435 -36.2621599128
694.375 0.147365439544 -36.2653082479
695.0 0.114033988113 22.1466889633
695.625 0.102486274688 55.211815586
696.25 0.115608797187 110.732976575
696.875 0.140955165349 172.52950238
697.5 0.149535116049 -149.46699626
698.125 0.133370896477 -130.375945626
698.75 0.139165563398 -135.726839559
699.375 0.117350514933 -129.816812648
700.0 0.0859362004725 -101.974523568
700.625 0.112160463029 -84.6977800589
701.25 0.0981591696318 -67.3527953151
701.875 0.0849585106736 -64.6412294476
702.5 0.101283894588 -77.7273240896
703.125 0.167020405987 -123.160921348
703.75 0.18641034183 -154.233085109
704.375 0.129374152255 170.388991351
705.0 0.115023057139 151.995344734
705.625 0.134387238276 -157.885508712
706.25 0.139176297917 -108.230236471
706.875 0.0851994018426 -59.3951351627
707.5 0.0793816489812 -43.0753481927
708.125 0.0870763931389 28.2841574893
708.75 0.114270583609 67.6910124196
709.375 0.103787537113 106.775748948
710.0 0.102238081076 127.498526175
710.625 0.10837678794 148.017555549
711.25 0.118797378706 173.483977261
711.875 0.145129569787 168.996597733
712.5 0.157711912963 136.660824535
713.125 0.115207688829 110.651891473
713.75 0.101552425849 46.8725838818
714.375 0.116819397855 16.7778840496
715.0 0.114846450989 27.4459862582
715.625 0.0854683172448 40.3297582616
716.25 0.0910538982092 92.0438707958
716.875 0.126708578628 111.54823661
717.5 0.140997619544 149.798646889
718.125 0.118053130057 162.722462491
718.75 0.102705781299 173.435045558
719.375 0.116336366085 -169.152970118
720.0 0.134061388284 -122.720102778
720.625 0.115555725269 -76.1744639564
721.25 0.0949914040158 -23.1438641739
721.875 0.0858684661279 37.3606966912
722.5 0.0672044022494 79.4023349888
723.125 0.0679995626073 52.1310461503
723.75 0.11965019759 47.6207493009
724.375 0.109325938664 -3.28242109344
725.0 0.0876182033767 -48.7890844761
725.625 0.100399677633 -66.9850011128
726.25 0.100682775762 -82.032564442
726.875 0.11042853903 -33.9769324057
727.5 0.0887207192406 -23.5429542885
728.125 0.0794295072421 8.41036220378
728.75 0.0726439434928 9.99193830892
729.375 0.0890185032554 27.7811104516
730.0 0.0687135388852 2.59294470423
730.625 0.0720793339381 23.518427591
731.25 0.0691344352393 64.0229267076
731.875 0.0557181451278 100.100298056
732.5 0.097200099873 161.196547464
733.125 0.0905311155158 178.716295421
733.75 0.0749184407587 168.778919168
734.375 0.0512891318464 176.080211558
735.0 0.0508772051718 150.918585616
735.625 0.0329784690576 131.046308514
736.25 0.0386901848913 144.464392427
736.875 0.0328147682203 -179.075383951
737.5 0.0777613335436 177.69033392
738.125 0.106145647956 -176.637465974
738.75 0.0742020503988 -178.815625593
739.375 0.0264714483233 164.001856202
740.0 0.0942684330884 -138.916879137
740.625 0.0596231573134 -147.712756163
741.25 0.0566975875721 -149.11886725
741.875 0.0202125638314 -95.0603524692
742.5 0.0160357040355 18.8455723436
743.125 0.0375154837293 54.3317256007
743.75 0.0521903559199 106.503079125
744.375 0.0412672311937 176.910289153
745.0 0.0879227638237 105.213465609
745.625 0.074182310387 108.279421599
746.25 0.0798622782726 94.2850429315
746.875 0.0647988499644 41.38026558
747.5 0.0350113400952 18.3776644597
748.125 0.0275738167561 -8.22144875648
748.75 0.0323773376661 -27.9418965985
749.375 0.0433891857366 -34.5979451328
750.0 0.0428293027421 -46.099081063
