!Created with skrf (http://scikit-rf.org).
# GHz S RI R (50+0j) 
!freq	ReS11	ImS11	
500.0	-0.2790389384	-1.180002521	
500.625	0.5007034517	-0.4023644264	
501.25	-0.6190804261	-1.173424612	
501.875	-0.2988436352	-0.2205817355	
502.5	0.03705960666	-0.1399745952	
503.125	-0.1055589908	0.04228307721	
503.75	0.01698414649	0.02006723218	
504.375	0.06112408617	0.006213071531	
505.0	-0.01273335475	-0.03270179563	
505.625	0.054620421	-0.0791787564	
506.25	-0.160109539	-0.03719031773	
506.875	-0.007988980241	-0.2150353339	
507.5	-0.4964732224	-0.5697522144	
508.125	-0.1429172632	-0.3549772289	
508.75	0.9674087674	-0.636907056	
509.375	-0.3861508084	-1.33738117	
510.0	-0.3198910324	-0.01332204441	
510.625	-0.009722923017	-0.226616274	
511.25	-0.1624765437	-0.00226839064	
511.875	-0.05869706556	-0.09134183965	
512.5	-0.04724272586	0.07487625716	
513.125	-0.05463619829	-0.03766593069	
513.75	-0.0007548034939	-0.05455954937	
514.375	-0.1691099052	-0.04880626401	
515.0	0.5272491494	0.06954367774	
515.625	-0.3264122763	-0.8401669698	
516.25	-0.3006060551	-0.1097816913	
516.875	0.01066590717	-0.6500772542	
517.5	-0.1819290342	-0.1303482568	
518.125	0.05080172075	-0.02369047479	
518.75	-0.1605346502	-0.1265358235	
519.375	-0.02405178814	0.05280532719	
520.0	0.1109432079	0.06383627383	
520.625	0.215246874	-0.05313051758	
521.25	-0.1072821526	-0.2656962883	
521.875	-0.04923340297	-0.02529662889	
522.5	-0.0928601327	-0.01429467614	
523.125	0.06327482713	-0.001204054474	
523.75	-0.2259704972	-0.09106167962	
524.375	-0.1144104195	0.1883232565	
525.0	-0.1053642674	-0.02242441577	
525.625	0.002254944326	0.1565801281	
526.25	-0.06197762798	-0.09880389164	
526.875	-0.06373411988	0.122445766	
527.5	-0.1124729382	0.08000660936	
528.125	-0.07574094146	0.264188187	
528.75	0.07736509035	0.3513637663	
529.375	0.001879280172	-0.01269183348	
530.0	0.04035162985	0.2975659582	
530.625	0.2031293419	0.1667149132	
531.25	0.2623547954	0.03108732703	
531.875	0.3491063119	-0.1569449786	
532.5	-0.2291475516	-0.06183354723	
533.125	0.1918047357	-0.07620356648	
533.75	-0.04654966885	-0.2335217712	
534.375	0.04798763117	-0.2677249056	
535.0	-0.3658171904	-0.166614289	
535.625	-0.08909157986	0.1143653462	
536.25	-0.04240727852	0.08935064716	
536.875	0.1363920811	0.005271037707	
537.5	0.02473613572	-0.02309986121	
538.125	0.1842384034	-0.03653069079	
538.75	0.1139545752	-0.1317062501	
539.375	-0.03715609196	-0.1437352554	
540.0	-0.1114957286	-0.163414013	
540.625	-0.1632601633	0.0352935875	
541.25	-0.04734168714	0.01432104244	
541.875	-0.07717400012	-0.09099387882	
542.5	-0.0001348220995	-0.01300604754	
543.125	-0.08586814619	-0.1079249006	
543.75	-0.1676227951	0.1082448035	
544.375	-0.05099293456	-0.02068659967	
545.0	-0.000493169658	0.1468460079	
545.625	0.02951455594	0.001772770562	
546.25	0.1284393717	0.09964742022	
546.875	0.1036620372	-0.08801876842	
547.5	0.06693168366	-0.04421556966	
548.125	-0.0302732256	-0.228174064	
548.75	-0.180008976	-0.0668224858	
549.375	-0.05362188712	-0.07545768311	
550.0	-0.1156815781	-0.01388825671	
550.625	-0.01893192421	0.01899940953	
551.25	-0.1178473691	0.0125801212	
551.875	-0.04514647853	0.09182329375	
552.5	-0.04532074261	0.04242516914	
553.125	-0.01268677455	0.08138125786	
553.75	0.04149775183	0.03154658263	
554.375	0.1046109578	0.004839974911	
555.0	0.1020500681	-0.09006007647	
555.625	0.08459061069	-0.105224573	
556.25	0.07615797432	-0.1453930791	
556.875	-0.03614516875	-0.1706835979	
557.5	-0.1021187423	-0.1055088277	
558.125	-0.1184068491	-0.04717616715	
558.75	-0.1211274873	-0.004114260695	
559.375	-0.1100533753	0.0261360195	
560.0	-0.10767678	0.05804793072	
560.625	-0.0653637108	0.1321680594	
561.25	0.02311258804	0.0858717789	
561.875	0.002960170584	0.06195648099	
562.5	0.04794226397	0.0540521174	
563.125	0.03557279023	0.07702564128	
563.75	0.1898325734	0.01006874412	
564.375	0.08990125156	-0.1025615615	
565.0	0.1288078723	-0.106265273	
565.625	-0.07354794363	-0.1987683712	
566.25	-0.07734987024	-0.07104070343	
566.875	-0.1481598522	-0.1471536101	
567.5	-0.2323768123	-0.04997816493	
568.125	-0.05972737879	-0.1382005549	
568.75	-0.2991479501	-0.1433014537	
569.375	-0.1689085171	0.1883328296	
570.0	-0.1520357608	0.1116993546	
570.625	-0.1075046848	0.264065384	
571.25	0.05564691172	0.05771689638	
571.875	0.01781613807	0.1774391604	
572.5	0.1402973426	-0.1172255058	
573.125	0.07027537166	-0.01322197684	
573.75	0.1354953382	-0.1820770997	
574.375	-0.08826453833	-0.07873587159	
575.0	0.1158971439	0.02408432054	
575.625	-0.002502964655	-0.1522037129	
576.25	0.02544523554	-0.02015689422	
576.875	0.06158392734	-0.2109811712	
577.5	-0.1289728905	-0.2185635939	
578.125	-0.009587594051	-0.05456817983	
578.75	-0.04407350632	-0.215637466	
579.375	-0.2262518667	-0.01447245856	
580.0	0.1217978697	-0.03693419587	
580.625	-0.191241729	-0.03222149505	
581.25	0.01257485892	0.06441406038	
581.875	-0.159244929	0.2005274278	
582.5	0.1786498979	0.2291724848	
583.125	0.01076594115	-0.05328018361	
583.75	0.02310745887	0.1450426061	
584.375	0.0797564514	-0.06926897496	
585.0	0.02343143624	0.1313163915	
585.625	0.2719933017	-0.04681517815	
586.25	0.0664426088	-0.1135997856	
586.875	0.1506868642	-0.09457463269	
587.5	-0.06385356291	-0.2165496004	
588.125	-0.02144398003	-0.04765756354	
588.75	0.1262359931	-0.1856082115	
589.375	-0.02209541535	-0.2272855966	
590.0	0.01098392556	-0.09834142676	
590.625	-0.3187572288	-0.1850908102	
591.25	-0.05178866814	0.2318347015	
591.875	-0.03330190577	0.01780411946	
592.5	-0.04115003897	0.1497591447	
593.125	-0.08538739123	-0.1196515252	
593.75	0.06663332801	0.2613316493	
594.375	0.1334904466	-0.028728554	
595.0	0.07476720357	0.1371607131	
595.625	0.2847517619	0.06526155265	
596.25	0.1264797337	-0.05335213511	
596.875	0.104107194	0.1293365978	
597.5	0.2446448655	0.09847514533	
598.125	0.09711675762	0.08305725004	
598.75	0.1383188574	0.1491355348	
599.375	0.2697972772	-0.06555707412	
600.0	0.09119224949	-0.1286706554	
600.625	0.2073379859	-0.141335029	
601.25	0.0356227618	-0.278361567	
601.875	-0.07282946605	-0.02409729557	
602.5	-0.1718334678	-0.1227453355	
603.125	-0.01677871543	0.1885305326	
603.75	-0.04997009519	-0.03228455655	
604.375	-0.2135500712	0.08119651589	
605.0	0.05911077603	0.07559701609	
605.625	-0.1567841115	-0.01486776974	
606.25	-0.09692266023	0.141988597	
606.875	-0.08795867191	0.03887233446	
607.5	-0.1987897265	0.228222269	
608.125	0.02751107225	0.2477134252	
608.75	0.1134501133	0.130704966	
609.375	0.3118806981	0.04126684627	
610.0	0.1755135291	-0.1801349702	
610.625	0.03174327862	-0.1223387495	
611.25	0.1129847462	-0.2108071423	
611.875	-0.1817443688	-0.06249327192	
612.5	-0.03706840042	-0.09780175478	
613.125	-0.323281559	0.02455766637	
613.75	0.09863623731	0.1450660445	
614.375	-0.1004752007	0.09331420472	
615.0	0.1599028717	0.09974145358	
615.625	-0.05796301265	-0.03353751097	
616.25	0.01319990664	0.2608301557	
616.875	0.04320299138	0.1954312378	
617.5	-0.1296990591	0.141370625	
618.125	-0.06779732204	0.3125247524	
618.75	-0.0382268949	0.2613777215	
619.375	0.04734916116	0.1530731536	
620.0	0.196756005	0.1147560312	
620.625	0.02393500577	-0.1608396535	
621.25	-0.00200077742	-0.04376722556	
621.875	-0.2763611383	-0.1355736624	
622.5	-0.1557706294	0.1486175077	
623.125	-0.1103140857	0.1133409005	
623.75	0.2293296452	0.1068553238	
624.375	-0.04587576083	-0.07018054104	
625.0	0.136253042	-0.03230462147	
625.625	-0.04222540062	-0.1052129628	
626.25	0.02925248847	-0.1228000645	
626.875	-0.2010777745	-0.1378767287	
627.5	-0.143208623	0.03684281794	
628.125	-0.08493557848	-0.07497815707	
628.75	-0.1364258767	-0.1655217929	
629.375	-0.1755393139	-0.1256108379	
630.0	-0.169452368	-0.1262651009	
630.625	-0.3198426084	0.03362037327	
631.25	-0.04688040613	0.2695869659	
631.875	-0.1392232215	0.2353934537	
632.5	0.2145007121	0.234396926	
633.125	0.1562176218	-0.07308626839	
633.75	0.2096758967	0.005640971335	
634.375	0.03284868691	-0.2980821533	
635.0	-0.01151952808	-0.04588324726	
635.625	-0.1764033066	-0.1813283277	
636.25	-0.1490413478	0.1698407028	
636.875	-0.02497279249	0.04560066972	
637.5	-0.1578750098	0.159528358	
638.125	0.04072494519	0.05125682377	
638.75	-0.1886317463	0.1485529758	
639.375	0.08559634786	0.3279644646	
640.0	0.1798802455	0.1577010028	
640.625	0.1959563194	0.2175325055	
641.25	0.3803924799	-0.0664670468	
641.875	0.06801630797	-0.1860176542	
642.5	0.123817027	-0.1761987696	
643.125	-0.262379577	-0.1801579042	
643.75	0.02799498149	0.1186252325	
644.375	-0.2863182293	-0.1124100081	
645.0	0.004547058543	0.3341133706	
645.625	-0.03490524205	0.04407393119	
646.25	0.2884904162	0.2901441908	
646.875	0.0639906232	-0.1778142187	
647.5	0.04034469656	0.2609774647	
648.125	0.2599811791	-0.07068439038	
648.75	0.1126862534	-0.0249556844	
649.375	0.4350213135	-0.2003911794	
650.0	0.02497785032	-0.5107562909	
650.625	0.09983020868	-0.1262631707	
651.25	0.3638331214	-0.2579506018	
651.875	0.1991512	-0.3531799762	
652.5	0.1548213385	0.01513135765	
653.125	0.4464879904	-0.1027948867	
653.75	0.06743596204	-0.3231487987	
654.375	0.03447631773	-0.1937745669	
655.0	-0.489087768	-0.3746692676	
655.625	-0.05897142216	0.3465582582	
656.25	-0.04747841565	0.05504819903	
656.875	0.1300293677	0.284965956	
657.5	-0.02335069048	-0.1496407663	
658.125	0.1670190848	0.4817672923	
658.75	0.4117184481	-0.0891825158	
659.375	0.1875081339	-0.04997125565	
660.0	0.3658186394	-0.2346323811	
660.625	0.02112967895	-0.557160612	
661.25	0.07018391329	-0.1316352423	
661.875	0.358669093	-0.2613626605	
662.5	0.2194284571	-0.3275826912	
663.125	0.1846374157	-0.09268999943	
663.75	0.2983396593	-0.3524866716	
664.375	-0.1924853781	-0.3203238302	
665.0	-0.1513043097	-0.1781269946	
665.625	-0.4247554041	0.02326501661	
666.25	0.001703941541	0.3570715191	
666.875	0.01520407189	0.1457836757	
667.5	0.3368668088	0.2153581277	
668.125	0.1481225609	-0.14269167	
668.75	0.225339004	-0.02237000779	
669.375	0.09623806165	-0.4437579085	
670.0	-0.06388554514	-0.01969079367	
670.625	0.1326799902	-0.2050527028	
671.25	0.006010028075	-0.2973467572	
671.875	0.04622927283	-0.02622252296	
672.5	0.3500236666	-0.1037702265	
673.125	0.1566494857	-0.2991335821	
673.75	0.1100721662	-0.1370485148	
674.375	0.1589315014	-0.3032654356	
675.0	-0.2712123798	-0.1904264235	
675.625	-0.04870131384	-0.08900496126	
676.25	-0.2811023973	-0.1150864377	
676.875	-0.1505007278	0.1319665538	
677.5	-0.04928388681	-0.07183735708	
678.125	-0.2688439666	0.2508019901	
678.75	0.1989146757	0.1338004895	
679.375	0.001958509621	0.2087449794	
680.0	0.3901212404	-0.1578809569	
680.625	-0.2866204366	-0.07305807481	
681.25	0.2746855849	0.1995591879	
681.875	0.2239424511	-0.1537519743	
682.5	-0.003338355475	0.07686455145	
683.125	0.4584863545	0.2516050573	
683.75	0.3832025962	-0.1455196498	
684.375	0.07925511029	0.1737061859	
685.0	0.3896249213	0.05811523259	
685.625	0.3054101019	-0.1483860564	
686.25	0.233985522	0.1494373654	
686.875	0.5418031118	-0.2690277702	
687.5	0.1477215388	-0.2626790812	
688.125	0.08012996386	-0.3906822953	
688.75	-0.5009019553	-0.2986714639	
689.375	-0.08914504205	0.4354745258	
690.0	-0.1245463297	0.2950934361	
690.625	0.449324737	0.3498612401	
691.25	0.1108980874	-0.02693663051	
691.875	0.3608260048	0.5969789374	
692.5	0.8597879484	0.100832293	
693.125	0.3913700892	0.09723293353	
693.75	0.808534579	-0.1631143868	
694.375	0.3740232891	-0.5707462872	
695.0	0.2636622136	-0.1436686479	
695.625	0.6809867922	0.07373147473	
696.25	0.6167722098	-0.02318992847	
696.875	0.4869085648	0.4466296138	
697.5	0.3422125466	0.6105496979	
698.125	0.7749075666	0.0218022234	
698.75	0.3107916507	-0.2292851177	
699.375	-0.2249593758	-0.403943616	
700.0	-0.2355317648	0.5039523575	
700.625	0.1305911667	0.1036375475	
701.25	0.2909712882	0.4028312771	
701.875	0.3432715373	-0.03961145038	
702.5	0.1615587982	0.2923242433	
703.125	0.551667213	0.2386189767	
703.75	0.2866966689	-0.243639589	
704.375	0.411634774	-0.06459458946	
705.0	0.3326115761	-0.2092755906	
705.625	0.1357768851	-0.05587425482	
706.25	0.3379311766	0.1741852707	
706.875	0.3775706927	0.2895693612	
707.5	0.4608413072	0.5143406514	
708.125	0.4588411057	0.1584593975	
708.75	0.4290988596	-0.4038302771	
709.375	-0.317011193	-0.1149608951	
710.0	-0.02170595036	-0.0544045713	
710.625	0.1840664265	0.2605758727	
711.25	-0.01947347841	-0.004454869476	
711.875	0.270565231	0.2800955925	
712.5	0.2989826303	-0.2515669097	
713.125	0.1943251601	-0.04804387254	
713.75	0.2508686089	-0.3179179137	
714.375	-0.09255513102	-0.2619210781	
715.0	0.03923542724	-0.1356204317	
715.625	0.04675282187	-0.3643790141	
716.25	0.02743582668	-0.2018885827	
716.875	0.2962617762	-0.1099234766	
717.5	0.7236485591	-0.1297286605	
718.125	0.9024690506	-0.1513622663	
718.75	0.7412828279	0.02302262118	
719.375	0.8510660099	-0.7804988033	
720.0	-0.1758723821	-1.030599192	
720.625	0.6543539468	-0.3394130921	
721.25	-0.2379334915	-1.48004228	
721.875	-0.3018330199	-0.1621068492	
722.5	-0.5336241226	-1.061308664	
723.125	-1.075537811	0.1426075095	
723.75	-0.1543879608	0.3317943081	
724.375	-0.1774713732	0.6018323537	
725.0	0.3922652571	0.3267361032	
725.625	-0.009339552472	0.2907892631	
726.25	-0.1079390789	0.8657811432	
726.875	0.1973201333	1.042758625	
727.5	-0.07921859843	0.7829137062	
728.125	-0.40863118	2.418788336	
728.75	0.7893350728	3.373102197	
729.375	-0.6233880664	2.220757035	
730.0	-0.5650529712	5.26422897	
730.625	1.809971215	4.275890479	
731.25	-0.4012186465	0.9842184558	
731.875	-4.100496631	3.318317291	
732.5	-2.767751298	2.791292227	
733.125	-1.071379087	-1.118935635	
733.75	-1.55193617	2.258226718	
734.375	0.9945475046	-0.1219167391	
735.0	0.2052853603	-0.3674530861	
735.625	-0.8433778141	0.1927001448	
736.25	0.2598524593	0.009276587987	
736.875	0.1074962586	0.8986206881	
737.5	1.446916861	0.07002153309	
738.125	0.9358331077	-0.8465024222	
738.75	1.598782514	0.5369576859	
739.375	3.667808378	-3.013254358	
740.0	0.2959805585	-2.698107074	
740.625	1.23073574	3.174685555	
741.25	3.338970537	4.590107949	
741.875	2.83162921	-1.246872698	
742.5	-1.616979868	-3.954844249	
743.125	-0.9671681336	-2.264940358	
743.75	0.1018682751	-0.3795524416	
744.375	-0.8112585644	-0.7122290887	
745.0	0.2578269509	0.0700844998	
745.625	0.08852378692	0.1591827571	
746.25	-0.08783043892	-0.1892428674	
746.875	-0.05593680763	0.001758485806	
747.5	-0.2755521005	0.3602580351	
748.125	0.2184464321	0.5746612052	
748.75	0.1388138295	0.3359270418	
749.375	0.02349843899	0.5415520999	
750.0	-0.3402891342	0.3531057749	
