!Created with skrf (http://scikit-rf.org).
# GHz S MA R 50.0 
!freq magS11 angS11
500.0 0.0168549307152 171.244708258
500.625 0.0151463609368 34.0738147859
501.25 0.0296689148559 -169.194106537
501.875 0.044084504311 -174.306601242
502.5 0.0232389130853 159.782040768
503.125 0.0108550745105 103.24102303
503.75 0.00605753836822 29.5398994188
504.375 0.012546986491 -65.3492969154
505.0 0.0136049622974 -59.528140169
505.625 0.0386103216073 -76.9644782131
506.25 0.0333737146316 -117.832538865
506.875 0.0665514175682 -95.1876071513
507.5 0.0604495200411 -104.480663006
508.125 0.0376884781808 -130.394694886
508.75 0.0573059925887 -137.361689763
509.375 0.0520177813122 -157.202797405
510.0 0.0591001897844 -103.406819484
510.625 0.0283866633748 -163.290212711
511.25 0.0527103742688 -173.749997184
511.875 0.055802720325 150.946046158
512.5 0.0400148157986 107.79070546
513.125 0.0517703450714 46.5194713768
513.75 0.0507473547656 28.5465506805
514.375 0.0421679520824 28.5981373331
515.0 0.070538524943 12.1385130263
515.625 0.0770713805328 46.8583329723
516.25 0.0732132367559 27.8990870852
516.875 0.105357232577 69.9302399197
517.5 0.14431216855 24.4702319655
518.125 0.16992847075 61.818284849
518.75 0.0859010190311 15.7391503977
519.375 0.068650818523 23.5803960308
520.0 0.101204137694 0.364104377785
520.625 0.097389184594 -6.88067870023
521.25 0.0795704756184 -23.9042182685
521.875 0.0651997519854 0.0831116933942
522.5 0.109921609328 -28.8715558654
523.125 0.161242526308 -41.1075853995
523.75 0.200479437092 -61.3379399846
524.375 0.194117303467 -57.9545031159
525.0 0.074229649247 -33.834404757
525.625 0.0363692404115 -29.6633089862
526.25 0.0495614764282 -3.80440511035
526.875 0.0608485220881 -13.3151573675
527.5 0.0552377609945 -20.6881486099
528.125 0.0407864629147 -54.4504958607
528.75 0.0566274756272 -70.7456525407
529.375 0.087628249843 -107.294755206
530.0 0.0313755864258 -143.47437488
530.625 0.0365179607598 -129.434112299
531.25 0.108488667303 -132.961186924
531.875 0.189555922839 -145.284219046
532.5 0.130449156299 -169.521910791
533.125 0.100133362184 177.884289142
533.75 0.126487289539 171.25514295
534.375 0.111708195813 -176.555554816
535.0 0.0953635867929 166.958785519
535.625 0.061686013286 177.133786849
536.25 0.0636344864221 167.392049303
536.875 0.094275679056 -160.069030842
537.5 0.0794258461564 -140.320613472
538.125 0.0984593159396 -170.107349742
538.75 0.107819248047 -177.887938975
539.375 0.0854368307084 -160.012083232
540.0 0.103588173119 -153.555263356
540.625 0.125709555166 -152.700183217
541.25 0.116754277301 -139.290336227
541.875 0.108672814824 -144.199558897
542.5 0.0928521853309 -135.956963631
543.125 0.137139655819 -163.330505789
543.75 0.127731298784 161.318481212
544.375 0.0942262258033 138.344726457
545.0 0.0969084060228 94.1059205135
545.625 0.0938673977268 87.0439582639
546.25 0.0802443204923 72.2223897577
546.875 0.0838301934708 57.9450297588
547.5 0.122038446731 60.4482005998
548.125 0.108182804684 81.0293307655
548.75 0.0837668539136 89.0045827718
549.375 0.100097067559 91.0330263257
550.0 0.0963205713342 129.848545452
550.625 0.0445961789568 162.569928106
551.25 0.0392035869341 -124.738639255
551.875 0.0691434639768 -156.922416255
552.5 0.111047617153 -160.376011564
553.125 0.0938572706693 -165.186949947
553.75 0.0954187822726 -170.284143512
554.375 0.110681496869 169.627976707
555.0 0.133954046929 164.710619742
555.625 0.0885198702543 162.930123646
556.25 0.0933676589849 166.904376785
556.875 0.109511556937 168.771951381
557.5 0.122375299535 167.53284661
558.125 0.082578825411 167.805009414
558.75 0.072659809051 -176.988733085
559.375 0.0634492467566 -167.768964445
560.0 0.0488284637643 -145.910121129
560.625 0.0558973560931 -129.560001241
561.25 0.0881626638536 -144.228460667
561.875 0.104537340551 -159.266503747
562.5 0.0990027620224 171.925371642
563.125 0.104066998321 148.50219866
563.75 0.133164092865 133.303552498
564.375 0.102407862566 123.673068291
565.0 0.086665838088 122.503188465
565.625 0.0778087644801 122.963460763
566.25 0.0913978506661 159.856587015
566.875 0.0719507544779 -176.799016343
567.5 0.0795761470054 179.675546406
568.125 0.0646253182294 -159.427444471
568.75 0.0667526992089 -141.380584887
569.375 0.0474404261544 -108.378718141
570.0 0.0642510100004 -113.161966526
570.625 0.0841641957339 -102.98826562
571.25 0.0876654969637 -111.904588964
571.875 0.0841978269554 -122.467491106
572.5 0.117018496012 -159.566678318
573.125 0.124087835634 -164.944314347
573.75 0.101432232182 165.353704037
574.375 0.0757289518883 153.576593866
575.0 0.113230354167 150.632157632
575.625 0.0978941199049 165.010478089
576.25 0.0845627489541 149.435475474
576.875 0.081213248497 133.157893942
577.5 0.0893964181176 134.492484145
578.125 0.0556152677163 167.981799852
578.75 0.0455969502071 176.435499336
579.375 0.0537416721436 169.406756986
580.0 0.0725458774057 175.744962234
580.625 0.0786281236925 -135.991283582
581.25 0.0917656249854 -158.731373536
581.875 0.113047669694 -176.212325464
582.5 0.120943901548 -176.450535967
583.125 0.0934602748988 -168.687706611
583.75 0.0818027660848 -164.499334596
584.375 0.106194333285 -159.746630951
585.0 0.0931371143601 -139.871375952
585.625 0.0699240145994 -140.5776393
586.25 0.071146204726 -132.907139145
586.875 0.081560043573 -131.440404439
587.5 0.0754512378803 -147.665740794
588.125 0.058023619665 -171.83861178
588.75 0.0684982808743 -160.005976335
589.375 0.0830170803346 -156.585639908
590.0 0.0949310773691 -164.980087744
590.625 0.104347272518 161.810200786
591.25 0.119842830514 157.013758357
591.875 0.0878991843655 164.660053267
592.5 0.0620836295379 149.605565077
593.125 0.0636695713178 144.777487809
593.75 0.0675842571426 174.828904341
594.375 0.0585570827232 -154.644613716
595.0 0.0442294308105 -117.135745592
595.625 0.0561927474719 -107.79739032
596.25 0.0756164749452 -79.8723631864
596.875 0.0725732956065 -60.1876514964
597.5 0.0612850338572 -57.6696852835
598.125 0.0662286140028 -59.7819204034
598.75 0.0870717856732 -55.7303100789
599.375 0.0874489240036 -64.749444973
600.0 0.0981770741953 -69.7367356526
600.625 0.0995431004652 -56.6942052718
601.25 0.0819381333065 -73.1103298307
601.875 0.0681067596124 -90.7018994656
602.5 0.0612075219422 -77.4452089535
603.125 0.0436051025095 -70.5080754706
603.75 0.0385094969471 -10.6528617004
604.375 0.0467109623441 -12.4454119932
605.0 0.0648472112323 -5.90858113111
605.625 0.0461882332715 -18.7357794651
606.25 0.0337525701905 32.9983094206
606.875 0.0421546635581 53.5819962868
607.5 0.0543193284457 42.6353136202
608.125 0.0530444312113 19.8665556846
608.75 0.0744982574838 30.0254751176
609.375 0.075961351209 37.6562733084
610.0 0.0796001381109 52.0854762824
610.625 0.0543456952281 25.285370071
611.25 0.0617582904519 52.018943869
611.875 0.0400762243864 60.0129666286
612.5 0.0145786212337 73.4723254623
613.125 0.0304612959145 128.409715217
613.75 0.0296817544866 126.973835647
614.375 0.0637311766578 132.960775426
615.0 0.0455379000498 126.868046416
615.625 0.0340410079744 134.042394427
616.25 0.0243716969367 154.281149915
616.875 0.0756670134652 139.619268454
617.5 0.0401167177364 118.301385555
618.125 0.0299227039339 130.552198563
618.75 0.00963790861162 158.87693113
619.375 0.0376178086014 156.710626491
620.0 0.00564052264337 -1.93981928656
620.625 0.0168856593754 -91.6782878139
621.25 0.0466488289142 -94.6058830736
621.875 0.0663797564036 -112.791747502
622.5 0.0723091381097 -169.675329921
623.125 0.0788563952732 167.978353129
623.75 0.0451612976531 179.903613702
624.375 0.0614087424703 178.037256803
625.0 0.0547735398065 -155.772594159
625.625 0.0521836931058 -154.430589506
626.25 0.00218734309775 156.501492024
626.875 0.0151445065204 -164.295398231
627.5 0.0233035154121 -39.6429963227
628.125 0.0459738741152 -9.00217931592
628.75 0.042338880049 -5.43054918318
629.375 0.0492372478956 -14.0960100411
630.0 0.0654785252192 -3.62581155646
630.625 0.071004917074 12.6699978726
631.25 0.0762589255118 16.7368119991
631.875 0.0700892723333 -19.7244551652
632.5 0.0604671034372 -10.204203727
633.125 0.04580068036 23.1377090721
633.75 0.0371262440905 6.6670031088
634.375 0.0502791569351 35.7870373458
635.0 0.0341201034596 -4.87344807266
635.625 0.0275010152949 23.3373875617
636.25 0.0454401220178 30.1530774751
636.875 0.0774408892055 51.7875620409
637.5 0.0453605921359 49.2202455452
638.125 0.0425211518705 71.0382551743
638.75 0.0848941553327 78.9689066183
639.375 0.0898806170907 95.3996132768
640.0 0.0762015969924 111.241068372
640.625 0.0560690575128 105.564190992
641.25 0.0530574270619 121.831626996
641.875 0.0635967871178 155.086893346
642.5 0.0459408443663 143.126549864
643.125 0.0540775532241 157.437446228
643.75 0.0763999017876 178.373426798
644.375 0.0839591843063 -165.993525867
645.0 0.0722372280312 175.754377139
645.625 0.0909023065765 169.456896021
646.25 0.0964066368854 171.867281797
646.875 0.0684798111255 -176.965718457
647.5 0.0779454582732 -170.054202053
648.125 0.0791761824692 -173.946291173
648.75 0.0637833075581 -168.541516097
649.375 0.044378185415 -149.464179836
650.0 0.0626067228798 -113.277090348
650.625 0.0429806578759 -93.7023743671
651.25 0.0594732616795 -63.4363369502
651.875 0.0578540019876 -41.5597423632
652.5 0.105552806119 -22.4425078674
653.125 0.100041082811 -2.12366723646
653.75 0.0982492454974 6.49101332725
654.375 0.108115550635 9.12659570957
655.0 0.126928481642 17.2302415287
655.625 0.0794950635674 22.0101164548
656.25 0.0493062751755 20.5765422594
656.875 0.0590656198256 6.29314014095
657.5 0.0964571011475 28.5114041163
658.125 0.0666881967933 53.3508974413
658.75 0.0601286331954 66.9507549771
659.375 0.0912460736543 41.47117716
660.0 0.117810021706 30.9956798351
660.625 0.12299759114 20.4151519922
661.25 0.107577829522 7.56546771245
661.875 0.112707506543 -8.99291496873
662.5 0.126502407472 -16.7783743631
663.125 0.084090736538 -18.2595705066
663.75 0.0997911272496 6.40752212642
664.375 0.0996203125675 56.5908952332
665.0 0.0856857808947 93.6724665897
665.625 0.0587684843457 114.993614355
666.25 0.0868963562477 139.395825126
666.875 0.114008410794 175.435827891
667.5 0.108428994618 -169.057089242
668.125 0.0918012853861 -174.4190301
668.75 0.11842696834 172.022710248
669.375 0.113881535098 -179.792058489
670.0 0.0964324759051 -168.622212604
670.625 0.0689993715007 -165.75503066
671.25 0.10621396277 178.716313851
671.875 0.0941209664041 170.531130064
672.5 0.0832510050718 158.710481028
673.125 0.064259269719 165.745191043
673.75 0.107119105391 165.490437674
674.375 0.116227131723 172.440553765
675.0 0.124697996327 -174.227141489
675.625 0.10479795428 -143.345743074
676.25 0.124532859649 -121.844763152
676.875 0.113802463665 -117.10706451
677.5 0.135179997089 -127.929673727
678.125 0.0916714663912 -112.365272962
678.75 0.0634109020922 -88.3956057808
679.375 0.0497052213988 -69.3303795423
680.0 0.0889643655349 -81.9957777026
680.625 0.121447793918 -71.4544613185
681.25 0.103663634473 -68.8485015018
681.875 0.104194386308 -90.0899873452
682.5 0.140697168396 -116.233632856
683.125 0.179464795066 -122.859491887
683.75 0.114310398483 -98.4048443588
684.375 0.112478223133 -75.6802381531
685.0 0.139780420541 -39.0240625563
685.625 0.140394399752 -2.30867964347
686.25 0.103041906481 26.4791367419
686.875 0.0881125016137 50.5765172135
687.5 0.0728828803705 85.1297435588
688.125 0.0882349557381 106.194453437
688.75 0.104321027854 116.168154587
689.375 0.144933935736 122.999256291
690.0 0.134730415863 137.038359562
690.625 0.12133374883 129.126091559
691.25 0.148753827602 97.4123280484
691.875 0.171208067176 75.6726458658
692.5 0.128954608872 46.003587626
693.125 0.0782131667886 -9.20156931967
693.75 0.104980448126 -41.909937597
694.375 0.119619731961 -15.2500524014
695.0 0.12791039144 14.9849098222
695.625 0.103866183603 58.2797064939
696.25 0.118445955632 115.334932755
696.875 0.146427881611 169.884676262
697.5 0.131467374872 -132.704074124
698.125 0.132157150214 -124.918191269
698.75 0.132203901569 -128.375475015
699.375 0.101694963109 -120.747257613
700.0 0.0970468084522 -109.347928755
700.625 0.112406024131 -88.409614573
701.25 0.100119839414 -59.6357823664
701.875 0.0851289251212 -60.0231286125
702.5 0.102317763967 -81.3684822896
703.125 0.169297207096 -115.726631985
703.75 0.171860061984 -149.385151343
704.375 0.13396350221 168.437241171
705.0 0.103041816344 173.192613075
705.625 0.144836801045 -167.055417659
706.25 0.142991138773 -110.561926013
706.875 0.0942318155912 -64.0070776238
707.5 0.0797859674906 -37.9610034155
708.125 0.0958536509307 20.9011236798
708.75 0.113066982789 63.5019482719
709.375 0.10720664107 106.226179007
710.0 0.104358841109 127.141202036
710.625 0.107719653795 168.915981272
711.25 0.123591763103 173.298823801
711.875 0.14475248542 161.662974763
712.5 0.150471024387 148.085826697
713.125 0.123740540775 102.510175572
713.75 0.101129415173 49.0579058209
714.375 0.112429518115 28.0443548562
715.0 0.117612992496 21.110951868
715.625 0.0883758401174 73.8170891168
716.25 0.0850205910697 82.9985613304
716.875 0.115917150142 110.552579085
717.5 0.143620995778 146.145185269
718.125 0.116731450126 162.977150922
718.75 0.1027683335 175.96757481
719.375 0.123348558161 -159.278198617
720.0 0.128212573518 -117.082758259
720.625 0.112709074896 -84.4682488125
721.25 0.0921972228178 -17.7097077535
721.875 0.0839938664409 28.7160595053
722.5 0.0706240922823 64.0799949595
723.125 0.0901500239705 83.7160811317
723.75 0.109771077401 46.2540778825
724.375 0.12263504633 7.47244091413
725.0 0.0956551686478 -38.0125801176
725.625 0.0875000096136 -75.5996999681
726.25 0.128862632787 -48.6260644033
726.875 0.106302786084 -42.1777101075
727.5 0.0728654502884 -23.0768033092
728.125 0.069128667075 -9.16491296433
728.75 0.0761790768946 9.78216703263
729.375 0.0860442984031 21.4757135863
730.0 0.0777396212702 12.5260771419
730.625 0.0782399108888 36.3316992707
731.25 0.0472169221148 49.2553851725
731.875 0.0973724351649 129.952719694
732.5 0.0843006771536 154.625961658
733.125 0.0757770254827 173.807195085
733.75 0.0526708287718 149.52268063
734.375 0.0663724406616 172.807794618
735.0 0.0604610136186 150.498270661
735.625 0.0548157391981 146.786678654
736.25 0.0141580929318 151.165347877
736.875 0.0779771283305 170.639139502
737.5 0.098408350476 179.997341159
738.125 0.109928102035 -167.608984022
738.75 0.0451755512198 170.811956244
739.375 0.0917305973883 -147.246446847
740.0 0.0587804485004 -136.854698806
740.625 0.0300676860918 -142.154443129
741.25 0.0310636535597 -156.383906742
741.875 0.0160979225828 -90.5559202001
742.5 0.0657945916623 -18.4440478885
743.125 0.023985317756 71.0984016355
743.75 0.0280352540371 111.552284146
744.375 0.0431583885195 111.663420488
745.0 0.0553890201967 141.58436182
745.625 0.0700523127537 132.014061463
746.25 0.072799857459 82.457405586
746.875 0.0500077714995 60.0490240236
747.5 0.053490132491 9.41395116931
748.125 0.0371475247062 -13.7652539551
748.75 0.0308085968928 5.64255979572
749.375 0.0273563838599 -6.38763009036
750.0 0.034505857353 -89.3861838822
