!Created with skrf (http://scikit-rf.org).
# GHz S MA R 50.0 
!freq magS11 angS11
500.0 0.0157239772566 136.3449263
500.625 0.0138332413787 169.609313582
501.25 0.0185111024825 -174.421935628
501.875 0.0332271551983 -168.979703011
502.5 0.0083978363224 123.843884132
503.125 0.016871546751 98.8476435098
503.75 0.00181164662787 -71.3216514338
504.375 0.0214634164685 -65.9994296691
505.0 0.0184962890589 -65.1611353707
505.625 0.0321927368556 -77.5754990627
506.25 0.0424990481356 -103.251910525
506.875 0.0721110980206 -94.6505952503
507.5 0.0368223174387 -154.53699215
508.125 0.0437048356 -105.982478863
508.75 0.0563307733668 -142.015840209
509.375 0.0713603248342 -126.411946304
510.0 0.02750314436 -168.810255902
510.625 0.0365290558427 -159.249601493
511.25 0.0566687765596 -179.193072805
511.875 0.0602476654524 149.946431325
512.5 0.0397717110534 98.5225257422
513.125 0.053542073394 45.3786193251
513.75 0.055483735429 23.3564047314
514.375 0.0556423479877 29.8317674033
515.0 0.0553389736163 4.40408723007
515.625 0.0943069834053 50.0050380406
516.25 0.0922004566695 30.4483049353
516.875 0.129647289794 68.233538809
517.5 0.0976597022254 13.6951835446
518.125 0.187026155942 66.5190013419
518.75 0.0892679400452 14.3297263574
519.375 0.0721292079398 21.5495472019
520.0 0.0996685397465 -3.90662807093
520.625 0.108539630886 -3.70474927094
521.25 0.0872179646573 -20.9131608358
521.875 0.0778519119555 1.05924947937
522.5 0.0918244212909 -37.131914698
523.125 0.173556967083 -37.4222637476
523.75 0.206830127496 -61.6229359793
524.375 0.237919878123 -46.9695867564
525.0 0.0745212511398 -45.868310175
525.625 0.0428971831568 -34.7822749787
526.25 0.0556804872988 -7.81574087795
526.875 0.0488126023231 -29.0399987802
527.5 0.0514878891644 -28.7878690356
528.125 0.0493031293327 -57.2530028102
528.75 0.066656547265 -72.8381583549
529.375 0.0909871073917 -110.941330816
530.0 0.0437265356142 -137.188920863
530.625 0.0296732076347 -140.522677867
531.25 0.14034352134 -144.837941305
531.875 0.15577775024 -148.850636932
532.5 0.139577686449 -172.114302067
533.125 0.111021566222 173.55933258
533.75 0.126977593651 165.785478101
534.375 0.114142791247 177.594271911
535.0 0.0886561753894 161.408445908
535.625 0.0707721769572 176.465076618
536.25 0.0721234924765 159.798047165
536.875 0.0625352935619 -159.274615232
537.5 0.091722929092 -144.401415753
538.125 0.0956309382098 -174.656518789
538.75 0.117415073387 178.368046348
539.375 0.0684378338874 -165.463472444
540.0 0.096001346763 -157.700792923
540.625 0.12210053753 -156.394709502
541.25 0.146116962082 -144.973436948
541.875 0.0843633905626 -141.015240303
542.5 0.103714363906 -140.866204575
543.125 0.135639623674 -168.622414992
543.75 0.144194737292 157.557161201
544.375 0.0980870748535 134.410648334
545.0 0.0899352056086 87.6819001332
545.625 0.107853955956 81.6696717105
546.25 0.0953740712558 66.4246861375
546.875 0.0984899967677 51.6102669543
547.5 0.115897826211 56.8021524335
548.125 0.112708488502 73.1969584291
548.75 0.102694406306 88.2462880209
549.375 0.0937971796658 82.7507829959
550.0 0.0924764009208 122.988098518
550.625 0.0578817386965 150.994366569
551.25 0.0416440547507 -146.341880437
551.875 0.0661803368801 -164.50316481
552.5 0.111189866515 -167.653796856
553.125 0.0935062658836 -171.272106904
553.75 0.0943494981556 -173.710384236
554.375 0.1137456493 163.188359481
555.0 0.128654234511 160.953465518
555.625 0.0985524758643 157.420378972
556.25 0.0977131243945 161.795407953
556.875 0.129882661181 160.824577508
557.5 0.103263171307 167.172503325
558.125 0.0946995061044 164.036978523
558.75 0.0863307896684 175.888157361
559.375 0.0705920599158 -175.749680565
560.0 0.0469628296054 -151.486032228
560.625 0.0587208236471 -142.957671547
561.25 0.0888079879774 -153.413036472
561.875 0.109848401529 -167.655980207
562.5 0.0902598205814 174.783309242
563.125 0.10793881069 141.329112957
563.75 0.135835983096 126.744404676
564.375 0.108009140621 119.620553637
565.0 0.0886850395617 118.214082332
565.625 0.0866378223271 114.272761125
566.25 0.0964697874603 149.848135451
566.875 0.0814672697671 174.148532478
567.5 0.0654627102579 -172.950885429
568.125 0.0753964575807 -169.373457149
568.75 0.066650943143 -150.822476341
569.375 0.0537792276378 -123.31344362
570.0 0.0595001091641 -101.506487324
570.625 0.0889941613117 -114.972357916
571.25 0.0912583354639 -123.099821323
571.875 0.0899108411605 -135.313446649
572.5 0.108135575665 -151.613357094
573.125 0.134550939295 -173.310254464
573.75 0.101635984797 159.868877629
574.375 0.0890761554454 141.49062427
575.0 0.0994408992044 154.252349709
575.625 0.107496486152 155.213292867
576.25 0.090983523048 144.361358957
576.875 0.0809842035643 125.569793829
577.5 0.0856067638726 133.058538134
578.125 0.0625825728123 156.941941577
578.75 0.0493076343409 160.455841938
579.375 0.0576136392283 150.199924129
580.0 0.0651349797225 -166.836977772
580.625 0.0777464243678 -148.638795831
581.25 0.087275101352 -162.12709085
581.875 0.11500275299 173.772346157
582.5 0.112432507408 -172.014805626
583.125 0.0952079632555 -172.912277856
583.75 0.0834226771409 -173.28006373
584.375 0.103885784775 -165.937455978
585.0 0.10015883362 -150.490349312
585.625 0.0717569163637 -147.542582013
586.25 0.0705813872363 -139.853609061
586.875 0.0851598748447 -148.807773371
587.5 0.0705796495077 -135.537003743
588.125 0.0581183158729 -178.445113025
588.75 0.0656374499643 -172.290376711
589.375 0.0797985494665 -163.559450151
590.0 0.0911341711011 -173.34889266
590.625 0.104001903164 161.597981379
591.25 0.122766650242 145.507264792
591.875 0.0995819344734 154.590453143
592.5 0.0685141933209 137.777267795
593.125 0.0630467748816 145.022547514
593.75 0.0764596607823 157.740176818
594.375 0.0612672737213 -163.700843105
595.0 0.0413844290163 -119.782319021
595.625 0.0567186447556 -106.26282333
596.25 0.0707765412028 -95.264372842
596.875 0.0669180029087 -76.7148066609
597.5 0.0551648327777 -74.27222717
598.125 0.060840225741 -64.347400193
598.75 0.0834749109584 -59.9070757454
599.375 0.0791671212891 -76.0488718037
600.0 0.107282806571 -60.322551621
600.625 0.101489995656 -66.3429326387
601.25 0.0828965713767 -85.0181031219
601.875 0.0684773290109 -97.6445122255
602.5 0.0625460509069 -100.267448789
603.125 0.0437029174773 -64.54806547
603.75 0.0339701104614 -33.1147799554
604.375 0.0417609094387 -16.217276379
605.0 0.045551912282 -42.443898444
605.625 0.0599180759664 5.04829654357
606.25 0.0289089614933 10.5483137148
606.875 0.0377289672726 51.8198182972
607.5 0.0463496269015 37.3174883758
608.125 0.0881547398685 34.408516612
608.75 0.0651820193433 20.750700974
609.375 0.0656625037982 31.7987508776
610.0 0.0532924765349 27.9130080481
610.625 0.0786915282233 47.4743508898
611.25 0.0573088025796 35.2405508459
611.875 0.0387931802662 59.3887589845
612.5 0.0144883535785 35.886330637
613.125 0.0160429045138 126.375765078
613.75 0.0379943523564 120.066696116
614.375 0.0501690351001 117.995013772
615.0 0.0315070442347 111.947562501
615.625 0.0146769519963 143.128809391
616.25 0.0663637237128 133.615852288
616.875 0.0590856768729 127.417543149
617.5 0.0334350647058 113.749805169
618.125 0.0150870205248 124.081422146
618.75 0.0352740347254 149.588531122
619.375 0.0260544758993 138.131982549
620.0 0.00810181590973 -15.1799816446
620.625 0.0202808826108 -99.3560772098
621.25 0.0436725286394 -96.4122813477
621.875 0.0612172665064 -101.419892924
622.5 0.0716492121248 -163.932381474
623.125 0.0640560794256 -175.688895667
623.75 0.0649868267255 164.362637489
624.375 0.0474914211771 176.545836229
625.0 0.0463644870496 -150.815559524
625.625 0.0222932790856 -113.565765063
626.25 0.0455662803395 178.668091491
626.875 0.0042772572 139.352735055
627.5 0.0251352999545 -50.2335680638
628.125 0.0487936621016 -7.08003463182
628.75 0.0355219658933 -33.3059326675
629.375 0.0425904409912 -9.54660497382
630.0 0.0772743829147 4.78772831926
630.625 0.0860969439473 19.6704973464
631.25 0.066851507714 -13.8948345577
631.875 0.0664116714512 -11.1301438473
632.5 0.0662992958847 -13.8617363936
633.125 0.0525431512529 20.5845240292
633.75 0.0454508893995 18.3491385734
634.375 0.0464965244431 19.2558197661
635.0 0.0318592413679 15.1645832727
635.625 0.0385412213621 29.0262829955
636.25 0.0736765678085 46.2284310918
636.875 0.0546840964134 14.0134355581
637.5 0.0456147811923 42.8726559846
638.125 0.0468843866608 62.6836720904
638.75 0.0960833460125 75.3552770179
639.375 0.100258135865 92.9466302572
640.0 0.0754242141977 103.624367734
640.625 0.0650952196172 108.016490162
641.25 0.0673133558552 121.940985934
641.875 0.063541474187 149.407951213
642.5 0.0531371479103 149.923865504
643.125 0.0528322886271 150.553762559
643.75 0.086777526913 174.523298612
644.375 0.0649724269884 179.186545367
645.0 0.0762835015358 177.905609315
645.625 0.103760939031 168.22319454
646.25 0.10138849698 166.317037761
646.875 0.0847918701675 -179.768219338
647.5 0.0688378023272 -179.553772984
648.125 0.0926043533036 -176.167506053
648.75 0.0792505795162 -162.276899046
649.375 0.0605345413366 -146.809367176
650.0 0.042417501645 -124.075683572
650.625 0.0556222862259 -90.5745650509
651.25 0.0657108438988 -69.3848424401
651.875 0.0783954531509 -47.2615076786
652.5 0.067947946861 -24.5659654428
653.125 0.115320033877 -4.86687355343
653.75 0.11436910164 5.38698747893
654.375 0.115402524121 6.7725581288
655.0 0.122089591598 10.166471034
655.625 0.0951644233493 24.8607451959
656.25 0.0616021981719 18.3448613546
656.875 0.083910191134 4.7294107565
657.5 0.0600961218019 12.1897430506
658.125 0.0700637891984 45.1568109348
658.75 0.0584564893979 55.7585543852
659.375 0.091567644819 32.5096288207
660.0 0.123053091095 21.6568871937
660.625 0.116173443887 14.4706800238
661.25 0.117675006857 0.856825038985
661.875 0.125862390888 -14.859980967
662.5 0.123018936723 -22.8733684089
663.125 0.100791933075 -18.417418422
663.75 0.101585349557 -0.802799570502
664.375 0.117146950086 51.8137347962
665.0 0.0603291597123 87.8630001262
665.625 0.0683678517943 110.179190168
666.25 0.0845913826457 128.623468242
666.875 0.126402914469 165.430988708
667.5 0.0991228309525 -168.962364836
668.125 0.102140337761 179.682364806
668.75 0.131605517881 165.270819654
669.375 0.148108446422 172.515889433
670.0 0.0758614208531 -172.124039357
670.625 0.083113969828 -170.545188763
671.25 0.104847310829 171.879568419
671.875 0.12111827267 162.224766234
672.5 0.0724592646622 155.073987844
673.125 0.076146920428 156.486789557
673.75 0.113569154129 155.717308663
674.375 0.123366933061 164.272489034
675.0 0.114138507618 -176.931932117
675.625 0.120160137552 -151.983520518
676.25 0.127027829209 -127.773244479
676.875 0.124310905734 -124.346366987
677.5 0.123901805735 -132.423474744
678.125 0.117155711064 -117.938983186
678.75 0.066966623716 -97.9408280438
679.375 0.0621699949382 -85.3461805655
680.0 0.0657810812152 -72.0697458927
680.625 0.120527909184 -80.5003113229
681.25 0.111907889546 -78.2615577357
681.875 0.101269026353 -95.3354264408
682.5 0.143026893039 -126.369747314
683.125 0.149496856658 -120.08413719
683.75 0.134492577395 -104.236560261
684.375 0.113266838189 -80.3608047517
685.0 0.142200599322 -44.9871742218
685.625 0.114528302436 -0.645245017018
686.25 0.110185124899 19.2817935203
686.875 0.0891369553591 42.0810410635
687.5 0.0907019980155 71.906284313
688.125 0.0741374459645 116.143384047
688.75 0.101177775981 110.216728793
689.375 0.141100662444 114.313631353
690.0 0.137433900598 129.917406379
690.625 0.125190762821 121.762592439
691.25 0.142661395205 94.0374700986
691.875 0.190667307543 65.7200985291
692.5 0.149523632202 36.5103500227
693.125 0.101116563578 -22.7988857055
693.75 0.0836981036434 -32.4131246217
694.375 0.132273038642 -29.8109614666
695.0 0.130574626886 7.08547895125
695.625 0.10395506962 52.1594507295
696.25 0.120007979032 106.75206832
696.875 0.137064677759 170.713830488
697.5 0.142525500143 -143.84818028
698.125 0.138401819988 -135.105946856
698.75 0.14140614324 -139.238500937
699.375 0.110504851403 -126.332304785
700.0 0.0931712003349 -116.389459177
700.625 0.121510116759 -102.744118337
701.25 0.103660752673 -71.0373394281
701.875 0.0831406142638 -65.9605264296
702.5 0.0970668343347 -92.7955292694
703.125 0.17018919802 -126.774500524
703.75 0.200300779634 -164.210673093
704.375 0.127765367682 172.087889909
705.0 0.108876362235 158.974766798
705.625 0.144019453911 -175.152981431
706.25 0.15865836573 -124.181343557
706.875 0.0886027509244 -59.0868083142
707.5 0.0772057030317 -42.2398786086
708.125 0.0923858086507 3.12604710943
708.75 0.111880171478 54.2714544972
709.375 0.107524389566 102.856481261
710.0 0.100503437367 126.508110869
710.625 0.107671925439 155.076706078
711.25 0.118120502574 165.93090086
711.875 0.146026964121 173.682330607
712.5 0.154459117871 141.729493994
713.125 0.125423765687 96.0105828172
713.75 0.105572842164 42.4829292403
714.375 0.115063875828 6.41576064094
715.0 0.117773971054 21.4301457655
715.625 0.0883858564382 54.5092538618
716.25 0.0762175448346 77.9930853897
716.875 0.101142011222 85.3724019262
717.5 0.145401822659 144.870043216
718.125 0.120320788309 161.756733097
718.75 0.10010925171 162.768093613
719.375 0.115443123721 -178.055962361
720.0 0.123606806413 -145.490950342
720.625 0.116098010262 -68.4799952901
721.25 0.0997756902391 -31.7534301425
721.875 0.0855572523282 12.1270468595
722.5 0.0773063439739 76.268300675
723.125 0.0812455800561 69.8833824205
723.75 0.0947241126737 26.9359836234
724.375 0.108622159585 -7.52744716667
725.0 0.0828874716551 -54.6588748456
725.625 0.113200888415 -61.227513437
726.25 0.121079881304 -65.66718941
726.875 0.10241386092 -46.0580222794
727.5 0.074475554045 -59.4865726576
728.125 0.089035805971 2.33791625087
728.75 0.0814769948923 15.4814693558
729.375 0.0723080183795 0.849473231035
730.0 0.068654980663 -3.87104151632
730.625 0.0413487208611 -3.78227444907
731.25 0.088413528609 70.7604040354
731.875 0.0802689776631 114.464359718
732.5 0.0786646220578 155.867562171
733.125 0.0619628955519 156.618505043
733.75 0.101509412808 -176.995911145
734.375 0.0566234907435 151.649233876
735.0 0.0528334111413 140.322934848
735.625 0.032235993237 123.941781129
736.25 0.0439196616353 131.050281196
736.875 0.0498571601658 160.639399984
737.5 0.070395501989 178.198022498
738.125 0.0557270512457 -178.1626662
738.75 0.100975846492 -169.792516513
739.375 0.0676867759767 -166.610760169
740.0 0.0588860450275 -136.894022578
740.625 0.0246066331578 -143.76172054
741.25 0.0612236129895 -150.922036799
741.875 0.0308227220702 -104.298943186
742.5 0.0355991150017 -27.3852165051
743.125 0.0195745137011 82.3380078151
743.75 0.0485722809834 103.130308735
744.375 0.0424215505638 115.213618681
745.0 0.0485926191997 134.089488503
745.625 0.0699765163505 145.384333776
746.25 0.0745917614256 92.2704901023
746.875 0.0692532603377 43.7111201014
747.5 0.0333872355878 9.76317795563
748.125 0.0213738363618 -6.09925568307
748.75 0.0321284491956 57.5875822413
749.375 0.0377264743948 -45.6488345225
750.0 0.0266973073524 -98.425705675
