!Created with skrf (http://scikit-rf.org).
# GHz S MA R 50.0 
!freq magS11 angS11
500.0 0.0134316973346 150.898608322
500.625 0.00616737455457 81.7380945282
501.25 0.00870514049174 -141.503061684
501.875 0.0290476603314 -170.683508025
502.5 0.0373181767076 174.864474872
503.125 0.0226256574501 123.395621743
503.75 0.0053128508954 68.208007685
504.375 0.0227943493818 -59.2796443006
505.0 0.00434255655624 94.0934025071
505.625 0.0198003776322 -76.9325463629
506.25 0.0426066482737 -115.235284062
506.875 0.082927077418 -89.9234425343
507.5 0.0441836989941 -120.983509576
508.125 0.0502741715501 -89.3565224656
508.75 0.0613750989987 -129.288366637
509.375 0.0618638804875 -126.637910795
510.0 0.035383274591 -123.32559667
510.625 0.0283728666107 -162.396495032
511.25 0.0566339107969 -172.275047482
511.875 0.067126277115 153.242894742
512.5 0.0350305454025 83.9104424277
513.125 0.0456780148231 32.309452105
513.75 0.0538667078198 38.7177078515
514.375 0.0391706295828 9.90056764693
515.0 0.0460829295594 7.10289656328
515.625 0.0852685936445 42.9834047071
516.25 0.0942639432461 31.9741065312
516.875 0.113531636604 69.1907156453
517.5 0.120945267527 20.3428804478
518.125 0.21130562723 73.1623174671
518.75 0.0975550156014 17.0591112319
519.375 0.0531486554745 9.5104003814
520.0 0.083920235488 -6.38754760191
520.625 0.101635157361 -8.89674919404
521.25 0.0948604981288 -20.7834939612
521.875 0.0689883492544 0.991430141203
522.5 0.098502553364 -32.6042199532
523.125 0.187864040062 -33.4744916704
523.75 0.208539878205 -57.8213415035
524.375 0.221815930484 -46.5113952981
525.0 0.0665563262098 -45.3621312348
525.625 0.0346138025322 -37.4705304512
526.25 0.0569346577168 -3.79847434763
526.875 0.0426467045564 -28.9060842767
527.5 0.0420589658422 -30.1640842281
528.125 0.0352344427835 -61.9077120908
528.75 0.0734913130681 -69.3366028675
529.375 0.0669023299574 -121.852814128
530.0 0.0435102511444 -127.939963211
530.625 0.0394937174527 -137.067657026
531.25 0.140561634929 -138.872445839
531.875 0.149160889607 -146.693595258
532.5 0.127195611041 -170.298604389
533.125 0.0916095769276 173.883102771
533.75 0.136608727897 167.125739203
534.375 0.0885131715376 175.895988126
535.0 0.0839611430655 163.051628952
535.625 0.0603095282384 175.097679713
536.25 0.072948663831 165.234124246
536.875 0.0785859102243 -158.653687974
537.5 0.0976649298988 -141.983888061
538.125 0.103749571566 -171.334611177
538.75 0.115476370332 -177.91383937
539.375 0.0643501378356 -162.603337934
540.0 0.0847483435981 -150.460222321
540.625 0.13280448263 -153.794487431
541.25 0.140284190795 -140.606100915
541.875 0.0974884360517 -141.287757934
542.5 0.113007864373 -141.097262157
543.125 0.138364454871 -164.628129663
543.75 0.139641989241 161.60124544
544.375 0.0819258051545 133.881161678
545.0 0.0856817029543 92.5508351221
545.625 0.092458149031 82.3922330866
546.25 0.0965266855657 69.5682698197
546.875 0.0883242782003 56.0874154629
547.5 0.1043712889 60.4474579629
548.125 0.116497535476 80.1957180798
548.75 0.0976799829885 91.63384937
549.375 0.0753269448204 87.1859325046
550.0 0.0834598987747 127.235050456
550.625 0.0405819308332 155.808848945
551.25 0.0439098047081 -143.955638654
551.875 0.056059436597 -145.706451068
552.5 0.0991332793148 -157.498207537
553.125 0.0897031823204 -165.535292799
553.75 0.0966690366373 -173.593741236
554.375 0.096445532914 173.639279324
555.0 0.121392906109 167.04291433
555.625 0.0976047647373 158.641442715
556.25 0.099607180926 163.665855097
556.875 0.125247495734 164.961614222
557.5 0.110166425653 167.617002514
558.125 0.093925482597 166.692478278
558.75 0.0857756349757 178.527251278
559.375 0.0485950122799 -168.738049167
560.0 0.0401052794794 -140.965335827
560.625 0.0546651792662 -138.039401951
561.25 0.0930955446323 -153.316722005
561.875 0.0950672485134 -157.657451359
562.5 0.0933909912336 173.714670724
563.125 0.101914614565 149.022836552
563.75 0.140784375154 128.815427463
564.375 0.0903001025639 125.284729405
565.0 0.079032944432 123.619408476
565.625 0.0769264882576 119.994151807
566.25 0.103594299493 150.4171075
566.875 0.0735938553912 -179.094256838
567.5 0.0733690855138 -175.575373131
568.125 0.0819555410829 -169.720851158
568.75 0.0702092424942 -144.886387159
569.375 0.0530736982397 -116.059764796
570.0 0.0595401765216 -103.595063586
570.625 0.0944679238909 -117.787434656
571.25 0.0924292367283 -120.294461077
571.875 0.09081615991 -130.837636405
572.5 0.11300149943 -155.17887004
573.125 0.142534806003 -173.681650011
573.75 0.104006916853 163.277947868
574.375 0.0860865569766 147.935461772
575.0 0.107157581175 154.677198084
575.625 0.111214862688 154.521040388
576.25 0.092724338838 143.36632396
576.875 0.071511102377 137.786564664
577.5 0.0815775805461 139.662183182
578.125 0.055414226288 162.665430723
578.75 0.0497110143498 163.534677027
579.375 0.0553964847699 162.959402024
580.0 0.0693949910788 -174.46117172
580.625 0.0803443941684 -148.898234491
581.25 0.0910963985143 -163.191307871
581.875 0.11744976918 177.955890793
582.5 0.111835938752 -170.722402306
583.125 0.0902352190563 -163.126033063
583.75 0.0801091034192 -160.701472378
584.375 0.106706640314 -165.484393846
585.0 0.0866795861881 -134.584847046
585.625 0.0681772372163 -138.977544002
586.25 0.0716445977623 -137.763021534
586.875 0.0848154764011 -142.38352492
587.5 0.0711919161374 -139.437081653
588.125 0.0577428304572 -164.324483828
588.75 0.0659914901631 -157.580820075
589.375 0.0820243309811 -162.022858136
590.0 0.0967797068371 -156.573431281
590.625 0.107896603461 167.855394318
591.25 0.117083127429 159.378578724
591.875 0.0986442188133 154.65838014
592.5 0.0607486263881 155.148886159
593.125 0.0636475720603 156.888906822
593.75 0.0754642100065 -175.582037348
594.375 0.0597683692768 -165.130002463
595.0 0.049451663809 -98.3516167372
595.625 0.0617477906671 -97.1602005659
596.25 0.071813628986 -78.5965343139
596.875 0.0662658491717 -75.270651113
597.5 0.0605221574334 -54.0797391548
598.125 0.077311409368 -51.2575089929
598.75 0.0818760834098 -61.3253405663
599.375 0.0819487563632 -71.8574765944
600.0 0.1075667251 -59.3464358072
600.625 0.102240487526 -59.2497482767
601.25 0.0841336458482 -66.7607736604
601.875 0.0677618403788 -99.9835334988
602.5 0.0633461106441 -63.1936695545
603.125 0.044781491342 -49.6965329015
603.75 0.0263949690215 -48.5949373862
604.375 0.0417948239713 -23.07310159
605.0 0.0519925089761 -31.2917029287
605.625 0.0548228057077 6.09157887052
606.25 0.0332425244202 25.5965759581
606.875 0.0354654629295 48.9441648527
607.5 0.0405984681808 38.3737526365
608.125 0.0686907309246 30.9004248568
608.75 0.0567974797056 19.5840585552
609.375 0.0656625384271 30.2152586275
610.0 0.0630860924246 34.6016354017
610.625 0.0684011908722 43.2751406982
611.25 0.0570937993453 40.3223924131
611.875 0.0374667945515 49.1163294691
612.5 0.0100852173056 21.2077010606
613.125 0.0512972896338 130.406880253
613.75 0.0534386721024 123.432438939
614.375 0.0391318659323 127.782904152
615.0 0.0237012121064 114.55120547
615.625 0.0438353150075 139.911715778
616.25 0.0462036545564 139.470943049
616.875 0.0366783352768 128.930409002
617.5 0.0164007479119 108.0865381
618.125 0.0537095987894 139.064420032
618.75 0.0278055126325 147.195021702
619.375 0.0130537764233 142.832778928
620.0 0.0194146593085 -31.0726200593
620.625 0.0274737191115 -168.776163566
621.25 0.0450389227984 -124.590047802
621.875 0.0657781658978 -115.539070331
622.5 0.0693660417905 -148.50526598
623.125 0.0782997764358 175.058315717
623.75 0.059938956731 170.56653032
624.375 0.0395103618817 -162.520700044
625.0 0.0402023456514 -149.301077032
625.625 0.022392039284 -139.575055779
626.25 0.0299073997195 176.403371226
626.875 0.00600758151234 147.248342269
627.5 0.0275728533976 -21.5630019438
628.125 0.0555123235794 -2.07090121561
628.75 0.0336214905789 -48.9701258845
629.375 0.0361495805965 -24.3246638826
630.0 0.0695570291709 -12.2090851812
630.625 0.0809184386771 22.0996488463
631.25 0.0664855331288 2.68363586825
631.875 0.0632006270352 -12.2602174364
632.5 0.059680175208 -2.8365015942
633.125 0.0528731285626 30.9563606628
633.75 0.0481184764281 -25.7498568966
634.375 0.0440882137676 6.40506873731
635.0 0.0404712046363 31.2192275588
635.625 0.0349860473672 43.9066753451
636.25 0.064675477898 49.6383404558
636.875 0.0604242973369 33.0186657177
637.5 0.0348753573508 24.4248462001
638.125 0.0380755839147 60.5909687788
638.75 0.0979486923179 79.6119896415
639.375 0.0788239943711 76.5710132148
640.0 0.0658688963875 96.9705677377
640.625 0.0514028985111 94.5479382676
641.25 0.0779842930748 131.422571738
641.875 0.0516545477872 127.839717181
642.5 0.0511735935464 162.216486767
643.125 0.0575062528253 160.787388572
643.75 0.0883160933201 179.291048327
644.375 0.0592318181177 -178.546115984
645.0 0.0664964141365 177.69632744
645.625 0.0833065172772 162.343102405
646.25 0.109212751278 171.306849199
646.875 0.0603867293342 167.729775136
647.5 0.0619795978457 -174.179744639
648.125 0.0805888938691 -179.933937152
648.75 0.0795654960518 -158.387253022
649.375 0.0512580412681 -153.365487188
650.0 0.0498634370405 -118.129443748
650.625 0.0717285497328 -84.2220227581
651.25 0.0692111596938 -61.765370269
651.875 0.0751443928795 -41.5994980019
652.5 0.0832930518548 -22.7279194039
653.125 0.111274439735 0.634433910482
653.75 0.11497501584 8.11359641001
654.375 0.0906629197813 2.16205262948
655.0 0.106600774512 11.9137887614
655.625 0.0991126527363 25.0387066347
656.25 0.0605555514326 23.3208067584
656.875 0.0749101009505 9.09864906412
657.5 0.0758342923119 20.8494551634
658.125 0.0537856275541 51.1163129581
658.75 0.0554717635641 62.8856168922
659.375 0.0966499078452 36.4417742451
660.0 0.091088391027 27.9463583181
660.625 0.105585790641 19.9063097921
661.25 0.0980920130459 4.88562130852
661.875 0.132528698525 -11.8377002613
662.5 0.0998173671781 -22.7346418961
663.125 0.104030943095 -13.631393772
663.75 0.097676845253 4.41714466723
664.375 0.114291902951 56.51082932
665.0 0.0731023059066 91.3442593107
665.625 0.0599983404282 110.348824575
666.25 0.0962550116946 130.113109999
666.875 0.0873899699595 176.381106199
667.5 0.100120585855 -169.529132219
668.125 0.104487540568 -179.781114745
668.75 0.137217634523 167.972318419
669.375 0.139505387147 177.834037235
670.0 0.0864408693333 -169.34112493
670.625 0.0942186143887 -172.276643189
671.25 0.114309684076 176.669094354
671.875 0.114880763373 169.085559279
672.5 0.0614353541613 160.413583018
673.125 0.0868659591459 155.690666111
673.75 0.119678533169 157.821728543
674.375 0.10363933073 172.490167066
675.0 0.111902928797 -172.872628674
675.625 0.137227869735 -150.738491798
676.25 0.133825534383 -126.444469019
676.875 0.109951615204 -120.939008955
677.5 0.125040343792 -127.588003068
678.125 0.132278371075 -114.362250132
678.75 0.0708245749398 -91.5713102979
679.375 0.0603842879204 -77.7723997564
680.0 0.0761329501756 -78.8968829156
680.625 0.109453292499 -68.8364325853
681.25 0.0986068965734 -71.0331573553
681.875 0.106216758083 -96.0502320255
682.5 0.133056317237 -117.650079558
683.125 0.165204162553 -120.619955893
683.75 0.141877734214 -104.617265064
684.375 0.118442544706 -78.2751552687
685.0 0.145853799545 -42.3610494352
685.625 0.12846779639 -0.447091106619
686.25 0.0985886581927 26.5721023666
686.875 0.086954723942 47.6953356438
687.5 0.0870002910498 79.1578295639
688.125 0.0788394328496 112.449952811
688.75 0.100559019224 121.113620393
689.375 0.140508908074 122.872647364
690.0 0.142514413249 130.501646509
690.625 0.109731955387 134.114331572
691.25 0.138140781382 101.274159448
691.875 0.18828268085 67.9438448972
692.5 0.149216456005 39.5870845672
693.125 0.0932150248932 -16.2447952756
693.75 0.091946378708 -34.8629978657
694.375 0.134562899985 -25.0833848693
695.0 0.128347125995 16.5051869298
695.625 0.107574580967 50.3032069286
696.25 0.108366411948 125.476091799
696.875 0.139225452152 173.499600663
697.5 0.147717977826 -146.210595636
698.125 0.139595295726 -131.143390889
698.75 0.120766682568 -125.37452581
699.375 0.101727136512 -118.198981947
700.0 0.0947977618667 -110.579173097
700.625 0.121740999079 -96.7157803481
701.25 0.0872382910912 -50.7938504806
701.875 0.0803786651004 -51.8285285847
702.5 0.0991132685845 -77.7551154144
703.125 0.172704429414 -127.007341917
703.75 0.188314353952 -155.746917247
704.375 0.128837077805 171.173878169
705.0 0.112143877903 160.605429644
705.625 0.145281400597 -167.490000319
706.25 0.155216636893 -118.055566193
706.875 0.0856499998158 -55.1739736486
707.5 0.0733577088665 -26.9104182866
708.125 0.0881098928859 26.6077161031
708.75 0.113342266117 55.4124734199
709.375 0.105870050282 117.595096858
710.0 0.104184528249 134.001490652
710.625 0.1085954963 150.535916119
711.25 0.118651204332 164.903843711
711.875 0.149826864817 168.927385971
712.5 0.149413810739 152.533443479
713.125 0.122907531969 103.163602932
713.75 0.106657997852 38.8221865277
714.375 0.101971818895 27.3994795737
715.0 0.114278161193 31.0750838516
715.625 0.0872329938208 48.308645674
716.25 0.0814126751869 76.7274784512
716.875 0.109475339157 94.6105753172
717.5 0.153136356557 161.330449712
718.125 0.120718641549 171.316231376
718.75 0.0963694694435 177.275010197
719.375 0.114295417244 -176.014144363
720.0 0.12826959973 -136.675023199
720.625 0.112283704005 -73.9607151731
721.25 0.0916015403591 -17.5415436303
721.875 0.0859259926263 15.5118878256
722.5 0.0790246685065 90.4985563426
723.125 0.0954602381054 84.5742170488
723.75 0.117490790736 51.0767779953
724.375 0.101518935978 -8.69737660597
725.0 0.10266626378 -32.162204394
725.625 0.100245644009 -65.8332791209
726.25 0.119543752245 -62.8577702272
726.875 0.10208887857 -48.3195131918
727.5 0.0758535217689 -47.4485580746
728.125 0.0992095318808 14.8900153933
728.75 0.106753896519 32.7929619955
729.375 0.0939480570403 29.0287228887
730.0 0.0581772738363 -6.7317077132
730.625 0.0565074478695 14.5915336948
731.25 0.0701932938998 67.4766699724
731.875 0.0589618382866 106.950570661
732.5 0.0765921995673 151.503353482
733.125 0.062169884845 158.379068422
733.75 0.0780108790844 170.791435064
734.375 0.0552007939244 -172.317078087
735.0 0.0286518036458 119.472527347
735.625 0.0926957111368 159.600163013
736.25 0.0392166818031 145.528986556
736.875 0.0452484381461 176.480725751
737.5 0.061304568015 -177.446598665
738.125 0.0723426221595 -177.476548545
738.75 0.0704283506926 -173.425918496
739.375 0.0320242639786 173.165763866
740.0 0.0448699180759 -140.71568329
740.625 0.0197698582537 -117.418339646
741.25 0.0775275861845 -150.429605048
741.875 0.049788948746 -113.016237268
742.5 0.0261124217908 3.46218973816
743.125 0.0230022457059 129.156604278
743.75 0.0668987496007 81.0768507394
744.375 0.0570066192896 92.6847792904
745.0 0.0527374619511 132.611414824
745.625 0.0655889450855 146.12355072
746.25 0.102324985751 68.34719457
746.875 0.0711360375203 42.2319690055
747.5 0.0467043938454 27.6208025625
748.125 0.0182698393087 3.38083265379
748.75 0.0243041597499 54.2481677207
749.375 0.0483150785514 -61.6943595203
750.0 0.0374371471763 -119.937844274
