!Created with skrf (http://scikit-rf.org).
# GHz S RI R (50+0j) 
!freq	ReS11	ImS11	
500.0	-1.239555028	-3.080513776	
500.625	1.198312459	-1.620476662	
501.25	-2.171526261	-2.900710658	
501.875	-2.015258935	-0.6008657266	
502.5	-0.1856168461	-0.006299500673	
503.125	-0.2910302752	-0.1037654449	
503.75	0.3342753265	0.2138876184	
504.375	0.04535933864	0.1046985829	
505.0	-0.01187884401	-0.2097855095	
505.625	0.2013612006	0.01377136916	
506.25	-0.6972191382	-0.2867291611	
506.875	0.5929885144	-0.423757823	
507.5	-0.1724618674	-2.00985311	
508.125	-1.186053353	-2.070161954	
508.75	1.110173017	-0.9341958167	
509.375	-1.960988087	-5.713627819	
510.0	-0.9998815507	0.2541201748	
510.625	-0.1253395311	-0.7288403225	
511.25	-0.4611524178	0.2306959765	
511.875	-0.3846428431	-0.340327639	
512.5	-0.128569866	0.1818289429	
513.125	-0.151712658	-0.3833235225	
513.75	-0.1205092808	0.09163478165	
514.375	-0.2449146515	-0.4409303836	
515.0	-0.370421891	1.02348256	
515.625	0.6419900692	-3.452664697	
516.25	-2.616805806	-0.02400747741	
516.875	0.843343367	-1.284737936	
517.5	-0.7352769431	-1.033709966	
518.125	0.3118556859	0.06649595249	
518.75	-0.6841677578	-0.7852056784	
519.375	-0.04546793148	0.1523296734	
520.0	0.2447039142	0.2724217017	
520.625	0.5515919883	-0.3491915751	
521.25	-0.1813454347	-0.4188289476	
521.875	-0.3713606189	-0.3117735259	
522.5	-0.04524904301	0.2102424884	
523.125	-0.3706824645	-0.04038014513	
523.75	-0.1888301162	0.06138467761	
524.375	-0.6349548034	-0.1320143299	
525.0	0.2870531245	0.3173402122	
525.625	-0.1351486252	0.118555301	
526.25	0.2040588895	-0.1090228575	
526.875	-0.3556515275	0.2068389167	
527.5	0.2285537844	0.550301697	
528.125	-0.2006132707	0.4775745599	
528.75	0.167832963	1.070356292	
529.375	0.04083851187	-0.103435266	
530.0	0.337578678	0.7238018009	
530.625	0.100521737	0.5478231076	
531.25	1.914313293	0.2925974074	
531.875	0.02814396306	-0.3870797967	
532.5	0.04827218134	-0.5419380474	
533.125	-0.2185536645	0.3422052316	
533.75	0.447495473	-1.038027701	
534.375	-0.48189688	-0.3213400708	
535.0	-0.5517031004	-0.5955341576	
535.625	-0.3100308456	0.7100602021	
536.25	-0.04888194526	0.09663896909	
536.875	0.2992090179	0.1401196748	
537.5	0.1225513917	-0.2128030623	
538.125	0.2531580317	0.0551411974	
538.75	0.3596328756	-0.4966145037	
539.375	-0.1078170899	-0.2205170565	
540.0	-0.3592314029	-0.5500235842	
540.625	-0.4736013523	0.1648448399	
541.25	-0.07240265033	-0.08290845714	
541.875	-0.1748921001	-0.08161122337	
542.5	-0.1792192245	-0.0618556631	
543.125	-0.03878460514	-0.08153086961	
543.75	-0.4190786596	-0.09730347185	
544.375	0.1256690994	0.121049157	
545.0	-0.1966280303	0.2288825468	
545.625	0.2967642382	-0.05418469426	
546.25	0.01944129681	0.283736235	
546.875	0.4504832847	-0.3164715981	
547.5	0.04654725516	-0.05930419258	
548.125	0.07783294584	-0.5224589722	
548.75	-0.4916634928	-0.2375684544	
549.375	-0.1101748274	-0.03607484975	
550.0	-0.3010357218	-0.1019181005	
550.625	-0.009869468224	0.1143772766	
551.25	-0.2788179386	-0.0348396323	
551.875	-0.08350789658	0.2805893802	
552.5	-0.1370595848	0.08154517876	
553.125	-0.02880597294	0.2154792099	
553.75	0.1060307667	0.08251375267	
554.375	0.222355037	0.02057973586	
555.0	0.2426656771	-0.1796358943	
555.625	0.1762771732	-0.2540025327	
556.25	0.1592009022	-0.3320106396	
556.875	-0.09213113353	-0.3943965874	
557.5	-0.2379053786	-0.2323203331	
558.125	-0.2585182285	-0.09577211625	
558.75	-0.2753645415	-0.01526627951	
559.375	-0.2394187259	0.08203551075	
560.0	-0.2147534571	0.1283933371	
560.625	-0.157822361	0.297094674	
561.25	0.1026360129	0.2158152735	
561.875	-0.02856556834	0.1111292583	
562.5	0.1409515929	0.09479366205	
563.125	0.0514199218	0.2305634713	
563.75	0.4342540541	-0.07569309895	
564.375	0.1281340716	-0.1638833935	
565.0	0.3409078036	-0.3267464941	
565.625	-0.2187720534	-0.4018118617	
566.25	-0.1963470872	-0.1275206959	
566.875	-0.2560693224	-0.3080392552	
567.5	-0.512234051	-0.238574754	
568.125	-0.1663390614	-0.1906476881	
568.75	-0.6524245727	-0.3892334839	
569.375	-0.4125578915	0.4214694301	
570.0	-0.3839346919	0.2209255081	
570.625	-0.1831901055	0.7131807672	
571.25	0.1608338693	0.004281002382	
571.875	0.005012870775	0.5139168065	
572.5	0.3223460879	-0.3757776633	
573.125	0.1302403854	0.06964784073	
573.75	0.3803197231	-0.4446588789	
574.375	-0.2740384126	-0.1411963633	
575.0	0.3742897373	-0.009450105667	
575.625	-0.2052339324	-0.2804434986	
576.25	0.311560348	0.02528511525	
576.875	-0.01656320122	-0.6123396525	
577.5	-0.262826331	-0.2535396271	
578.125	0.1371517536	-0.2392783827	
578.75	-0.1819915931	-0.5201899334	
579.375	-0.3977262855	0.004638025252	
580.0	0.1357161796	-0.08893145876	
580.625	-0.4318008141	-0.03953120767	
581.25	0.0312117865	0.04640282327	
581.875	-0.3104554224	0.4586164779	
582.5	0.4399226947	0.4457046989	
583.125	0.01613689036	-0.1760255802	
583.75	0.09469055478	0.5040430123	
584.375	0.05120636329	-0.3780655878	
585.0	0.1627864575	0.541558195	
585.625	0.535465026	-0.2818644541	
586.25	0.03152731466	0.006151438744	
586.875	0.4691710605	-0.463746199	
587.5	-0.326031084	-0.1958514877	
588.125	0.2281683905	-0.2195892566	
588.75	0.1251330761	-0.6073963939	
589.375	-0.1250885232	-0.2533071677	
590.0	0.1622744741	-0.3913589303	
590.625	-0.6070626323	-0.1624898283	
591.25	-0.1638375867	0.3202727629	
591.875	-0.1602784641	0.1003584915	
592.5	0.04454954885	0.3059478779	
593.125	-0.2261564362	-0.04929702968	
593.75	0.285021852	0.3421271839	
594.375	0.2519156804	0.05796309646	
595.0	0.1667646947	0.4682504017	
595.625	0.8310834903	0.2675386746	
596.25	-0.04095204226	-0.1697225974	
596.875	0.4680446019	0.4864707117	
597.5	0.5537369959	-0.03709056639	
598.125	0.009406426775	0.3163214167	
598.75	0.7181510595	0.2372985319	
599.375	0.1997220038	-0.075748934	
600.0	0.6253167775	-0.1764380834	
600.625	0.2829591505	-0.6361941958	
601.25	0.04100519555	-0.2413855277	
601.875	-0.01529981715	-0.4468656928	
602.5	-0.3795703208	-0.01985131629	
603.125	-0.2436855565	0.1582679704	
603.75	-0.1492388042	0.05565921249	
604.375	-0.4007093929	0.1771366647	
605.0	0.06052450631	0.2539209476	
605.625	-0.3768659588	-0.002491362568	
606.25	-0.1387384235	0.3228873631	
606.875	-0.3418886432	-0.08261167612	
607.5	-0.6476791929	0.7578600647	
608.125	0.1842714866	0.2324612274	
608.75	0.1401465511	0.7222004891	
609.375	0.7781340164	-0.3778487329	
610.0	0.2069837727	0.0857233206	
610.625	0.3966589561	-0.5646266337	
611.25	-0.1705988642	-0.2227441459	
611.875	0.003136113386	-0.4782947424	
612.5	-0.4031832404	0.1867066851	
613.125	-0.3581349057	-0.1100638531	
613.75	-0.2595579923	0.5012872455	
614.375	0.03037991625	-0.09127032802	
615.0	0.2558502028	0.3245298359	
615.625	-0.08829393082	-0.07465732735	
616.25	-0.2791785873	0.5643318353	
616.875	0.1956327805	0.3566351479	
617.5	-0.4884080281	0.3618467273	
618.125	0.0852687804	0.7418864643	
618.75	0.07957021843	0.1530823324	
619.375	0.1532603928	0.621495191	
620.0	0.4063923152	-0.06675617293	
620.625	0.3432312414	-0.2103209475	
621.25	-0.3181988407	-0.4301277623	
621.875	-0.3180562738	-0.2929430245	
622.5	-0.6007447397	0.2561161634	
623.125	-0.06793456227	0.2403385974	
623.75	0.3591288375	0.2727016697	
624.375	-0.1577455468	-0.2376381146	
625.0	0.3898927904	0.01975011454	
625.625	-0.3704880213	-0.17756897	
626.25	0.2624682401	-0.2996151722	
626.875	-0.5763745009	-0.3107729694	
627.5	-0.2006905991	0.1486460975	
628.125	-0.1298206589	-0.4262594601	
628.75	-0.3991407083	-0.156794101	
629.375	0.03139583759	-0.3150197881	
630.0	-0.5909399748	-0.3256476155	
630.625	-0.2904742477	0.2965954209	
631.25	-0.4731898618	0.2217915868	
631.875	-0.04450988848	0.740624919	
632.5	0.3721236592	0.3612773099	
633.125	0.4115868	0.03536771466	
633.75	0.3963286059	0.02483157428	
634.375	0.0319225035	-0.551496181	
635.0	0.1308285328	-0.1090277653	
635.625	-0.4805259037	-0.3720234203	
636.25	-0.09326188308	0.3337004096	
636.875	-0.4745402114	0.1022121529	
637.5	0.1411932175	0.4508443115	
638.125	-0.195608963	-0.1730745471	
638.75	-0.3991242524	0.7777509082	
639.375	0.4681780708	0.4179657538	
640.0	-0.08983122887	0.3964855761	
640.625	0.7020407924	0.6154820223	
641.25	0.6266079627	-0.3612898451	
641.875	0.3539220643	-0.04027998503	
642.5	-0.2013479587	-0.9384958843	
643.125	-0.06068004234	0.04830689926	
643.75	-0.34973092	-0.5592339258	
644.375	-0.477533909	0.4030370585	
645.0	-0.1030024371	-0.008074418312	
645.625	-0.1467655356	0.73386645	
646.25	0.6948446923	0.1233544956	
646.875	-0.0681945281	-0.2119846469	
647.5	0.3821951179	0.4663895948	
648.125	0.02831130377	-0.4188625678	
648.75	0.8451296042	0.3995813103	
649.375	0.4671682141	-1.117157268	
650.0	-0.08762950876	-0.2342278489	
650.625	1.09080999	-0.4916048004	
651.25	0.07840311021	-1.333358148	
651.875	0.09013254693	0.1908856755	
652.5	1.216362604	-0.03958847982	
653.125	0.4052329487	-0.7838667342	
653.75	0.3260029001	0.02667746682	
654.375	-0.2266414055	-1.20326982	
655.0	-0.6361927284	0.2331511348	
655.625	-0.3504980615	-0.08404431209	
656.25	-0.05273635681	0.8819521391	
656.875	0.3170929819	-0.3464862369	
657.5	-0.122072596	0.5735300181	
658.125	0.5959059989	0.2873772112	
658.75	0.4582512023	-0.04510727405	
659.375	0.8885380526	0.1222830312	
660.0	0.4043871605	-1.156226771	
660.625	0.1524744999	-0.3610865567	
661.25	0.7226498857	-0.6633647715	
661.875	0.2478236267	-1.103743686	
662.5	0.1680003195	0.03595090591	
663.125	1.188277488	-0.4462948978	
663.75	-0.1060948898	-0.9038435255	
664.375	0.182031302	-0.360243818	
665.0	-0.8579805525	-0.8080348113	
665.625	-0.3010424499	0.4499063662	
666.25	-0.5942423965	0.4694877643	
666.875	0.5743657757	0.6117534987	
667.5	0.1629253767	-0.05640705221	
668.125	0.6745680638	0.3396391439	
668.75	0.4354266009	-0.6617134648	
669.375	0.039952168	-0.3396086208	
670.0	0.2005877512	-0.3988731603	
670.625	-0.01101665005	-0.6955530589	
671.25	-0.07487166809	-0.1263051826	
671.875	0.5063372507	-0.4648426278	
672.5	0.3116233704	-0.5352946661	
673.125	0.354902772	-0.1086891766	
673.75	0.6904606608	-0.7594936112	
674.375	-0.401696584	-0.5770636282	
675.0	0.2545217781	-0.2238681269	
675.625	-0.6745115605	-0.7167524383	
676.25	-0.4796429791	0.506320484	
676.875	-0.1130305198	-0.4790359318	
677.5	-0.5932521876	0.5813928826	
678.125	-0.09906970255	-0.0576575734	
678.75	-0.1784230365	0.9223494613	
679.375	0.6121303002	-0.4086554794	
680.0	0.1819940838	0.1836020707	
680.625	0.4648117705	-0.2585481548	
681.25	0.01120835183	-0.3679319354	
681.875	0.04815686093	0.4185512025	
682.5	0.7575814799	0.3138670594	
683.125	0.5495079468	-0.1086956696	
683.75	0.3229463566	0.1127946643	
684.375	0.9081008636	0.4308517143	
685.0	0.5676121531	-0.5693209221	
685.625	0.5826277876	0.5718712702	
686.25	1.066909819	-0.5176159817	
686.875	-0.04967963817	-0.2509212429	
687.5	1.521913063	-0.4119615466	
688.125	-1.104874062	-1.424283166	
688.75	-0.05517659229	-0.2889335339	
689.375	-1.31844628	0.990680282	
690.0	0.7598494123	0.5032725872	
690.625	-0.04413570384	0.8160780061	
691.25	1.29187015	0.3330332853	
691.875	0.6024915778	0.6418002064	
692.5	1.506237757	0.7106476747	
693.125	1.520792314	-0.4218347553	
693.75	1.157572276	-0.4283891653	
694.375	0.949823903	-0.9020591413	
695.0	1.013572226	-0.4919258219	
695.625	1.417987108	-0.6022188313	
696.25	0.6909986043	0.2268477602	
696.875	1.22164865	1.489407284	
697.5	1.220314265	0.2595278444	
698.125	1.023367358	1.006350574	
698.75	1.170998009	-1.701393951	
699.375	-0.6619211175	-0.06984812838	
700.0	-1.417555775	0.6745216772	
700.625	0.8956448911	0.4213498867	
701.25	-0.02046309173	0.4818943332	
701.875	1.175966984	0.5031412995	
702.5	0.30770833	0.4169412808	
703.125	1.237376945	0.5128590169	
703.75	0.5013526858	-0.6630952114	
704.375	0.8690085556	-0.003077107164	
705.0	0.5215769118	-0.7386490825	
705.625	0.2197751978	0.2551782664	
706.25	1.319388229	0.6397896633	
706.875	0.3708603199	0.06966430988	
707.5	0.4625850661	1.20515076	
708.125	1.477276432	-0.1440670183	
708.75	0.4637351589	-0.4548353715	
709.375	-0.7573869599	-1.097576309	
710.0	-0.08251517856	0.7503933392	
710.625	-0.1388436882	0.393633271	
711.25	0.4578861286	0.218039015	
711.875	0.3092205696	0.2474206378	
712.5	0.8370913242	-0.03170332124	
713.125	0.5491436572	-0.300163821	
713.75	0.4014805525	-0.8519379198	
714.375	-0.2652599385	-0.1898689586	
715.0	0.3808581655	-0.8125729633	
715.625	-0.5050656062	-0.4257688801	
716.25	0.6813528869	-0.03501387388	
716.875	1.300511502	-1.368858609	
717.5	-0.04407891824	-0.1567738205	
718.125	2.785947973	1.009104522	
718.75	1.992739441	-2.17816791	
719.375	0.4497675545	0.6361670763	
720.0	2.877878892	-4.142519454	
720.625	-1.255877619	-1.921305912	
721.25	0.5831862057	-2.272779527	
721.875	-0.891223844	-3.337292249	
722.5	-1.818482407	-0.733517256	
723.125	-1.79342527	-1.05933202	
723.75	-0.8368086361	1.606194438	
724.375	0.2905834676	0.6853305693	
725.0	0.1514485167	0.8106851732	
725.625	0.5870727903	1.575668829	
726.25	0.9094897176	1.131023111	
726.875	-1.012778087	1.515819248	
727.5	-0.4194954113	5.266172159	
728.125	2.904780703	3.31674058	
728.75	-6.653744577	3.828493097	
729.375	4.691587428	14.74748481	
730.0	1.820104532	1.289371263	
730.625	-10.15225567	18.96596466	
731.25	12.68737201	12.49991835	
731.875	-6.42572344	-2.072748416	
732.5	-12.62081204	2.612016634	
733.125	-6.524267079	3.991550872	
733.75	-0.3389491634	1.572450423	
734.375	3.126618623	2.347282016	
735.0	-0.876227666	-0.8418654584	
735.625	-0.9112823851	-0.2646613327	
736.25	-0.1335157834	2.319961078	
736.875	1.150640101	-0.1388241822	
737.5	1.907705256	1.936221869	
738.125	5.332285079	-1.356104468	
738.75	3.788651931	-6.749134062	
739.375	-1.453908262	-0.6013606728	
740.0	24.43324407	2.54537257	
740.625	3.386121609	-23.88727375	
741.25	-9.095192886	16.47789323	
741.875	-4.885654813	19.36152901	
742.5	9.998044467	-3.917870029	
743.125	1.821378663	-9.455557161	
743.75	-3.187698207	-1.737607716	
744.375	0.1807647354	-0.1314669473	
745.0	-0.1675829553	0.6851213141	
745.625	-0.2045561173	-0.1865745938	
746.25	0.1362825989	-0.5379550644	
746.875	-0.620973332	0.462955709	
747.5	-0.06805689397	0.4873985289	
748.125	0.2173055978	1.397894064	
748.75	1.090433242	0.9766847991	
749.375	0.3007809874	0.8548885624	
750.0	0.1931375932	1.259729326	
