!Created with skrf (http://scikit-rf.org).
# GHz S MA R 50.0 
!freq magS11 angS11
500.0 0.0122907834327 148.786384978
500.625 0.012899848631 52.5170436367
501.25 0.00917475413962 -146.965556266
501.875 0.019098795528 -176.256850771
502.5 0.0107654021243 129.200416795
503.125 0.0255804871749 131.69717221
503.75 0.0129510173941 107.935043947
504.375 0.00211394419434 -51.0500405502
505.0 0.0279141218863 -73.8584726267
505.625 0.00608610862255 -75.8810199789
506.25 0.0312236882655 -109.668956525
506.875 0.0571178634741 -121.297930554
507.5 0.054428741697 -106.49902279
508.125 0.044881307659 -96.7578736923
508.75 0.0601939192382 -127.108703667
509.375 0.0491614414856 -144.696715325
510.0 0.0476036181311 -106.491271376
510.625 0.0295913695795 -171.598994859
511.25 0.0506257609133 -177.121388765
511.875 0.0492878746737 139.846258647
512.5 0.0490600333952 111.929496278
513.125 0.0444085201072 21.1999605855
513.75 0.0562648109167 38.7532865869
514.375 0.0518473734366 30.7391070678
515.0 0.04186577004 -11.7458085387
515.625 0.0740428810635 47.7680556338
516.25 0.103327042332 31.7697478295
516.875 0.116224580004 71.4149191641
517.5 0.136692806762 23.954048289
518.125 0.195792263835 69.6742002614
518.75 0.0777790337203 2.70842350328
519.375 0.085653751847 23.9570927751
520.0 0.0704538520177 -14.0125916224
520.625 0.0960434170052 -4.85615306783
521.25 0.0807085295968 -27.987838236
521.875 0.070971474802 2.40888319318
522.5 0.0945322711535 -34.8145823282
523.125 0.177067332595 -35.883758725
523.75 0.210607138653 -57.1070486594
524.375 0.202096787516 -52.217640778
525.0 0.0683131713565 -59.2363805025
525.625 0.0313960946862 -50.5411289119
526.25 0.040577766124 -12.3012207941
526.875 0.0673931771207 -16.1263364282
527.5 0.034599193234 -47.8655692771
528.125 0.0343103064428 -61.612430168
528.75 0.0619580545367 -75.4491330591
529.375 0.108841118633 -106.937074722
530.0 0.0453670398924 -133.281568536
530.625 0.0396971124169 -136.655807504
531.25 0.118699119088 -134.391351477
531.875 0.200491757459 -147.699846855
532.5 0.123188940733 -173.011563918
533.125 0.0905560339916 176.210925703
533.75 0.0989384849566 166.761313064
534.375 0.129434063247 -179.9512002
535.0 0.0741956393522 158.31192119
535.625 0.0604322499089 176.082318466
536.25 0.0563680325069 164.629529723
536.875 0.0906117054153 -161.859771783
537.5 0.093983351641 -143.752166309
538.125 0.103141979323 -171.664869905
538.75 0.0992430344567 179.786331903
539.375 0.0901956339126 -164.190684311
540.0 0.0674872788373 -151.187865241
540.625 0.122874969203 -155.130847645
541.25 0.125452205347 -140.769354917
541.875 0.105999843507 -145.695389451
542.5 0.106640022324 -141.763788781
543.125 0.128505202125 -166.148999259
543.75 0.128610418932 159.868429083
544.375 0.105402380826 135.762146362
545.0 0.0746020838217 89.7749191544
545.625 0.093591404024 83.5269940224
546.25 0.0998096328982 67.4178863411
546.875 0.0931148676325 54.851755514
547.5 0.0883673383541 58.0384628242
548.125 0.106257576883 79.4403706779
548.75 0.0897063239512 91.5546935631
549.375 0.110647755227 86.087198802
550.0 0.0645167459228 121.416249609
550.625 0.0417763778993 156.846429558
551.25 0.0409223238845 -146.115006622
551.875 0.0722369751511 -169.589234927
552.5 0.0883441780656 -155.614057505
553.125 0.0860953184606 -163.967716454
553.75 0.0880813044293 -167.19306494
554.375 0.116663659524 163.415216382
555.0 0.105311130612 167.536577019
555.625 0.0952893260215 158.589266083
556.25 0.102923012266 161.920489402
556.875 0.118685409211 166.395455975
557.5 0.122739629792 165.2520114
558.125 0.093092172804 163.446921498
558.75 0.0857385716483 177.229524441
559.375 0.0751887511543 -175.152449203
560.0 0.0316707318923 -134.917685278
560.625 0.0564813292351 -134.863558142
561.25 0.0836277672942 -149.614815833
561.875 0.109019788007 -165.183899607
562.5 0.0931975380386 173.052924814
563.125 0.10284172162 147.958777157
563.75 0.118254814821 133.160043509
564.375 0.113021913565 118.384876525
565.0 0.0709654125623 123.232228678
565.625 0.0784742426287 120.079015626
566.25 0.085738219621 155.172104013
566.875 0.07749672383 178.420177396
567.5 0.0785741791841 178.606795664
568.125 0.0776859009104 -168.800746212
568.75 0.0629500397132 -142.832500463
569.375 0.0498917815689 -110.44244489
570.0 0.0633026858579 -116.208631654
570.625 0.0909296051423 -116.206034792
571.25 0.0938438335317 -123.524610352
571.875 0.0887951073501 -127.40592236
572.5 0.115548380166 -160.110066543
573.125 0.136564589814 -173.277426165
573.75 0.0984606948737 164.783325738
574.375 0.083180547034 148.914780218
575.0 0.1045258416 153.954166454
575.625 0.108505402715 155.433216001
576.25 0.08611001043 149.63370495
576.875 0.0868168873866 124.186824781
577.5 0.0740377691986 140.937318157
578.125 0.0573227538087 163.512675482
578.75 0.0508418579817 159.129616618
579.375 0.0558273563517 159.149730067
580.0 0.071010081727 174.584629216
580.625 0.078350010208 -148.459834884
581.25 0.0904344433056 -165.507519586
581.875 0.115861733851 -176.819301635
582.5 0.121838350613 179.766772195
583.125 0.0844666976553 -158.877840151
583.75 0.0807115575618 -160.816678752
584.375 0.0971126678023 -153.739900171
585.0 0.099199001946 -149.165507044
585.625 0.0661954257047 -138.091043022
586.25 0.0690893307127 -133.468139515
586.875 0.0826644856735 -135.592156972
587.5 0.0759129221933 -149.36316565
588.125 0.0559350929659 -159.171567795
588.75 0.0678722363479 -152.867759087
589.375 0.0823042683912 -150.111163442
590.0 0.0903635096572 -174.841683432
590.625 0.10743797935 173.54384619
591.25 0.121384162527 158.239175011
591.875 0.0919778974407 154.862952377
592.5 0.0667436451008 140.211683332
593.125 0.0614734393382 169.187198559
593.75 0.0693770884705 -177.142287517
594.375 0.0564471393022 -140.367202229
595.0 0.0405541298506 -134.375916901
595.625 0.0672325114 -86.9375241995
596.25 0.0759595469666 -81.0740121912
596.875 0.0654099985219 -77.9394795092
597.5 0.0575286977205 -68.4198536775
598.125 0.0791799199892 -44.8018389535
598.75 0.0833346856482 -64.2293423897
599.375 0.0906067132093 -64.6268184111
600.0 0.0964316801325 -73.9612917935
600.625 0.101293662163 -59.7868784302
601.25 0.0842904774716 -67.2004823114
601.875 0.0679895143478 -80.2488599322
602.5 0.0606479685751 -99.4241835671
603.125 0.0489647540499 -30.4264394306
603.75 0.0299184340069 -35.851684837
604.375 0.0420875353451 -26.0578780959
605.0 0.0610201928486 -18.9256350672
605.625 0.0467063803765 -26.8924199882
606.25 0.0318085905426 26.9527220425
606.875 0.0428782391919 49.2168868494
607.5 0.0719171090531 47.6843667486
608.125 0.0584946281167 19.386904818
608.75 0.0661858875397 20.9062257059
609.375 0.0631154567361 27.071272848
610.0 0.0730468853275 42.3879097595
610.625 0.0559712054269 24.0462688397
611.25 0.0540881780835 41.1577349921
611.875 0.0404464535477 54.0360515
612.5 0.0249992734911 101.069937244
613.125 0.00974605469079 142.636731708
613.75 0.073944589573 128.35093783
614.375 0.0517586976307 123.846620382
615.0 0.0330406202062 125.358569997
615.625 0.0199460862818 143.035337897
616.25 0.038564932538 137.118658253
616.875 0.0495975560612 129.436520577
617.5 0.0433879011 133.107884925
618.125 0.00672286103621 132.153705265
618.75 0.0378067093936 147.031854646
619.375 0.0250961309689 149.916218572
620.0 0.0212828775796 147.907415033
620.625 0.0364148411753 -66.0383701699
621.25 0.0524004808364 -139.30868171
621.875 0.0641386590252 -117.635831631
622.5 0.0824092887172 -170.411273265
623.125 0.0667725041305 174.857338526
623.75 0.0687883563819 168.277073843
624.375 0.049502388062 -176.973784861
625.0 0.0354739126861 -149.196662362
625.625 0.0386595865835 -157.864793032
626.25 0.00517810247604 156.744552992
626.875 0.00474149933167 -137.982974212
627.5 0.0199265141419 -31.2706542542
628.125 0.0362900655938 -33.9728975154
628.75 0.0505576653174 -1.20350503046
629.375 0.0389503784371 -38.7100817374
630.0 0.060457095287 -13.6005257005
630.625 0.0700977825983 5.37564875662
631.25 0.0706212047725 6.94335384901
631.875 0.0700580710689 -11.0065434787
632.5 0.0589536701079 -11.033662194
633.125 0.0474381622192 0.179611829289
633.75 0.0487284956819 26.4003415317
634.375 0.0525377900672 -23.8420337623
635.0 0.0345774979933 16.2883558895
635.625 0.037197511168 47.037614491
636.25 0.0506457235622 40.6363297119
636.875 0.0749191506471 48.9797217188
637.5 0.0403351572164 2.82304002999
638.125 0.0260621140676 54.1447450926
638.75 0.0711880941816 74.6100571749
639.375 0.108465605475 98.5255603209
640.0 0.0658602904996 81.9384064928
640.625 0.0509168373577 91.5353781217
641.25 0.0659014832598 115.451365994
641.875 0.0811678556095 157.958109883
642.5 0.0520020840536 158.45866755
643.125 0.0554511493615 161.481779199
643.75 0.0637879566371 171.235837158
644.375 0.0911375099977 -169.262024585
645.0 0.0635140191362 173.268868709
645.625 0.0795411375796 162.420189491
646.25 0.0803065071761 155.855660853
646.875 0.0817172044771 -177.238782442
647.5 0.0523817839883 171.318780019
648.125 0.0770123256707 -177.235416826
648.75 0.0838098537664 -159.278446815
649.375 0.0530508445049 -146.994123699
650.0 0.0430075767071 -123.012951651
650.625 0.0626377665711 -90.5609027792
651.25 0.0714673774195 -62.7068465263
651.875 0.0659400173914 -41.0020617919
652.5 0.103764708927 -24.7778585482
653.125 0.110612802926 -1.61627507959
653.75 0.119116945888 6.48400858259
654.375 0.121375305973 7.42658003132
655.0 0.0926027061106 2.20982147578
655.625 0.0889809784495 24.8083663469
656.25 0.0638446115023 24.2529363242
656.875 0.0683259819595 9.20781117499
657.5 0.0945674014985 25.3528730005
658.125 0.0443779074434 42.4704718744
658.75 0.0485796909692 68.6811120788
659.375 0.0798923331154 41.2479489797
660.0 0.131647879879 24.2153986919
660.625 0.0890617900383 17.5186034406
661.25 0.0988722460828 6.06948216104
661.875 0.117358329608 -14.4263211153
662.5 0.139252066768 -20.3125337802
663.125 0.101183257988 -15.7559263588
663.75 0.087200896447 4.9911502312
664.375 0.0955783863587 55.3742745888
665.0 0.0818908196194 90.1976698575
665.625 0.0607441170063 112.24687689
666.25 0.0721034566399 129.086734114
666.875 0.130223895521 167.550640023
667.5 0.0939547513725 -167.97796288
668.125 0.100264842017 -179.027236661
668.75 0.12710299714 165.183318593
669.375 0.127628128522 177.720831756
670.0 0.0907624929405 -170.288516961
670.625 0.0874942071759 -170.794884249
671.25 0.108352291886 176.713680629
671.875 0.103213232487 169.484177586
672.5 0.0892884702793 152.792789249
673.125 0.0809598885089 156.347772477
673.75 0.107254549618 159.184734146
674.375 0.121858820317 166.277764215
675.0 0.0996222771305 -172.565232134
675.625 0.125941469641 -149.323153447
676.25 0.113023347791 -125.690459825
676.875 0.119415279266 -121.610798684
677.5 0.115925928371 -129.215272774
678.125 0.126181702094 -114.674610244
678.75 0.0645806118593 -93.1509909873
679.375 0.055294576485 -74.611310131
680.0 0.0868219898211 -84.285054649
680.625 0.0978228780463 -67.0182173813
681.25 0.100040613795 -71.6269985254
681.875 0.0948620015059 -89.2690914808
682.5 0.142654987718 -122.07952224
683.125 0.17412783389 -124.520408294
683.75 0.137577434536 -105.069776874
684.375 0.113814307646 -78.2146310692
685.0 0.123241900503 -38.8283076039
685.625 0.138824478217 -4.52187663599
686.25 0.0912735612233 26.1382715067
686.875 0.0785800026379 51.4907572361
687.5 0.0790258296868 83.3518486736
688.125 0.0869969749973 103.180703794
688.75 0.0944157702836 124.934496028
689.375 0.135141385561 125.805803155
690.0 0.124692207245 135.506854392
690.625 0.126551295739 121.969511118
691.25 0.127928123326 106.521876002
691.875 0.182709721449 70.1933939167
692.5 0.135956077562 39.1676090286
693.125 0.0903876717832 -14.7476495292
693.75 0.103728024659 -44.8660993816
694.375 0.134625025052 -27.4980844895
695.0 0.120288914538 17.7267095293
695.625 0.0930444785147 57.4660779614
696.25 0.122294000499 104.79915239
696.875 0.134179990216 175.101910551
697.5 0.142495048452 -144.880211027
698.125 0.141132744469 -134.59232021
698.75 0.13995136475 -136.798032629
699.375 0.095679537368 -116.557805862
700.0 0.09010197171 -107.724758952
700.625 0.1121513407 -88.9203908721
701.25 0.109845427118 -72.0207146
701.875 0.0764000166734 -44.5303517826
702.5 0.100854719089 -77.9333730592
703.125 0.164935593326 -119.149083094
703.75 0.188938172731 -155.198159352
704.375 0.128069501033 170.681546171
705.0 0.108117810148 160.714985765
705.625 0.14084301956 -163.684479168
706.25 0.144438052167 -110.618274889
706.875 0.0991876207456 -70.0672206554
707.5 0.0681995230938 -17.0421770958
708.125 0.0908550307191 26.7438326176
708.75 0.109221764995 72.112427034
709.375 0.107197394249 95.9133997408
710.0 0.10338123938 142.107826771
710.625 0.10794337992 154.591984544
711.25 0.117359726633 177.632324865
711.875 0.143618391268 160.402093054
712.5 0.144225484008 155.528072498
713.125 0.119622784028 106.703282332
713.75 0.0934238689729 52.5589427265
714.375 0.116794017909 15.8114998103
715.0 0.107754642079 36.4091491509
715.625 0.0852334745275 51.3408651733
716.25 0.0862863089213 80.3455147898
716.875 0.118045447723 101.99248681
717.5 0.139750424835 134.07149853
718.125 0.120317923933 -179.16849117
718.75 0.103386908801 175.532194313
719.375 0.115054600307 -172.019482674
720.0 0.131840098289 -129.706180139
720.625 0.113787108776 -80.0270082974
721.25 0.0972445625017 -18.4166215325
721.875 0.0847468669141 34.621534224
722.5 0.068984101126 50.9570788327
723.125 0.0985832343891 87.0928574278
723.75 0.121356782192 49.3783806654
724.375 0.108333734044 0.87764356361
725.0 0.0842828104579 -50.1697277127
725.625 0.0966640501525 -68.4554488397
726.25 0.115671578555 -64.3892154098
726.875 0.105564969014 -49.1773107203
727.5 0.0818649092681 -34.2901576389
728.125 0.0670935116655 -23.7084009548
728.75 0.124440579698 44.1068777571
729.375 0.096887836743 26.270227791
730.0 0.0619320415596 9.79803163923
730.625 0.0658285650227 15.9760655995
731.25 0.0649644986701 60.8251274909
731.875 0.0696146232901 112.799654191
732.5 0.0780240179153 150.273845863
733.125 0.0893569687788 176.711946395
733.75 0.0657250572023 162.627415121
734.375 0.071850608782 173.930593546
735.0 0.0663449567755 169.250186492
735.625 0.0223509308238 112.960250209
736.25 0.0497245595367 161.527050269
736.875 0.056848273702 169.100985536
737.5 0.0755337200324 -175.867509492
738.125 0.0931660387212 -175.052399809
738.75 0.0690537156929 178.805779266
739.375 0.047815808696 -164.330564794
740.0 0.0586268651365 -146.761621271
740.625 0.0604088787163 -145.834137794
741.25 0.0203419349114 -141.157398987
741.875 0.083779916775 -106.234038598
742.5 0.0403078573623 -24.468029923
743.125 0.0503707314416 54.4921684694
743.75 0.0278833752457 154.848239306
744.375 0.0713786159476 93.804126793
745.0 0.0682689310916 109.859289251
745.625 0.0642956215493 110.099644519
746.25 0.0695039786794 108.402264714
746.875 0.0844436992056 37.6298835171
747.5 0.0489051921736 7.71572317769
748.125 0.0121595875284 27.9786010739
748.75 0.0195760269775 2.21550138919
749.375 0.0369121434768 10.3214426134
750.0 0.0489508019892 -123.174775984
