!Created with skrf (http://scikit-rf.org).
# GHz S RI R (50+0j) 
!freq	ReS11	ImS11	
500.0	1.851870655	-1.790995304	
500.625	-0.1252064046	-5.139320082	
501.25	-0.4582394021	-0.8772300752	
501.875	-0.7440493704	-1.863282255	
502.5	-0.4448477141	-0.2500597993	
503.125	-0.1277883077	-0.06014872577	
503.75	0.07997192643	0.4564359752	
504.375	-0.05924058985	-0.05860148604	
505.0	0.2361205628	-0.0721388443	
505.625	-0.2160422763	-0.03530478624	
506.25	0.274599834	-0.3997582891	
506.875	-0.4577245557	1.028994485	
507.5	0.9451442294	-0.9832844639	
508.125	0.2189834736	-3.240593456	
508.75	-0.9436836808	-2.280544111	
509.375	2.734550892	-3.426395409	
510.0	-2.566433928	-0.4348146344	
510.625	-0.0232800987	-0.1845020326	
511.25	-0.7613572065	-0.4007844261	
511.875	-0.4914252036	0.007288546422	
512.5	-0.07308124529	0.01106259754	
513.125	0.06248652438	-0.2810692055	
513.75	-0.3923042939	-0.1665632605	
514.375	0.1538853868	-0.1070586217	
515.0	-0.8831165077	-0.5777042584	
515.625	1.988238235	0.2234008859	
516.25	-2.254707605	-4.135623568	
516.875	-0.8599436613	0.7262721634	
517.5	0.6135141641	-0.8027324745	
518.125	-0.4566918047	0.2442603267	
518.75	0.3777175701	-0.7292536232	
519.375	-0.2114758015	0.2717119883	
520.0	0.2076143354	0.0222781229	
520.625	0.62436923	0.0002121662342	
521.25	-0.3816074532	-0.8423268848	
521.875	-0.1309020504	-0.04463501345	
522.5	-0.2761512668	0.1137573669	
523.125	0.001882005116	-0.0802545407	
523.75	-0.4428884222	0.114860221	
524.375	-0.1183210007	-0.09861731125	
525.0	-0.2699553612	0.6544683073	
525.625	0.1751725969	-0.1447805306	
526.25	-0.01059724428	0.1811489732	
526.875	-0.111620293	-0.08510516041	
527.5	-0.2748062478	0.9157760996	
528.125	0.4631723626	0.3876484653	
528.75	-0.4349236242	0.6330529928	
529.375	0.4167837178	0.1792770458	
530.0	-0.4511958471	0.6329018721	
530.625	0.7576284979	0.6780519805	
531.25	0.7989215741	0.742843041	
531.875	0.7346204274	-0.9936366449	
532.5	0.1857505925	0.1038459776	
533.125	-0.2380603806	-0.7187480793	
533.75	0.7281206563	0.01099843003	
534.375	-0.8374645912	-1.091892825	
535.0	-0.2071345924	-0.06947563171	
535.625	-0.7244480781	0.1827987923	
536.25	0.170269731	0.249010961	
536.875	0.09756138773	0.1599604261	
537.5	0.2818324823	-0.1668166427	
538.125	0.09548692433	-0.1672697493	
538.75	0.5143228574	-0.1371469576	
539.375	-0.3416272621	-0.4130895674	
540.0	-0.2212022127	-0.2729107521	
540.625	-0.4554595777	-0.1627604492	
541.25	-0.2041509584	0.1165928292	
541.875	-0.05387760127	-0.08994653747	
542.5	-0.169410238	-0.1469906564	
543.125	-0.1773163238	0.0120002848	
543.75	-0.1441186881	-0.1679883826	
544.375	-0.1474160005	0.2760833535	
545.0	-0.06017044747	-0.09893806614	
545.625	0.2596551758	0.3866371206	
546.25	0.1056623245	-0.1785944331	
546.875	0.3657966555	0.2377583637	
547.5	-0.004806391781	-0.513313383	
548.125	0.0770548633	-0.1787046137	
548.75	-0.3110375252	-0.4927594836	
549.375	-0.3847758333	-0.01551672228	
550.0	-0.04797206096	-0.1149204223	
550.625	-0.251980234	0.1100788371	
551.25	-0.05822413056	-0.01330425009	
551.875	-0.2965041763	0.1723994092	
552.5	-0.01998455397	0.2249640848	
553.125	-0.08409828013	0.1205715727	
553.75	0.1411149433	0.1224147725	
554.375	0.2029171279	-0.001713745372	
555.0	0.2528009006	-0.1521049543	
555.625	0.1990559086	-0.2704404291	
556.25	0.1536794308	-0.328065808	
556.875	-0.06604664291	-0.3867772923	
557.5	-0.2346286585	-0.2644403466	
558.125	-0.2708576949	-0.08848588861	
558.75	-0.230476986	-0.02951021767	
559.375	-0.2956897337	0.03693359192	
560.0	-0.1829427706	0.1897767744	
560.625	-0.1667188152	0.1987278923	
561.25	0.03574178802	0.3122751042	
561.875	0.04981232192	0.00183183215	
562.5	0.02958830451	0.2432243315	
563.125	0.1305567344	0.03339488126	
563.75	0.3252049072	0.1552975703	
564.375	0.3381816467	-0.3648781324	
565.0	0.05682894175	-0.2128202271	
565.625	0.06257191374	-0.4336733131	
566.25	-0.3910787815	-0.2222655569	
566.875	-0.1810219748	-0.1192048958	
567.5	-0.3284953933	-0.4245998158	
568.125	-0.4818098673	-0.2813349239	
568.75	-0.2849041059	-0.2949263041	
569.375	-0.8061125763	0.2639730854	
570.0	-0.04073841879	0.4782836464	
570.625	-0.3669808122	0.1529433292	
571.25	0.1011660283	0.6524918686	
571.875	-0.1876545945	-0.05660047536	
572.5	0.6171226324	0.1489466739	
573.125	-0.1074692228	-0.4214723324	
573.75	0.2415082655	0.07350067307	
574.375	0.1315558586	-0.4983403062	
575.0	-0.1104932933	0.1659827468	
575.625	0.3346845164	-0.3441722855	
576.25	-0.190544242	-0.2883427978	
576.875	0.3121533453	-0.1545254043	
577.5	-0.04375941305	-0.6626289488	
578.125	-0.2693423073	-0.1821342849	
578.75	0.06092107177	-0.2632667355	
579.375	-0.2827215352	-0.3771718671	
580.0	-0.186350822	0.1819666847	
580.625	-0.07384150156	-0.3483845671	
581.25	-0.3247175249	0.4372676501	
581.875	0.115844436	0.03152955325	
582.5	-0.2619292071	0.4758876403	
583.125	0.6384507288	0.2291461356	
583.75	-0.3368483301	-0.03664614612	
584.375	0.5093361153	0.2871036999	
585.0	-0.1927734124	-0.07611950387	
585.625	0.6351054401	0.3227474519	
586.25	0.2938283565	-0.4639052023	
586.875	0.1035341265	-0.005404531065	
587.5	0.1426471447	-0.5630799698	
588.125	-0.3385052482	-0.2502870746	
588.75	0.3508742583	-0.09824028441	
589.375	0.247885893	-0.6078504111	
590.0	-0.1446414177	-0.1392400789	
590.625	-0.3948400741	-0.3478554586	
591.25	-0.3566165616	0.43592688	
591.875	0.008014288327	0.1358505739	
592.5	-0.1554977949	0.1151245111	
593.125	0.1175201137	0.1470120663	
593.75	-0.1893410962	0.2645994654	
594.375	0.6544759173	0.4054964781	
595.0	0.2773213573	-0.09870549131	
595.625	0.1398668469	0.5558241431	
596.25	0.8237687294	-0.06165156106	
596.875	-0.1182388928	0.1286394187	
597.5	0.61323085	0.5209916515	
598.125	0.3570124301	-0.06767662347	
598.75	0.1573946752	0.4862465088	
599.375	0.6984480625	-0.2221277735	
600.0	0.1733446132	-0.2579892798	
600.625	0.4962353656	-0.2284318605	
601.25	0.2001989258	-0.6212649749	
601.875	-0.1221919363	-0.1460772003	
602.5	-0.3334792238	-0.1933483619	
603.125	-0.2065715166	0.1371517723	
603.75	-0.2374841939	0.1505461651	
604.375	-0.2111891604	0.06915255603	
605.0	-0.3097060488	0.2636507086	
605.625	0.06209118991	0.05406404298	
606.25	-0.610733143	0.08283916306	
606.875	-0.1272794385	0.4262017957	
607.5	-0.4989088672	-0.04504673686	
608.125	-0.008876744733	1.070851667	
608.75	0.1791013778	0.00494667009	
609.375	0.7487840381	0.3049122863	
610.0	0.2448410073	-0.6303075303	
610.625	0.3215025301	0.06434449822	
611.25	-0.08807937609	-0.677009663	
611.875	-0.0331452365	-0.06699458168	
612.5	-0.5178553938	-0.4099977879	
613.125	-0.2401211027	0.2821291461	
613.75	-0.5054461635	0.1938641595	
614.375	0.3235721699	0.3325544578	
615.0	-0.2366181114	0.0445564705	
615.625	0.334368682	0.2992058839	
616.25	-0.2915630767	0.01943992338	
616.875	-0.398194645	0.691731153	
617.5	0.2334556086	0.3892679772	
618.125	-0.4191260013	0.4317277831	
618.75	0.2820242053	0.5389220775	
619.375	0.0271175746	0.1811855324	
620.0	0.621467397	0.2403001643	
620.625	0.1011612253	-0.3048135189	
621.25	-0.1337814052	-0.542643804	
621.875	-0.4637196807	-0.08034547658	
622.5	-0.4662298315	-0.06771699021	
623.125	0.0240651125	0.617595922	
623.75	-0.02370606319	0.07084929072	
624.375	0.3778151075	-0.2737728572	
625.0	-0.1147657959	0.2027916643	
625.625	0.3984540047	-0.4815810694	
626.25	-0.3682051136	0.05322260189	
626.875	-0.03209940733	-0.5365943733	
627.5	-0.6298354946	-0.01300808964	
628.125	-0.02944409297	0.02707342504	
628.75	-0.04798091536	-0.5634132404	
629.375	-0.4117739089	-0.1777921136	
630.0	-0.2199005981	-0.3225658095	
630.625	-0.6807916156	0.1087513721	
631.25	-0.1511338653	0.5173293797	
631.875	-0.2250515551	0.3901717182	
632.5	0.4245818986	0.5869880387	
633.125	0.4518376953	0.05255710076	
633.75	0.310571804	-0.1131930814	
634.375	0.337946195	-0.2829429057	
635.0	-0.2894228346	-0.3516812973	
635.625	-0.008087964862	-0.3008701015	
636.25	-0.6535572899	0.2580732903	
636.875	0.1817730264	0.3072181858	
637.5	-0.5393255865	-0.07771247347	
638.125	0.2796259581	0.510725259	
638.75	-0.4072381636	-0.05939735111	
639.375	-0.04201942666	1.042598202	
640.0	0.5480380116	0.1719171849	
640.625	0.1047152278	0.5103990027	
641.25	1.01978292	0.002130538702	
641.875	0.05518555315	-0.5621843475	
642.5	0.2803763553	-0.2306168248	
643.125	-0.5932367207	-0.6041940552	
643.75	0.02592836802	0.2164226259	
644.375	-0.6313085799	-0.3019962348	
645.0	-0.1807930151	0.6027547619	
645.625	0.06282390415	0.1835913611	
646.25	0.3108197565	0.5461382794	
646.875	0.3789403067	-0.3764661369	
647.5	-0.1972689957	0.2698471017	
648.125	0.7908634462	0.1474778309	
648.75	0.07701481898	-0.4991600029	
649.375	0.9769454281	0.1394082505	
650.0	0.3605150228	-1.464594271	
650.625	-0.2594774942	-0.1956150513	
651.25	1.16366707	-0.2545921865	
651.875	0.3924890628	-1.202009961	
652.5	0.1408771741	0.3055867833	
653.125	1.208992152	-0.2933218557	
653.75	-0.06804432721	-0.7498262068	
654.375	0.2300076014	-0.3076904769	
655.0	-1.056575383	-0.6464323859	
655.625	-0.06478751929	0.7184653365	
656.25	-0.1409027722	0.02107407066	
656.875	0.1944827189	0.5478745674	
657.5	0.0839739286	-0.1803307269	
658.125	0.1850254919	0.776652853	
658.75	0.8674353176	-0.05003586119	
659.375	0.4695835435	-0.3090509026	
660.0	0.7856854773	-0.3557240749	
660.625	0.1335320298	-1.308401163	
661.25	0.04367622067	-0.198715823	
661.875	0.9749666054	-0.495813872	
662.5	0.5389422469	-0.9670379173	
663.125	0.07669521373	-0.09738042509	
663.75	0.9365194561	-0.8604970549	
664.375	-0.6095438552	-0.5955605668	
665.0	-0.1393243558	-0.5291929328	
665.625	-1.121299203	0.2531336931	
666.25	0.2060231797	0.5183159038	
666.875	-0.08045270595	0.5799846324	
667.5	0.6993306143	0.2474359213	
668.125	0.2245875836	-0.229915012	
668.75	0.624202147	0.00473798097	
669.375	0.1097165087	-0.8530920568	
670.0	-0.06610195948	-0.2511065163	
670.625	0.1991737577	-0.4352017386	
671.25	0.06859525794	-0.6261655848	
671.875	0.04112246605	-0.1544392975	
672.5	0.7759299873	-0.3071812901	
673.125	0.2922054643	-0.6499377514	
673.75	0.1892774256	-0.2035243293	
674.375	0.5509413459	-0.8066009522	
675.0	-0.850836701	-0.4089715439	
675.625	0.235160874	-0.2825652264	
676.25	-0.9273328717	-0.241561281	
676.875	-0.04587019922	0.4800721791	
677.5	-0.4845567439	-0.4662933471	
678.125	-0.203683792	0.8815571794	
678.75	-0.01655452139	0.1276029701	
679.375	0.4735679395	0.5340943524	
680.0	0.4340077863	-0.6564003986	
680.625	-0.1066531076	0.2678794006	
681.25	0.5812094986	-0.1388863091	
681.875	0.1985817939	-0.1613032332	
682.5	0.2085136531	0.3937310056	
683.125	0.8269763938	0.3240083154	
683.75	0.6124337556	-0.1802253963	
684.375	0.2783262843	0.1460853449	
685.0	0.9400109607	0.4992989694	
685.625	0.6698715542	-0.7562686474	
686.25	0.3618032899	0.8480291594	
686.875	1.169885862	-1.213584719	
687.5	-0.1102869157	-0.09715473784	
688.125	0.6397732875	-1.402955895	
688.75	-1.747193688	0.3127992763	
689.375	-0.3345149831	-0.2079391414	
690.0	0.2566202185	1.637399154	
690.625	0.6220036534	0.007614748556	
691.25	0.4024152852	0.9599114752	
691.875	1.479943207	0.6301392949	
692.5	1.061681057	0.345073871	
693.125	1.613549578	0.04587122719	
693.75	1.325512364	-0.7047028383	
694.375	0.9906602041	-0.7815297716	
695.0	0.9837207604	-0.799484977	
695.625	1.06391943	-0.02036197498	
696.25	1.568507621	0.1339519682	
696.875	0.4743836126	0.5523319471	
697.5	1.182971893	1.765169102	
698.125	1.285591145	-0.4962042034	
698.75	1.405323904	-0.2370522281	
699.375	-1.744773629	-1.064940467	
700.0	0.1407373327	0.4736468229	
700.625	0.01926872556	1.493628756	
701.25	0.7015573734	-0.1748135656	
701.875	0.2081062638	0.9558535026	
702.5	1.384342107	0.3227758751	
703.125	0.3869703213	0.301986564	
703.75	1.326823376	-0.2373865906	
704.375	0.1649247596	-0.6522292143	
705.0	0.9531178195	0.2182523445	
705.625	0.6846617306	-0.6448310931	
706.25	0.02828358773	0.5563909333	
706.875	1.12173716	1.118718602	
707.5	0.4012088867	0.04139137958	
708.125	1.270397554	0.813053086	
708.75	0.4273337517	-1.477468978	
709.375	-0.2210176965	-0.3183022462	
710.0	-0.7941834994	0.6268582243	
710.625	0.4949656098	0.07367041026	
711.25	0.08628779569	0.5092714077	
711.875	0.5525466083	0.08801178616	
712.5	0.8576775618	0.002981107902	
713.125	0.4798148924	-0.5204281929	
713.75	0.3970119353	-0.3513195897	
714.375	-0.06874970185	-0.8673979275	
715.0	-0.1629416271	-0.008269475811	
715.625	0.4917214962	-0.9270283022	
716.25	-0.4090528853	-0.6542012389	
716.875	1.02633624	0.3949039087	
717.5	2.381826776	-0.7204525281	
718.125	-0.2718995804	-0.7243136406	
718.75	3.601146936	1.210878083	
719.375	1.034567481	-2.976309425	
720.0	0.7836719157	-0.787848231	
720.625	1.504301538	-3.803473566	
721.25	-1.729682089	-1.936624912	
721.875	0.5177782393	-2.392723585	
722.5	-2.039712415	-2.195122805	
723.125	-1.913489101	0.4791236549	
723.75	-0.9548727963	0.4562842341	
724.375	0.2277771032	1.616003433	
725.0	0.4946605905	0.4768568851	
725.625	0.1692540963	0.9509322324	
726.25	-0.1093354406	2.077961109	
726.875	1.307591613	2.391934728	
727.5	-1.703621681	1.578895673	
728.125	-0.07751474374	8.89052621	
728.75	4.384379935	5.353798473	
729.375	-8.834566446	2.165453335	
730.0	5.860923251	17.98525847	
730.625	2.464348802	0.3167856011	
731.25	-12.21319631	14.02130656	
731.875	-1.067537541	17.61060711	
732.5	-2.70948274	-3.059046462	
733.125	-10.55450284	1.531374416	
733.75	-0.7817019192	4.081271514	
734.375	1.397773378	0.04484272059	
735.0	1.03387073	-1.866647378	
735.625	-1.010551314	1.450964283	
736.25	-0.7785597103	0.5584606359	
736.875	1.38012403	1.965730448	
737.5	3.06157897	-0.8343767172	
738.125	1.53712792	0.4403016689	
738.75	7.763427538	-3.414715662	
739.375	4.361014727	-8.964609284	
740.0	-3.529951542	2.658153311	
740.625	10.96822497	18.08689502	
741.25	17.92342942	-7.159151464	
741.875	-20.51152945	-18.62731842	
742.5	-23.93672046	-3.353944591	
743.125	-0.6029107813	2.154927592	
743.75	3.330030342	-5.202559439	
744.375	-1.708258886	1.225493638	
745.0	-0.1803802996	-0.1811023604	
745.625	0.4334086804	-0.1153716266	
746.25	-0.08852325359	0.04652479517	
746.875	-0.6479760905	-0.06650120403	
747.5	-0.2184212706	1.087147067	
748.125	0.4150141585	0.9201812364	
748.75	0.3344353176	1.079889835	
749.375	-0.1594272018	1.503611471	
750.0	-0.1630158911	-0.106731443	
