!Created with skrf (http://scikit-rf.org).
# GHz S RI R (50+0j) 
!freq	ReS11	ImS11	
500.0	-1.442014852	-1.344820759	
500.625	2.671976711	-2.43330468	
501.25	-2.793514062	-2.957352904	
501.875	-1.770949069	-0.6723511413	
502.5	0.003292833888	-0.171900973	
503.125	-0.3995955178	0.01307451488	
503.75	0.2476939804	0.02691341983	
504.375	0.1361376838	0.08421889746	
505.0	-0.1145137284	-0.1186282568	
505.625	0.2673096115	-0.2027111418	
506.25	-0.5931052789	0.1306935436	
506.875	0.05016819379	-0.9377441199	
507.5	-1.539883018	-1.735267869	
508.125	-0.9908207214	-0.6180599644	
508.75	3.098266071	-1.778622261	
509.375	-1.912517879	-5.757931343	
510.0	-1.121686272	0.07262592957	
510.625	-0.6085385304	-1.052151558	
511.25	-0.3078048492	0.1214517742	
511.875	-0.5112826551	-0.2047221361	
512.5	-0.08247067178	0.2006050774	
513.125	-0.04526239765	-0.1688708765	
513.75	-0.04706045783	-0.1691434963	
514.375	-0.5358782239	-0.3018550747	
515.0	0.4879486192	1.26655209	
515.625	-1.356938912	-3.532498032	
516.25	-0.8567985571	0.8448373335	
516.875	0.3484255398	-2.414319433	
517.5	-1.051630973	-0.5106276001	
518.125	0.3079068579	-0.3027453478	
518.75	-0.8296127097	-0.3312118763	
519.375	-0.07388155405	-0.01380297692	
520.0	0.4175436854	0.323355324	
520.625	0.406949398	-0.3635349097	
521.25	0.04035166075	-0.3736615566	
521.875	-0.594042036	-0.2184142205	
522.5	0.03258017275	0.1172703254	
523.125	-0.3689471604	0.1783361589	
523.75	-0.05053399748	0.003464135769	
524.375	-0.6693205909	0.117086083	
525.0	0.1498889318	0.07056173126	
525.625	-0.07673247337	0.247631017	
526.25	0.09790601977	-0.2704887246	
526.875	-0.2089378076	0.3644741031	
527.5	0.1233320991	0.2725647912	
528.125	-0.3167895048	0.8085704611	
528.75	0.5129327152	0.9259093582	
529.375	-0.1421876264	0.1130338875	
530.0	0.4670750637	0.3487736664	
530.625	-0.2316777759	0.9191880096	
531.25	1.670329081	-0.1868393899	
531.875	0.2360345137	-0.008031583973	
532.5	-0.3237586819	-0.8203190756	
533.125	0.2561040274	0.4497782683	
533.75	0.05387777186	-1.016582817	
534.375	-0.04497206918	-0.1976384871	
535.0	-0.9679714872	-0.6232594767	
535.625	-0.05881411417	0.5001588836	
536.25	-0.1229140229	0.160427015	
536.875	0.3637687991	0.08802367171	
537.5	0.04599009262	-0.1467521558	
538.125	0.4363210621	-0.009521985267	
538.75	0.1726039203	-0.434482821	
539.375	-0.001189756299	-0.3214111521	
540.0	-0.5518340539	-0.5177117165	
540.625	-0.2465070687	0.1618381643	
541.25	-0.2151514604	-0.1447134277	
541.875	-0.1787463515	-0.00172283914	
542.5	-0.1257957041	-0.005420175703	
543.125	-0.06742303723	-0.2123696843	
543.75	-0.4431492716	0.09093190627	
544.375	0.09223336651	-0.1066439899	
545.0	-0.06645107191	0.3533635169	
545.625	0.09536604337	-0.1281154557	
546.25	0.2844967486	0.3961102383	
546.875	0.1576762186	-0.3339356019	
547.5	0.289123651	-0.04254509163	
548.125	-0.1042990494	-0.642741953	
548.75	-0.3820092812	-0.07726090953	
549.375	-0.06602619856	-0.2020374233	
550.0	-0.3431872757	0.01145444109	
550.625	0.02820651876	0.01190761169	
551.25	-0.3329669361	0.06340538115	
551.875	-0.02371446505	0.1712263877	
552.5	-0.2149240537	0.1574709504	
553.125	0.02391744542	0.1786357997	
553.75	0.07836588979	0.1106654277	
554.375	0.2468197483	0.01349333654	
555.0	0.2228586944	-0.1817946581	
555.625	0.1927881263	-0.240349565	
556.25	0.1719469727	-0.3399743965	
556.875	-0.1001027237	-0.3938236539	
557.5	-0.2283230058	-0.2399773247	
558.125	-0.2661850689	-0.1103096058	
558.75	-0.274327609	-0.001784189656	
559.375	-0.2149170141	0.04904922923	
560.0	-0.2666497615	0.135924073	
560.625	-0.1039465405	0.3146707482	
561.25	0.04293537344	0.1480941572	
561.875	0.02432181441	0.1927889062	
562.5	0.07563167146	0.01630414932	
563.125	0.1199054619	0.2907915856	
563.75	0.354827453	-0.1385339805	
564.375	0.2257096817	-0.04951726376	
565.0	0.2762869575	-0.4728161451	
565.625	-0.2004044863	-0.2694287062	
566.25	-0.1194860549	-0.2541743515	
566.875	-0.40658323	-0.2919412632	
567.5	-0.3826687545	-0.07429006168	
568.125	-0.103829228	-0.460076464	
568.75	-0.7469220365	-0.225947413	
569.375	-0.3134474564	0.2449766398	
570.0	-0.5743371878	0.3570737536	
570.625	0.05265747748	0.6353110988	
571.25	-0.09266226157	-0.04290308516	
571.875	0.2888619398	0.5163291288	
572.5	-0.01829338216	-0.2373398322	
573.125	0.4742402323	-0.008928735615	
573.75	0.06920729332	-0.575063903	
574.375	-0.1266472348	0.1121477912	
575.0	0.3110533119	-0.3085300851	
575.625	-0.1760259061	0.04422635484	
576.25	0.4295439646	-0.2524694611	
576.875	-0.2200072731	-0.5096057506	
577.5	-0.07631926512	-0.07419155524	
578.125	0.1618666144	-0.4595120155	
578.75	-0.3838042682	-0.4375358508	
579.375	-0.1843168808	0.0714765661	
580.0	0.04191080578	-0.2839685287	
580.625	-0.2785788101	0.1741696697	
581.25	-0.1920574716	-0.1429973787	
581.875	-0.04682624709	0.6566905466	
582.5	0.3872849962	0.1498902011	
583.125	-0.2246267121	0.09625809873	
583.75	0.4959577937	0.3118851764	
584.375	-0.3459378949	-0.1399701891	
585.0	0.5380160076	0.4238974635	
585.625	0.2719576918	-0.3243148818	
586.25	0.2714868366	0.2175794709	
586.875	0.2502182318	-0.6263807386	
587.5	-0.06628535431	-0.01450008242	
588.125	0.2006985059	-0.4777872104	
588.75	-0.1441188963	-0.5017297103	
589.375	0.1002496628	-0.002910182493	
590.0	0.01990239592	-0.6985900609	
590.625	-0.4973306213	0.03406185234	
591.25	-0.1623623235	0.1784737853	
591.875	-0.2748855141	0.1893965684	
592.5	0.19299747	0.2531257727	
593.125	-0.3004277612	0.106818803	
593.75	0.2545956091	0.2068165116	
594.375	0.1258553731	0.204589386	
595.0	0.4744829527	0.5794867916	
595.625	0.6183214212	-0.1584155051	
596.25	-0.0564310455	0.3254742189	
596.875	0.7599447018	0.2371080737	
597.5	0.2165361245	-0.1413608775	
598.125	0.1995239627	0.5714922084	
598.75	0.5987656966	-0.003490435529	
599.375	0.25959938	0.1154031222	
600.0	0.6624822791	-0.4265339113	
600.625	0.08275715453	-0.4473245651	
601.25	0.2950990169	-0.2042508864	
601.875	-0.1487572313	-0.515781955	
602.5	-0.2394685673	0.07412398308	
603.125	-0.2396607801	0.08262831297	
603.75	-0.2465250415	0.04412320094	
604.375	-0.3481874017	0.309488187	
605.0	0.01964520255	0.02393526157	
605.625	-0.4187782806	0.2072247595	
606.25	0.00742914351	0.1705049671	
606.875	-0.6012804661	-0.07734197967	
607.5	-0.2456434502	0.7768138527	
608.125	-0.1639955332	0.1801243781	
608.75	0.5282445756	0.8647642542	
609.375	0.271429322	-0.443012976	
610.0	0.5256309644	0.1003484561	
610.625	0.1642168007	-0.6449115902	
611.25	0.08039093304	-0.02446192905	
611.875	-0.3517356813	-0.5828843714	
612.5	-0.1476166418	0.04415330482	
613.125	-0.6110016644	-0.151375788	
613.75	-0.03060796642	0.5317098027	
614.375	-0.2778607002	0.1626782952	
615.0	0.3987557945	0.1182969648	
615.625	-0.3214837994	0.07002854246	
616.25	-0.01090863634	0.6746136522	
616.875	-0.09692684418	0.02235580273	
617.5	-0.4578850921	0.6739888116	
618.125	0.2661491566	0.5022583784	
618.75	-0.2183789425	0.2177447847	
619.375	0.399226966	0.526237574	
620.0	0.2388460263	0.003038556449	
620.625	0.4095767073	-0.3800618539	
621.25	-0.2325446583	-0.2848483328	
621.875	-0.449088796	-0.3745075109	
622.5	-0.4208402198	0.2848878389	
623.125	-0.2185543837	0.2647534943	
623.75	0.5004544614	0.1607569925	
624.375	-0.1887971011	0.04177644751	
625.0	0.3454344052	-0.3868092354	
625.625	-0.0657423049	0.1478102922	
626.25	0.1337328623	-0.6054362355	
626.875	-0.5746346326	0.0009424260825	
627.5	0.03022548689	-0.09631605471	
628.125	-0.4553915476	-0.3980334939	
628.75	-0.170200443	-0.04336335245	
629.375	-0.05040941404	-0.4962264217	
630.0	-0.6439142558	-0.1245815354	
630.625	-0.2658348716	-0.02976537696	
631.25	-0.5463156715	0.4667509713	
631.875	0.08146904447	0.6492456659	
632.5	0.2917833905	0.3527550025	
633.125	0.3708443142	0.1526724118	
633.75	0.6094798515	-0.08023131264	
634.375	-0.104789599	-0.2998632831	
635.0	0.2320288367	-0.3163756753	
635.625	-0.5961647014	-0.1874372794	
636.25	-0.04226898111	-0.02075500141	
636.875	-0.4247500472	0.4807632404	
637.5	0.2397251107	0.1418675654	
638.125	-0.4847816511	-0.01036206397	
638.75	0.08093773183	0.8431249198	
639.375	-0.0004141676018	0.002544005052	
640.0	0.02789634667	0.828753357	
640.625	0.8751910254	0.3544010125	
641.25	0.351545297	-0.2074085847	
641.875	0.7590062739	-0.1307683697	
642.5	-0.4227441066	-0.4900187162	
643.125	0.1192597706	-0.2588819669	
643.75	-0.6676596173	-0.3125776807	
644.375	0.005576630383	0.2983363231	
645.0	-0.6757761231	0.001394680731	
645.625	0.2639545423	0.748652535	
646.25	0.4997126095	-0.05887745488	
646.875	-0.1702517883	0.07094730916	
647.5	0.6887015062	0.08371699532	
648.125	-0.2945860472	0.1766788253	
648.75	1.144960682	-0.05004474371	
649.375	0.0280069148	-0.8536502996	
650.0	0.5292219938	0.01407742382	
650.625	0.7171864584	-1.406781598	
651.25	-0.3736701129	-0.4649931074	
651.875	0.8429476535	0.3017264046	
652.5	1.077929603	-0.7462225534	
653.125	0.07770396168	-0.3910556356	
653.75	0.8799479859	-0.1869220943	
654.375	-0.5028544522	-0.9427293076	
655.0	-0.2534815384	0.08470684675	
655.625	-0.8347375576	0.102660639	
656.25	0.556746216	0.6952423228	
656.875	-0.2650559613	-0.1058910049	
657.5	0.2765263327	0.5187357453	
658.125	0.3963343803	0.06640039845	
658.75	0.3075515136	0.3355158936	
659.375	1.197180308	-0.3829684502	
660.0	0.08349454557	-0.7792250125	
660.625	0.448024713	-0.3998676735	
661.25	0.6966504924	-1.033364718	
661.875	-0.2041256627	-0.6018015044	
662.5	0.9197877417	0.06423585896	
663.125	0.776623396	-0.99599293	
663.75	-0.09426773665	-0.4049214068	
664.375	0.4007106562	-0.8364802359	
665.0	-1.076053487	-0.3408182353	
665.625	-0.3246244702	-0.03157232382	
666.25	-0.5280920918	0.8247247969	
666.875	0.574079705	0.2688767792	
667.5	0.03435826884	0.3648887275	
668.125	0.8285480187	-0.08170164343	
668.75	0.1959090842	-0.4862229302	
669.375	0.2273053049	-0.2443854008	
670.0	0.2032129533	-0.6527300045	
670.625	-0.2962817821	-0.4875357591	
671.25	0.284824165	-0.1907227851	
671.875	0.3535350774	-0.5739546661	
672.5	0.1633656026	-0.3820847677	
673.125	0.7519839721	-0.2171355484	
673.75	0.1960720167	-0.8475339596	
674.375	-0.06699067873	-0.196696471	
675.0	0.2171020421	-0.7469890234	
675.625	-0.9803405302	-0.3724604071	
676.25	0.09002635752	0.2719596699	
676.875	-0.727126454	-0.3993963173	
677.5	-0.06239884278	0.4687957189	
678.125	-0.5242261522	-0.07588280959	
678.75	0.4315513447	0.9801138156	
679.375	0.004476006986	-0.1295955973	
680.0	0.5910368432	0.05174138806	
680.625	0.2531714258	-0.5517681813	
681.25	-0.2702490228	0.0846228446	
681.875	0.6576133919	0.4716421868	
682.5	0.6165957183	-0.06039063206	
683.125	0.437435136	0.04067041211	
683.75	0.2795775726	0.4158779489	
684.375	1.210962014	0.001791754623	
685.0	0.01686917263	-0.1304590696	
685.625	1.030534125	0.3025530453	
686.25	0.6278753176	-0.7469671286	
686.875	0.4194681755	0.4353788514	
687.5	1.103766096	-1.578440981	
688.125	-0.7206700236	-0.107575502	
688.75	-0.6290618874	-1.226016391	
689.375	-0.8318806556	1.432998232	
690.0	0.2544870059	0.127143065	
690.625	0.6990126422	1.224822038	
691.25	0.7334260549	0.1091812888	
691.875	0.763323875	0.9698824103	
692.5	1.738228113	0.4377077353	
693.125	1.146436158	-0.2232600915	
693.75	1.47110759	-0.438826501	
694.375	0.8516134089	-0.9598794761	
695.0	1.127140477	-0.5848159662	
695.625	1.021671931	-0.5594134885	
696.25	0.7507588828	0.7396279443	
696.875	1.673966459	0.9435403688	
697.5	0.4109536978	0.4324741441	
698.125	1.764422898	1.141574286	
698.75	0.2840754465	-1.621848134	
699.375	-0.06557592364	-1.043112998	
700.0	-1.079588706	1.453342439	
700.625	0.5142473963	0.01330116202	
701.25	0.6247401853	1.209926613	
701.875	0.710471384	-0.06196393071	
702.5	0.3987413439	0.8764336517	
703.125	1.43561862	0.08954911765	
703.75	0.3135533567	-0.06922798963	
704.375	1.152789197	-0.5017045045	
705.0	0.08645481684	-0.5250606953	
705.625	0.6874486477	0.6207499786	
706.25	1.124681383	-0.1560173791	
706.875	-0.04368727572	0.6336556209	
707.5	1.029793844	1.279273605	
708.125	0.8886624808	-0.4087555265	
708.75	1.021465237	-0.5171392505	
709.375	-1.149517616	-0.6849031356	
710.0	-0.06182066584	0.2950538616	
710.625	0.1143034543	0.6042137689	
711.25	0.2607973468	-0.04736521708	
711.875	0.4273671233	0.4890163951	
712.5	0.7677937393	-0.1856924118	
713.125	0.7490065892	-0.2707720404	
713.75	0.05476454696	-0.8190682946	
714.375	0.2829807248	-0.1058689843	
715.0	-0.2428071427	-0.9886589965	
715.625	-0.1591275432	0.05545094596	
716.25	1.124985064	-0.6264354241	
716.875	0.1068915093	-1.305608759	
717.5	0.9937399229	1.126331463	
718.125	3.097302411	-0.3844456628	
718.75	-0.2344347276	-1.399406761	
719.375	3.829016189	0.5115941697	
720.0	-0.4271293126	-4.078070584	
720.625	0.6204524219	-0.9776158489	
721.25	0.6834091761	-2.658058082	
721.875	-1.89164243	-2.862088326	
722.5	-0.6227852808	-1.239075273	
723.125	-2.591206477	-0.417197629	
723.75	-0.5154326238	1.342463573	
724.375	-0.1672563416	0.7030070381	
725.0	0.3896251308	1.303846776	
725.625	0.7732144077	0.8033942451	
726.25	-0.0790903462	0.9446589553	
726.875	-0.9073048315	2.706185875	
727.5	1.438609264	4.95859922	
728.125	-0.2141913928	0.6222595169	
728.75	-1.645505918	11.99805048	
729.375	5.104069704	9.271638715	
730.0	-8.210067652	4.709445688	
730.625	1.410056129	20.13073328	
731.25	2.932267251	-1.136476486	
731.875	-14.56977757	4.770247391	
732.5	-10.18822037	7.545945928	
733.125	-2.552140736	3.24524082	
733.75	-4.024767903	1.803273096	
734.375	3.380569197	0.1888537158	
735.0	-0.2197153527	-0.8374171961	
735.625	-1.489868097	-0.5727157788	
736.25	1.138701364	1.623781242	
736.875	-0.2826393443	1.101159833	
737.5	3.664073312	0.9526325438	
738.125	4.24043749	-2.297032976	
738.75	0.6242393007	-4.030849886	
739.375	8.98833173	4.770827378	
740.0	12.05814543	-17.21933499	
740.625	-8.13433522	-1.522110601	
741.25	-5.766148466	30.06020525	
741.875	26.98706629	50.66973661	
742.5	4.300154863	-19.60746315	
743.125	-4.184805964	-13.12326365	
743.75	-1.140636317	0.3203669944	
744.375	-0.7212276425	-1.583996108	
745.0	0.668638716	0.6538120603	
745.625	-0.07961619347	0.2862937207	
746.25	0.03489325925	-0.4989763293	
746.875	-0.4421076174	0.435506846	
747.5	-0.4885972856	0.6686942721	
748.125	1.013409986	1.69475041	
748.75	0.7856250215	1.067811159	
749.375	-0.07706880448	1.46324203	
750.0	-1.263603126	1.354645783	
