!Created with skrf (http://scikit-rf.org).
# GHz S RI R (50+0j) 
!freq	ReS11	ImS11	
500.0	-2.174854982	-2.30644361	
500.625	4.12848605	-3.002820992	
501.25	-2.070194954	-3.118641428	
501.875	-2.089024884	-0.7079234871	
502.5	-0.006808779342	-0.2095413949	
503.125	-0.4243642645	0.03974481587	
503.75	0.2184551039	-0.01863519183	
504.375	0.1614426818	0.07162199421	
505.0	-0.1119318554	-0.09387715273	
505.625	0.2678002666	-0.2398782453	
506.25	-0.5903072734	0.1418786421	
506.875	0.0115949228	-0.8896088511	
507.5	-1.247645319	-1.954912594	
508.125	-1.096731741	-0.8480045426	
508.75	2.713567064	-2.492037273	
509.375	-2.63645945	-5.231312678	
510.0	-0.6642477059	-0.01553408183	
510.625	-0.5790737002	-0.8575052174	
511.25	-0.1263694611	0.08106147642	
511.875	-0.5992286172	-0.3922807741	
512.5	-0.1124807612	0.1788756319	
513.125	-0.08908351471	-0.1742836451	
513.75	-0.05052391087	-0.1483595357	
514.375	-0.5973867766	-0.3014243335	
515.0	0.6762834697	1.201199016	
515.625	-1.378063317	-3.082715672	
516.25	-0.5343968346	0.9206250624	
516.875	0.1101605806	-2.454614608	
517.5	-0.9986147169	-0.3814334293	
518.125	0.2583737092	-0.2911622335	
518.75	-0.836456537	-0.4182591897	
519.375	-0.09978168879	0.02397255894	
520.0	0.4401465782	0.3226520323	
520.625	0.4591559894	-0.3549591748	
521.25	0.05243198926	-0.4279492154	
521.875	-0.5803476525	-0.1911871905	
522.5	0.01442602691	0.08316332635	
523.125	-0.2537024888	0.1172080257	
523.75	-0.02335456327	-0.05964534798	
524.375	-0.6771703238	0.1904552927	
525.0	0.1201636216	0.0250081354	
525.625	-0.0609595448	0.2953694072	
526.25	0.04673880974	-0.2614704719	
526.875	-0.1821823719	0.3637015809	
527.5	0.1105697391	0.2495312947	
528.125	-0.2441755229	0.8982207201	
528.75	0.5730707689	0.8771723736	
529.375	-0.1417222359	0.1352475821	
530.0	0.4148880129	0.3841281089	
530.625	-0.1845015965	0.9841218057	
531.25	1.57408301	-0.2533314908	
531.875	0.382592141	-0.1193957403	
532.5	-0.2983134715	-0.7209562511	
533.125	0.3775924741	0.3972621069	
533.75	0.06270242148	-0.8566136762	
534.375	-0.04083519833	-0.3343064762	
535.0	-1.034128621	-0.6209525321	
535.625	-0.1081322615	0.4482025746	
536.25	-0.1107625148	0.181585939	
536.875	0.3648738505	0.07131419548	
537.5	0.04079849605	-0.1350144548	
538.125	0.4653517903	-0.04029026655	
538.75	0.1533223495	-0.4357628273	
539.375	-0.007049344722	-0.3591753182	
540.0	-0.589098609	-0.5183563682	
540.625	-0.2449485163	0.1544036154	
541.25	-0.212638916	-0.1262345916	
541.875	-0.1885450163	-0.02245573324	
542.5	-0.1185423168	-0.02407318467	
543.125	-0.05652213083	-0.2478587305	
543.75	-0.4169304688	0.1069095895	
544.375	0.04881893682	-0.09608684862	
545.0	-0.03589046881	0.3618741894	
545.625	0.06863559376	-0.09308823408	
546.25	0.3415375386	0.4112088792	
546.875	0.1530068909	-0.3323781751	
547.5	0.3035841503	-0.05452928889	
548.125	-0.1236924526	-0.6432207769	
548.75	-0.3903119733	-0.07688314845	
549.375	-0.0797809296	-0.2189148035	
550.0	-0.3479551536	0.0311018593	
550.625	0.02454231176	-0.005330873861	
551.25	-0.343380781	0.08769988517	
551.875	-0.02717663614	0.1606906375	
552.5	-0.2206787314	0.1697510735	
553.125	0.019873347	0.1836174384	
553.75	0.08111798721	0.1177086115	
554.375	0.2555948225	0.01711511374	
555.0	0.232971588	-0.1897626119	
555.625	0.2060272566	-0.2472807002	
556.25	0.1763396304	-0.3509658647	
556.875	-0.09178427285	-0.3997485398	
557.5	-0.2301480515	-0.2389184693	
558.125	-0.2744209101	-0.1104746757	
558.75	-0.2807466984	0.005697009567	
559.375	-0.2254053595	0.05381949413	
560.0	-0.2695843393	0.1465045827	
560.625	-0.1011383608	0.3237710839	
561.25	0.04602773348	0.1507370094	
561.875	0.03553075157	0.2031496166	
562.5	0.06114091363	0.01403294006	
563.125	0.1445279442	0.3014949544	
563.75	0.342838585	-0.1437327189	
564.375	0.2471338205	-0.04576565324	
565.0	0.2749838245	-0.4882348473	
565.625	-0.2011526519	-0.2857671223	
566.25	-0.1256224812	-0.2527726711	
566.875	-0.4203025603	-0.3025425857	
567.5	-0.3877401464	-0.06503329988	
568.125	-0.1388847151	-0.4751338955	
568.75	-0.7721985926	-0.1835969433	
569.375	-0.3253695066	0.2241377121	
570.0	-0.5818318565	0.4229344042	
570.625	0.08873708122	0.6160126043	
571.25	-0.1205511687	-0.0394780398	
571.875	0.3312044033	0.5121552561	
572.5	-0.009162336358	-0.218983	
573.125	0.4870153681	-0.02645216689	
573.75	0.04376356864	-0.5815175085	
574.375	-0.09901695341	0.1323396472	
575.0	0.2904938502	-0.3402241374	
575.625	-0.1517193503	0.06209758291	
576.25	0.4324673963	-0.284961616	
576.875	-0.2367065859	-0.5077286538	
577.5	-0.06646991092	-0.07403714026	
578.125	0.1426012425	-0.4753760483	
578.75	-0.4159884421	-0.4159540498	
579.375	-0.1622124586	0.07794783683	
580.0	0.00261743794	-0.3115290386	
580.625	-0.2503866642	0.1951332389	
581.25	-0.2254437602	-0.1499064554	
581.875	-0.01952912887	0.6777920897	
582.5	0.4068416438	0.1308658102	
583.125	-0.2440424143	0.09983075527	
583.75	0.5469009342	0.2975608868	
584.375	-0.346518466	-0.1098385874	
585.0	0.5623466524	0.4038004686	
585.625	0.2241117054	-0.3302766397	
586.25	0.3591611042	0.2311355114	
586.875	0.1934197204	-0.6554221994	
587.5	-0.04624858282	-0.02387547408	
588.125	0.1989254004	-0.4942696313	
588.75	-0.1565991469	-0.5225665023	
589.375	0.07871250654	-0.04380534796	
590.0	0.02443399137	-0.6676502141	
590.625	-0.5181666524	0.01156339097	
591.25	-0.1593811246	0.1841445652	
591.875	-0.2736351076	0.232332299	
592.5	0.2298798755	0.181265527	
593.125	-0.2664445128	0.1777340346	
593.75	0.2564372366	0.1907164571	
594.375	0.1111442025	0.2195709095	
595.0	0.5137929101	0.5871093076	
595.625	0.646669707	-0.2349934503	
596.25	-0.03170440122	0.3318256897	
596.875	0.7852209305	0.1778143749	
597.5	0.208800904	-0.1251965457	
598.125	0.268734344	0.6035531571	
598.75	0.5553912241	-0.06537229402	
599.375	0.2947909707	0.1364070396	
600.0	0.6474332978	-0.4715301188	
600.625	0.08034710458	-0.4619051786	
601.25	0.2752093045	-0.2433285944	
601.875	-0.1381676225	-0.4900461733	
602.5	-0.2821260863	0.04294929185	
603.125	-0.2195968372	0.1208947465	
603.75	-0.3057258531	0.0459179001	
604.375	-0.3374798345	0.360145472	
605.0	-0.01281944121	-0.01299995855	
605.625	-0.3830132144	0.2706734346	
606.25	-0.009030449413	0.1318242282	
606.875	-0.6675097522	-0.05208421688	
607.5	-0.1909746918	0.7452320988	
608.125	-0.1942587314	0.214792479	
608.75	0.5029461282	0.8347066251	
609.375	0.2257944419	-0.3952138092	
610.0	0.5754182455	0.03945982561	
610.625	0.1642416626	-0.60352119	
611.25	0.08348338662	-0.07057811122	
611.875	-0.4171678596	-0.5528679687	
612.5	-0.2163909718	-0.03629915244	
613.125	-0.6147640437	-0.09139467252	
613.75	0.01511166923	0.5238812194	
614.375	-0.1200661658	0.2419869344	
615.0	0.4381714204	0.04586901144	
615.625	-0.306800111	0.1260922685	
616.25	0.0583434108	0.5987937211	
616.875	-0.1067156464	0.1049850116	
617.5	-0.4052032341	0.7369919352	
618.125	0.2630768841	0.5162444039	
618.75	-0.2135947707	0.2819998741	
619.375	0.3965705204	0.5468378747	
620.0	0.2699758466	0.02401824828	
620.625	0.4146033901	-0.3904360648	
621.25	-0.2085480798	-0.2892118402	
621.875	-0.4620373909	-0.3395630191	
622.5	-0.414207851	0.25682722	
623.125	-0.2112100926	0.3157379718	
623.75	0.4924612387	0.1333852569	
624.375	-0.1177487962	0.01684695107	
625.0	0.3269937231	-0.4551137784	
625.625	-0.0231858548	0.1524143919	
626.25	0.08449098018	-0.5815926521	
626.875	-0.5655281612	-0.0147698549	
627.5	0.005303543744	-0.1375859753	
628.125	-0.4757132377	-0.3625159056	
628.75	-0.1500749471	-0.04424956044	
629.375	-0.07879358956	-0.5503406125	
630.0	-0.6372959409	-0.09240834095	
630.625	-0.3016349256	-0.04881901539	
631.25	-0.5491932038	0.4706568518	
631.875	0.06687322501	0.6595590919	
632.5	0.3269231922	0.3946187059	
633.125	0.361087491	0.1656535179	
633.75	0.6366333573	-0.07285020692	
634.375	-0.1071745494	-0.2816058104	
635.0	0.2058388652	-0.3495551953	
635.625	-0.6067748693	-0.1628910058	
636.25	-0.1085390317	-0.0833060394	
636.875	-0.3785738885	0.5010955895	
637.5	0.2300608394	0.1125501885	
638.125	-0.5214081157	0.007519998966	
638.75	0.04697147975	0.8241783765	
639.375	0.006120814212	0.03635409733	
640.0	0.02688045607	0.8349163597	
640.625	0.8788477988	0.3788492014	
641.25	0.3581081427	-0.196018705	
641.875	0.8228839925	-0.179348601	
642.5	-0.4012956464	-0.4646373356	
643.125	0.1361389127	-0.2890410448	
643.75	-0.6809008598	-0.3251831137	
644.375	-0.01394324354	0.2897941608	
645.0	-0.679972701	-0.001026470728	
645.625	0.2395195734	0.7748113099	
646.25	0.5071819082	-0.06124739858	
646.875	-0.1645445092	0.1102395818	
647.5	0.7126969589	0.006173855539	
648.125	-0.2455323416	0.27527374	
648.75	1.186657599	-0.1167352369	
649.375	0.01955731339	-0.8332437934	
650.0	0.5951539502	0.007594518669	
650.625	0.7280496925	-1.423934744	
651.25	-0.3790683551	-0.4474286084	
651.875	0.8809007831	0.3078585068	
652.5	1.107740841	-0.7148985155	
653.125	0.07982321047	-0.3555047931	
653.75	0.9742598491	-0.2196611058	
654.375	-0.4827321497	-0.969034263	
655.0	-0.239505938	0.04212534511	
655.625	-0.8704256223	0.07700036783	
656.25	0.5436317541	0.7278512418	
656.875	-0.2506765442	-0.119963401	
657.5	0.234832122	0.5404223052	
658.125	0.4085152931	0.09780117122	
658.75	0.2899906657	0.3890791163	
659.375	1.22145954	-0.4336722966	
660.0	0.1113595423	-0.7246714066	
660.625	0.50431226	-0.4209699393	
661.25	0.7035910926	-1.1037729	
661.875	-0.2025600911	-0.5525719443	
662.5	0.9511095978	0.09664339797	
663.125	0.8370061976	-0.9620759135	
663.75	-0.06578977458	-0.4024586259	
664.375	0.4216148497	-0.8469724129	
665.0	-1.070992443	-0.3423795017	
665.625	-0.37022924	-0.09016971195	
666.25	-0.5501811469	0.8656630062	
666.875	0.5651728974	0.2795887058	
667.5	0.03236807202	0.38185937	
668.125	0.8503974813	-0.02352626788	
668.75	0.2260323556	-0.4900109427	
669.375	0.230807683	-0.2574553126	
670.0	0.2446437513	-0.6606251934	
670.625	-0.3056146116	-0.4725028659	
671.25	0.3321074589	-0.23490969	
671.875	0.3536372186	-0.5948837752	
672.5	0.1729014075	-0.3220064685	
673.125	0.8160741386	-0.2354184929	
673.75	0.2349068484	-0.8899318907	
674.375	-0.06985640342	-0.1862961257	
675.0	0.2709860044	-0.779745027	
675.625	-0.9453847235	-0.4297025261	
676.25	0.09834722301	0.2143668126	
676.875	-0.7880888987	-0.3959611247	
677.5	-0.0491347463	0.4199497739	
678.125	-0.5907070157	-0.1184992974	
678.75	0.4608046175	0.982807603	
679.375	0.04008328794	-0.06520947649	
680.0	0.5702826602	0.07559037054	
680.625	0.3094043114	-0.5576424471	
681.25	-0.2656295454	0.01830205047	
681.875	0.6098756537	0.4732980575	
682.5	0.6654141941	-0.01082552312	
683.125	0.4177628548	0.004420401967	
683.75	0.3618221611	0.4957912314	
684.375	1.198200233	-0.09360353231	
685.0	0.02009401577	0.05522378012	
685.625	1.092486066	0.2777634854	
686.25	0.6217590199	-0.7379566794	
686.875	0.4824401071	0.597815141	
687.5	1.228066645	-1.536223965	
688.125	-0.659267511	-0.2103316759	
688.75	-0.6046323473	-1.328689552	
689.375	-0.8549802426	1.376555316	
690.0	0.1617216331	0.1766174747	
690.625	0.7225145319	1.269595005	
691.25	0.6588865014	0.1581963498	
691.875	0.7638220273	0.9870855285	
692.5	1.797194934	0.4396122247	
693.125	1.242282607	-0.1576434226	
693.75	1.404347253	-0.4580467373	
694.375	0.9636868926	-0.9012734287	
695.0	1.28857178	-0.6411763394	
695.625	0.9795970221	-0.547040897	
696.25	0.861561599	0.8464182736	
696.875	1.696828207	0.9186610064	
697.5	0.4066197881	0.6329679701	
698.125	1.871261569	1.333417541	
698.75	0.4741114288	-1.519360356	
699.375	0.08844726528	-1.229193635	
700.0	-1.097777806	1.43915927	
700.625	0.4700316604	0.1753587373	
701.25	0.6099792364	1.17346274	
701.875	0.6129341645	-0.01517041037	
702.5	0.5181284416	0.909170625	
703.125	1.439485248	0.007785178044	
703.75	0.4438219947	0.01746708672	
704.375	1.032369146	-0.5641130505	
705.0	0.163065596	-0.4452063284	
705.625	0.8167312925	0.6128029008	
706.25	0.9396846297	-0.06312792681	
706.875	0.04654523306	0.7217896099	
707.5	1.044984135	1.340806913	
708.125	0.8779414687	-0.230369753	
708.75	1.138271933	-0.4797368565	
709.375	-1.093938862	-0.8156415232	
710.0	-0.1966015245	0.2742379054	
710.625	-0.006789458636	0.71125391	
711.25	0.2772753561	0.01000637575	
711.875	0.4273896523	0.4983813065	
712.5	0.7510566569	-0.1277519556	
713.125	0.8424013805	-0.2983055096	
713.75	0.04102216914	-0.7896345198	
714.375	0.3439044073	-0.1852355084	
715.0	-0.2911697294	-0.8926342683	
715.625	-0.07843483164	-0.03959079543	
716.25	1.152968256	-0.7872794912	
716.875	0.1383688169	-1.106535994	
717.5	1.073649892	1.105718343	
718.125	3.064242943	-0.2855067759	
718.75	0.1998805825	-1.309219664	
719.375	3.872971171	0.7757790186	
720.0	-0.03241007822	-4.132270841	
720.625	0.6481229265	-1.10718536	
721.25	0.8735508127	-3.094292434	
721.875	-1.824550087	-2.792570022	
722.5	-0.3450819547	-1.597792138	
723.125	-2.622180674	-0.6627925631	
723.75	-0.6197332823	1.306538305	
724.375	-0.1769478434	0.7527257834	
725.0	0.2878912591	1.379660686	
725.625	0.9297990234	0.9200518589	
726.25	-0.082423156	0.9143074573	
726.875	-1.029513321	2.996064689	
727.5	1.47816421	4.617959967	
728.125	-0.9565902451	0.9720044534	
728.75	-4.416932374	11.59132202	
729.375	5.137830719	7.585254153	
730.0	-11.1322717	5.126869704	
730.625	2.745996421	23.06485652	
731.25	3.503801462	-0.5266748529	
731.875	-14.78718498	3.671120451	
732.5	-11.72084921	5.625538256	
733.125	-3.410501667	3.180725241	
733.75	-4.594822639	1.389085308	
734.375	3.238701195	0.5176760771	
735.0	-0.08635438304	-0.8563784834	
735.625	-1.677882395	-0.659753462	
736.25	1.109115886	1.514123065	
736.875	-0.2808375487	1.207225403	
737.5	3.651443456	1.258195392	
738.125	4.617636322	-2.208038645	
738.75	0.4736480938	-4.358910169	
739.375	8.061350888	4.252711828	
740.0	13.22030168	-18.06663591	
740.625	-10.43972415	0.6348200301	
741.25	-8.657979127	71.92407007	
741.875	17.36310759	18.36387349	
742.5	3.682012103	-19.51899264	
743.125	-6.476907861	-11.61078644	
743.75	-0.9836206885	0.5721777739	
744.375	-0.7035247006	-2.095206952	
745.0	0.6221917618	0.8450134238	
745.625	-0.121285859	0.2407679486	
746.25	-0.0259749188	-0.4412041508	
746.875	-0.4885201118	0.3229261848	
747.5	-0.5865630336	0.9379108847	
748.125	0.5849985948	1.768377484	
748.75	0.4559825716	0.7200032232	
749.375	0.1598789675	0.7799937757	
750.0	-0.7197944281	0.4450453524	
