!Created with skrf (http://scikit-rf.org).
# GHz S RI R (50+0j) 
!freq	ReS11	ImS11	
500.0	1.751752115	-2.529262458	
500.625	-1.468885175	-5.544416922	
501.25	-0.7822885675	-0.6049526886	
501.875	-1.08125792	-1.762163177	
502.5	-0.5065779381	-0.203537508	
503.125	-0.1277657266	-0.09498224907	
503.75	0.1064924518	0.4824038084	
504.375	-0.0643216294	-0.05421727764	
505.0	0.259376741	-0.1081073861	
505.625	-0.2310606169	-0.03408247228	
506.25	0.2668436955	-0.4618035608	
506.875	-0.4417392107	1.007367982	
507.5	0.9780167988	-1.058206705	
508.125	0.4201055763	-3.378217012	
508.75	-0.8963687622	-2.379946512	
509.375	2.355384915	-5.137329063	
510.0	-2.614241301	-0.02382259755	
510.625	-0.1130294779	-0.3778178528	
511.25	-0.5474376823	-0.4110203864	
511.875	-0.4758369087	0.08330559133	
512.5	-0.05311687356	0.1509481261	
513.125	0.03139515821	-0.2977753678	
513.75	-0.474219581	-0.1356222386	
514.375	0.1733304917	-0.07923807629	
515.0	-0.9928443243	-0.5709168233	
515.625	2.340002812	-0.3221245034	
516.25	-2.975547411	-4.546055958	
516.875	-0.6876542142	0.7992697752	
517.5	0.6615274168	-1.014450924	
518.125	-0.3444435496	0.3189699108	
518.75	0.3287625277	-0.8890599607	
519.375	-0.173901457	0.2779488095	
520.0	0.1939269627	0.04204850512	
520.625	0.6824555486	0.01953313302	
521.25	-0.3590246639	-0.872258992	
521.875	-0.1652900441	-0.07602984908	
522.5	-0.2819427853	0.1086532682	
523.125	-0.06969051174	-0.15178045	
523.75	-0.4143581546	0.1992119181	
524.375	-0.201608612	-0.1437285856	
525.0	-0.2297398801	0.6807803662	
525.625	0.1358403872	-0.1640992638	
526.25	0.03758520647	0.1826419238	
526.875	-0.1900770857	-0.09864903573	
527.5	-0.2400074829	0.9891718867	
528.125	0.4068847669	0.3842914019	
528.75	-0.4489328398	0.8692486571	
529.375	0.3760121645	0.1105354833	
530.0	-0.4352774864	0.7544165685	
530.625	0.6532138724	0.6906984415	
531.25	0.8049101336	0.7083683921	
531.875	0.6777058043	-1.080071146	
532.5	0.1828866612	0.03359142752	
533.125	-0.2470410695	-0.6952108309	
533.75	0.8941491372	-0.0140053573	
534.375	-0.9478481459	-1.110008326	
535.0	-0.2819072618	-0.1094562115	
535.625	-0.76028052	0.1752530216	
536.25	0.1502338564	0.2572201818	
536.875	0.1273338355	0.1845337647	
537.5	0.2732213682	-0.1800895878	
538.125	0.1000934572	-0.1394719338	
538.75	0.5680250495	-0.1856449171	
539.375	-0.3617231402	-0.4020888547	
540.0	-0.2139529733	-0.3246638827	
540.625	-0.4839863905	-0.1625377915	
541.25	-0.2172697991	0.09337441829	
541.875	-0.03804092453	-0.03569031272	
542.5	-0.1667372731	-0.2156233153	
543.125	-0.217988092	0.02053567701	
543.75	-0.1394794621	-0.1897931431	
544.375	-0.1416223097	0.3106284535	
545.0	-0.07985755544	-0.08403886829	
545.625	0.2964064183	0.3907226881	
546.25	0.04714973712	-0.156340103	
546.875	0.4428398884	0.256737858	
547.5	0.0003212616709	-0.5106946516	
548.125	0.08305516875	-0.2149702157	
548.75	-0.2967136954	-0.508919353	
549.375	-0.4034675199	-0.04938059313	
550.0	-0.0368250781	-0.1010314827	
550.625	-0.2725932754	0.1073685416	
551.25	-0.06547156623	-0.02431558635	
551.875	-0.328003096	0.1861173432	
552.5	-0.02477286841	0.2185387807	
553.125	-0.1054950389	0.1340918409	
553.75	0.1445017057	0.1347220899	
554.375	0.2113868718	0.01683134901	
555.0	0.2765986885	-0.1486577961	
555.625	0.2244264483	-0.2727066157	
556.25	0.1748160232	-0.3404824138	
556.875	-0.05344549294	-0.4140667666	
557.5	-0.2368516396	-0.2835380028	
558.125	-0.2829256367	-0.09867688888	
558.75	-0.2474009015	-0.04046939517	
559.375	-0.3136445419	0.03549749128	
560.0	-0.1935471884	0.1820440803	
560.625	-0.1919500065	0.2164226534	
561.25	0.04544984141	0.3211221836	
561.875	0.04300562027	0.005893861197	
562.5	0.01958483918	0.2580902575	
563.125	0.1472840097	0.03991944783	
563.75	0.330001852	0.185892543	
564.375	0.371431765	-0.3694936035	
565.0	0.08352433725	-0.2206917985	
565.625	0.07379641715	-0.4645306847	
566.25	-0.3958615458	-0.2202478516	
566.875	-0.1755138861	-0.1675550071	
567.5	-0.3801618037	-0.4471574732	
568.125	-0.4749383882	-0.2667460642	
568.75	-0.3028775442	-0.3587668446	
569.375	-0.8671310736	0.2575693305	
570.0	-0.04283366329	0.4959402387	
570.625	-0.4104739916	0.1263021749	
571.25	0.1469047698	0.6945895812	
571.875	-0.1946381257	-0.04297967347	
572.5	0.6602823627	0.1449596071	
573.125	-0.1223816928	-0.3877781182	
573.75	0.3143357448	0.04964868274	
574.375	0.07184298797	-0.5334613197	
575.0	-0.07103859129	0.1975646246	
575.625	0.3465476645	-0.3828813174	
576.25	-0.2218187741	-0.286467935	
576.875	0.3348876764	-0.1827240808	
577.5	-0.02312493916	-0.6884908723	
578.125	-0.2696645437	-0.2147972182	
578.75	0.05276114569	-0.2679620913	
579.375	-0.2932676139	-0.4134118994	
580.0	-0.1752753473	0.2027728198	
580.625	-0.1040819879	-0.383056559	
581.25	-0.3193299204	0.4687794871	
581.875	0.07217578616	0.02131311463	
582.5	-0.2796289576	0.5648315643	
583.125	0.6699582903	0.1870499438	
583.75	-0.3676493114	-0.006626530722	
584.375	0.5616655811	0.2777904525	
585.0	-0.2181873554	-0.01908199549	
585.625	0.6575133506	0.3388309347	
586.25	0.3239673706	-0.4485883133	
586.875	0.1234851469	-0.007650172572	
587.5	0.1588497725	-0.6020127533	
588.125	-0.3403104721	-0.2503355486	
588.75	0.3903634337	-0.1272880108	
589.375	0.2358629003	-0.6478823387	
590.0	-0.09502574297	-0.148540658	
590.625	-0.4018295934	-0.3869259139	
591.25	-0.3933040025	0.4291349222	
591.875	-0.003414682206	0.1615003805	
592.5	-0.1824925488	0.105598891	
593.125	0.1434157405	0.15287806	
593.75	-0.235187697	0.2940028065	
594.375	0.7169548431	0.4240332666	
595.0	0.2337266898	-0.1151956881	
595.625	0.1704070873	0.6116494487	
596.25	0.8399614091	-0.1483062874	
596.875	-0.12178973	0.2503776702	
597.5	0.6802904059	0.5083525461	
598.125	0.3459374164	-0.04412454409	
598.75	0.1932060198	0.5446654823	
599.375	0.7265109262	-0.1639268664	
600.0	0.2154970282	-0.2535650772	
600.625	0.5202614224	-0.2242599427	
601.25	0.216865451	-0.6557691051	
601.875	-0.09784811506	-0.1753472299	
602.5	-0.3579000293	-0.1873986756	
603.125	-0.2493790552	0.1343860598	
603.75	-0.2620847715	0.1787327194	
604.375	-0.2357477264	0.04522122005	
605.0	-0.3051353418	0.2979027157	
605.625	0.08174496148	-0.003265579555	
606.25	-0.6691763299	0.1363972863	
606.875	-0.09919284895	0.4055454038	
607.5	-0.6230485702	-0.08316257468	
608.125	0.08297590773	1.115782144	
608.75	0.09504520354	0.07570272557	
609.375	0.8245533191	0.3100813061	
610.0	0.2764427058	-0.612877646	
610.625	0.4627382242	0.0148498976	
611.25	-0.07636221302	-0.6608085368	
611.875	-0.0306134348	-0.108622869	
612.5	-0.5366895712	-0.4257479382	
613.125	-0.1585262578	0.2232616207	
613.75	-0.4730581667	0.2062424813	
614.375	0.3603069063	0.309128898	
615.0	-0.3318848954	0.1510791229	
615.625	0.3655388635	0.2220065022	
616.25	-0.3692984909	0.06461447406	
616.875	-0.33827876	0.7697713532	
617.5	0.1583835463	0.3044036911	
618.125	-0.4415070699	0.5646320116	
618.75	0.268956107	0.5575400869	
619.375	-0.01458993695	0.2677350151	
620.0	0.6341336208	0.2581022678	
620.625	0.1807976595	-0.2592360248	
621.25	-0.07851234531	-0.58709015	
621.875	-0.4586090819	-0.1151996162	
622.5	-0.5724466262	-0.1430274222	
623.125	0.02250018353	0.6404287383	
623.75	-0.05707059425	0.08094110868	
624.375	0.4218515528	-0.3393936705	
625.0	-0.1086603716	0.248336848	
625.625	0.4211604046	-0.4960222884	
626.25	-0.2970560269	0.1263442346	
626.875	-0.09847737055	-0.6009733758	
627.5	-0.6359115777	0.03973779201	
628.125	0.01181394327	-0.03263685949	
628.75	-0.09955901324	-0.5997114459	
629.375	-0.3879472993	-0.1928296405	
630.0	-0.2176279996	-0.3553083394	
630.625	-0.7253763945	0.05782463508	
631.25	-0.2131004964	0.5167634985	
631.875	-0.2490061458	0.4268478046	
632.5	0.380425147	0.6295437651	
633.125	0.4773690148	0.1157260783	
633.75	0.3308223368	-0.07847757661	
634.375	0.3597444518	-0.313078506	
635.0	-0.2690300209	-0.3141488194	
635.625	-0.02111424092	-0.3910449794	
636.25	-0.6895908451	0.2391124338	
636.875	0.1917278365	0.2859405945	
637.5	-0.5914773065	-0.07724388948	
638.125	0.2626393588	0.5318286461	
638.75	-0.4412669587	-0.07396621257	
639.375	-0.08256914655	1.072442761	
640.0	0.5237094091	0.2608504402	
640.625	0.10131114	0.5879401771	
641.25	1.044661967	0.04538822136	
641.875	0.08901838648	-0.5107227594	
642.5	0.3742295912	-0.2634227909	
643.125	-0.6419520993	-0.6423456338	
643.75	0.05821802348	0.1679166867	
644.375	-0.6358146898	-0.3439528922	
645.0	-0.2968058902	0.5845972174	
645.625	0.121705664	0.2273903045	
646.25	0.1855827358	0.5992493458	
646.875	0.4815501805	-0.3778390317	
647.5	-0.2407139526	0.2854061141	
648.125	0.8496339681	0.1472639913	
648.75	0.01102355244	-0.4028289307	
649.375	1.174305161	0.0566130452	
650.0	0.2990599383	-1.495760046	
650.625	-0.1681118633	-0.1043496498	
651.25	1.296316334	-0.3187351319	
651.875	0.4565115613	-1.17732289	
652.5	0.181619063	0.3164049235	
653.125	1.247815435	-0.1160538421	
653.75	0.1319887582	-0.832343329	
654.375	0.2953002218	-0.2724018788	
655.0	-1.044614566	-0.7966192366	
655.625	-0.1247440206	0.6862483595	
656.25	-0.2455494936	0.03304628797	
656.875	0.260153503	0.5959809858	
657.5	-0.03516510943	-0.2018841378	
658.125	0.2232817043	0.8568763875	
658.75	0.8975183203	0.02964489534	
659.375	0.4994784904	-0.3201738516	
660.0	0.8941151772	-0.2279280352	
660.625	0.3180978168	-1.422970393	
661.25	0.01625041896	-0.1872949887	
661.875	1.117327957	-0.4567388398	
662.5	0.5946595841	-0.9893176325	
663.125	0.1832831715	0.06152031098	
663.75	1.01213849	-1.002684233	
664.375	-0.5163459425	-0.5658364687	
665.0	-0.1001514429	-0.6782053951	
665.625	-1.17294413	0.1387663722	
666.25	0.1082392629	0.6326717563	
666.875	-0.1411093614	0.5140844286	
667.5	0.7093910949	0.3944570896	
668.125	0.2515147343	-0.2265192043	
668.75	0.7215010353	0.04645698165	
669.375	0.1149088579	-0.8630326779	
670.0	0.04040304747	-0.2627951104	
670.625	0.2444895107	-0.5085947134	
671.25	0.03658792415	-0.6398306236	
671.875	0.1095310483	-0.1071904323	
672.5	0.8820794089	-0.2666795062	
673.125	0.383451818	-0.7202222596	
673.75	0.1958780723	-0.139133174	
674.375	0.7151776468	-0.795626204	
675.0	-0.8376999928	-0.5029734221	
675.625	0.2983239222	-0.4130584728	
676.25	-0.989182798	-0.2456175237	
676.875	0.01813409491	0.4548907124	
677.5	-0.5917199648	-0.5676915811	
678.125	-0.2139439987	0.8471689731	
678.75	-0.06349115921	0.1719702393	
679.375	0.3783927926	0.6166346086	
680.0	0.603149596	-0.6126652631	
680.625	-0.2186014029	0.1927362634	
681.25	0.6337170458	-0.0759136055	
681.875	0.2333479122	-0.1234727763	
682.5	0.215361865	0.4027770631	
683.125	0.8515230941	0.3667901207	
683.75	0.5804960894	-0.09849949442	
684.375	0.3296760777	0.2465410234	
685.0	1.061308397	0.5693640285	
685.625	0.5814005477	-0.7937579087	
686.25	0.4256363462	0.9921132832	
686.875	1.351844381	-1.201324092	
687.5	-0.04536077955	-0.009906373037	
688.125	0.9179293075	-1.511062356	
688.75	-1.76300143	-0.01326540693	
689.375	-0.4425916372	-0.2383528703	
690.0	0.2360534432	1.685574451	
690.625	0.5395094499	0.1352787373	
691.25	0.359455945	1.067133727	
691.875	1.474431715	0.6890441038	
692.5	1.079542319	0.5350964338	
693.125	1.658197218	0.2052657039	
693.75	1.402074524	-0.6449002642	
694.375	1.120379937	-0.8137568536	
695.0	1.025521791	-0.7526328234	
695.625	1.231008505	0.2821177511	
696.25	1.670743179	0.05564780535	
696.875	0.2765028553	0.723441392	
697.5	1.25502821	2.166437672	
698.125	1.146576736	-0.2225097716	
698.75	1.761877411	0.0167935772	
699.375	-1.444996201	-1.514716164	
700.0	-0.004217844839	0.3518246831	
700.625	-0.04480807108	1.605920173	
701.25	0.5333106247	-0.09694958124	
701.875	0.1577457749	1.010288047	
702.5	1.351417396	0.3677460812	
703.125	0.4495673952	0.5693803503	
703.75	1.371771943	-0.1991274683	
704.375	0.133741429	-0.5952243673	
705.0	1.091031852	0.1632605509	
705.625	0.6271322398	-0.6091839525	
706.25	0.0247255963	0.6902501986	
706.875	1.230304703	1.166526261	
707.5	0.2973151372	0.2165283297	
708.125	1.272506161	1.073856331	
708.75	0.7064834574	-1.332180474	
709.375	-0.1733611411	-0.6138055749	
710.0	-0.9614712996	0.4734938114	
710.625	0.3656143166	0.2298847259	
711.25	0.08218074484	0.487453524	
711.875	0.4677937327	0.2206526525	
712.5	0.8813687827	0.1206147167	
713.125	0.58484021	-0.4566515657	
713.75	0.5430053082	-0.3612606184	
714.375	-0.03879230619	-0.8952883497	
715.0	-0.0972598073	0.01159229688	
715.625	0.5114995621	-1.095612647	
716.25	-0.4244794951	-0.6224581715	
716.875	1.118384746	0.4903998214	
717.5	2.561648368	-0.6197499154	
718.125	-0.2143146004	-0.6034124222	
718.75	3.731722231	1.387816732	
719.375	1.380035934	-2.522759515	
720.0	1.178111113	-0.4398086127	
720.625	2.261290261	-3.946270582	
721.25	-1.39911572	-2.005101696	
721.875	0.7429510811	-2.516177938	
722.5	-1.686088732	-2.830710094	
723.125	-2.017514274	0.1649329587	
723.75	-1.072674018	0.4043014204	
724.375	-0.06821962693	1.665828317	
725.0	0.5264361213	0.6306062254	
725.625	0.0726179731	0.9573896398	
726.25	-0.2206067118	2.39150423	
726.875	1.209121771	2.264735943	
727.5	-2.185000038	1.920128203	
728.125	-0.9289104493	9.094316373	
728.75	4.399117052	4.530356	
729.375	-10.24304144	2.717059025	
730.0	9.351376284	19.42364863	
730.625	1.778760806	1.050896893	
731.25	-11.1256741	9.594007759	
731.875	-4.49798181	15.74274734	
732.5	-2.929793627	-3.247382862	
733.125	-10.55765031	-0.9022013487	
733.75	-2.074448908	3.857877207	
734.375	1.103145994	0.4448224421	
735.0	1.683465569	-2.006518835	
735.625	-1.057904549	1.270831195	
736.25	-0.971614147	0.6126801928	
736.875	1.155423492	2.096923245	
737.5	3.538717818	-0.5357117936	
738.125	1.398929278	0.4211790953	
738.75	9.097382644	-2.601880847	
739.375	3.001915602	-12.21787814	
740.0	-1.691449511	3.495421824	
740.625	25.43913711	9.243913696	
741.25	25.51784847	-34.24092123	
741.875	-22.59489376	-7.920951066	
742.5	-14.51178011	-3.296563655	
743.125	0.7556950392	2.067206457	
743.75	4.1275673	-4.409976085	
744.375	-2.637887862	0.6862864725	
745.0	-0.08652057039	-0.08917513761	
745.625	0.4224831455	0.003504241754	
746.25	-0.1231378898	0.01183137778	
746.875	-0.7440093435	-0.2037407141	
747.5	0.167573553	1.123515205	
748.125	0.2345839973	0.9822908139	
748.75	0.2244239152	1.43891435	
749.375	4.35786906	1.52215347	
750.0	-0.2850833558	-2.973712475	
