!Created with skrf (http://scikit-rf.org).
# GHz S RI R (50+0j) 
!freq	ReS11	ImS11	
500.0	1.013887086	-1.224367517	
500.625	-0.2342642764	-1.971537205	
501.25	-0.2105241274	-0.6118204997	
501.875	-0.6410786419	-1.273782273	
502.5	-0.1233925844	-0.1115700139	
503.125	-0.08662477422	-0.03892706308	
503.75	0.1046943118	0.1701046048	
504.375	-0.005604832226	-0.007125417048	
505.0	0.0680930146	-0.04142888477	
505.625	-0.06419736488	-0.01992007296	
506.25	0.04000318228	-0.1608414903	
506.875	-0.2770874342	0.2926179628	
507.5	0.3035938554	-0.3051478399	
508.125	0.3715450882	-1.294758921	
508.75	0.1312916746	-0.7827657372	
509.375	0.3425502988	-1.182661424	
510.0	-0.8462164216	-0.3436058649	
510.625	-0.1552469407	-0.04691567839	
511.25	-0.0161195127	-0.07752720336	
511.875	-0.2285087549	0.007506574851	
512.5	-0.04629362574	0.05694847934	
513.125	0.03123530027	-0.1426740599	
513.75	-0.1629146581	0.05032482394	
514.375	0.06653036205	-0.06387654792	
515.0	-0.5204260675	0.0766548233	
515.625	0.8064032548	-0.5399131209	
516.25	-1.423322298	-0.8154349885	
516.875	-0.4291484564	-0.05815331579	
517.5	0.1394539738	-0.1741205805	
518.125	-0.1398181111	-0.04027510064	
518.75	0.09836512644	-0.08933975745	
519.375	-0.1274609773	0.06130903525	
520.0	0.161899019	0.02505427079	
520.625	0.1660590651	-0.05653245901	
521.25	0.07678866673	-0.3897127167	
521.875	-0.2673025578	0.067569064	
522.5	0.0164522359	0.02503222267	
523.125	-0.2040381055	0.120762661	
523.75	0.008158337488	0.119822704	
524.375	-0.2949763424	-0.1427171042	
525.0	0.1218284249	0.3508470717	
525.625	-0.03972901255	-0.04895734057	
526.25	0.02607338071	0.08528276225	
526.875	-0.06507264655	-0.03575716223	
527.5	-0.05814926675	0.3601453078	
528.125	0.1186237409	0.2183633833	
528.75	-0.03893676602	0.2849000468	
529.375	0.1258165817	0.1877279248	
530.0	-0.01029872022	-0.02265315218	
530.625	0.03544510968	0.1705329605	
531.25	0.6248553533	-0.09829758467	
531.875	0.1398225765	-0.04560140553	
532.5	-0.02583224591	-0.3089409747	
533.125	-0.169749275	-0.02435098916	
533.75	0.2494460866	-0.3795372362	
534.375	-0.2983558794	-0.2416845914	
535.0	-0.1793493962	-0.08986392701	
535.625	-0.3067413692	0.166334932	
536.25	0.05383288175	0.1115206669	
536.875	0.08206484464	0.06575208859	
537.5	0.1247077614	-0.09413267049	
538.125	0.09604354877	-0.07008728865	
538.75	0.251549189	-0.1126824959	
539.375	-0.1827494038	-0.2226860421	
540.0	-0.1828143902	-0.1407811667	
540.625	-0.1414476113	-0.06304752855	
541.25	-0.1385148734	0.06675932968	
541.875	0.02698786913	-0.03592695312	
542.5	-0.1510693938	-0.08049589837	
543.125	-0.09037148628	0.1090108188	
543.75	-0.1242382078	-0.08200414436	
544.375	-0.007020644488	0.1168046088	
545.0	-0.05799040604	-0.02059439058	
545.625	0.141812582	0.1376276243	
546.25	0.0744395362	-0.05156918377	
546.875	0.1774239505	0.0388681069	
547.5	0.06044090204	-0.2463865743	
548.125	-0.05488702089	-0.1006697062	
548.75	-0.1317900957	-0.2167902436	
549.375	-0.2069614552	-0.04930522165	
550.0	-0.03327378118	-0.000852266525	
550.625	-0.1193756131	0.01925555391	
551.25	-0.04875936054	0.0539172898	
551.875	-0.1318326195	0.08130834633	
552.5	-0.03233704918	0.1350131496	
553.125	-0.009293270198	0.05107530511	
553.75	0.07896836823	0.06365434331	
554.375	0.1099394843	-0.01514425576	
555.0	0.1301266114	-0.08172671431	
555.625	0.1065367559	-0.1526978415	
556.25	0.07067245374	-0.1835646618	
556.875	-0.04820851015	-0.2051105341	
557.5	-0.1325406279	-0.1356581956	
558.125	-0.1560484722	-0.04148810046	
558.75	-0.1331006209	-0.00237566736	
559.375	-0.1508933713	0.02230583562	
560.0	-0.1169163268	0.1200160454	
560.625	-0.06112921933	0.1222171881	
561.25	-0.01012130641	0.1577008196	
561.875	0.06624166115	0.0308519646	
562.5	-0.0233676178	0.09502606962	
563.125	0.1366327927	0.06490637291	
563.75	0.1300734534	0.02333834811	
564.375	0.2153207091	-0.1412074109	
565.0	0.03139667997	-0.2242181696	
565.625	0.006183433271	-0.1430364176	
566.25	-0.2004099545	-0.1981851498	
566.875	-0.1683330801	-0.006681975674	
567.5	-0.1304229558	-0.2081077719	
568.125	-0.2740107505	-0.2016208115	
568.75	-0.1448725831	-0.03089731617	
569.375	-0.389358343	0.06210692927	
570.0	-0.08048737637	0.3415778193	
570.625	-0.04719520058	0.1239923267	
571.25	-0.06962670021	0.2671648048	
571.875	0.125058567	-0.02089775419	
572.5	0.1604727357	0.1139253141	
573.125	0.1210927315	-0.258801556	
573.75	-0.05951070029	-0.03007430869	
574.375	0.1453213469	-0.09580416688	
575.0	-0.09053433146	-0.09283466406	
575.625	0.1387805519	-0.02792916763	
576.25	0.05682113864	-0.2567791022	
576.875	-0.06961557218	-0.08478291052	
577.5	0.1420858041	-0.144543696	
578.125	-0.1422946679	-0.3353143276	
578.75	-0.1629895071	0.05236020259	
579.375	0.02487866365	-0.151436892	
580.0	-0.2077932885	-0.03641097953	
580.625	0.05306306488	-0.03741716997	
581.25	-0.3195033839	0.2525713471	
581.875	0.1652949848	0.168598065	
582.5	-0.02251793607	0.08565778971	
583.125	0.1379233961	0.253932747	
583.75	0.03494902995	-0.1558027999	
584.375	0.01066220331	0.2065429853	
585.0	0.2200637816	-0.03716063204	
585.625	0.07075032314	0.03829041786	
586.25	0.323205663	-0.0874697482	
586.875	-0.02719622717	-0.2378086229	
587.5	0.04790826901	-0.09143721716	
588.125	-0.01823863245	-0.2865006265	
588.75	-0.0994675188	-0.1636116073	
589.375	0.1954892437	-0.1099017098	
590.0	-0.1845650684	-0.3006768984	
590.625	-0.09773644376	0.06992183376	
591.25	-0.2708590288	0.02752874364	
591.875	0.02986543373	0.351143398	
592.5	0.02318693306	-0.1094363795	
593.125	0.05632369083	0.2412234821	
593.75	-0.007665176151	-0.004692183534	
594.375	0.1353979275	0.2381678813	
595.0	0.3553199005	0.1235100359	
595.625	0.07381138187	0.08673532905	
596.25	0.2681144665	0.1543367575	
596.875	0.1931233371	-0.06403431358	
597.5	0.07963628896	0.08716910081	
598.125	0.2680994998	0.2167949144	
598.75	0.1971215153	0.03543509102	
599.375	0.2064630991	0.01765287741	
600.0	0.2929760971	-0.2319857809	
600.625	0.07451871941	-0.3010461656	
601.25	0.1021265275	-0.0944394821	
601.875	-0.1215085424	-0.2970825097	
602.5	-0.1368648886	0.1122192854	
603.125	-0.1842838714	-0.1209755378	
603.75	-0.2119997598	0.2156961172	
604.375	-0.01244084651	-0.1017862866	
605.0	-0.2157455708	0.05245347538	
605.625	-0.04217515727	0.208322796	
606.25	-0.1054489714	-0.02990371008	
606.875	-0.1980863288	0.2403980666	
607.5	-0.05636066409	0.2617190963	
608.125	-0.1046419946	0.2275746715	
608.75	0.3186044092	0.2794362268	
609.375	0.3466514874	-0.03830083934	
610.0	0.2183679926	-0.04848522152	
610.625	0.137192892	-0.3418722978	
611.25	-0.1014264258	-0.09446068141	
611.875	0.01597731481	-0.1677264503	
612.5	-0.3470473958	-0.008199621633	
613.125	-0.07827522943	0.05047042062	
613.75	-0.2745841133	0.1796317572	
614.375	0.2101790351	0.1940616727	
615.0	-0.127426419	0.05950644817	
615.625	0.08400079255	0.2672200957	
616.25	-0.007845430662	0.07931965795	
616.875	-0.2289170701	0.1697747147	
617.5	-0.08595208483	0.3542616158	
618.125	0.06919972627	0.1454666391	
618.75	0.07533846687	0.202457171	
619.375	0.2400385146	0.2065833271	
620.0	0.1415257881	-0.009895303945	
620.625	0.2337089989	-0.192160973	
621.25	-0.2400819425	-0.2976192014	
621.875	-0.1623227332	0.007896022919	
622.5	-0.3583059117	-0.018198348	
623.125	0.02657039353	0.3241698436	
623.75	0.06448135516	-0.05265772897	
624.375	0.1732336837	-0.05092600235	
625.0	-0.05645434996	-0.05336399554	
625.625	0.1557620317	-0.09033577522	
626.25	-0.166518089	-0.2170964665	
626.875	-0.1040005527	-0.006483501988	
627.5	-0.1911554404	-0.1138324399	
628.125	-0.2266577476	-0.03264224991	
628.75	-0.02310584605	-0.07747189055	
629.375	-0.1021773399	-0.2490840922	
630.0	-0.316470032	-0.08041536267	
630.625	-0.2118569774	0.0586869431	
631.25	-0.251886757	0.2736725415	
631.875	0.103854974	0.3320632167	
632.5	0.1362061102	0.05122381746	
633.125	0.3501935918	0.1172005014	
633.75	0.1461674138	-0.2191977065	
634.375	0.101966743	-0.01137221754	
635.0	-0.06397650426	-0.2917351729	
635.625	-0.1944714897	0.0340673195	
636.25	-0.1902027929	-0.0209805558	
636.875	-0.07484658417	0.2940168768	
637.5	0.06980608145	0.0344452173	
638.125	-0.2028693983	0.1208382986	
638.75	0.05621216258	0.2768104963	
639.375	-0.04824040863	0.1915454692	
640.0	0.1798794832	0.4117777683	
640.625	0.4114411402	0.0764881428	
641.25	0.1929498948	-0.05728101687	
641.875	0.3433691208	-0.2966027535	
642.5	-0.199373888	-0.2542265612	
643.125	0.02062110242	0.05946862056	
643.75	-0.284086172	-0.2006932602	
644.375	-0.1041067697	0.161327264	
645.0	-0.2771872953	-0.01449315476	
645.625	0.2237459682	0.5175401148	
646.25	0.159931588	-0.09416093569	
646.875	0.08978013737	0.1759756676	
647.5	0.2069946584	-0.2013145722	
648.125	0.04172504703	0.2463627477	
648.75	0.5815271387	-0.2160058836	
649.375	0.06110321523	-0.377377214	
650.0	0.2418204347	-0.167201695	
650.625	0.3108882953	-0.5529673832	
651.25	-0.05975699165	-0.3727884518	
651.875	0.3339798238	-0.02524503848	
652.5	0.485425953	-0.2961809722	
653.125	0.1190260014	-0.2474266233	
653.75	0.3440360236	-0.05492879082	
654.375	-0.2851878589	-0.506215996	
655.0	-0.2513694688	0.2177975314	
655.625	-0.294510643	0.0882982868	
656.25	0.2293987118	0.6010918369	
656.875	0.01633307227	-0.1723885171	
657.5	0.09385316754	0.2941222502	
658.125	0.3081917203	-0.03213789136	
658.75	0.1417056114	0.2272329095	
659.375	0.6281726482	-0.2354945036	
660.0	0.04061748838	-0.4852578966	
660.625	0.2536882395	-0.2447300528	
661.25	0.2913733754	-0.5053328212	
661.875	0.02643399377	-0.440183162	
662.5	0.3283032975	-0.09332297343	
663.125	0.3986447025	-0.415761696	
663.75	-0.01143528028	-0.3107868792	
664.375	0.03587128318	-0.3723155855	
665.0	-0.4911544798	-0.2947650379	
665.625	-0.2554833325	0.2585345599	
666.25	-0.2209904864	0.2419426012	
666.875	0.2667257274	0.3544488051	
667.5	0.1627326421	-0.1127512502	
668.125	0.3290185354	0.1181200508	
668.75	0.1613527418	-0.4322597902	
669.375	0.02652398495	-0.1344385717	
670.0	0.1445950843	-0.359734586	
670.625	-0.1597934698	-0.3229741045	
671.25	0.2282962262	-0.003229786525	
671.875	0.2708025127	-0.3596465238	
672.5	0.1322321494	-0.2870158616	
673.125	0.1981432906	-0.1172105694	
673.75	0.2987632547	-0.4567201475	
674.375	-0.1684332897	-0.2752260744	
675.0	0.004285084265	-0.3037091646	
675.625	-0.3694348218	-0.2174722565	
676.25	-0.1831349148	0.14510255	
676.875	-0.1326966379	-0.1465260512	
677.5	-0.3032917946	0.2029105345	
678.125	0.00535334282	0.122403919	
678.75	-0.1586298598	0.3179564578	
679.375	0.5287474853	0.03072638125	
680.0	-0.04419307202	-0.1407668113	
680.625	0.3580117753	-0.01502766098	
681.25	0.04866949098	-0.2916777352	
681.875	-0.05632556787	0.2437297114	
682.5	0.587015652	0.2193580331	
683.125	0.2183224986	-0.1955499234	
683.75	0.1897660359	0.2212554099	
684.375	0.5337892845	-0.0531088071	
685.0	0.266417097	-0.2532851884	
685.625	0.2535157162	0.2558885507	
686.25	0.5021999945	-0.2798243729	
686.875	0.2158608238	-0.2156824314	
687.5	0.42182738	-0.276971884	
688.125	-0.3076031047	-0.7672005826	
688.75	-0.4040429377	0.04760135926	
689.375	-0.4418531924	0.3182670346	
690.0	0.385416538	0.5774808762	
690.625	0.1836802877	0.04619430114	
691.25	0.5334699023	0.7681641885	
691.875	0.78643929	0.1086270913	
692.5	0.4722952405	0.4788577895	
693.125	1.065026964	0.1060558047	
693.75	0.7337663973	-0.6455846104	
694.375	0.3775817058	-0.2468308569	
695.0	0.6246243395	-0.6598498229	
695.625	0.5193965722	-0.2434405599	
696.25	0.4335831221	0.1663227473	
696.875	0.6409659566	0.3724801923	
697.5	0.7266071684	0.1028588485	
698.125	0.7769957278	-0.1709192948	
698.75	0.5300551604	-0.7629070238	
699.375	-0.7814641654	-0.1935770656	
700.0	-0.1222900889	0.3314830527	
700.625	0.3157885504	0.5949938606	
701.25	0.3123657478	-0.01753550023	
701.875	0.1352201524	0.4000586156	
702.5	0.6924603152	0.3574296605	
703.125	0.3187972166	-0.004803557237	
703.75	0.4897671486	0.07869400927	
704.375	0.4139331727	-0.4087843747	
705.0	0.09037450973	-0.245935572	
705.625	0.4782459321	-0.05074659977	
706.25	0.4941066781	0.05967397201	
706.875	0.1857720883	0.2097020035	
707.5	0.3683572224	0.2304205752	
708.125	0.6944473316	0.04564942939	
708.75	0.08198623544	-0.3729805004	
709.375	-0.4071207594	-0.4481549574	
710.0	-0.3626976212	0.5906787179	
710.625	0.06528786297	0.007088402434	
711.25	0.2231853935	0.372878347	
711.875	0.229580575	-0.1225165518	
712.5	0.3174180992	0.1318240122	
713.125	0.4671354834	-0.3508432447	
713.75	-0.005835367846	-0.3429847939	
714.375	0.1197563353	-0.193213989	
715.0	-0.05062470239	-0.3746834939	
715.625	-0.09950978065	-0.1443154391	
716.25	0.2696466151	-0.218994645	
716.875	0.4861699229	-0.4631207398	
717.5	0.3422781197	-0.1621260251	
718.125	0.6594699778	0.02997123651	
718.75	1.2695207	-0.4271984876	
719.375	0.2459018773	-1.284616531	
720.0	0.8217313509	-1.072192853	
720.625	-0.5619163928	-1.626523925	
721.25	-0.0486181699	-0.6505185427	
721.875	-0.3625118929	-1.602202573	
722.5	-1.35916381	-0.5250975604	
723.125	-0.5055537011	-0.03413442328	
723.75	-0.8375765555	0.7495676138	
724.375	0.4685423903	0.4992010262	
725.0	0.03683220535	0.307812196	
725.625	0.2265778838	0.8689329571	
726.25	0.423913166	0.6988342318	
726.875	-0.3285352417	0.793406157	
727.5	-0.08715078577	2.308924926	
728.125	1.173241067	2.200862181	
728.75	-0.256716676	2.32083224	
729.375	-1.172259491	6.45708073	
730.0	3.628092858	4.13939349	
730.625	0.01922483194	3.995400161	
731.25	-1.283594632	7.255609969	
731.875	-0.3349683624	3.44966396	
732.5	-3.854109588	-1.483865266	
733.125	-3.594899619	2.186042852	
733.75	0.3408465123	1.723318578	
734.375	0.6461542924	0.681353189	
735.0	-0.7029191567	-1.30419696	
735.625	-0.08840367151	0.2881181791	
736.25	-0.4442008656	0.8650469553	
736.875	1.058367401	0.7201436173	
737.5	0.5707098072	-0.393787313	
738.125	2.477196197	0.3302100656	
738.75	2.459725585	-3.192011441	
739.375	0.7037159525	-1.95677341	
740.0	4.382328293	2.200504432	
740.625	7.662835368	-2.706912611	
741.25	-1.046949296	-1.518779004	
741.875	-6.026762729	-0.2458820055	
742.5	-3.704167832	-0.06902945508	
743.125	1.447260395	-0.8932322815	
743.75	-0.2934804504	-1.992577808	
744.375	-0.5416686455	0.6233057284	
745.0	-0.3070892954	-0.05758294371	
745.625	0.1352888719	-0.169762048	
746.25	0.03791695514	-0.05728940734	
746.875	-0.4695369563	0.03928334881	
747.5	0.1088920619	0.5007848511	
748.125	0.04745200157	0.4650688682	
748.75	0.2721584049	0.7828873182	
749.375	0.4401659115	0.6324197552	
750.0	-0.3532470619	0.1025047131	
