!Created with skrf (http://scikit-rf.org).
# GHz S RI R (50+0j) 
!freq	ReS11	ImS11	
500.0	0.4237473017	-1.468711507	
500.625	2.742182534	-3.557952311	
501.25	-2.877787977	-1.329026237	
501.875	-0.8772635446	-0.0108829404	
502.5	-0.09219684566	-0.7409500011	
503.125	-0.1285525726	0.2488143568	
503.75	-0.1525767774	0.1971000483	
504.375	0.1125593833	-0.115408281	
505.0	0.07614203079	0.09125870621	
505.625	-0.1405479518	-0.3884581301	
506.25	0.07045869878	0.2305349936	
506.875	-0.956422104	-0.6519974211	
507.5	-1.655270361	-0.2607171513	
508.125	1.285285767	-0.7629549867	
508.75	2.027920525	-4.87438413	
509.375	-1.989754457	-1.532006281	
510.0	-1.14014723	-1.726644515	
510.625	-0.8169553632	-0.1000835639	
511.25	-0.194789016	-0.4221491732	
511.875	-0.5002573041	-0.08796994186	
512.5	-0.07180272305	0.1944898812	
513.125	-0.003475244793	-0.161369627	
513.75	-0.1133845031	-0.3516098591	
514.375	-0.3755170054	0.4037704387	
515.0	1.01801822	-1.244474201	
515.625	-1.565577301	0.2159784193	
516.25	1.657135301	-2.258183004	
516.875	-2.457165877	-1.55394988	
517.5	0.08197817586	0.3608721311	
518.125	-0.3112799847	-0.4184169518	
518.75	0.02415666953	0.2121872827	
519.375	-0.3229014119	0.1085992415	
520.0	0.4782589843	0.0486800544	
520.625	0.2738197148	-0.1439899059	
521.25	0.1813270867	-0.8392486589	
521.875	-0.4022664668	0.151176352	
522.5	-0.1400086886	-0.07922999115	
523.125	-0.05804349263	0.1446302391	
523.75	-0.3804173821	-0.1785430067	
524.375	-0.1174707937	0.3851085672	
525.0	-0.3585650199	0.1514539668	
525.625	0.2973411555	0.2641822978	
526.25	-0.2740238624	-0.03801409492	
526.875	0.05138519121	0.1615264702	
527.5	-0.4354534725	0.3091175144	
528.125	0.4336122513	1.175912412	
528.75	0.2023971165	0.2219149151	
529.375	0.164485629	0.3691265135	
530.0	-0.05743406434	0.1127867871	
530.625	0.5948095193	1.305482223	
531.25	0.6102035773	-0.06245926577	
531.875	0.8480393338	-0.3444128515	
532.5	-0.5324419881	-0.08437764422	
533.125	0.515662119	-0.3669636352	
533.75	-0.1375149191	-0.2589730338	
534.375	0.05561345655	-1.149489954	
535.0	-0.8882355578	0.2437863102	
535.625	-0.2866042678	0.07443114419	
536.25	-0.07313122157	0.3276409327	
536.875	0.2499763362	-0.1069831154	
537.5	0.2224048604	0.03068857836	
538.125	0.267651395	-0.3386704073	
538.75	0.2351337962	-0.08899941561	
539.375	-0.195363601	-0.5998641058	
540.0	-0.4943622985	-0.0912196165	
540.625	-0.2617921219	-0.1764564603	
541.25	-0.2496481916	-0.02350968563	
541.875	-0.1831340839	0.006313364548	
542.5	0.02006300543	-0.09588194452	
543.125	-0.3541913164	-0.2157384672	
543.75	-0.01994483309	0.1508036446	
544.375	-0.2707108185	0.0708276202	
545.0	0.1767658104	0.08712724455	
545.625	-0.06126383594	0.2932490659	
546.25	0.4258309925	-0.08052183591	
546.875	0.04223952544	0.09250401108	
547.5	0.4204300334	-0.408314316	
548.125	-0.3285561396	-0.3441160184	
548.75	-0.08765420693	-0.2240750334	
549.375	-0.3555321589	-0.3141588617	
550.0	-0.1158896706	0.1659959876	
550.625	-0.2155418506	-0.1284317874	
551.25	-0.08937475238	0.1890066338	
551.875	-0.2272587849	0.04447925563	
552.5	-0.1109370131	0.2964881001	
553.125	-0.008936843968	0.110272101	
553.75	0.1005401403	0.1510595756	
554.375	0.2433807949	-0.02090862881	
555.0	0.2184501583	-0.1505714007	
555.625	0.2213717173	-0.257576359	
556.25	0.1505374129	-0.353798409	
556.875	-0.08128174183	-0.371273741	
557.5	-0.2246182008	-0.2571319863	
558.125	-0.2934121768	-0.09554033976	
558.75	-0.2424103177	0.006654594249	
559.375	-0.2595306375	0.01189961326	
560.0	-0.2519722217	0.2171425794	
560.625	-0.06221624634	0.2285552645	
561.25	-0.06129563052	0.2437190594	
561.875	0.1667820393	0.08487486968	
562.5	-0.09716810075	0.1356613677	
563.125	0.293438593	0.133041008	
563.75	0.1685732722	0.04499988944	
564.375	0.4516216593	-0.2118159078	
565.0	0.04148399372	-0.4344222272	
565.625	0.0006573419176	-0.243078338	
566.25	-0.2598994059	-0.390819972	
566.875	-0.4023099014	-0.03236455487	
567.5	-0.157407716	-0.2922204066	
568.125	-0.4890205287	-0.5028512197	
568.75	-0.4159539182	-0.01552694041	
569.375	-0.6844432837	-0.01139581489	
570.0	-0.234197925	0.7303108917	
570.625	0.03784377285	0.1693194417	
571.25	-0.3559724043	0.4261626709	
571.875	0.3792850871	-0.1198855584	
572.5	0.1900014217	0.3545223397	
573.125	0.3103992204	-0.5635584501	
573.75	-0.1800876638	-0.06789275601	
574.375	0.385237804	-0.2178144815	
575.0	-0.2808318058	-0.129485131	
575.625	0.3511188343	-0.04369293789	
576.25	0.07652060647	-0.5444222285	
576.875	-0.1730249182	-0.07323395524	
577.5	0.2930494891	-0.376055837	
578.125	-0.2725403535	-0.562738365	
578.75	-0.237071964	-0.07394933583	
579.375	-0.0007081802189	-0.2936726924	
580.0	-0.3760121455	-0.04402829621	
580.625	0.1184872542	-0.1558955417	
581.25	-0.4879865732	0.2737590138	
581.875	0.311380218	0.3272487648	
582.5	-0.1300383415	0.04141829697	
583.125	0.1661890357	0.6827474561	
583.75	0.1508362391	-0.4598437213	
584.375	0.01504036485	0.5538536148	
585.0	0.4091811613	-0.2417649807	
585.625	0.1350082711	0.3646586411	
586.25	0.6599464363	-0.3807518106	
586.875	-0.1035279953	-0.1445310098	
587.5	0.2780022763	-0.3481506081	
588.125	-0.2334923502	-0.5375407472	
588.75	-0.1017965282	-0.04674975407	
589.375	0.4747416609	-0.3409859004	
590.0	-0.2837485193	-0.4839245958	
590.625	-0.2647483713	-0.06789441985	
591.25	-0.4502167587	0.1524508675	
591.875	0.05301069195	0.4124070031	
592.5	-0.1129705305	0.01182863913	
593.125	0.02919103928	0.193290164	
593.75	-0.01816351631	0.1229216656	
594.375	0.3669012412	0.5749001527	
595.0	0.7630945351	0.02229980081	
595.625	-0.07642627339	0.1119599484	
596.25	0.6364520843	0.4550911373	
596.875	0.3076820355	-0.2992278904	
597.5	0.1350229787	0.5111297871	
598.125	0.672401732	0.1051016307	
598.75	0.06226412557	0.1806671968	
599.375	0.8579136049	0.02624124046	
600.0	0.1759935554	-0.4661813951	
600.625	0.3150561222	-0.1828039133	
601.25	0.3421027473	-0.4957139225	
601.875	-0.2873577503	-0.332893914	
602.5	-0.2412515676	-0.04057419726	
603.125	-0.2337493752	0.05915020908	
603.75	-0.3177904681	0.2478699812	
604.375	-0.08026092861	0.1266437339	
605.0	-0.3079751413	0.1248259597	
605.625	-0.008694206017	0.2295830847	
606.25	-0.3617326705	-0.1143438236	
606.875	-0.4706560121	0.5439868402	
607.5	-0.1696091776	0.0938880403	
608.125	-0.4903719183	0.8230010254	
608.75	0.6681180439	0.08014190749	
609.375	0.3705293888	0.2995822086	
610.0	0.5919316614	-0.519968564	
610.625	-0.06559498509	-0.1634949041	
611.25	0.2592231169	-0.6414042265	
611.875	-0.2730685935	-0.04111061447	
612.5	-0.2767117411	-0.3633931986	
613.125	-0.5279785472	0.252707835	
613.75	-0.256805784	-0.02752354329	
614.375	0.1934867848	0.4259139796	
615.0	-0.04457180289	-0.08668419346	
615.625	0.1096231565	0.5136344328	
616.25	0.02276307379	0.002364186723	
616.875	-0.4613029411	0.5017660376	
617.5	0.07994808952	0.7109630455	
618.125	-0.1536893661	0.1694551488	
618.75	0.0781098554	0.7153047306	
619.375	0.2709108406	0.1654271204	
620.0	0.4185330047	0.3244371743	
620.625	0.1725066685	-0.4424177989	
621.25	-0.05702471793	-0.4553900368	
621.875	-0.5488726515	-0.1709769151	
622.5	-0.4047351905	0.08731257752	
623.125	-0.1705890939	0.592323365	
623.75	0.1674375768	-0.1604660768	
624.375	0.3773267166	0.03197363328	
625.0	-0.2658842925	-0.05106043661	
625.625	0.4881670017	-0.132898809	
626.25	-0.4297680026	-0.4078071949	
626.875	0.07812389909	-0.09946055186	
627.5	-0.6098092266	-0.2915371426	
628.125	-0.2273691148	0.107094192	
628.75	0.08430532722	-0.4659047462	
629.375	-0.5307252181	-0.2947454896	
630.0	-0.1510662471	-0.2219720136	
630.625	-0.6525442988	0.01137618402	
631.25	-0.3279650051	0.6005879343	
631.875	0.004421152216	0.4906587779	
632.5	0.2112660033	0.4246832132	
633.125	0.5842984098	0.2207987578	
633.75	0.2993612273	-0.2494640638	
634.375	0.2562512434	-0.1774115848	
635.0	-0.1762819797	-0.4572085862	
635.625	-0.07805329629	-0.1922215386	
636.25	-0.5973531734	0.1543885752	
636.875	0.06938986237	0.3932032246	
637.5	-0.1952930879	-0.2011741362	
638.125	-0.2184685437	0.7451552281	
638.75	0.1166707826	-0.02278019091	
639.375	-0.4019591334	0.6426823001	
640.0	0.6305391539	0.6780097806	
640.625	0.3636555832	0.06554131735	
641.25	0.8300250133	0.4069044333	
641.875	0.1602787594	-0.690495154	
642.5	0.2542863718	-0.1965500768	
643.125	-0.4349781641	-0.6867944648	
643.75	-0.2595998551	0.3540385422	
644.375	-0.3323729561	-0.4538218684	
645.0	-0.5071927823	0.5469065919	
645.625	0.3612174394	0.4472761087	
646.25	0.002147161709	0.04851648926	
646.875	0.7155238457	0.1719290451	
647.5	-0.3421907736	-0.08590569094	
648.125	0.7026947249	0.3608504569	
648.75	0.3563002295	-0.6052373706	
649.375	0.6104748409	0.18748066	
650.0	0.7392633298	-1.385048869	
650.625	-0.3784252983	-0.5960003832	
651.25	0.7850547597	0.1369681132	
651.875	1.039666287	-0.9667030642	
652.5	0.009227541651	-0.413052712	
653.125	0.8989158062	0.1990661675	
653.75	0.3949539892	-1.014263735	
654.375	-0.1029910357	-0.1883769474	
655.0	-0.6482427497	-0.8297253437	
655.625	-0.3037605969	0.9038585795	
656.25	0.06738806248	-0.02007265865	
656.875	-0.03710263124	0.5336724759	
657.5	0.3268293274	-0.06486447265	
658.125	-0.08831356288	0.5562705198	
658.75	1.052072205	0.172513865	
659.375	0.4971760773	-0.4518902941	
660.0	0.5360702249	-0.2975454081	
660.625	0.662299396	-1.236411834	
661.25	-0.2803550994	-0.5701598426	
661.875	0.8474409127	-0.1224656255	
662.5	0.853578347	-0.9011336545	
663.125	0.04632142104	-0.4903540416	
663.75	0.9308283972	-0.3912649399	
664.375	-0.609963877	-0.9266989195	
665.0	-0.1243037075	-0.3426604601	
665.625	-1.145831576	0.05410442767	
666.25	0.1568668567	0.775957295	
666.875	-0.09003405948	0.3019570758	
667.5	0.5971944415	0.4686587419	
668.125	0.4963717841	-0.3197662686	
668.75	0.2862205586	-0.05295057906	
669.375	0.4758451694	-0.7006238633	
670.0	-0.2496322311	-0.3825330516	
670.625	0.2092820013	-0.3800908451	
671.25	0.08592273417	-0.6196742427	
671.875	0.08663949531	-0.1651331671	
672.5	0.7558891474	-0.3060188848	
673.125	0.4123798473	-0.697472957	
673.75	0.03643929421	-0.3134174754	
674.375	0.5601420667	-0.4332864511	
675.0	-0.5984829235	-1.021919464	
675.625	-0.05347349071	0.2383279331	
676.25	-0.7595582147	-0.5417997706	
676.875	-0.2504605319	0.5324743953	
677.5	-0.3487862134	-0.6195425568	
678.125	-0.3047643918	0.9565995846	
678.75	-0.0251245045	-0.008513686509	
679.375	0.3852532597	0.551650496	
680.0	0.6860704887	-0.4431267144	
680.625	-0.3560747729	-0.1765717945	
681.25	0.5159996168	0.2856334212	
681.875	0.4828222458	-0.111572193	
682.5	0.3126647061	0.06467548586	
683.125	0.4930445535	0.4955335089	
683.75	0.812949482	-0.1783782126	
684.375	0.3747386417	0.1458254191	
685.0	0.8658644449	0.3900320034	
685.625	0.7661175767	-0.5866846671	
686.25	0.120423116	0.639473106	
686.875	1.59343985	-0.8819679067	
687.5	-0.4183852708	-0.5388251667	
688.125	0.7444011673	-1.00715204	
688.75	-1.830743841	-0.4038307123	
689.375	0.004727597902	0.2440050016	
690.0	-0.188048631	1.478174435	
690.625	0.7663642229	0.07916779756	
691.25	0.2611896426	1.011001777	
691.875	1.534012018	0.736377597	
692.5	1.118029263	0.2986386441	
693.125	1.596978861	0.1307678104	
693.75	1.410071794	-0.5647063199	
694.375	1.086520412	-0.8506706315	
695.0	0.8647174732	-0.8127892433	
695.625	1.144089801	0.1010159783	
696.25	1.653121843	0.1995424265	
696.875	0.5217671652	0.4356486373	
697.5	1.028718597	1.808061224	
698.125	1.558271688	-0.2351365524	
698.75	1.250609455	-0.1455932947	
699.375	-1.60664946	-1.466242956	
700.0	0.06104688061	0.7676747048	
700.625	-0.2597799114	1.235703836	
701.25	0.8354001734	0.02562821767	
701.875	0.1336576252	0.8336499138	
702.5	1.365816815	0.5487910136	
703.125	0.5267301454	0.1864338818	
703.75	1.341571694	-0.1302254949	
704.375	0.2700378643	-0.7127212456	
705.0	0.8067643429	0.2447821722	
705.625	0.7966051157	-0.6007883519	
706.25	0.1273073956	0.4463387436	
706.875	0.8576440236	1.131006074	
707.5	0.6715402801	0.05961546288	
708.125	1.054245894	0.8783273846	
708.75	0.7430947302	-1.337882595	
709.375	-0.3862076634	-0.3005048944	
710.0	-0.8697772595	0.494832627	
710.625	0.5232762375	0.221641709	
711.25	0.01005609797	0.4460895766	
711.875	0.6004982366	0.1736383689	
712.5	0.8837992197	0.1202082915	
713.125	0.4857761172	-0.5836516646	
713.75	0.386455842	-0.350683039	
714.375	-0.02521629993	-0.8831649969	
715.0	-0.2263060373	-0.04379950647	
715.625	0.4656857927	-0.8557868939	
716.25	-0.3560173953	-0.7248504327	
716.875	0.9235808203	0.3920524943	
717.5	2.29716309	-0.422638463	
718.125	0.05063359438	-1.156130555	
718.75	2.887969553	1.578163017	
719.375	1.951429386	-2.918080875	
720.0	0.6666378934	-1.150824013	
720.625	2.21966667	-2.810290963	
721.25	-1.774406229	-2.174219681	
721.875	0.7507464514	-2.581281833	
722.5	-1.930511728	-2.383472662	
723.125	-1.99154936	0.3754695725	
723.75	-0.8735329128	0.4392671103	
724.375	-0.1054094811	1.580166952	
725.0	0.7478495862	0.6649094219	
725.625	0.1626773295	0.7165111479	
726.25	-0.4624065942	2.041525046	
726.875	1.43129075	2.713035405	
727.5	-1.712921071	1.669403809	
728.125	-0.05710274878	7.42535149	
728.75	3.14900213	5.71349892	
729.375	-9.165507755	5.390616336	
730.0	7.156527597	21.30457141	
730.625	2.671383803	0.4725551863	
731.25	-9.891129796	7.367374523	
731.875	-8.35277516	12.69148053	
732.5	-1.714971511	1.865109054	
733.125	-9.381741494	-1.733946534	
733.75	-1.230158514	4.197526495	
734.375	1.10375155	0.4043572278	
735.0	0.9834152861	-2.401055544	
735.625	-0.5306189598	1.250160166	
736.25	-0.9308470853	0.7625552972	
736.875	1.292055678	1.988891992	
737.5	3.633399479	-0.3008209895	
738.125	0.6462817489	-1.60633484	
738.75	8.669417257	0.4171853792	
739.375	4.584840903	-10.02935787	
740.0	-3.863071738	1.590100649	
740.625	21.36868889	11.74568889	
741.25	16.23448627	-18.42341505	
741.875	-20.95985242	-5.105579702	
742.5	-20.25552801	-3.485548448	
743.125	0.4325482729	2.278045913	
743.75	2.357617515	-4.560750666	
744.375	-2.076980161	0.7852377198	
745.0	-0.1595997376	-0.1821925219	
745.625	0.3352306967	0.02107559701	
746.25	-0.213887749	-0.06978903453	
746.875	-0.9872694362	-0.3236769574	
747.5	-0.06754416815	1.29756887	
748.125	0.1360523595	0.935575637	
748.75	0.1928652597	1.578765381	
749.375	0.688986792	1.500708229	
750.0	-0.7439696506	0.5374270512	
