!Created with skrf (http://scikit-rf.org).
# GHz S RI R (50+0j) 
!freq	ReS11	ImS11	
500.0	1.655021887	-3.332160579	
500.625	-0.342029316	-4.27169885	
501.25	-0.8465547759	-0.9361313101	
501.875	-1.799612267	-2.86834192	
502.5	-0.5033970135	-0.3027636131	
503.125	-0.1377178743	-0.07549911957	
503.75	0.1126916403	0.4868770051	
504.375	-0.06695507886	-0.0513486877	
505.0	0.2590651981	-0.1025106244	
505.625	-0.2400907513	-0.04142912734	
506.25	0.2728819503	-0.4553407875	
506.875	-0.3793110653	1.013291779	
507.5	1.061352134	-0.9572214136	
508.125	0.3088736057	-3.370277966	
508.75	-0.9954778134	-2.454758315	
509.375	1.785865599	-3.873579737	
510.0	-3.051781792	0.408036602	
510.625	-0.07274015103	-0.1839358245	
511.25	-0.5110699171	0.02191598647	
511.875	-0.5731906813	-0.05656067505	
512.5	-0.1499619833	0.1443246563	
513.125	0.1366823324	-0.4454543048	
513.75	-0.4247651107	-0.1937153461	
514.375	0.1615396123	-0.08450298749	
515.0	-1.091873937	-0.8047074648	
515.625	2.672068196	-0.1792054889	
516.25	-3.052090373	-4.181827825	
516.875	-0.7974121171	0.7156802145	
517.5	0.5371427748	-0.9629964348	
518.125	-0.3809386625	0.3099159448	
518.75	0.298922227	-0.9499822467	
519.375	-0.20427652	0.3367980469	
520.0	0.2314623416	0.04980669457	
520.625	0.6349985704	0.01595311243	
521.25	-0.3562501159	-0.860155966	
521.875	-0.1889418223	-0.03555458286	
522.5	-0.2810844201	0.1616015253	
523.125	-0.05425457186	-0.1220062131	
523.75	-0.4215764171	0.1024407454	
524.375	-0.2007634298	-0.08428569729	
525.0	-0.2832985811	0.7169954762	
525.625	0.158142798	-0.1546560088	
526.25	0.02778821395	0.1804900692	
526.875	-0.1777797566	-0.1008454665	
527.5	-0.2650726623	0.9745906512	
528.125	0.4480137232	0.3731298373	
528.75	-0.4449212979	0.7863815361	
529.375	0.4078162795	0.09352804025	
530.0	-0.4380815491	0.6841155495	
530.625	0.7220154423	0.6940946448	
531.25	0.7849863419	0.6995434315	
531.875	0.7051705052	-1.056212598	
532.5	0.1099213104	0.05110524719	
533.125	-0.2879558075	-0.7092273241	
533.75	0.9690271373	-0.001604707232	
534.375	-0.8982103573	-1.11038946	
535.0	-0.2244295947	-0.1164407688	
535.625	-0.7622325882	0.1732688978	
536.25	0.1642599906	0.2627491149	
536.875	0.12672558	0.1790520997	
537.5	0.2832921363	-0.1864076276	
538.125	0.08299239987	-0.1464351318	
538.75	0.5767362291	-0.1908096025	
539.375	-0.3707124122	-0.3998824561	
540.0	-0.2088754858	-0.3288294557	
540.625	-0.4841901498	-0.1610791871	
541.25	-0.2258040095	0.09659718369	
541.875	-0.04416589839	-0.037660506	
542.5	-0.1585291356	-0.2069099654	
543.125	-0.2165679648	0.01925281287	
543.75	-0.1396260128	-0.2023178248	
544.375	-0.1497043138	0.3087354938	
545.0	-0.09682841736	-0.1008918418	
545.625	0.2972218215	0.3922708493	
546.25	0.07150057419	-0.1610858573	
546.875	0.4184957421	0.2502338913	
547.5	0.001789088115	-0.5279556044	
548.125	0.06686150493	-0.2017365738	
548.75	-0.301411599	-0.5159925595	
549.375	-0.4141652908	-0.04918148322	
550.0	-0.03322727865	-0.1086953268	
550.625	-0.2759037726	0.1120121166	
551.25	-0.06776029422	-0.01844716958	
551.875	-0.3280226941	0.1916890861	
552.5	-0.01654131576	0.2195175744	
553.125	-0.107781897	0.1413995683	
553.75	0.1446433356	0.1321125161	
554.375	0.2131220648	0.01348469304	
555.0	0.2782295348	-0.1488456673	
555.625	0.2310623214	-0.2748637818	
556.25	0.1721931602	-0.3442547506	
556.875	-0.0556328783	-0.4102107148	
557.5	-0.2422788374	-0.2785808154	
558.125	-0.2847712308	-0.09576925794	
558.75	-0.2452600753	-0.04175783236	
559.375	-0.3116969041	0.04097531409	
560.0	-0.1873052941	0.186413337	
560.625	-0.1932461312	0.219760288	
561.25	0.04606742649	0.3281186419	
561.875	0.0472874022	0.003798536762	
562.5	0.01445029642	0.2612597118	
563.125	0.1515983101	0.03530580471	
563.75	0.3317496436	0.1833404826	
564.375	0.3704481792	-0.3722258385	
565.0	0.08062548667	-0.2225503602	
565.625	0.06968302362	-0.4731177681	
566.25	-0.3984148038	-0.2084312101	
566.875	-0.1806445193	-0.1723949012	
567.5	-0.393569368	-0.4363739308	
568.125	-0.4839328142	-0.2512279429	
568.75	-0.304787362	-0.3425464652	
569.375	-0.872065332	0.2729781851	
570.0	-0.02589031426	0.5147340168	
570.625	-0.4009688753	0.1298300403	
571.25	0.1475964853	0.6869916048	
571.875	-0.1959450372	-0.03652929072	
572.5	0.6642535433	0.1278378152	
573.125	-0.1389132137	-0.3804518988	
573.75	0.3352997557	0.04571452728	
574.375	0.04731877133	-0.5443760773	
575.0	-0.06538277474	0.2012757497	
575.625	0.3496327483	-0.3912232191	
576.25	-0.2245825465	-0.2992984264	
576.875	0.3150787944	-0.1655682474	
577.5	-0.02873888663	-0.6891170604	
578.125	-0.2757224867	-0.221750918	
578.75	0.05104648815	-0.2639764235	
579.375	-0.3129837942	-0.3992405109	
580.0	-0.1533682173	0.2061315417	
580.625	-0.1289477664	-0.3755921946	
581.25	-0.2962662424	0.4599069806	
581.875	0.06074280718	0.01932385867	
582.5	-0.2700044366	0.5665356579	
583.125	0.6737790936	0.1918759352	
583.75	-0.3665006083	-0.01611553024	
584.375	0.5628263962	0.2900564022	
585.0	-0.1856287549	-0.04765619822	
585.625	0.6330544682	0.3461752464	
586.25	0.3191461439	-0.463728022	
586.875	0.135376548	0.003553709872	
587.5	0.1344472252	-0.6123953972	
588.125	-0.3384245244	-0.2224143548	
588.75	0.393107982	-0.1596892814	
589.375	0.2051323228	-0.6534432519	
590.0	-0.1144402955	-0.1516906657	
590.625	-0.4002261357	-0.3719641634	
591.25	-0.4070507428	0.4263883284	
591.875	0.02939054042	0.1714765269	
592.5	-0.1875316389	0.1052531437	
593.125	0.1490463892	0.1539539427	
593.75	-0.2239958023	0.3061385844	
594.375	0.7328790646	0.3871207487	
595.0	0.2305020653	-0.09808128683	
595.625	0.2069721902	0.6180001236	
596.25	0.8288825262	-0.1687224682	
596.875	-0.1092647021	0.2114530996	
597.5	0.662797488	0.5197686699	
598.125	0.3807151605	-0.05463404765	
598.75	0.1783572577	0.5078406342	
599.375	0.7321633052	-0.17879353	
600.0	0.2102448204	-0.2694016946	
600.625	0.5119571244	-0.242903348	
601.25	0.1817057763	-0.6522985683	
601.875	-0.07839423275	-0.1714292608	
602.5	-0.3510710092	-0.2046828459	
603.125	-0.2254177833	0.1262805036	
603.75	-0.2492783514	0.1720492916	
604.375	-0.2451800095	0.06949327183	
605.0	-0.2986101786	0.294819465	
605.625	0.08939378647	-0.004465680949	
606.25	-0.639441442	0.1303656378	
606.875	-0.1165847962	0.4216983562	
607.5	-0.6361773108	-0.0846743176	
608.125	0.08049060416	1.108136405	
608.75	0.1171118985	0.06714991376	
609.375	0.7919241383	0.3448428113	
610.0	0.2899342533	-0.6482755144	
610.625	0.4432720547	0.01421260142	
611.25	-0.05759166924	-0.6825524951	
611.875	-0.02468847929	-0.08672345575	
612.5	-0.6040446111	-0.4212536297	
613.125	-0.2300548265	0.2293773674	
613.75	-0.5177950839	0.2306877288	
614.375	0.355537168	0.3095599266	
615.0	-0.2702158225	0.1285823649	
615.625	0.3143855012	0.2657246752	
616.25	-0.3684097071	0.07371371365	
616.875	-0.3519424337	0.7592676424	
617.5	0.1710734906	0.3217827001	
618.125	-0.4590191954	0.5175948244	
618.75	0.2699509667	0.5411442142	
619.375	-0.01241931696	0.2491465174	
620.0	0.6354071802	0.228901018	
620.625	0.1608019589	-0.2663846885	
621.25	-0.07758632305	-0.5870093053	
621.875	-0.4471992097	-0.1015573417	
622.5	-0.5699210372	-0.1277108031	
623.125	-0.0005259310908	0.6419611286	
623.75	-0.08359000791	0.1251037069	
624.375	0.406125975	-0.3358404525	
625.0	-0.1106593328	0.2235443032	
625.625	0.4160231981	-0.4994187898	
626.25	-0.2986194478	0.1150088234	
626.875	-0.07756149292	-0.567323141	
627.5	-0.6480793303	0.00733233034	
628.125	-0.000635094766	-0.02654052047	
628.75	-0.07979963896	-0.5903358031	
629.375	-0.4232055383	-0.1935944112	
630.0	-0.2189099522	-0.3590665487	
630.625	-0.7298726815	0.07207494669	
631.25	-0.203408675	0.5202776287	
631.875	-0.2647350304	0.4337252894	
632.5	0.3997157391	0.6294963697	
633.125	0.4834115619	0.1060143088	
633.75	0.3398567424	-0.08294515142	
634.375	0.3899866729	-0.3045332958	
635.0	-0.2858854574	-0.3348466227	
635.625	-0.01024926394	-0.3582064867	
636.25	-0.7045015576	0.231928367	
636.875	0.1954895228	0.2983836112	
637.5	-0.5928164061	-0.07246855291	
638.125	0.2725867967	0.5289951011	
638.75	-0.4627180989	-0.068128703	
639.375	-0.08892635769	1.078810625	
640.0	0.5318719282	0.2327828004	
640.625	0.09670554745	0.5915916259	
641.25	1.063145039	0.05310431242	
641.875	0.08766860852	-0.5319853086	
642.5	0.371168766	-0.2657314504	
643.125	-0.6276302605	-0.6313440649	
643.75	0.05840070518	0.1755609969	
644.375	-0.6355675665	-0.3387610043	
645.0	-0.2875052014	0.5895948895	
645.625	0.1190713935	0.2162455398	
646.25	0.1973281644	0.6091987597	
646.875	0.4685505398	-0.3707884207	
647.5	-0.2495931453	0.300298488	
648.125	0.8471451354	0.1487475452	
648.75	0.03666697428	-0.4311472431	
649.375	1.162762862	0.069549497	
650.0	0.2952236815	-1.512876555	
650.625	-0.1736370175	-0.1258678695	
651.25	1.272270758	-0.2894697387	
651.875	0.4771066212	-1.186359182	
652.5	0.1763456488	0.2964566978	
653.125	1.254612125	-0.1035044367	
653.75	0.1120301935	-0.8302162767	
654.375	0.2976749148	-0.2775224793	
655.0	-1.078686135	-0.7744192699	
655.625	-0.126413357	0.6795313928	
656.25	-0.2409240936	0.04803063641	
656.875	0.2475604745	0.5926884662	
657.5	-0.009909999674	-0.2017407621	
658.125	0.1941910422	0.8565581825	
658.75	0.9173565177	0.0377152955	
659.375	0.4882573866	-0.3313923751	
660.0	0.8670399853	-0.2184254498	
660.625	0.3140630032	-1.447636824	
661.25	0.02827677182	-0.1842556267	
661.875	1.106562884	-0.4683765143	
662.5	0.5897732266	-0.980247174	
663.125	0.186638718	0.04402370968	
663.75	1.025180257	-0.9876767965	
664.375	-0.5245849822	-0.5817427704	
665.0	-0.1022164262	-0.652131458	
665.625	-1.175900297	0.1168756406	
666.25	0.1102425813	0.6523537631	
666.875	-0.1424934247	0.5207230728	
667.5	0.7130945965	0.3824125998	
668.125	0.2463077385	-0.2155411062	
668.75	0.7234842787	0.04277024973	
669.375	0.1094098838	-0.8640562201	
670.0	0.03572983006	-0.2668966845	
670.625	0.2495302367	-0.4973364172	
671.25	0.06055055074	-0.6544130347	
671.875	0.07714988331	-0.1158476192	
672.5	0.8922265268	-0.2330118754	
673.125	0.3901232532	-0.7263738541	
673.75	0.207041586	-0.151017949	
674.375	0.7013507244	-0.7922522484	
675.0	-0.8468273787	-0.4636779872	
675.625	0.2957991551	-0.4162718786	
676.25	-0.9816127373	-0.2512563087	
676.875	-0.02448619372	0.4602175513	
677.5	-0.580824343	-0.5608236691	
678.125	-0.255159822	0.8507195392	
678.75	-0.0455473554	0.1547148689	
679.375	0.3810474081	0.6297009241	
680.0	0.6029149489	-0.6097025461	
680.625	-0.2089668505	0.1961177435	
681.25	0.6289813724	-0.07548866692	
681.875	0.2378506215	-0.1186872677	
682.5	0.1977216056	0.3982774498	
683.125	0.8573448527	0.3831534225	
683.75	0.5811650338	-0.121373954	
684.375	0.3446954925	0.2508076835	
685.0	1.044749019	0.5752844014	
685.625	0.5951323048	-0.7905059101	
686.25	0.4128060812	0.941270822	
686.875	1.350855192	-1.175335739	
687.5	-0.04210082094	0.02108015406	
688.125	0.8998935129	-1.479871912	
688.75	-1.768606936	-0.06023393875	
689.375	-0.4245212233	-0.2401895433	
690.0	0.2038444946	1.686899208	
690.625	0.6019795115	0.1185498488	
691.25	0.3779257861	1.124799015	
691.875	1.486985046	0.6704188513	
692.5	1.08368983	0.5160052552	
693.125	1.693274308	0.1822742091	
693.75	1.425096373	-0.6368991976	
694.375	1.083385174	-0.8339825329	
695.0	1.01194405	-0.7424723824	
695.625	1.233443916	0.2450406451	
696.25	1.645622508	0.1433636678	
696.875	0.2414968736	0.7132716631	
697.5	1.119417828	2.141307511	
698.125	1.31689574	-0.1901736769	
698.75	1.632963153	0.0156691908	
699.375	-1.49559339	-1.539708141	
700.0	0.01147642799	0.3594385955	
700.625	0.02149134549	1.643115282	
701.25	0.6404774283	-0.1014526797	
701.875	0.1821809421	1.060209086	
702.5	1.375366468	0.3094757183	
703.125	0.4520185794	0.5090561564	
703.75	1.41300305	-0.1905979025	
704.375	0.1438590448	-0.5869446136	
705.0	1.036072337	0.1241166843	
705.625	0.6184039307	-0.6078760583	
706.25	0.003357268516	0.726450577	
706.875	1.213229273	1.175800647	
707.5	0.2817058918	0.1801715324	
708.125	1.234716641	1.095490656	
708.75	0.7249146082	-1.304786137	
709.375	-0.1861620599	-0.5296665027	
710.0	-0.9020415408	0.4417117962	
710.625	0.3869880069	0.2241025818	
711.25	0.08917875911	0.4843907206	
711.875	0.4803816899	0.2140796882	
712.5	0.853581881	0.1085533512	
713.125	0.5760034367	-0.4499727893	
713.75	0.5157606876	-0.3817260705	
714.375	-0.01717732159	-0.8611884541	
715.0	-0.06772753521	0.03244588656	
715.625	0.5044138154	-1.064998398	
716.25	-0.4403907495	-0.633834219	
716.875	1.155309376	0.5025881086	
717.5	2.542995879	-0.5616746388	
718.125	-0.2740662849	-0.5952176583	
718.75	3.494775115	1.520483529	
719.375	1.380593431	-2.67482286	
720.0	1.095333182	-0.4295899225	
720.625	2.115247219	-3.762552038	
721.25	-1.371874956	-1.943203102	
721.875	0.8878173211	-2.513883889	
722.5	-1.780171755	-2.621041286	
723.125	-1.989117548	0.07696003871	
723.75	-1.063491732	0.4100961465	
724.375	-0.07349101123	1.647687465	
725.0	0.5457801299	0.6503732431	
725.625	0.06263714568	0.9282705542	
726.25	-0.2785564932	2.293401859	
726.875	1.32269624	2.381536858	
727.5	-2.322879564	1.796880022	
728.125	-1.497266973	8.269249758	
728.75	3.87335436	4.945699454	
729.375	-11.22684634	3.119078527	
730.0	8.271201797	19.97527288	
730.625	1.789029531	0.8702830896	
731.25	-8.826865276	10.46624624	
731.875	-5.130957527	15.08903905	
732.5	-2.364396777	-3.03617619	
733.125	-10.52530206	-1.103459909	
733.75	-2.174566356	3.976946519	
734.375	1.187925273	0.4720858485	
735.0	1.64513352	-1.992178026	
735.625	-1.014568764	1.250327222	
736.25	-0.9965545259	0.6480652456	
736.875	1.221817942	2.117342399	
737.5	3.343084704	-0.4670181865	
738.125	1.459331413	0.4415405898	
738.75	8.535136903	-1.642861282	
739.375	5.904065501	-11.89598805	
740.0	-2.842507103	3.155081241	
740.625	24.98421827	17.66019489	
741.25	16.4734253	-14.91906881	
741.875	-15.40740229	-14.50771909	
742.5	-19.20101021	-1.023553725	
743.125	0.04814804705	3.020020773	
743.75	6.058594551	-9.415631002	
744.375	-1.93091465	0.508516944	
745.0	-0.2890737121	-0.1543045319	
745.625	0.5154639487	-0.003153406978	
746.25	-0.06057438556	0.04942700914	
746.875	-0.887374135	-0.3829825156	
747.5	-0.4148876565	0.9096132033	
748.125	0.3280728844	1.405438926	
748.75	0.1886965795	1.72853165	
749.375	0.9395560141	1.159554073	
750.0	-0.117495771	-0.3979685208	
