!Created with skrf (http://scikit-rf.org).
# GHz S RI R (50+0j) 
!freq	ReS11	ImS11	
500.0	-0.4779639108	-5.162910374	
500.625	-0.8122172864	-2.184380728	
501.25	0.2591815654	-1.434569703	
501.875	-1.562439495	-2.879353064	
502.5	-0.4936890622	-0.1241528759	
503.125	-0.1915801472	-0.1498569243	
503.75	0.2945158315	0.3839421763	
504.375	-0.01442566301	0.07894502198	
505.0	0.09259315185	-0.2419426844	
505.625	0.06162707425	0.1245584265	
506.25	-0.3903215251	-0.703142231	
506.875	0.4388867527	0.6611403871	
507.5	0.8899877588	-1.510497545	
508.125	-0.3997348525	-3.37884457	
508.75	-0.3342628096	-1.449627639	
509.375	1.764564174	-5.482248113	
510.0	-2.477519128	0.3096256222	
510.625	0.01531992095	-0.67158004	
511.25	-0.566317077	0.05952776033	
511.875	-0.1473087317	-0.0022171826	
512.5	-0.09034545415	0.1594149678	
513.125	-0.02121888946	-0.3891017082	
513.75	-0.4100037151	0.103387453	
514.375	0.06336691567	-0.4050249436	
515.0	-1.137385025	0.2959597017	
515.625	1.964616201	-2.001395482	
516.25	-4.027199116	-1.511347301	
516.875	0.6812448846	-0.0956478339	
517.5	-0.128821729	-1.380124007	
518.125	0.03931028445	0.35214548	
518.75	-0.07309985085	-1.097460751	
519.375	-0.09377848626	0.2539231496	
520.0	0.163491919	0.1715004229	
520.625	0.7179816511	-0.1947942491	
521.25	-0.3612007597	-0.6070102613	
521.875	-0.1942313867	-0.2843455113	
522.5	-0.217313768	0.2174678318	
523.125	-0.201456319	-0.1417094828	
523.75	-0.1935833215	0.2212496415	
524.375	-0.4493745991	-0.2376614485	
525.0	0.1729760925	0.6461194252	
525.625	-0.06940143385	-0.082449256	
526.25	0.1388642053	0.08901846561	
526.875	-0.3611556535	0.01109777824	
527.5	0.1179030104	0.8824304759	
528.125	0.0760396914	0.285534567	
528.75	-0.1845862528	1.050698632	
529.375	0.1740156111	-0.07537315986	
530.0	0.1475227581	0.9199636984	
530.625	0.1822289504	0.3051803629	
531.25	1.416415132	0.9296337456	
531.875	0.04776173134	-0.8948850639	
532.5	0.2934923913	-0.2937751033	
533.125	-0.4174710512	-0.215035609	
533.75	0.8051711859	-0.6001490658	
534.375	-0.8241373628	-0.5264429896	
535.0	-0.2571777015	-0.452782588	
535.625	-0.7588001049	0.5055106273	
536.25	0.1121737527	0.1631151649	
536.875	0.2124791706	0.1791950516	
537.5	0.218135206	-0.2166652185	
538.125	0.1306055145	0.0002140438536	
538.75	0.5512170107	-0.4470923177	
539.375	-0.2523672924	-0.2117543547	
540.0	-0.2169842233	-0.525494133	
540.625	-0.6081758502	0.003998848668	
541.25	-0.104356423	0.05877707526	
541.875	-0.0344938916	-0.08684406876	
542.5	-0.2296809376	-0.2193229683	
543.125	-0.09270661904	0.09451652715	
543.75	-0.2695755119	-0.236574605	
544.375	0.0475439486	0.3033261138	
545.0	-0.2221714503	0.05892210738	
545.625	0.3794256333	0.1528808266	
546.25	-0.09080601788	0.09781831575	
546.875	0.6450145541	-0.05387456266	
547.5	-0.09241667366	-0.255545281	
548.125	0.1392500122	-0.3611637306	
548.75	-0.4412821198	-0.4519170107	
549.375	-0.272742365	0.02501144715	
550.0	-0.1894861472	-0.1833928845	
550.625	-0.1132999811	0.1744287046	
551.25	-0.1943299645	-0.09690435292	
551.875	-0.2339404796	0.3164999651	
552.5	-0.04321445428	0.110425631	
553.125	-0.1056366919	0.1825295184	
553.75	0.1449225699	0.1140896115	
554.375	0.2092654511	0.02263097156	
555.0	0.2800449013	-0.1625094108	
555.625	0.2161515325	-0.2695051501	
556.25	0.1778817454	-0.3395065329	
556.875	-0.06803095318	-0.4209880407	
557.5	-0.2470866684	-0.2653093033	
558.125	-0.2698478121	-0.1009471571	
558.75	-0.2747209173	-0.04485320267	
559.375	-0.2951736442	0.07454944449	
560.0	-0.193373667	0.1603514268	
560.625	-0.1922381066	0.2532966168	
561.25	0.08293236495	0.2969659098	
561.875	-0.02097725122	0.04840159694	
562.5	0.1359236748	0.1886573543	
563.125	0.02175913466	0.1660591024	
563.75	0.4847935893	0.0606803704	
564.375	0.1736778771	-0.3362782525	
565.0	0.2513802198	-0.1781077034	
565.625	-0.05123816954	-0.5268288254	
566.25	-0.3636243184	-0.1601559702	
566.875	-0.1609791099	-0.2173675346	
567.5	-0.4694054137	-0.4218434904	
568.125	-0.3482413635	-0.1591314834	
568.75	-0.5209090822	-0.4789479713	
569.375	-0.6291785797	0.4404249179	
570.0	-0.2146544593	0.2363279492	
570.625	-0.4834751902	0.551873874	
571.25	0.4041062044	0.2899096188	
571.875	-0.2247417176	0.2950902861	
572.5	0.6352672348	-0.1436745342	
573.125	-0.08623269085	-0.1325341701	
573.75	0.4644428791	-0.1553543621	
574.375	-0.2319161111	-0.3815470048	
575.0	0.2448370833	0.1897674946	
575.625	-0.004652361842	-0.4842800122	
576.25	-0.04589932541	0.07045357964	
576.875	0.2849162926	-0.5556489017	
577.5	-0.2216664644	-0.5406194116	
578.125	-0.1036168747	-0.1373649023	
578.75	0.01368462956	-0.4268750663	
579.375	-0.4641967703	-0.2485112534	
580.0	0.09799045787	0.1013430363	
580.625	-0.3812882147	-0.2626039294	
581.25	0.01165103906	0.3018191878	
581.875	-0.2820184548	0.1504780544	
582.5	0.1405631828	0.7720449248	
583.125	0.4270268771	-0.2019095382	
583.75	-0.2949974045	0.3234776238	
584.375	0.4960351824	-0.1432919515	
585.0	-0.1359974714	0.3598709331	
585.625	0.7560549351	-0.07564801874	
586.25	0.02380419821	-0.2319046699	
586.875	0.5339858673	-0.146675697	
587.5	-0.2762074125	-0.5447348372	
588.125	0.007001003897	0.0003978526955	
588.75	0.3853769098	-0.4490903737	
589.375	0.01149009229	-0.5818679416	
590.0	0.0122743475	-0.2523006135	
590.625	-0.4449736661	-0.3432865903	
591.25	-0.2815559394	0.4213382125	
591.875	-0.08043195974	0.1186979413	
592.5	-0.03820438167	0.2783272969	
593.125	-0.09014280037	-0.0857658528	
593.75	0.1514589206	0.5272842626	
594.375	0.494062622	0.02874529444	
595.0	0.03033009322	0.166154321	
595.625	0.5364001336	0.6836328958	
596.25	0.4489441871	-0.3504358368	
596.875	0.1266449949	0.4433424834	
597.5	0.7060867418	0.1998531587	
598.125	0.02701685008	0.08859483417	
598.75	0.7083414989	0.5498415456	
599.375	0.3261030021	-0.319179012	
600.0	0.4666152392	-0.04870104121	
600.625	0.5655815864	-0.5260940703	
601.25	-0.009858844083	-0.5281587303	
601.875	-0.02538624708	-0.2812527897	
602.5	-0.3154806769	-0.08473082115	
603.125	-0.3568376515	0.1193507044	
603.75	-0.1131192409	0.1581682765	
604.375	-0.3526693281	0.04424591989	
605.0	-0.120015151	0.3232107649	
605.625	-0.1770227441	-0.105535957	
606.25	-0.3808521308	0.3641313272	
606.875	-0.1322288594	0.05447745269	
607.5	-0.8880751171	0.3251380094	
608.125	0.4228103228	0.6074423362	
608.75	-0.04231197305	0.4163977181	
609.375	0.9780855525	-0.04308339123	
610.0	0.01332536582	-0.279552416	
610.625	0.5985752221	-0.3833414111	
611.25	-0.2478322354	-0.4115763082	
611.875	0.1424633145	-0.2993416273	
612.5	-0.7133647031	-0.1257868155	
613.125	-0.1747563433	-0.107477731	
613.75	-0.4570934364	0.4306862562	
614.375	0.2964593017	0.06339511859	
615.0	-0.03027315424	0.5081471948	
615.625	0.1669320289	-0.09896747447	
616.25	-0.4510376654	0.3710092796	
616.875	0.02868077728	0.7491429244	
617.5	-0.2312184142	0.1032218629	
618.125	-0.1861993966	0.8208186774	
618.75	0.3008776571	0.3343951526	
619.375	-0.084563117	0.4787174832	
620.0	0.6015321444	0.02122183924	
620.625	0.316625358	-0.1873700186	
621.25	-0.2596668868	-0.5678040437	
621.875	-0.3358725284	-0.1531666577	
622.5	-0.7005471704	0.05161658481	
623.125	0.07165469706	0.3577014347	
623.75	0.1595730727	0.3166123996	
624.375	0.0705753318	-0.4292601718	
625.0	0.2208035668	0.3164864148	
625.625	0.002508813233	-0.6469681856	
626.25	0.1423311529	0.04850471556	
626.875	-0.4071497884	-0.5442716552	
627.5	-0.4345558384	0.1640560208	
628.125	0.05023894904	-0.2729619725	
628.75	-0.488411439	-0.4020347706	
629.375	0.006434633633	-0.1805091848	
630.0	-0.4910080286	-0.514736146	
630.625	-0.6064962513	0.3243204863	
631.25	-0.1905488089	0.2826826927	
631.875	-0.2816594546	0.5970061214	
632.5	0.3292534881	0.5639404501	
633.125	0.5621307716	0.06963218539	
633.75	0.2378962879	0.009036776949	
634.375	0.3300676912	-0.5228111184	
635.0	-0.05105611592	-0.09638896417	
635.625	-0.3358776895	-0.4815200345	
636.25	-0.3689750983	0.3656197291	
636.875	-0.1372252868	-0.1180177183	
637.5	-0.3180769603	0.6352450846	
638.125	0.2363463027	-0.05116808191	
638.75	-0.6916749863	0.2980810838	
639.375	0.227299558	0.8909238814	
640.0	0.3449277211	0.2413757279	
640.625	0.3249837531	0.7511309649	
641.25	0.951087243	-0.1672898581	
641.875	0.1985275581	-0.1166075472	
642.5	0.3555574354	-0.8912248081	
643.125	-0.4699167465	0.149636161	
643.75	0.04186224077	-0.4420101617	
644.375	-0.8095088825	0.0332222189	
645.0	-0.1173507306	0.4660539177	
645.625	-0.1006648136	0.1987289713	
646.25	0.5184376567	0.6715621872	
646.875	0.1949529765	-0.460784065	
647.5	-0.003305980621	0.514716915	
648.125	0.6189369803	-0.3445804977	
648.75	0.2236110471	0.5024675571	
649.375	1.09653991	-0.9476393523	
650.0	-0.2565767667	-0.8433434292	
650.625	0.6289677694	0.1024813771	
651.25	1.117217837	-1.147131107	
651.875	-0.1523899426	-0.6431135156	
652.5	0.7448870957	0.438686221	
653.125	1.04927219	-0.5987014088	
653.75	0.007003134769	-0.2999630287	
654.375	0.5496247011	-1.014954339	
655.0	-1.046352625	-0.04927459886	
655.625	-0.02456629451	0.2393131701	
656.25	-0.4777368834	0.4646059083	
656.875	0.5641773303	0.2943998216	
657.5	-0.3871958823	0.08397832881	
658.125	0.5520234635	0.6725759484	
658.75	0.6852473446	-0.01909202008	
659.375	0.5369369613	0.03494127521	
660.0	1.070641365	-0.9810493053	
660.625	-0.1503666721	-0.676903597	
661.25	0.6981050445	-0.3062278901	
661.875	0.8969772328	-0.9525143538	
662.5	0.05943285691	-0.7621625716	
663.125	0.7696163437	0.2690182393	
663.75	0.5209200088	-1.224159116	
664.375	-0.1911667019	-0.3101467452	
665.0	-0.4378156978	-1.026013854	
665.625	-0.7783875997	0.6496626911	
666.25	-0.3952462956	0.1636489731	
666.875	0.205682687	0.8582403629	
667.5	0.6176262235	0.001203522689	
668.125	0.1466578501	0.1557958157	
668.75	0.8776526675	-0.277506084	
669.375	0.02348439494	-0.6571225479	
670.0	0.07239873455	-0.3197056729	
670.625	0.2070208057	-0.6177811089	
671.25	-0.1784927338	-0.4035324568	
671.875	0.6108926218	-0.2824512817	
672.5	0.5048242094	-0.5420112701	
673.125	0.2443982222	-0.3490644374	
673.75	0.6877934568	-0.09592554807	
674.375	0.2054471924	-1.258955487	
675.0	-0.4582652949	0.0326414529	
675.625	-0.05988746886	-0.8630002347	
676.25	-0.9006984404	0.1243442772	
676.875	0.2357386775	-0.08299392919	
677.5	-1.026387603	0.03772553904	
678.125	0.1760906761	0.1881723619	
678.75	-0.4654851356	0.5353799315	
679.375	1.038264924	0.3065934414	
680.0	-0.1056302824	-0.3759003122	
680.625	0.4087829949	0.1928538257	
681.25	0.3953435235	-0.294849605	
681.875	0.126594512	-0.03736074929	
682.5	0.3294204848	0.5197218411	
683.125	0.8979709561	0.1521219274	
683.75	0.4260756914	0.03551559083	
684.375	0.5289245842	0.4912327043	
685.0	1.180306659	-0.1558968105	
685.625	-0.06997602778	0.1587951898	
686.25	1.488657296	0.2622837319	
686.875	0.2748433576	-0.9875170495	
687.5	0.7457515448	0.2355956215	
688.125	0.2044966046	-2.138783007	
688.75	-0.78378115	0.3832579362	
689.375	-1.377248825	-0.04573370992	
690.0	0.7541829033	1.142161768	
690.625	-0.0844025691	0.3259886304	
691.25	1.216543648	1.224295047	
691.875	0.8682870452	0.3212638239	
692.5	1.273128137	0.8443781141	
693.125	1.764188521	0.03658578558	
693.75	1.262236153	-0.5163866248	
694.375	1.116599498	-0.9689760608	
695.0	0.9113618635	-0.532782054	
695.625	1.733016087	0.007004624789	
696.25	1.023411957	-0.08535320844	
696.875	0.3768406847	1.452427635	
697.5	1.720367287	1.157195509	
698.125	0.5002439304	0.6407536952	
698.75	2.137077172	-0.9503171445	
699.375	-1.498089605	-0.5977536804	
700.0	-0.8373967391	-0.2614374154	
700.625	0.6936548505	1.329147325	
701.25	0.04154130365	0.152072186	
701.875	0.8293395098	1.235085029	
702.5	0.7184848873	0.004029999956	
703.125	0.9661393457	0.8338893693	
703.75	1.157379178	-0.5902065205	
704.375	0.3245388955	0.07626991331	
705.0	1.105802029	-0.62797466	
705.625	0.1361466742	-0.2301213559	
706.25	0.5449180774	1.138328267	
706.875	1.148688564	0.2538180477	
707.5	0.0079149953	0.8349974781	
708.125	1.602422637	0.7346151048	
708.75	0.2834434761	-0.8799325566	
709.375	-0.166425451	-1.131377298	
710.0	-0.7020891569	0.9806490923	
710.625	-0.04986677965	0.06226421092	
711.25	0.3770368639	0.5330521324	
711.875	0.4258516001	0.3283753539	
712.5	0.8445244893	-0.03051451974	
713.125	0.4527121712	-0.3037117882	
713.75	0.7459372746	-0.6499571981	
714.375	-0.3813035675	-0.6762562942	
715.0	0.468092281	-0.1813059657	
715.625	-0.3724042593	-1.05675949	
716.25	0.1497642221	0.08281452872	
716.875	1.799660611	-0.3381066825	
717.5	0.8068486705	-1.54664466	
718.125	0.7735957503	2.053421551	
718.75	3.728297881	-0.8632091523	
719.375	0.6809709419	-1.406681867	
720.0	3.011494834	-0.3764892749	
720.625	0.4774748112	-4.265996456	
721.25	0.3761577644	-1.125136853	
721.875	0.04142917346	-3.479849045	
722.5	-2.355355761	-1.882570115	
723.125	-0.9959616702	-0.4862377478	
723.75	-1.767907889	1.093740969	
724.375	0.4404198006	1.158166826	
725.0	0.2990313705	0.6780228807	
725.625	-0.1144475652	1.236630531	
726.25	0.7948392933	2.5873778	
726.875	0.233559826	0.8041346322	
727.5	-2.619954079	4.233694874	
728.125	2.28258548	5.441741133	
728.75	-1.75329307	1.190024038	
729.375	-6.680684452	16.87652114	
730.0	9.90672654	5.764494152	
730.625	-11.22890757	3.623649813	
731.25	-4.360505109	19.45543461	
731.875	1.807258221	7.784108661	
732.5	-11.021274	-4.405352639	
733.125	-8.625111139	1.776181843	
733.75	-1.316038295	3.823011026	
734.375	0.3521932971	2.766812981	
735.0	-0.7268973595	-2.401771018	
735.625	-0.4443555471	-0.2447998456	
736.25	-0.9818296873	1.59455289	
736.875	1.910606771	1.702072349	
737.5	1.618010204	-0.9212306659	
738.125	3.49415876	2.318493878	
738.75	8.838961182	-6.417206727	
739.375	-0.754502402	-7.796075511	
740.0	6.756500575	18.69432537	
740.625	21.96335375	-12.01562764	
741.25	-7.613783718	-10.27422079	
741.875	-37.65528763	20.8782626	
742.5	-5.706309373	7.930860306	
743.125	10.05591154	-4.886319263	
743.75	-2.041233272	-7.52616125	
744.375	-0.9882728429	0.7464133156	
745.0	-0.2410553885	0.1575261794	
745.625	0.3657947628	-0.2424431031	
746.25	0.3113443344	-0.07930689042	
746.875	-1.052947561	0.1807556031	
747.5	-0.1227990165	0.7767368761	
748.125	-0.4264772631	1.171406341	
748.75	1.005206904	1.545919494	
749.375	-0.1449113616	0.9424932291	
750.0	-0.2590904798	-0.03588107779	
