!Created with skrf (http://scikit-rf.org).
# GHz S RI R (50+0j) 
!freq	ReS11	ImS11	
500.0	-2.323153681	-4.908221291	
500.625	0.9540055284	-1.531216313	
501.25	-1.158699694	-2.82073982	
501.875	-2.671986467	-1.292980257	
502.5	-0.1898610978	-0.06792529839	
503.125	-0.3337409955	-0.1144498837	
503.75	0.3453843832	0.2231241332	
504.375	0.06786156691	0.1145487183	
505.0	-0.03375851695	-0.2342212022	
505.625	0.251669546	0.006947128431	
506.25	-0.7138404684	-0.3117816643	
506.875	0.6351921135	-0.3858925531	
507.5	-0.1219722508	-2.275267585	
508.125	-1.425701295	-2.364663809	
508.75	1.647689569	-1.158163834	
509.375	-0.8485903105	-5.229183378	
510.0	-1.583871295	0.5393084245	
510.625	-0.2653505894	-0.976509418	
511.25	-0.502334851	0.2253538518	
511.875	-0.2768039756	-0.2624594892	
512.5	-0.1119524039	0.1590583086	
513.125	-0.07891730207	-0.3712508288	
513.75	-0.1114635633	0.07508112867	
514.375	-0.2029838322	-0.5322090812	
515.0	-1.019395584	1.499364339	
515.625	0.7876737633	-3.392594637	
516.25	-2.57756587	0.3886760633	
516.875	1.034424048	-1.349724777	
517.5	-0.79502813	-1.12842673	
518.125	0.376534043	0.03338993073	
518.75	-0.7431003685	-0.9031350649	
519.375	-0.05564938394	0.1205915554	
520.0	0.2879209603	0.3539929967	
520.625	0.6170521828	-0.3398622938	
521.25	-0.1920333364	-0.4679961946	
521.875	-0.4108055733	-0.355648815	
522.5	-0.06155545147	0.2237074678	
523.125	-0.409362165	-0.008814080863	
523.75	-0.1222713869	0.1127603203	
524.375	-0.6236806147	-0.1065294663	
525.0	0.304839749	0.3112016855	
525.625	-0.1383025612	0.1083530845	
526.25	0.2212606408	-0.09796361354	
526.875	-0.3922461296	0.2515440959	
527.5	0.2636471701	0.5252972852	
528.125	-0.2433155044	0.5197829819	
528.75	0.2637286787	1.189211907	
529.375	-0.03771502458	-0.07519245057	
530.0	0.434278912	0.6709378932	
530.625	-0.1337452429	0.5732009778	
531.25	1.834805168	0.4762838955	
531.875	-0.001736710256	-0.3440245905	
532.5	0.1993576807	-0.770139215	
533.125	-0.2875390287	0.3583851619	
533.75	0.5548515891	-1.038765028	
534.375	-0.464916645	-0.2140905949	
535.0	-0.5351375318	-0.7660702873	
535.625	-0.3752614441	0.6938213812	
536.25	-0.03735685739	0.09925957867	
536.875	0.3224595972	0.1684134284	
537.5	0.1265446098	-0.220916826	
538.125	0.3077827528	0.07212529398	
538.75	0.3470908644	-0.5298555122	
539.375	-0.09130891713	-0.2419318585	
540.0	-0.3759772114	-0.6086163429	
540.625	-0.4860464601	0.1595848713	
541.25	-0.09255085409	-0.0822647547	
541.875	-0.1567944296	-0.09481832342	
542.5	-0.2423799951	-0.07309475664	
543.125	0.01650585625	-0.07715714432	
543.75	-0.4410624548	-0.1374498151	
544.375	0.1820469428	0.1080765653	
545.0	-0.2243304894	0.2600573995	
545.625	0.3020965985	-0.05498753968	
546.25	0.01121247149	0.3551655296	
546.875	0.4688139535	-0.3418975011	
547.5	0.07616903067	-0.03484902056	
548.125	0.09449848223	-0.5623622044	
548.75	-0.5165390412	-0.2862710204	
549.375	-0.1163372901	-0.03564733963	
550.0	-0.3192707538	-0.1288941625	
550.625	-0.007873230763	0.1168391223	
551.25	-0.3065950377	-0.04765620843	
551.875	-0.0866948329	0.290164065	
552.5	-0.1705641767	0.07792635683	
553.125	-0.03756111523	0.2277038262	
553.75	0.1067447111	0.09648088168	
554.375	0.234919015	0.04527801332	
555.0	0.2703155776	-0.1868798109	
555.625	0.2053442498	-0.2562688677	
556.25	0.1920914972	-0.3420035422	
556.875	-0.07396657218	-0.4236147654	
557.5	-0.2475949221	-0.2619236974	
558.125	-0.2712431286	-0.1178496678	
558.75	-0.2920818868	-0.02571606362	
559.375	-0.2505275091	0.07636849792	
560.0	-0.2377949715	0.1247219929	
560.625	-0.1793776319	0.3144887219	
561.25	0.1027332592	0.2297760683	
561.875	-0.04292046329	0.1211375237	
562.5	0.1469715571	0.1047354849	
563.125	0.041641487	0.2520828243	
563.75	0.4651848225	-0.06353170855	
564.375	0.1377681683	-0.1515877847	
565.0	0.3876539454	-0.3479068052	
565.625	-0.2111630339	-0.4294441615	
566.25	-0.1937289735	-0.150305	
566.875	-0.2700552202	-0.3484872948	
567.5	-0.538351549	-0.2537127591	
568.125	-0.1431735876	-0.2125736311	
568.75	-0.6957242437	-0.4499797192	
569.375	-0.453499024	0.4303778628	
570.0	-0.4311667943	0.1995811225	
570.625	-0.2063074914	0.7742952794	
571.25	0.1580859042	-0.01959810183	
571.875	0.00592286755	0.5463835771	
572.5	0.3286358788	-0.381185962	
573.125	0.1659489672	0.0822641663	
573.75	0.4038320389	-0.4857395872	
574.375	-0.2824274523	-0.1366390303	
575.0	0.4080856368	-0.02274371206	
575.625	-0.2255109902	-0.2945302525	
576.25	0.3441147375	0.03046096078	
576.875	-0.01899543629	-0.657836454	
577.5	-0.2658027836	-0.2681575892	
578.125	0.1341211865	-0.2552257006	
578.75	-0.1732820787	-0.5566178821	
579.375	-0.4246787131	-0.00328692812	
580.0	0.1533394389	-0.1038648951	
580.625	-0.4692861249	-0.03602864989	
581.25	0.02999637115	0.02411426034	
581.875	-0.3536799604	0.4943357716	
582.5	0.4736800729	0.4790359091	
583.125	-0.01286338417	-0.1982711549	
583.75	0.1106056762	0.5541086341	
584.375	0.04755218772	-0.3695509215	
585.0	0.1825497996	0.5915376187	
585.625	0.5526300836	-0.2813839409	
586.25	0.04211683442	0.03869864143	
586.875	0.5199755922	-0.4666696253	
587.5	-0.3236498929	-0.2027592341	
588.125	0.2599236238	-0.2439065311	
588.75	0.1336890177	-0.6497934387	
589.375	-0.1141381593	-0.2588692832	
590.0	0.1754739177	-0.4482942979	
590.625	-0.6187738678	-0.2182765025	
591.25	-0.1893814967	0.3385044429	
591.875	-0.1749785026	0.08327215291	
592.5	0.04137574029	0.3442667733	
593.125	-0.2490877944	-0.05426510809	
593.75	0.2982071804	0.3588473231	
594.375	0.2398837576	0.06837717175	
595.0	0.1599885189	0.5365857937	
595.625	0.9129217368	0.2589355116	
596.25	-0.03488832393	-0.1433551311	
596.875	0.5103041081	0.5223697631	
597.5	0.565315851	-0.03041967252	
598.125	0.01163930992	0.3969364047	
598.75	0.7512497024	0.244995992	
599.375	0.2208380742	-0.06560094618	
600.0	0.6951522436	-0.1791317101	
600.625	0.2811927407	-0.65459583	
601.25	0.05795889977	-0.2411868066	
601.875	0.002505901524	-0.462643632	
602.5	-0.3473304926	-0.01812350906	
603.125	-0.2913915212	0.1730796145	
603.75	-0.1444001444	0.0249248471	
604.375	-0.4738986118	0.1725292945	
605.0	0.06461984598	0.231348895	
605.625	-0.4248983142	-0.007734477368	
606.25	-0.1226024748	0.3640688859	
606.875	-0.3757153917	-0.1390135586	
607.5	-0.6846097411	0.7741911901	
608.125	0.1575409766	0.2419339039	
608.75	0.1237255886	0.8190861457	
609.375	0.786590683	-0.4213163452	
610.0	0.2102111369	0.06524775667	
610.625	0.4409248504	-0.5866338648	
611.25	-0.1386028396	-0.1632714535	
611.875	-0.003928104353	-0.6038078786	
612.5	-0.4292299183	0.1385912039	
613.125	-0.4415521156	-0.2524132208	
613.75	-0.2829198934	0.5887392373	
614.375	-0.04554516474	-0.1075009158	
615.0	0.3002709751	0.3729649236	
615.625	-0.1549624808	-0.1219462598	
616.25	-0.3205643517	0.6161487543	
616.875	0.1930306442	0.3011916679	
617.5	-0.5476030632	0.3869686171	
618.125	0.115186861	0.7607017648	
618.75	0.05897280144	0.1295114035	
619.375	0.1611877661	0.6793561062	
620.0	0.4134530854	-0.05640543047	
620.625	0.439074229	-0.2537082025	
621.25	-0.3060382714	-0.4087661304	
621.875	-0.3058662351	-0.358679762	
622.5	-0.6510408732	0.2734767767	
623.125	-0.1025052425	0.2134953575	
623.75	0.3817438439	0.3485731446	
624.375	-0.1969569729	-0.2458460879	
625.0	0.5233418981	0.03055315711	
625.625	-0.3290205679	-0.1904857888	
626.25	0.3095690965	-0.3386850442	
626.875	-0.6304993234	-0.3005590175	
627.5	-0.1729844762	0.1359628275	
628.125	-0.1408490132	-0.4819638551	
628.75	-0.3911986896	-0.1474982383	
629.375	0.03134980059	-0.3729329073	
630.0	-0.6297527209	-0.3981784046	
630.625	-0.3088984866	0.2683345697	
631.25	-0.533491306	0.2094346422	
631.875	-0.1135052815	0.7671956812	
632.5	0.3449473436	0.4625822154	
633.125	0.4402468998	0.06784751666	
633.75	0.4299414851	0.1500294047	
634.375	0.05141229717	-0.6006270867	
635.0	0.1840895441	-0.1072115423	
635.625	-0.5110517924	-0.453314203	
636.25	-0.120239779	0.3161394612	
636.875	-0.5559679656	0.09395621397	
637.5	0.1711791943	0.4926821113	
638.125	-0.2108601312	-0.2290123718	
638.75	-0.4746234224	0.8025843751	
639.375	0.4195199305	0.4235429831	
640.0	-0.1008022226	0.4134159987	
640.625	0.6755255478	0.73418689	
641.25	0.6998885919	-0.3190172439	
641.875	0.4034960813	0.02889833643	
642.5	-0.1735592827	-1.00087105	
643.125	-0.03962066257	0.02383734793	
643.75	-0.3656819215	-0.6237600695	
644.375	-0.5041926644	0.3868203841	
645.0	-0.1208644437	-0.002198700106	
645.625	-0.2456541278	0.7112032813	
646.25	0.7550112749	0.2351060938	
646.875	-0.09959030416	-0.282623616	
647.5	0.3957308442	0.5475680876	
648.125	0.01235437433	-0.4365537593	
648.75	0.9496679829	0.4911170482	
649.375	0.5090016779	-1.147634888	
650.0	-0.03538957769	-0.194114863	
650.625	1.278118032	-0.5808121859	
651.25	0.05530660913	-1.379699758	
651.875	0.1153481741	0.2065052484	
652.5	1.286274073	0.07221740869	
653.125	0.5807235642	-0.7383424612	
653.75	0.3130135242	0.07268363662	
654.375	-0.03267406048	-1.291247248	
655.0	-0.6855740136	0.1597102431	
655.625	-0.4129214775	-0.1674379258	
656.25	-0.1030371218	0.9776872241	
656.875	0.3073944327	-0.3398696271	
657.5	-0.1451311534	0.6085873471	
658.125	0.5870286041	0.3612058527	
658.75	0.4756289435	-0.005633959576	
659.375	0.9444626542	0.2384972343	
660.0	0.5284240654	-1.233678847	
660.625	0.1773216263	-0.3386862177	
661.25	0.8551550898	-0.651018729	
661.875	0.3202407016	-1.177095521	
662.5	0.199223851	0.1378635722	
663.125	1.343684317	-0.4377539563	
663.75	-0.01987157664	-0.9172726785	
664.375	0.275070667	-0.3953493983	
665.0	-0.8333815099	-0.947715796	
665.625	-0.3713212851	0.4013452043	
666.25	-0.6729173546	0.4461425672	
666.875	0.51741866	0.7082218031	
667.5	0.1924666173	-0.04963259951	
668.125	0.6802597524	0.4377834164	
668.75	0.5197845279	-0.6470245229	
669.375	0.08580186612	-0.3688420839	
670.0	0.2514340803	-0.4131041397	
670.625	0.02578125541	-0.7508382819	
671.25	-0.04113717491	-0.1072697569	
671.875	0.5750658772	-0.4768551543	
672.5	0.3732001294	-0.549904194	
673.125	0.3764798955	-0.03975576049	
673.75	0.861664623	-0.732134484	
674.375	-0.3915528279	-0.6597022431	
675.0	0.3327781224	-0.2213299057	
675.625	-0.6541213858	-0.8321312985	
676.25	-0.5137652275	0.4597799811	
676.875	-0.1124795171	-0.5285020267	
677.5	-0.6593676629	0.5375887473	
678.125	-0.1755082488	-0.1027790604	
678.75	-0.3014090218	0.9975020558	
679.375	0.6815479316	-0.3198066584	
680.0	0.1752330036	0.2078942294	
680.625	0.5269637493	-0.2324957243	
681.25	0.03428370492	-0.3650742154	
681.875	0.05546404244	0.4010479283	
682.5	0.7298061487	0.4453458279	
683.125	0.6454118931	-0.06731218891	
683.75	0.262246484	0.1117706195	
684.375	0.9675115421	0.5740864398	
685.0	0.5746206157	-0.5530202604	
685.625	0.6071760159	0.6864725152	
686.25	1.235070924	-0.4673817637	
686.875	-0.02418884213	-0.2037852468	
687.5	1.646169936	-0.2349162866	
688.125	-0.9645358851	-1.610230179	
688.75	0.0382919469	-0.47248798	
689.375	-1.550443961	0.7989315099	
690.0	0.656341992	0.6442584304	
690.625	-0.07509224803	1.04261332	
691.25	1.255216999	0.3997958671	
691.875	0.6006700258	0.7761166607	
692.5	1.595761642	0.8665582768	
693.125	1.635562875	-0.2672059634	
693.75	1.3102829	-0.3089925531	
694.375	1.014635757	-1.006638805	
695.0	1.118143523	-0.4133079536	
695.625	1.569407399	-0.5662070579	
696.25	0.545185898	0.3029968917	
696.875	1.125585493	1.859918128	
697.5	1.150918725	0.2940193633	
698.125	0.8797969135	1.435134635	
698.75	1.571314647	-1.66708917	
699.375	-0.3407503128	-0.2108050672	
700.0	-1.699162379	0.4333092803	
700.625	0.8880479001	0.618232923	
701.25	-0.1267891471	0.8254536394	
701.875	1.251967631	0.4539017409	
702.5	0.2518142347	0.4915427803	
703.125	1.35721775	0.6251855264	
703.75	0.5878133503	-0.5977894393	
704.375	0.9946598939	0.0561207908	
705.0	0.4428963392	-0.8566269428	
705.625	0.1839484096	0.3786838248	
706.25	1.34196384	0.7126651485	
706.875	0.2312774555	0.07586880344	
707.5	0.3500160553	1.440607459	
708.125	1.591641996	0.1299006132	
708.75	0.5983425999	-0.3144555658	
709.375	-0.6128898954	-1.310712995	
710.0	-0.2308710702	0.735401721	
710.625	-0.1651070355	0.4521334215	
711.25	0.4510144349	0.259112833	
711.875	0.3014008853	0.362786843	
712.5	0.8297237013	0.01452197474	
713.125	0.6113324001	-0.1665398829	
713.75	0.483955455	-0.9219581379	
714.375	-0.2536824073	-0.1579432511	
715.0	0.4518035524	-0.901208568	
715.625	-0.5621055232	-0.3319588458	
716.25	0.8490815278	0.0127239732	
716.875	1.403099625	-1.366087026	
717.5	-0.2666918874	0.1876644644	
718.125	3.070595434	1.390920187	
718.75	2.277473451	-1.885481297	
719.375	0.6020785683	0.9772437753	
720.0	3.631437791	-3.695065969	
720.625	-0.9330867954	-2.093411933	
721.25	1.055210413	-2.212555285	
721.875	-0.5994155578	-3.863957688	
722.5	-1.795393516	-0.9854484633	
723.125	-1.839575761	-1.469994382	
723.75	-1.107083377	1.528619963	
724.375	0.1568048765	0.7619326223	
725.0	0.09490979533	0.8117562224	
725.625	0.4626783457	1.767363318	
726.25	1.124946292	1.114564126	
726.875	-1.40915675	1.598667554	
727.5	-0.9087041859	5.931965416	
728.125	3.218475243	3.799845148	
728.75	-8.70095758	7.388013109	
729.375	2.641266799	14.89831673	
730.0	0.8310191696	1.278910627	
730.625	-14.11926337	25.81587748	
731.25	8.613303671	14.04115474	
731.875	-7.39109998	-3.501584673	
732.5	-14.00025998	0.3627723024	
733.125	-7.614500429	2.655046528	
733.75	-0.8987174958	1.380366515	
734.375	2.545833164	3.399530541	
735.0	-0.6228123981	-1.08778311	
735.625	-0.8411448386	-0.5017223306	
736.25	-0.329526077	2.435844463	
736.875	1.037621947	0.008875222846	
737.5	1.902058316	2.217583862	
738.125	5.922955891	-0.6491120305	
738.75	3.978732863	-6.868448065	
739.375	-1.925740009	0.8342764722	
740.0	19.89623611	2.483013961	
740.625	-3.521269845	-16.5056767	
741.25	-12.88989121	10.34406658	
741.875	-15.14970669	31.62311482	
742.5	13.68717201	-3.473700286	
743.125	-0.006242427323	-16.92435532	
743.75	-3.110002185	-1.659899399	
744.375	0.2641631828	-0.1967155646	
745.0	-0.4378272289	0.9017157647	
745.625	-0.150738933	-0.3233261311	
746.25	0.2409974148	-0.3918880832	
746.875	-0.7050489997	0.1618195849	
747.5	-0.03067091357	0.6383496726	
748.125	0.3386580574	1.984544507	
748.75	0.7661787622	0.817881279	
749.375	-0.1785945632	0.8930240369	
750.0	-1.295436936	0.2875853748	
