!Created with skrf (http://scikit-rf.org).
# GHz S MA R 50.0 
!freq magS11 angS11
500.0 0.0195824360601 138.896430162
500.625 0.00986136919775 90.9981200916
501.25 0.0126067063666 -56.0389580201
501.875 0.0360291630308 -167.538292928
502.5 0.0169592172355 153.752610471
503.125 0.0133420712667 39.2894806012
503.75 0.0180290283386 129.358051812
504.375 0.00583631766372 144.872934818
505.0 0.0103893278328 -66.1252539725
505.625 0.0419277960879 -78.3948142124
506.25 0.0405582020905 -106.444658513
506.875 0.0515005874394 -105.806621957
507.5 0.0412002618238 -120.550504428
508.125 0.0671850080636 -79.7258675551
508.75 0.0579700326287 -143.531163027
509.375 0.0430800608373 -152.232475129
510.0 0.0338474179562 -114.401990914
510.625 0.0547915398569 -155.416903746
511.25 0.0431837478785 169.569308073
511.875 0.0490591739455 145.848953549
512.5 0.0401164401018 96.0519354839
513.125 0.0644911677206 57.6608401044
513.75 0.0495695244417 26.9196015157
514.375 0.0516712614123 32.2165689796
515.0 0.0585994455017 11.2186513398
515.625 0.084347470586 49.8798130819
516.25 0.0875783023027 30.9432306596
516.875 0.110879390757 71.9144905043
517.5 0.119218185658 22.4758128288
518.125 0.209115463861 75.7570042861
518.75 0.0787569378732 8.78627424413
519.375 0.0682171624287 15.2649849852
520.0 0.11449891195 0.868911327552
520.625 0.0986834291523 -3.5781557094
521.25 0.0847934048641 -21.85790137
521.875 0.0679525588188 3.85544385566
522.5 0.0949894491533 -30.5719559113
523.125 0.187623345916 -31.7403652839
523.75 0.205095659861 -60.5817749436
524.375 0.196573909906 -53.6163489909
525.0 0.0713434737928 -39.1827168874
525.625 0.0321051125064 -64.1664603733
526.25 0.0372725236301 -15.0092548196
526.875 0.0474513753886 -27.4555207067
527.5 0.0561180528825 -23.6148402418
528.125 0.0315799511218 -62.4261647333
528.75 0.064355264367 -69.606059146
529.375 0.0817305712819 -112.824063021
530.0 0.0581038304863 -124.562880968
530.625 0.0264809522649 -128.053605756
531.25 0.10677870124 -127.756040487
531.875 0.155411335874 -146.814148831
532.5 0.158190024906 -169.129469838
533.125 0.0842409556851 174.781049761
533.75 0.109507985951 171.383311619
534.375 0.104350610123 178.439262524
535.0 0.0920096740766 164.766915447
535.625 0.0606555219661 177.395590863
536.25 0.051518937935 166.210788921
536.875 0.0783338778877 -157.343822312
537.5 0.107194324225 -144.679399097
538.125 0.0917972487382 -171.30645916
538.75 0.0929198545445 179.990622732
539.375 0.0672429055609 -163.146834646
540.0 0.104999570419 -157.006796822
540.625 0.10472152555 -152.33907249
541.25 0.114360033582 -138.919069344
541.875 0.0992768443148 -141.805340988
542.5 0.118324120264 -143.735779856
543.125 0.117180030886 -164.763415847
543.75 0.118124065837 159.93643034
544.375 0.0916799614224 133.862072521
545.0 0.0928982539113 92.5598411028
545.625 0.0953418255128 84.6401604968
546.25 0.0887728075068 69.6695211025
546.875 0.0910815437292 56.4506788228
547.5 0.122382418911 58.3660275157
548.125 0.0929712879724 78.8067615662
548.75 0.0778010657387 92.5516191873
549.375 0.0877589439748 87.2162610732
550.0 0.0940209879961 127.952887364
550.625 0.040427793864 161.371191764
551.25 0.0404843239074 -136.963846403
551.875 0.0614093858096 -157.172356969
552.5 0.121307052199 -166.466811477
553.125 0.0812980381406 -160.296892359
553.75 0.0870426639405 -164.809614195
554.375 0.10769243206 167.004019145
555.0 0.132858913812 163.413017
555.625 0.0994793531944 158.664630131
556.25 0.0954809603816 164.388914239
556.875 0.117894677651 168.384063926
557.5 0.111103204674 167.432381803
558.125 0.103356887448 164.592164139
558.75 0.0804333852593 179.490766295
559.375 0.0603638351457 -173.588400705
560.0 0.0504101669521 -149.993487721
560.625 0.0573861116539 -137.333467045
561.25 0.0888064935018 -148.992474949
561.875 0.106266985273 -162.412102363
562.5 0.0937793489288 174.686953377
563.125 0.10050545394 150.080165613
563.75 0.125851525244 134.212639712
564.375 0.0981882782204 121.906993617
565.0 0.0926792994838 119.091020415
565.625 0.0776296407067 119.917699931
566.25 0.0921112856829 155.305001494
566.875 0.076021884809 -179.135910611
567.5 0.0742035828031 -176.297018978
568.125 0.0868654596711 -172.12994335
568.75 0.0550768512005 -135.269642456
569.375 0.0474769952891 -100.670207559
570.0 0.0604767328605 -105.231936955
570.625 0.0948569382738 -118.971200148
571.25 0.0896370494577 -117.070815564
571.875 0.0874799001994 -122.468239961
572.5 0.114045667391 -155.448161339
573.125 0.146177604567 -175.853414553
573.75 0.0915503729948 168.559888461
574.375 0.083539676127 150.342292015
575.0 0.106280127625 155.632303304
575.625 0.113416719142 153.982589285
576.25 0.0882675094629 147.390887805
576.875 0.0738977468748 129.34492301
577.5 0.0871028463166 136.434844147
578.125 0.0567495083365 162.271007222
578.75 0.0482357228501 167.444848711
579.375 0.0561414992067 161.995807505
580.0 0.0698567864937 -174.285745347
580.625 0.0794105119248 -154.376257933
581.25 0.0914045314501 -158.838157538
581.875 0.114838778241 -171.048938792
582.5 0.111479627902 -171.783294592
583.125 0.0973820886713 -173.161948787
583.75 0.078671946922 -155.244626917
584.375 0.102904821998 -152.711176349
585.0 0.0934029700527 -144.205196664
585.625 0.0754842171736 -152.104581936
586.25 0.067145937684 -122.879346002
586.875 0.0807406871052 -126.280680493
587.5 0.0710428500436 -140.042526945
588.125 0.0607523149848 178.996734751
588.75 0.0689866300695 -143.519494569
589.375 0.0849007720082 -146.44545439
590.0 0.0905903531078 -166.122048859
590.625 0.103769167632 161.84314104
591.25 0.117231019883 162.072601232
591.875 0.0940645066796 159.468693073
592.5 0.0654818502325 144.177142308
593.125 0.0587271699494 145.865439812
593.75 0.0679356141068 -168.285682625
594.375 0.0593338556585 -143.057447237
595.0 0.041752910764 -107.902828172
595.625 0.0573763755586 -105.932106934
596.25 0.0747829525911 -78.0437855648
596.875 0.0682715379172 -68.5914734915
597.5 0.0572920994358 -64.9196810224
598.125 0.058226588769 -68.6504469242
598.75 0.0855217967227 -55.1413825373
599.375 0.09521256162 -58.0679581243
600.0 0.105157171518 -60.5114304845
600.625 0.09707758284 -74.1064866839
601.25 0.0839447246187 -61.4826351567
601.875 0.0678873081798 -81.7218774016
602.5 0.0584067781848 -85.8773916114
603.125 0.0437866598762 -67.0669160769
603.75 0.0280109084466 -49.7069190011
604.375 0.0475426824309 -15.4091167981
605.0 0.0654830016779 -12.2298472861
605.625 0.0516642492513 3.73013776776
606.25 0.0190814930507 -17.6143354343
606.875 0.0559844282408 56.1515961372
607.5 0.0689497274274 46.7873059654
608.125 0.0722312254695 28.8052053516
608.75 0.0585437925314 18.4661574481
609.375 0.069531866418 33.2750941869
610.0 0.0744434696596 44.1891447302
610.625 0.0653175856107 42.6993112488
611.25 0.0433632538617 16.0080983348
611.875 0.0482809372698 74.4693034258
612.5 0.0293123336113 108.614895596
613.125 0.0274425120833 140.198118134
613.75 0.0298978257412 129.436775566
614.375 0.0398238478363 122.427066051
615.0 0.0338596059678 117.892343849
615.625 0.0200086802721 142.172419791
616.25 0.0494103491186 134.666110374
616.875 0.0332440465113 126.975314178
617.5 0.0395927202187 123.163145565
618.125 0.0244697061915 139.5336002
618.75 0.0311011151511 141.874748786
619.375 0.0142713809961 127.97249366
620.0 0.0103677097029 151.116718088
620.625 0.0234099269932 -118.369198403
621.25 0.0543097387273 -78.524472656
621.875 0.0688856664227 -113.452477524
622.5 0.0725269303803 -167.573035861
623.125 0.0685612650589 172.867706457
623.75 0.0600398411891 163.578561304
624.375 0.038511728109 -166.736152639
625.0 0.0485664312239 -147.57036129
625.625 0.0393990830494 -159.531996169
626.25 0.0258681465618 174.869687441
626.875 0.0228276994276 -4.03807501209
627.5 0.0225226726124 -87.5695917822
628.125 0.0345485897997 -38.9458265462
628.75 0.0355142853642 -33.0241843664
629.375 0.065452009726 2.35577465899
630.0 0.0641125854237 -17.8515902862
630.625 0.069465229491 -3.89725665292
631.25 0.0657931383159 2.37466143135
631.875 0.0738171165749 11.4765443464
632.5 0.0678989687012 -26.3613090424
633.125 0.050814023528 -3.25715190871
633.75 0.0445700679079 6.62694455533
634.375 0.049007042852 31.957737724
635.0 0.0381767721439 37.1335020817
635.625 0.0332155207168 31.9659713703
636.25 0.0481576961678 45.0638305087
636.875 0.0604492776726 34.9857197199
637.5 0.0568670595418 56.6983829111
638.125 0.0238129552426 34.4826373317
638.75 0.0636684795466 72.4785970984
639.375 0.0972582505266 88.717044191
640.0 0.0792805664329 112.041977256
640.625 0.0498899949464 87.1982019826
641.25 0.065245128957 124.789006123
641.875 0.0602284531518 147.052305501
642.5 0.0669752338552 165.998845607
643.125 0.0443258102008 150.070722169
643.75 0.0593039256428 167.392336576
644.375 0.0647635078525 -177.857863165
645.0 0.0917904281404 -177.704791937
645.625 0.0785819230897 157.667628776
646.25 0.0831819704507 165.021769362
646.875 0.0790697172731 -175.581201657
647.5 0.0726101872368 -173.002728183
648.125 0.0805741143373 -178.271067534
648.75 0.0720711132294 -163.533358518
649.375 0.0500186019595 -143.205870909
650.0 0.0472062239227 -114.275973685
650.625 0.0789369261546 -85.8481336353
651.25 0.0641859654548 -63.6062990627
651.875 0.064395750256 -37.8106973751
652.5 0.0876627347257 -22.7887477894
653.125 0.135602676776 -0.182644086055
653.75 0.108141665201 6.79017695436
654.375 0.107506933866 4.97354757795
655.0 0.128155706792 15.6775572132
655.625 0.0957597886585 30.0229447846
656.25 0.058809764417 21.1034360603
656.875 0.0690848704134 11.4131888307
657.5 0.0764248465848 25.3114314924
658.125 0.0832307445974 50.6223505382
658.75 0.039264711772 72.4810779349
659.375 0.0757186177283 46.1645872009
660.0 0.115471584735 25.712507443
660.625 0.123529840368 18.693873981
661.25 0.0931744550861 5.37972536009
661.875 0.122267189096 -10.9473314846
662.5 0.116293230553 -22.3475700634
663.125 0.115370545149 -14.3322197951
663.75 0.0761804089776 1.60168726087
664.375 0.0865262017207 54.8851974598
665.0 0.0752048915089 94.2017516281
665.625 0.0610001161708 116.069156957
666.25 0.081561394916 134.652364327
666.875 0.11332595984 169.699526113
667.5 0.100408418503 -166.711069035
668.125 0.106735050793 -178.168787871
668.75 0.126934679784 169.02846963
669.375 0.124956354181 -178.851760892
670.0 0.0861981381709 -167.703098735
670.625 0.0962300054973 -171.791116511
671.25 0.0940038492089 -179.88589669
671.875 0.0921286712504 170.994372833
672.5 0.0685489387626 155.795764389
673.125 0.0914163109059 152.738355887
673.75 0.11244217848 161.462811607
674.375 0.121037180738 169.394535034
675.0 0.12007619017 -174.707266355
675.625 0.138537564368 -150.204737861
676.25 0.120274132483 -122.086631235
676.875 0.120739968312 -119.127074683
677.5 0.125854762918 -125.968603345
678.125 0.138441392399 -115.431195919
678.75 0.0510508936185 -89.3257626548
679.375 0.0473575329462 -65.4252535897
680.0 0.0781792616383 -75.5197570853
680.625 0.133792505192 -78.9429845357
681.25 0.0994076795987 -68.8109487077
681.875 0.0997639641684 -89.0308101647
682.5 0.143968449278 -120.365228206
683.125 0.166528229283 -120.694194728
683.75 0.147143622337 -105.61267522
684.375 0.101409082806 -72.9316884454
685.0 0.128968798698 -36.173254956
685.625 0.129258421256 -0.311831597447
686.25 0.119856341401 20.1093123147
686.875 0.0657914834475 55.0522952051
687.5 0.0701753995167 94.0121067668
688.125 0.0798653485236 112.494076278
688.75 0.108017881756 108.964216804
689.375 0.125389276106 132.201714925
690.0 0.13153067912 136.467767407
690.625 0.117007464874 127.134062109
691.25 0.147675836315 95.9558062135
691.875 0.192186594228 69.3585961781
692.5 0.139872264876 41.5878439073
693.125 0.0899533012109 -13.1046098277
693.75 0.0930903591675 -35.6578249008
694.375 0.147448505926 -33.4671584819
695.0 0.111975733152 24.7870231711
695.625 0.100597867142 58.6817522567
696.25 0.11270462847 114.452094777
696.875 0.141042049302 173.175436558
697.5 0.149737458008 -147.878459707
698.125 0.138739952256 -129.846976253
698.75 0.136968857869 -132.670755441
699.375 0.116222142645 -128.129198431
700.0 0.0848082243071 -99.7379753526
700.625 0.107237136084 -82.6079903358
701.25 0.0941512145588 -61.3014273718
701.875 0.0848845466043 -64.7968926822
702.5 0.10065899126 -73.236007081
703.125 0.170697980425 -119.945680122
703.75 0.186873969155 -153.560449177
704.375 0.128353424478 172.42789865
705.0 0.1150854963 154.708638233
705.625 0.133560081956 -155.197471272
706.25 0.133756022325 -104.705501811
706.875 0.0821692847424 -58.416690253
707.5 0.0800695203074 -44.086631733
708.125 0.0894428456175 35.8289380103
708.75 0.113434519624 69.9444710978
709.375 0.102594098473 110.037582466
710.0 0.105929245477 127.495712218
710.625 0.108647985048 149.88883514
711.25 0.122173747041 176.459393022
711.875 0.145765003632 169.601825472
712.5 0.156878457539 138.40754438
713.125 0.113062407051 112.907230934
713.75 0.0989248342738 52.0418206038
714.375 0.116784041248 16.8590567054
715.0 0.112619549942 29.1857110558
715.625 0.0852803129598 43.3563056154
716.25 0.0909349215337 92.1899244747
716.875 0.126791875749 112.813982898
717.5 0.139644144768 153.387593828
718.125 0.118116379308 163.425521978
718.75 0.103387594986 178.622276064
719.375 0.11879954123 -170.479738408
720.0 0.136704084715 -123.854377908
720.625 0.114401639646 -73.649992203
721.25 0.0978510128438 -17.6738308475
721.875 0.084027991067 42.6764917577
722.5 0.0753651212676 86.019282515
723.125 0.0688253518427 55.6924037309
723.75 0.124898960872 54.0172868707
724.375 0.110720656181 0.230372438485
725.0 0.0877788787603 -47.9235501068
725.625 0.105942753562 -64.9374901215
726.25 0.102848263171 -78.1751542601
726.875 0.105216858724 -35.5360805886
727.5 0.0883747247295 -23.1452335009
728.125 0.0913441869218 11.5111905979
728.75 0.0724872516042 4.80087028297
729.375 0.0965990343867 35.0338237949
730.0 0.0676394737012 3.61941332355
730.625 0.0648837125108 22.5252827626
731.25 0.0738942782113 66.6333646726
731.875 0.057030515465 103.427469173
732.5 0.0914847015926 161.298741919
733.125 0.0994445721777 -177.603120563
733.75 0.0765754537578 173.150544242
734.375 0.0576472777974 -164.172254996
735.0 0.0618516346986 157.398401199
735.625 0.039399054816 153.073410906
736.25 0.0421393686014 147.333507137
736.875 0.0431211785185 178.261797075
737.5 0.0782344651152 -178.593693391
738.125 0.0995127015513 -175.300733236
738.75 0.079173202949 -176.965023373
739.375 0.0275001053829 168.203127242
740.0 0.0843772835681 -136.408741124
740.625 0.0692162771203 -145.723734251
741.25 0.064701723274 -148.328287165
741.875 0.0152198678678 -93.2549933616
742.5 0.026334289856 -8.45385433893
743.125 0.0382713605628 45.2653195427
743.75 0.0477834484066 105.662469062
744.375 0.0418881356204 177.463662021
745.0 0.0896908968704 107.494386562
745.625 0.0763037166955 102.836947301
746.25 0.0873268785261 86.769760117
746.875 0.0608559430958 45.6081973733
747.5 0.0432218182778 19.6856974138
748.125 0.0235908976149 -5.22180757644
748.75 0.0328036035088 -22.5518820645
749.375 0.0436505784259 -40.4051738938
750.0 0.0424936214755 -43.0772563977
