!Created with skrf (http://scikit-rf.org).
# GHz S RI R (50+0j) 
!freq	ReS11	ImS11	
500.0	-0.4936089626	-0.7441887352	
500.625	0.8368051046	-1.303772082	
501.25	-1.119428217	-0.8494943401	
501.875	-0.1492275056	-0.3391731249	
502.5	-0.03211448734	-0.3466451921	
503.125	-0.08043335425	0.06263104098	
503.75	-0.06981267724	0.08076440526	
504.375	0.06798494197	-0.03323976118	
505.0	0.009888120939	0.02872562059	
505.625	0.03252121237	-0.1288781236	
506.25	-0.1314112774	0.04242896557	
506.875	-0.1500350552	-0.2874792415	
507.5	-0.6409616241	-0.4474633811	
508.125	0.3287352495	-0.3422113549	
508.75	1.147429302	-1.776338399	
509.375	-0.8155744104	-1.278465216	
510.0	-0.1388995077	-0.319548122	
510.625	-0.2499730919	-0.4460714605	
511.25	-0.1076236434	0.05542329692	
511.875	-0.08984122278	-0.2243295384	
512.5	-0.02217185798	0.09100458322	
513.125	0.02650681686	-0.03342538915	
513.75	-0.04010301397	-0.1577807446	
514.375	-0.15099493	0.2353211166	
515.0	0.4219185028	-0.1917616142	
515.625	-0.6430041037	-0.2262342061	
516.25	0.2091743871	-0.3866044296	
516.875	-0.8087506158	-0.9490922092	
517.5	-0.2718471651	-0.1201131688	
518.125	0.06573267666	-0.1037915236	
518.75	-0.2813066016	-0.1563269261	
519.375	-0.08428920178	0.01881131483	
520.0	0.1468080031	0.1442261554	
520.625	0.233372746	-0.1494800121	
521.25	-0.115599442	-0.1775154343	
521.875	-0.1359639636	-0.06429467743	
522.5	-0.09376114974	0.1456925085	
523.125	-0.03889980315	-0.1456056275	
523.75	-0.2965868053	0.03817682845	
524.375	-0.01586772083	0.1438265894	
525.0	-0.213570459	0.09056864593	
525.625	0.1740928329	0.1364408125	
526.25	-0.1340611605	-0.05973229748	
526.875	0.008976918573	0.1164276336	
527.5	-0.06192251296	0.08160714672	
528.125	0.06394870915	0.4818474221	
528.75	0.2781900936	0.3268929439	
529.375	0.04346257136	0.1264994122	
530.0	0.25290143	0.3294276227	
530.625	0.1309038199	0.2356738563	
531.25	0.4243702458	0.1619673943	
531.875	0.3005829805	-0.4530816558	
532.5	0.02166839477	0.02269477669	
533.125	0.154058602	-0.2542511429	
533.75	0.06445062772	-0.05365053991	
534.375	0.009960579763	-0.5135214608	
535.0	-0.3815592829	0.01758533995	
535.625	-0.1476231473	0.0714981567	
536.25	-0.03065315695	0.1594459938	
536.875	0.1235484092	-0.04142934818	
537.5	0.08804618771	0.007257348615	
538.125	0.1951404031	-0.1490805212	
538.75	0.08519831674	-0.1190738483	
539.375	-0.03306066719	-0.2535744774	
540.0	-0.3163120164	-0.1888847177	
540.625	-0.1672445964	0.01212015139	
541.25	-0.08313777825	-0.03029767715	
541.875	-0.09017333154	0.06136107099	
542.5	0.01780227157	-0.1168742458	
543.125	-0.177274172	-0.134582438	
543.75	-0.04208892059	0.07218143715	
544.375	-0.1586385597	-0.01047766368	
545.0	0.06508135392	0.07265403765	
545.625	-0.02373475394	0.08658761155	
546.25	0.2082337926	0.03489289479	
546.875	0.06156581325	-0.08074622181	
547.5	0.1539593582	-0.130631901	
548.125	-0.1210938736	-0.2695921244	
548.75	-0.1242114164	-0.05885851427	
549.375	-0.1183754237	-0.1613384518	
550.0	-0.129728542	0.0649936808	
550.625	-0.03507515243	-0.03406762339	
551.25	-0.1338157646	0.08576903207	
551.875	-0.04821391182	0.08506457693	
552.5	-0.09117256608	0.1063438601	
553.125	0.004474678995	0.09769845486	
553.75	0.0477667811	0.06154252808	
554.375	0.1435168697	-3.759511251e-05	
555.0	0.116172591	-0.09660574633	
555.625	0.1119025075	-0.1397712949	
556.25	0.0834559516	-0.1934541326	
556.875	-0.05560008651	-0.2073625619	
557.5	-0.1290711892	-0.1307120324	
558.125	-0.1538986341	-0.05044991962	
558.75	-0.1459431536	0.004914499953	
559.375	-0.1297507551	0.02548283926	
560.0	-0.1414824486	0.09566976263	
560.625	-0.04942528407	0.1615360486	
561.25	-0.001340395799	0.1004069449	
561.875	0.0475484937	0.1080732307	
562.5	0.01529324847	0.02286718712	
563.125	0.08874916956	0.1425296563	
563.75	0.1896117761	-0.05539166501	
564.375	0.1165920794	-0.07521157677	
565.0	0.137548057	-0.229393902	
565.625	-0.1066795196	-0.1765619436	
566.25	-0.08443994419	-0.1585925444	
566.875	-0.2700888099	-0.161924704	
567.5	-0.1487836633	-0.05719494027	
568.125	-0.1483374431	-0.2802805475	
568.75	-0.4156443567	-0.02069569111	
569.375	-0.1773671248	0.09843299236	
570.0	-0.2628704672	0.2577374303	
570.625	0.008853784411	0.2923186466	
571.25	-0.03460867951	0.05743942381	
571.875	0.1580383786	0.200570073	
572.5	0.06966030896	-0.07456179991	
573.125	0.2081126767	-0.07277158545	
573.75	0.01136386709	-0.2908734442	
574.375	-0.04428942808	0.04680289894	
575.0	0.1404675216	-0.122607561	
575.625	-0.065383567	-0.05168815641	
576.25	0.1659141903	-0.09011026935	
576.875	-0.05226942354	-0.313557027	
577.5	-0.08271442077	-0.1227443826	
578.125	0.06511498	-0.1977220796	
578.75	-0.2135199291	-0.2462502585	
579.375	-0.1053299856	0.1305824479	
580.0	-0.00816346235	-0.1584532839	
580.625	-0.1364665853	0.08160646952	
581.25	-0.09283285865	-0.06516961014	
581.875	-0.02764369664	0.3861777877	
582.5	0.2048608111	0.1066988366	
583.125	-0.04108851096	0.04319598377	
583.75	0.1869545736	0.1059980067	
584.375	-0.0509499959	-0.03805599562	
585.0	0.2613773001	0.2053623938	
585.625	0.2189643702	-0.1307306691	
586.25	0.1095561119	0.02378540475	
586.875	0.1907070516	-0.2437286504	
587.5	-0.1402404469	-0.1417057167	
588.125	0.08140508168	-0.1215640384	
588.75	0.05313440727	-0.3020722783	
589.375	-0.0369506423	-0.1461134118	
590.0	0.1147542474	-0.2560036726	
590.625	-0.3677960662	0.002766927555	
591.25	-0.005939158762	0.1046053179	
591.875	-0.1549718852	0.1131291374	
592.5	0.2175407158	0.1588803865	
593.125	-0.1672894853	-0.02335126433	
593.75	0.272012712	0.1480108936	
594.375	0.1036997669	0.03763340727	
595.0	0.2603311934	0.2482620204	
595.625	0.3484160179	0.05474782642	
596.25	0.0716940426	0.04358584074	
596.875	0.2743512806	0.146450135	
597.5	0.1763666357	-0.005385375866	
598.125	0.08161953289	0.1362928961	
598.75	0.3047980215	0.1654176142	
599.375	0.215349009	-0.1426425208	
600.0	0.2010521207	-0.0999000135	
600.625	0.2550235654	-0.2951982628	
601.25	-0.0213345924	-0.2827062589	
601.875	0.02205115172	-0.1401785581	
602.5	-0.350330735	-0.005883002606	
603.125	-0.01975810787	0.109568136	
603.75	-0.1953728533	-0.008104551165	
604.375	-0.1414853247	0.247659219	
605.0	-0.03816717475	-0.0790800823	
605.625	-0.206188202	0.1208516252	
606.25	-0.04473221453	0.1775161467	
606.875	-0.2855454778	0.04198378506	
607.5	-0.2987749711	0.3475803677	
608.125	0.1027208415	0.2373876582	
608.75	0.1161822722	0.2655889203	
609.375	0.3869860216	-0.08461230577	
610.0	0.1768751569	-0.1981775156	
610.625	0.2067364089	-0.1107808492	
611.25	-0.07340657871	-0.335528404	
611.875	-0.101619285	-0.03497987435	
612.5	-0.2155550581	-0.2197245034	
613.125	-0.3675166386	0.2090982718	
613.75	-0.01721592234	0.0524242034	
614.375	-0.0322073187	0.2588266321	
615.0	0.1772884756	-0.04177632133	
615.625	-0.1134032294	0.2227574147	
616.25	0.03257782646	0.3399106348	
616.875	-0.001350098864	0.1092173117	
617.5	-0.227092206	0.26577643	
618.125	-0.04869004626	0.1475810476	
618.75	0.04521994386	0.101788743	
619.375	0.05423264721	0.3386169756	
620.0	0.31187225	-0.07314183661	
620.625	-0.02284503768	-0.2193223846	
621.25	-0.08496521842	-0.3222263369	
621.875	-0.3601634435	-0.0202517541	
622.5	-0.157550965	0.002638540096	
623.125	-0.1843236373	0.2624521612	
623.75	0.2376751063	-0.03387458574	
624.375	0.006300596018	0.04105283454	
625.0	0.08939881848	-0.1582651958	
625.625	0.001251244417	-0.01867276048	
626.25	-0.001808408248	-0.258506142	
626.875	-0.2781493433	-0.06094802565	
627.5	-0.09389491431	-0.01587458196	
628.125	-0.1703645283	-0.1969127062	
628.75	-0.1611290577	-0.1394827789	
629.375	-0.0293321547	-0.1741141015	
630.0	-0.2679868779	-0.1771558444	
630.625	-0.2579545809	0.1883439207	
631.25	-0.2025263054	0.1700760977	
631.875	-0.01669745054	0.409084972	
632.5	0.3137072014	0.1914798855	
633.125	0.1774012901	0.07669869862	
633.75	0.439899007	-0.04844613286	
634.375	-0.04858993207	-0.1583948418	
635.0	0.07509111928	-0.2094469357	
635.625	-0.3187217842	-0.09701194235	
636.25	-0.07718716444	0.1287835799	
636.875	-0.1992482899	0.1137007223	
637.5	0.04020194403	0.2267541874	
638.125	-0.07318662145	-0.0282210955	
638.75	-0.1426720167	0.3295726919	
639.375	0.1709077822	0.2881301392	
640.0	0.04738138493	0.2774184711	
640.625	0.3945939837	0.2683466723	
641.25	0.2980268708	-0.1789795304	
641.875	0.09904302779	-0.1138871337	
642.5	-0.0006171269766	-0.4500528748	
643.125	-0.2868126793	0.01568504754	
643.75	-0.03945495577	-0.1887047054	
644.375	-0.433029979	0.1085741666	
645.0	-0.0004142167107	0.1342076483	
645.625	-0.2081621165	0.3388010299	
646.25	0.3891999325	0.01940752354	
646.875	-0.2003421156	-0.04736163323	
647.5	0.238941326	0.1443035584	
648.125	0.07017515656	-0.1085370834	
648.75	0.3935541652	0.1243234919	
649.375	0.3721415174	-0.5785155938	
650.0	-0.006012112506	-0.3101731534	
650.625	0.3425551639	-0.2478439254	
651.25	0.3023106027	-0.5510317329	
651.875	0.04133505035	-0.1955345352	
652.5	0.4794289512	0.01644710622	
653.125	0.3596667499	-0.3729720108	
653.75	0.06199555927	-0.1651042785	
654.375	0.1790843619	-0.4890291941	
655.0	-0.5246953699	0.04012504824	
655.625	-0.06691739553	0.1320510481	
656.25	-0.1536349037	0.2925206096	
656.875	0.4223296115	0.05975973068	
657.5	-0.1689411689	0.1744131706	
658.125	0.3824189182	0.2702741453	
658.75	0.2233493167	-0.1241323625	
659.375	0.4047639972	0.009262479466	
660.0	0.3880081814	-0.6914215215	
660.625	-0.06273841711	-0.3519749522	
661.25	0.3588307775	-0.2870049882	
661.875	0.2933577536	-0.4888146498	
662.5	0.08695512901	-0.2620831096	
663.125	0.4391431696	-0.1498244108	
663.75	0.09168250037	-0.5560989073	
664.375	-0.08708801796	-0.2510794136	
665.0	-0.3069304439	-0.3674516037	
665.625	-0.469958262	0.2696495682	
666.25	-0.03060271482	0.2268117014	
666.875	-0.004522518258	0.4013517222	
667.5	0.3646216289	0.03147913477	
668.125	0.1447215653	0.02641977604	
668.75	0.3874286848	-0.2174700265	
669.375	-0.1309895762	-0.3323704189	
670.0	0.08176732923	-0.1617766619	
670.625	0.04477615183	-0.3700159535	
671.25	-0.1535407503	-0.1345212303	
671.875	0.3441073003	-0.0913689955	
672.5	0.2383019098	-0.3998821697	
673.125	0.1161004943	-0.2276551372	
673.75	0.2595467486	-0.1923711247	
674.375	-0.05845097591	-0.540664045	
675.0	-0.1657861864	-0.1023807122	
675.625	-0.1849609192	-0.2898074224	
676.25	-0.3640000326	0.06151312952	
676.875	-0.03379741278	0.02715657607	
677.5	-0.3472292938	-0.05947907916	
678.125	-0.02883991706	0.3308236622	
678.75	-0.010330127	0.07709830233	
679.375	0.3301010028	0.3048357954	
680.0	0.178941534	-0.3638075862	
680.625	-0.02948680701	0.1316103043	
681.25	0.3440318101	-0.1314537213	
681.875	0.07574825727	-0.1115146037	
682.5	0.278364879	0.514161326	
683.125	0.6054608191	-0.001091647894	
683.75	0.1043996048	-0.06703268884	
684.375	0.5510889999	0.1639655532	
685.0	0.5569087184	-0.092113468	
685.625	0.09491076968	-0.102008815	
686.25	0.597493983	0.1466869692	
686.875	0.2397443566	-0.3825684784	
687.5	0.2419342808	-0.226224755	
688.125	0.03117885984	-0.7112083697	
688.75	-0.7570629651	0.01364372314	
689.375	-0.2076534086	0.2343850894	
690.0	0.09709314469	0.681204716	
690.625	0.549447108	0.09753595504	
691.25	0.1311646711	0.3844355711	
691.875	0.8635104197	0.5163712365	
692.5	0.6626742272	-0.006782162099	
693.125	0.8675698063	0.2878341419	
693.75	0.9698765826	-0.4561865886	
694.375	0.2509396448	-0.6417600147	
695.0	0.8413956463	-0.2080576624	
695.625	0.8818479976	-0.2967447284	
696.25	0.575323361	0.409652721	
696.875	0.3686790001	0.5715520207	
697.5	0.9143899299	0.6185216465	
698.125	0.5855844738	0.029708763	
698.75	0.2759824651	-0.5239212152	
699.375	-0.7719763834	-0.4545584493	
700.0	-0.1218805944	0.5268303571	
700.625	-0.04961029465	0.4544912305	
701.25	0.6329524673	0.2963127194	
701.875	0.1551108549	0.1708667858	
702.5	0.4340858812	0.5155153151	
703.125	0.7176637265	0.00280376572	
703.75	0.2860095023	-0.003316586533	
704.375	0.5533398853	-0.1641202344	
705.0	0.2766219407	-0.3785142444	
705.625	0.2810004396	0.1327778272	
706.25	0.5176565638	0.3325252001	
706.875	0.3274645833	0.2721643225	
707.5	0.2419339729	0.4734902701	
708.125	0.6032848128	0.08373418173	
708.75	0.04885039307	-0.6090298944	
709.375	-0.3359090226	0.04913008703	
710.0	-0.3331810177	0.4439153827	
710.625	0.2117130553	0.02564977155	
711.25	0.01087049989	0.2686071458	
711.875	0.5113132001	0.03205365796	
712.5	0.189539944	-0.04593603879	
713.125	0.4898499486	-0.1175266031	
713.75	0.09860154571	-0.4569494351	
714.375	-0.04044007872	-0.1432111263	
715.0	0.1095189101	-0.3619951457	
715.625	-0.1660589049	-0.3156669109	
716.25	0.1608950429	-0.1685862701	
716.875	0.6188388229	-0.2349550628	
717.5	0.7003604512	-0.2596833473	
718.125	0.6071380042	0.2656886933	
718.75	1.321410673	-0.239929279	
719.375	0.5222308116	-1.0042167	
720.0	0.2197776192	-0.5861989527	
720.625	0.06455541239	-1.904884513	
721.25	-0.5130116447	-0.6717407833	
721.875	-0.07643164484	-1.379512379	
722.5	-1.424087121	-1.241708224	
723.125	-0.8185067308	0.2739771355	
723.75	-0.7217099418	0.2242856584	
724.375	0.2725628744	0.8037403143	
725.0	0.1811040772	0.09963254843	
725.625	-0.01278283333	0.7216245983	
726.25	0.3435235493	1.086806277	
726.875	0.1758683799	0.7726000297	
727.5	-0.7318079683	1.932909708	
728.125	0.8395898409	3.228001541	
728.75	0.4706477868	2.08971859	
729.375	-2.240378282	5.347745014	
730.0	3.138318347	5.801169906	
730.625	1.126050838	2.980147922	
731.25	-3.21822846	5.787885476	
731.875	-0.7832650173	5.41980954	
732.5	-0.9950874971	0.742228714	
733.125	-4.211077662	1.051380702	
733.75	-0.1467843216	2.313454517	
734.375	0.6405674822	0.158463424	
735.0	0.07608245479	-1.189025783	
735.625	-0.1412411067	0.9670110621	
736.25	-0.3680011564	0.392492844	
736.875	0.8158237625	1.008740091	
737.5	1.270344781	-0.5150531534	
738.125	1.101198411	0.4896020394	
738.75	3.64743463	-2.197468569	
739.375	1.107612001	-3.85532645	
740.0	1.261766951	1.16021555	
740.625	7.451312442	2.058465514	
741.25	3.561619003	-1.997711731	
741.875	-6.314302999	-2.528405399	
742.5	-5.362721947	-0.6556702181	
743.125	-0.1095336716	-0.7515433744	
743.75	0.9061045863	-1.792820743	
744.375	-0.8869390405	0.2946673766	
745.0	0.055121959	-0.1542633852	
745.625	0.215018267	-0.04692181579	
746.25	-0.08869635114	0.1052965764	
746.875	-0.2988562057	-0.07381243727	
747.5	-0.07016937388	0.5743550437	
748.125	0.2739834698	0.5722756451	
748.75	0.17374007	0.6515853391	
749.375	0.3573508139	0.797294514	
750.0	-0.4076614913	0.3321777369	
