!Created with skrf (http://scikit-rf.org).
# GHz S RI R (50+0j) 
!freq	ReS11	ImS11	
500.0	1.804655385	-2.435797135	
500.625	-0.7232482893	-4.344047083	
501.25	-0.8293323825	-2.006393756	
501.875	-1.623489019	-1.095926494	
502.5	-0.1253072418	-0.3141343315	
503.125	-0.2985394942	-0.03469824068	
503.75	0.3064235742	0.3321917351	
504.375	-0.04277698424	0.03761720494	
505.0	0.1817444439	-0.1624685575	
505.625	-0.1503421495	0.01301607457	
506.25	0.0199172812	-0.5566091475	
506.875	0.3228020671	0.7346474392	
507.5	0.1188102794	-2.224732935	
508.125	-1.454954444	-2.203222703	
508.75	1.317778855	-0.7930969017	
509.375	-0.2030384307	-5.916269561	
510.0	-1.940588354	0.1816588025	
510.625	-0.1616200489	-0.4049931368	
511.25	-0.3783872366	-0.3395207183	
511.875	-0.3903825152	0.003642671854	
512.5	-0.08441743374	0.09309505207	
513.125	-0.08379338932	-0.3975600463	
513.75	-0.1887008519	-0.07962333654	
514.375	-0.1392953845	-0.3744036424	
515.0	-1.522705869	0.4699760203	
515.625	2.434427092	-2.499994141	
516.25	-3.988327368	-2.120805764	
516.875	0.5880146959	-0.008158595505	
517.5	0.01523295904	-1.244357969	
518.125	0.01505241049	0.3759705619	
518.75	-0.1131109058	-1.085621058	
519.375	-0.03135951211	0.2463997425	
520.0	0.1378383853	0.2692268404	
520.625	0.6694182732	-0.1864507746	
521.25	-0.2212442152	-0.708774635	
521.875	-0.3067436285	-0.2486639554	
522.5	-0.09402686748	0.1718482985	
523.125	-0.2148629412	-0.02766901292	
523.75	-0.2434492097	0.1841764242	
524.375	-0.3124305415	-0.169724819	
525.0	0.01931708334	0.6617941434	
525.625	-0.06631626505	-0.04967462595	
526.25	0.1489997218	0.06502989418	
526.875	-0.3520117261	0.02239309093	
527.5	0.1977478654	0.7731034264	
528.125	0.005113979871	0.3682584883	
528.75	-0.1135102127	1.054719664	
529.375	0.273927466	-0.0457969462	
530.0	-0.07737636018	0.9387823662	
530.625	0.5321881508	0.5581376199	
531.25	1.02374227	0.6824953388	
531.875	0.4118266866	-0.8017123188	
532.5	0.3927378617	-0.3693493211	
533.125	-0.580165751	-0.04908486405	
533.75	0.8458115149	-0.6547062055	
534.375	-0.7852858175	-0.6029901221	
535.0	-0.2449397505	-0.3792374801	
535.625	-0.7009431349	0.4640726329	
536.25	0.07357507873	0.09478630338	
536.875	0.3018866428	0.2037089788	
537.5	0.1338270601	-0.2417875868	
538.125	0.1676437695	0.04515094336	
538.75	0.5233580902	-0.4265566155	
539.375	-0.2767844755	-0.2789602523	
540.0	-0.3076824496	-0.3857029734	
540.625	-0.4993365784	-0.0863869379	
541.25	-0.1400007948	0.07226003988	
541.875	-0.1336201846	-0.1448241561	
542.5	-0.1718588536	-0.0648065479	
543.125	-0.1035422146	-0.08506354134	
543.75	-0.3083176872	-0.1173224769	
544.375	0.03204693054	0.249587514	
545.0	-0.255640831	0.05263898211	
545.625	0.3910381475	0.17476895	
546.25	-0.06609443398	0.03573179205	
546.875	0.6359336226	-0.03540587271	
547.5	-0.1147095427	-0.2031229079	
548.125	0.1774197927	-0.4460153588	
548.75	-0.5183187322	-0.375560788	
549.375	-0.2122302704	0.0278790269	
550.0	-0.1744897143	-0.1799022487	
550.625	-0.1700227838	0.1621772916	
551.25	-0.1336572223	-0.05232941913	
551.875	-0.2584415443	0.2473873005	
552.5	-0.03379028571	0.1302143218	
553.125	-0.08908239698	0.2222294177	
553.75	0.1098257153	0.08267703948	
554.375	0.241548794	0.03815704698	
555.0	0.2576484494	-0.1836068391	
555.625	0.2040197262	-0.2632006649	
556.25	0.1710985118	-0.3398524013	
556.875	-0.06027766691	-0.4049653606	
557.5	-0.2486336747	-0.2661591708	
558.125	-0.2711557012	-0.08543328713	
558.75	-0.2634161321	-0.04113445286	
559.375	-0.2807531956	0.08259481646	
560.0	-0.204634565	0.1229664496	
560.625	-0.1879303978	0.3140987302	
561.25	0.1175448573	0.2203485037	
561.875	-0.04036679481	0.09029732673	
562.5	0.1262555585	0.2005997629	
563.125	0.07596845105	0.07077082712	
563.75	0.3905337965	0.13554885	
564.375	0.2657039159	-0.3614520928	
565.0	0.2118261105	-0.1863330366	
565.625	-0.1179865824	-0.5298343069	
566.25	-0.2064632335	-0.1072063679	
566.875	-0.3085034523	-0.3518427603	
567.5	-0.4857618198	-0.2143390311	
568.125	-0.2246559899	-0.2099382371	
568.75	-0.5384937895	-0.4621933259	
569.375	-0.7138066731	0.4613505322	
570.0	-0.05045521958	0.2958405961	
570.625	-0.5462624466	0.418502891	
571.25	0.3939412784	0.3419833394	
571.875	-0.2144994705	0.3154216457	
572.5	0.6029245169	-0.2365287234	
573.125	-0.06133710868	0.07557204159	
573.75	0.5215738424	-0.35991599	
574.375	-0.2616638557	-0.3291610971	
575.0	0.193138145	0.2014934004	
575.625	0.0919324229	-0.4889168033	
576.25	-0.1015675807	0.01725183272	
576.875	0.2660294923	-0.5433088187	
577.5	-0.2579544129	-0.4939224213	
578.125	-0.02125324933	-0.1100301306	
578.75	-0.04694177879	-0.5060245344	
579.375	-0.463019454	-0.1950184327	
580.0	0.07405160141	0.1250493928	
580.625	-0.3207244653	-0.3344733262	
581.25	-0.01961593923	0.4111072386	
581.875	-0.243519017	0.08569103474	
582.5	0.198643268	0.734128727	
583.125	0.2945224587	-0.2169390715	
583.75	-0.1243386277	0.4159458854	
584.375	0.3763882836	-0.2408042814	
585.0	-0.1217413541	0.4876379038	
585.625	0.7573005716	-0.02912456184	
586.25	0.16405074	-0.3595048298	
586.875	0.260456408	-0.01999793735	
587.5	-0.03072316392	-0.633481273	
588.125	-0.125662862	-0.00133853442	
588.75	0.3413449472	-0.4933276987	
589.375	-0.1046575389	-0.4157148324	
590.0	0.244140452	-0.3380108436	
590.625	-0.764021307	-0.1440412783	
591.25	-0.1027056429	0.292282218	
591.875	-0.1137863701	0.1169757333	
592.5	-0.2149077064	0.2168695909	
593.125	0.2463732774	-0.001140160661	
593.75	-0.2323075898	0.5268061611	
594.375	0.6930795972	0.02720769345	
595.0	0.0453740831	0.2247910835	
595.625	0.7058928625	0.5203990608	
596.25	0.1712424124	-0.2454829505	
596.875	0.3884836818	0.5322721512	
597.5	0.7292466432	0.03493202009	
598.125	0.02291500936	0.05376017758	
598.75	0.3983592779	0.4820210248	
599.375	0.6399955707	-0.2044670163	
600.0	0.2555258401	-0.2155000135	
600.625	0.5635625977	-0.423149824	
601.25	-0.007405048076	-0.512732026	
601.875	0.03946215047	-0.3188350595	
602.5	-0.4609211466	-0.01871719771	
603.125	-0.099137325	0.0414915523	
603.75	-0.3186563237	0.1216756755	
604.375	-0.2685072432	0.1438216264	
605.0	-0.1181888261	0.3780989433	
605.625	-0.1634196444	-0.1981475911	
606.25	-0.4884179107	0.5262314763	
606.875	-0.01309860676	0.07080530377	
607.5	-0.8996757258	0.2892589602	
608.125	0.3554991354	0.6432667293	
608.75	0.001001389837	0.4408749483	
609.375	0.996734877	-0.06394788311	
610.0	-0.0613543176	-0.2439306074	
610.625	0.5947773722	-0.2887374326	
611.25	-0.2567721626	-0.3778567983	
611.875	0.06882370082	-0.3219439606	
612.5	-0.559594216	-0.1146008549	
613.125	-0.2612748325	-0.1104905419	
613.75	-0.4334068944	0.5044657885	
614.375	0.2067682839	0.07941507733	
615.0	-0.008675912256	0.3965991959	
615.625	0.1986193652	-0.09278741372	
616.25	-0.4039897884	0.342761016	
616.875	-0.02186398605	0.7408451173	
617.5	-0.1568226278	0.1375462122	
618.125	-0.1769760531	0.7949787205	
618.75	0.2542093347	0.2940631869	
619.375	-0.0615296568	0.4891884178	
620.0	0.6300036636	0.01204593621	
620.625	0.2223304276	-0.1777245762	
621.25	-0.2473818278	-0.5499431927	
621.875	-0.3721020694	-0.1533933449	
622.5	-0.7161109846	0.0513331135	
623.125	0.2345092689	0.3536673806	
623.75	0.07857373702	0.4127153498	
624.375	0.05561344186	-0.4142937955	
625.0	0.2328873537	0.271730432	
625.625	-0.1346427431	-0.5628858713	
626.25	0.1896309703	-0.1134137752	
626.875	-0.5821297212	-0.5180719613	
627.5	-0.3352737415	0.2532612546	
628.125	0.0602584094	-0.3019395998	
628.75	-0.3487452898	-0.5293154606	
629.375	-0.2386729462	-0.1389246015	
630.0	-0.308795141	-0.3811604563	
630.625	-0.6666559509	0.2076155108	
631.25	-0.19439526	0.2810001124	
631.875	-0.2727424313	0.7363733214	
632.5	0.4560635754	0.3600988816	
633.125	0.3225484874	0.2022143273	
633.75	0.5523556736	-0.08175602948	
634.375	0.1422176794	-0.4605541088	
635.0	-0.06185622577	-0.1185874248	
635.625	-0.19461614	-0.5454874016	
636.25	-0.5567876236	0.4631314751	
636.875	0.1689140258	0.0118716179	
637.5	-0.5791106401	0.4956385135	
638.125	0.2673817158	-0.005928947815	
638.75	-0.6499988954	0.4370723024	
639.375	0.4643640869	0.7623019865	
640.0	-0.2348531724	0.2262505853	
640.625	0.7284197069	0.8084665438	
641.25	0.7744393895	-0.380333956	
641.875	0.1102695986	-0.2105727276	
642.5	0.4674887599	-0.5147606841	
643.125	-0.7329675173	-0.243810707	
643.75	0.08586256157	-0.2319801141	
644.375	-0.7525901893	-0.01128252122	
645.0	-0.01197937233	0.3181659457	
645.625	-0.339454064	0.5667345846	
646.25	0.7417979112	0.1635865193	
646.875	-0.003633286499	-0.1847673013	
647.5	0.09968546786	0.4575095869	
648.125	0.6793332232	-0.2719880633	
648.75	-0.05523403359	0.2594825032	
649.375	1.344005947	-0.7298690414	
650.0	-0.2719916889	-1.018120537	
650.625	0.5955529324	0.1140038957	
651.25	0.9974777772	-1.248131231	
651.875	-0.2689099017	-0.3250790372	
652.5	0.9535217273	0.4283839423	
653.125	0.9147024151	-0.7913796128	
653.75	-0.01170177694	-0.3550323041	
654.375	0.5537572299	-0.7387651288	
655.0	-1.126163475	-0.1583966646	
655.625	-0.01310126109	0.2979827296	
656.25	-0.4548677609	0.5099068485	
656.875	0.6382036032	0.05864864944	
657.5	-0.4250714275	0.4036077469	
658.125	0.6545691058	0.4612387274	
658.75	0.5908994565	-0.02094293144	
659.375	0.4799388497	-0.02667311008	
660.0	1.177775926	-0.7126194474	
660.625	-0.252778624	-1.078613314	
661.25	0.5081096471	-0.1239837224	
661.875	0.9260718304	-0.9009147919	
662.5	0.01640979993	-0.6017361206	
663.125	1.162147647	-0.002856158563	
663.75	0.1077159377	-1.133921534	
664.375	-0.009283691424	-0.2734447009	
665.0	-0.4209782735	-0.9613458116	
665.625	-1.042973766	0.4001846793	
666.25	0.03291470889	0.3897736768	
666.875	-0.029198652	0.6999060607	
667.5	0.7025434355	0.08959609119	
668.125	0.1840594603	0.233920572	
668.75	0.7329627298	-0.6235222133	
669.375	-0.0009432048097	-0.3606346843	
670.0	0.3028317765	-0.4035245766	
670.625	0.009077805631	-0.7337409593	
671.25	-0.1732630411	-0.3710178094	
671.875	0.4001495852	-0.0003502294102	
672.5	0.8288704932	-0.5583601303	
673.125	0.1286732093	-0.5810613956	
673.75	0.567752074	-0.05437753996	
674.375	-0.02736824445	-1.184430579	
675.0	-0.01280934354	-0.04398105679	
675.625	-0.398652878	-0.853968181	
676.25	-0.8084497041	0.3030756645	
676.875	0.3287537848	-0.2434535909	
677.5	-0.9618941807	-0.08538929526	
678.125	0.03702769828	0.4698281977	
678.75	-0.1780511502	0.2655563804	
679.375	0.6848384217	0.5753133831	
680.0	0.074114861	-0.572663893	
680.625	0.4153949097	0.1502387287	
681.25	0.3293083427	-0.3337058997	
681.875	-0.08964452929	0.1720454755	
682.5	0.8859378708	0.5257041194	
683.125	0.6370778155	-0.1813428511	
683.75	0.4503187888	0.1375520105	
684.375	0.4556416607	0.5106967607	
685.0	1.341730762	0.02804041231	
685.625	-0.1946700782	-0.3090716373	
686.25	1.545352782	0.5915749241	
686.875	0.2167111451	-1.021913548	
687.5	0.8654141771	0.1691159911	
688.125	-0.144990087	-2.035787558	
688.75	-0.2709762271	0.3861795034	
689.375	-1.524899256	0.1450972408	
690.0	0.7377267799	1.142250793	
690.625	0.1821167207	0.2732236262	
691.25	0.8167304329	1.104098774	
691.875	1.172761479	0.5024574716	
692.5	1.236170672	0.6665332544	
693.125	1.735971618	-0.001372068457	
693.75	1.249683299	-0.6559235961	
694.375	1.272778846	-0.9355311563	
695.0	1.002632041	-0.6570452422	
695.625	1.430128812	-0.1664207897	
696.25	1.008720114	-0.01182886585	
696.875	0.3643126889	1.478139345	
697.5	1.956418828	1.155542776	
698.125	0.4137444633	0.3856504727	
698.75	2.07292651	-0.9983630189	
699.375	-1.50472843	-0.4573025295	
700.0	-1.003728428	-0.1530938643	
700.625	0.7983380898	1.228922303	
701.25	0.0181190707	0.1215235318	
701.875	0.9846199588	1.189693627	
702.5	0.6826291944	0.11933194	
703.125	0.952184908	0.7231908734	
703.75	1.091798844	-0.6446474703	
704.375	0.3600327381	-0.02898153335	
705.0	1.171808692	-0.702304555	
705.625	0.1624301494	-0.1940285232	
706.25	0.6691010394	0.9457807691	
706.875	0.9966039041	0.25277375	
707.5	-0.05612005817	1.103417804	
708.125	1.671246337	0.4999892209	
708.75	0.2539222844	-0.8770569478	
709.375	-0.1829322874	-0.9836585693	
710.0	-0.7016237005	0.7876837544	
710.625	0.07165941925	0.18056267	
711.25	0.3231640917	0.4461889907	
711.875	0.4099103516	0.27231773	
712.5	0.7534553484	0.01973346713	
713.125	0.6604261621	-0.4438715546	
713.75	0.4433938687	-0.567034726	
714.375	-0.2356088847	-0.5571174817	
715.0	0.3945429168	-0.3113726768	
715.625	-0.3753513907	-1.073524879	
716.25	0.02095910695	0.0765063059	
716.875	1.641219288	-0.1505198014	
717.5	1.377322767	-1.483569274	
718.125	0.5479939171	1.767057265	
718.75	3.508487159	-0.816687941	
719.375	0.2002891147	-1.250562913	
720.0	4.207053153	-1.186841021	
720.625	-1.273753365	-3.837614518	
721.25	0.815483876	-1.261271395	
721.875	0.009942801558	-3.305783729	
722.5	-2.101855971	-2.420440216	
723.125	-1.331260131	-0.01729408992	
723.75	-1.645390973	0.7787946355	
724.375	0.4588902826	1.182049673	
725.0	0.1632445843	0.7110493836	
725.625	0.2845333079	1.456267822	
726.25	0.8365183743	1.709292822	
726.875	-0.3906742291	1.256484021	
727.5	-1.901267074	4.54966018	
728.125	3.025619178	6.988997668	
728.75	0.6720955812	0.9013249805	
729.375	-11.86830245	14.8530996	
730.0	9.680499136	9.776675436	
730.625	-7.573423591	3.970179484	
731.25	-4.353843896	25.09880063	
731.875	3.891919997	0.6612850913	
732.5	-14.51127894	-1.992828351	
733.125	-7.969881098	3.727607989	
733.75	-0.8407347099	2.889622196	
734.375	0.3215063457	1.763925902	
735.0	0.3856261505	-2.816100227	
735.625	-0.3066594771	0.5813593956	
736.25	-0.9141685145	1.287504616	
736.875	1.900074772	1.806176496	
737.5	0.6906839249	0.3108718384	
738.125	6.091555018	-0.3397893465	
738.75	3.847926067	-5.127257185	
739.375	0.02031585699	-3.940064143	
740.0	12.24695921	10.04979739	
740.625	25.35513778	-12.67361149	
741.25	-4.370244244	-13.30815374	
741.875	-18.63107929	-7.006519198	
742.5	-13.2642562	3.290916493	
743.125	8.717536442	-2.279329694	
743.75	-2.247291507	-6.633684238	
744.375	-0.1114270415	0.6192997818	
745.0	-0.6726269107	0.6235345479	
745.625	-0.1157962283	-0.3928590479	
746.25	0.3425510725	-0.1912274028	
746.875	-0.5807562409	-0.02573945193	
747.5	0.04293855567	0.7863774599	
748.125	0.1633894689	0.8376003128	
748.75	0.5722912065	1.621756856	
749.375	0.4228436572	1.041283386	
750.0	-0.844477902	-0.3098890534	
