!Created with skrf (http://scikit-rf.org).
# GHz S RI R (50+0j) 
!freq	ReS11	ImS11	
500.0	-0.1184943292	-0.5952085881	
500.625	0.5588900494	-0.7014531264	
501.25	-0.6330887047	-0.4697733951	
501.875	-0.0796472898	-0.1753091862	
502.5	-0.05372134108	-0.1664233679	
503.125	-0.02861978102	0.03519425131	
503.75	-0.04325655588	0.06011324874	
504.375	0.04201821348	-0.03368670339	
505.0	5.015310065e-06	0.01787848785	
505.625	0.01077815752	-0.09214722689	
506.25	-0.09220623194	0.03542199115	
506.875	-0.2164299142	-0.2009916959	
507.5	-0.3265774715	-0.04810533894	
508.125	0.4835462252	-0.4960521325	
508.75	0.3934617409	-1.170036496	
509.375	-0.4233847072	-0.6867966932	
510.0	-0.1267534704	-0.351728528	
510.625	-0.1694808189	-0.08476707075	
511.25	-0.05312860943	-0.002475809378	
511.875	-0.1156911146	-0.08387457616	
512.5	-0.0206751634	0.05866491557	
513.125	-0.02527269619	-0.01248573497	
513.75	-0.05453585972	-0.08166333526	
514.375	-0.04631161294	0.08637522654	
515.0	0.08053491177	-0.2097113466	
515.625	-0.2390327653	-0.07085847817	
516.25	0.4701345351	-0.5925815605	
516.875	-0.377262172	-0.6385024947	
517.5	-0.1590948477	-0.04057557883	
518.125	0.02121811497	-0.06723601338	
518.75	-0.05538940771	0.01139137477	
519.375	-0.04915545329	0.002888551165	
520.0	0.1133561912	0.0465337251	
520.625	0.0955039282	-0.09899866878	
521.25	0.005783865554	-0.2732542915	
521.875	-0.1644835011	-0.05889642979	
522.5	-0.02317573291	0.09155776241	
523.125	-0.02982363177	-0.04871443743	
523.75	-0.1773030472	-0.01960354663	
524.375	-0.02484440564	0.1002064391	
525.0	-0.140016951	0.06336033438	
525.625	0.1107197264	0.06963187424	
526.25	-0.09238939002	0.004475814259	
526.875	0.01789388163	0.05347502145	
527.5	-0.09732688856	0.07358815408	
528.125	0.03394966034	0.3299455473	
528.75	0.07160899772	0.08522312967	
529.375	-0.00354284283	0.07440555691	
530.0	-0.01489106833	0.0513400791	
530.625	0.09917879743	0.2255981438	
531.25	0.3828719373	0.1234101671	
531.875	0.1680846471	-0.1844610531	
532.5	-0.1324749201	-0.001683006254	
533.125	-0.01306670903	-0.1259929825	
533.75	-0.1036814152	-0.04941523204	
534.375	-0.032660001	-0.2858898796	
535.0	-0.2379569514	-0.002084831228	
535.625	-0.1020781015	0.06228986881	
536.25	-0.01841972089	0.1059055245	
536.875	0.08117639081	-0.02677154328	
537.5	0.06130443412	0.008098555369	
538.125	0.1143290289	-0.1077866445	
538.75	0.06041161918	-0.07027902407	
539.375	-0.03483760738	-0.1747300745	
540.0	-0.197348223	-0.1097375938	
540.625	-0.1178863482	0.01036215815	
541.25	-0.08054168606	-0.02860102462	
541.875	-0.05211446353	0.01862243352	
542.5	0.005721987694	-0.02848105856	
543.125	-0.1111059459	-0.02806505082	
543.75	-0.0112171037	0.04299803043	
544.375	-0.08389726057	0.01453092509	
545.0	0.0341641433	0.04004436349	
545.625	-1.854640983e-05	0.05607598117	
546.25	0.167711434	0.04038663337	
546.875	0.04818507394	-0.06572189158	
547.5	0.09774338296	-0.07577696096	
548.125	-0.09254368436	-0.1766338255	
548.75	-0.06481613674	-0.05350661462	
549.375	-0.1091082221	-0.1118271284	
550.0	-0.0615853332	0.05474512285	
550.625	-0.046280831	-0.03269684938	
551.25	-0.07383750226	0.07151404159	
551.875	-0.03297115112	0.04786940093	
552.5	-0.0555976142	0.05823441372	
553.125	0.004618708909	0.06284533001	
553.75	0.02937141996	0.03138484206	
554.375	0.09213680569	-0.006324247285	
555.0	0.07582698187	-0.06880480525	
555.625	0.0717809219	-0.0993488807	
556.25	0.0483840781	-0.1331820722	
556.875	-0.04130011635	-0.1364017203	
557.5	-0.09031631187	-0.08645949694	
558.125	-0.1104957964	-0.03282821528	
558.75	-0.1033798722	0.009248168278	
559.375	-0.08837441555	0.02523686247	
560.0	-0.0945855746	0.06724794721	
560.625	-0.02885074869	0.1161607852	
561.25	-0.006153321107	0.06258320877	
561.875	0.05263193136	0.06474793013	
562.5	-0.008852021229	0.01886790359	
563.125	0.08790091991	0.09446420861	
563.75	0.1097486722	-0.05303905002	
564.375	0.09104048993	-0.05100373486	
565.0	0.09939310378	-0.1598748649	
565.625	-0.08112525909	-0.1281140476	
566.25	-0.03871118298	-0.08441548931	
566.875	-0.1823850155	-0.08881945769	
567.5	-0.09520597599	-0.0268921267	
568.125	-0.1015507647	-0.2248726572	
568.75	-0.2453928381	0.008582450134	
569.375	-0.1202044021	0.02622484252	
570.0	-0.2041947803	0.2152237471	
570.625	0.04868923373	0.2051157102	
571.25	-0.04631279355	0.01567210389	
571.875	0.1124161363	0.1311031071	
572.5	0.02318419038	-0.05549088345	
573.125	0.1858391199	-0.0663539773	
573.75	-0.02649681075	-0.1831725571	
574.375	0.01060446783	0.03972537534	
575.0	0.06800464661	-0.1262016327	
575.625	-0.03538151766	0.01009939308	
576.25	0.1221179925	-0.08438552302	
576.875	-0.04991064176	-0.1981124412	
577.5	-0.0540426181	-0.07196683759	
578.125	0.04376471345	-0.1461055429	
578.75	-0.1813652867	-0.1707246523	
579.375	-0.03348115164	0.04044552926	
580.0	-0.04364454979	-0.1418424065	
580.625	-0.05427880282	0.1249834679	
581.25	-0.1032356163	-0.07742303021	
581.875	0.02804408305	0.3048233589	
582.5	0.1645047508	0.03288676546	
583.125	-0.06230782894	0.04658010837	
583.75	0.1416425942	0.08008740086	
584.375	-0.09731588407	0.007955838563	
585.0	0.1951572325	0.1074668583	
585.625	0.06631436339	-0.09699762776	
586.25	0.127040611	0.04011194384	
586.875	0.08211352425	-0.2306559656	
587.5	-0.07763160795	-0.04352563552	
588.125	0.06208734986	-0.1166202869	
588.75	0.02551546632	-0.2151998455	
589.375	-0.03158530028	-0.1100424082	
590.0	0.05109627302	-0.1732114831	
590.625	-0.2487167255	0.03272901965	
591.25	-0.03392659762	0.04856128762	
591.875	-0.141055893	0.1308663519	
592.5	0.1342377365	0.0444129852	
593.125	-0.1460914957	0.06631642323	
593.75	0.1650339309	0.07893532124	
594.375	-0.02478745055	0.06327685431	
595.0	0.1634702705	0.2033054442	
595.625	0.2439043943	0.02022614988	
596.25	0.0347982707	0.03113675186	
596.875	0.2244893417	0.04152692536	
597.5	0.09890300982	-0.008762738318	
598.125	0.09991885872	0.1585266126	
598.75	0.2228469389	0.02255308022	
599.375	0.123763617	-0.02747833675	
600.0	0.1789507168	-0.0898183149	
600.625	0.1349768524	-0.1879844488	
601.25	-0.01908188324	-0.1760442231	
601.875	0.01543104944	-0.06521504426	
602.5	-0.2095183487	-0.004591983118	
603.125	-0.004879392601	0.04946020206	
603.75	-0.1789841457	0.009381097213	
604.375	-0.02682875127	0.1951239454	
605.0	-0.04846658936	-0.04900147217	
605.625	-0.1297180349	0.1624426848	
606.25	0.0356537436	-0.01545301493	
606.875	-0.2375807465	0.007620499551	
607.5	-0.008181200071	0.2054218398	
608.125	0.009756053503	0.1340180679	
608.75	0.1633157227	0.1969831931	
609.375	0.1797184899	-0.08095637872	
610.0	0.07945358967	-0.08340438552	
610.625	0.1045595651	-0.1574537755	
611.25	0.02498647632	-0.1543326827	
611.875	-0.06085732627	-0.06532664827	
612.5	-0.09679655347	-0.1332759872	
613.125	-0.1965689028	0.1137533321	
613.75	-0.02979868293	0.03929773305	
614.375	-0.002344800718	0.187716786	
615.0	0.09351018533	-0.06594901238	
615.625	-0.1099606808	0.119410034	
616.25	0.07140567609	0.1893666951	
616.875	-0.09997007909	0.06614039758	
617.5	-0.03739727327	0.2869212752	
618.125	0.09084914886	0.1652046472	
618.75	-0.0166349784	0.08188037463	
619.375	0.1091260053	0.1563232545	
620.0	0.2153761093	0.1427079229	
620.625	0.06616497134	-0.1619972829	
621.25	-0.0523315152	-0.1696585116	
621.875	-0.1992472225	-0.01635520858	
622.5	-0.03519262979	0.08418537697	
623.125	-0.0698181376	0.2019662929	
623.75	0.1381999521	-0.02683715533	
624.375	-0.003397030202	0.03253591427	
625.0	0.05406171248	-0.1237183177	
625.625	0.008241129016	-0.01257261487	
626.25	-0.00100585216	-0.1733899526	
626.875	-0.1925893052	-0.04165444006	
627.5	-0.05283041885	-0.01810206366	
628.125	-0.1370073753	-0.1155257336	
628.75	-0.08818482777	-0.04394680401	
629.375	-0.0464535792	-0.1409497813	
630.0	-0.233861963	-0.07145178809	
630.625	-0.1989695143	0.1241708568	
631.25	-0.1213779894	0.1492403208	
631.875	-0.09719453022	0.2630174657	
632.5	0.2158789533	0.1367606492	
633.125	0.0416074192	0.01219782343	
633.75	0.2557523016	-0.04994580478	
634.375	-0.03445816653	-0.1047055436	
635.0	0.06842410152	-0.1421939553	
635.625	-0.2584320715	-0.02573752416	
636.25	-0.0333362855	0.05552490266	
636.875	-0.1710815724	0.1050229356	
637.5	0.06544801601	0.1490186804	
638.125	-0.06910613712	-0.01040387375	
638.75	-0.1002743164	0.2453016643	
639.375	0.129289764	0.1792100127	
640.0	0.03538701156	0.2001297731	
640.625	0.3167066384	0.1477919776	
641.25	0.1771645926	-0.1207490484	
641.875	0.1629248589	-0.08969883985	
642.5	-0.01529986412	-0.3191931264	
643.125	-0.1555667004	0.0194135032	
643.75	0.02147394839	-0.1527015736	
644.375	-0.3173418059	0.06483030601	
645.0	0.09461753789	0.08590463362	
645.625	-0.08756312594	0.2420296836	
646.25	0.3926419633	-0.06922468295	
646.875	-0.1165031306	-0.01693825461	
647.5	0.2062505394	0.07234405136	
648.125	-0.03308375543	-0.07089832608	
648.75	0.3977237472	0.08176349105	
649.375	0.1638497361	-0.4241834192	
650.0	-0.02014692226	-0.1769274344	
650.625	0.2660499034	-0.1729187161	
651.25	0.166678697	-0.4326646823	
651.875	0.03882479888	-0.08753714891	
652.5	0.3833431311	-0.02114782979	
653.125	0.159170774	-0.299328176	
653.75	0.1032317387	-0.06721120972	
654.375	-0.05260956881	-0.414462798	
655.0	-0.3322303219	0.07982866969	
655.625	-0.009706354928	0.08867263922	
656.25	-0.1350154573	0.2289485563	
656.875	0.2371947409	0.02101917677	
657.5	-0.1852795493	0.1324570148	
658.125	0.3386158252	0.1500832311	
658.75	0.14802609	-0.08559760039	
659.375	0.43814774	0.06394578307	
660.0	0.1138782742	-0.54038343	
660.625	-0.01398051808	-0.1335111671	
661.25	0.2705704108	-0.2623192869	
661.875	0.1164117707	-0.3727936937	
662.5	0.05412961954	-0.1577733738	
663.125	0.362054701	-0.1199868295	
663.75	0.02810278428	-0.385004811	
664.375	-0.02034681337	-0.156867395	
665.0	-0.284169881	-0.267160152	
665.625	-0.2342998586	0.2406743595	
666.25	-0.07897624954	0.1413966732	
666.875	0.1135484619	0.2772782652	
667.5	0.2275317377	-0.03166200191	
668.125	0.07021684795	0.04414853621	
668.75	0.325413874	-0.2069863013	
669.375	-0.07604584953	-0.2224092989	
670.0	0.08068045755	-0.1037063887	
670.625	-0.02569671031	-0.3510350643	
671.25	-0.1019212668	-0.0243641914	
671.875	0.2870352634	-0.1618765716	
672.5	0.07929700035	-0.2953082536	
673.125	0.09768053373	-0.05768334878	
673.75	0.2346614916	-0.2072925871	
674.375	-0.1033024178	-0.3414907564	
675.0	-0.06365561656	-0.05852857846	
675.625	-0.1987614466	-0.2043204259	
676.25	-0.210728667	0.1099125618	
676.875	-0.002996410541	-0.02543511152	
677.5	-0.2714442787	0.05559999535	
678.125	0.01210751762	0.1422960471	
678.75	-0.04190145518	0.1306130721	
679.375	0.2927299859	0.1393620269	
680.0	0.02644379444	-0.2641318314	
680.625	0.06086193867	0.1290164659	
681.25	0.2199418054	-0.1350770303	
681.875	-0.1254682909	-0.05871042203	
682.5	0.2077842663	0.3304048085	
683.125	0.3984050113	-0.1885181739	
683.75	-0.0602007148	0.1799031834	
684.375	0.4172404442	0.1461593545	
685.0	0.1614533254	-0.2479487225	
685.625	0.06899218673	0.1345328339	
686.25	0.4683126354	-0.1576941811	
686.875	0.07315803784	-0.2564561336	
687.5	0.2155975675	-0.2322457571	
688.125	-0.1048703447	-0.5098441429	
688.75	-0.3657596983	0.07556246875	
689.375	-0.2651399148	0.1595883207	
690.0	0.1626890716	0.343846918	
690.625	0.2468548367	0.05380270046	
691.25	0.1664914546	0.3326329727	
691.875	0.6604198987	0.2374181028	
692.5	0.3438898066	-0.07152571552	
693.125	0.5777342295	0.119729867	
693.75	0.6500945419	-0.4717860092	
694.375	0.07404714808	-0.1404727939	
695.0	0.5853653937	-0.1317844528	
695.625	0.2629197079	-0.3696572091	
696.25	0.2392166345	0.1674252893	
696.875	0.4334615444	0.4831886527	
697.5	0.263038298	0.1453934429	
698.125	0.5306860627	0.1540446505	
698.75	0.2733090732	-0.4893524661	
699.375	-0.4528825761	-0.2899966434	
700.0	-0.06093268945	0.2904311572	
700.625	0.03111489106	0.1216650359	
701.25	0.3018678163	0.104974924	
701.875	0.1367381473	0.1616091107	
702.5	0.3771761402	0.2789608082	
703.125	0.4586111694	-0.09935839009	
703.75	0.2314484265	-0.01475340102	
704.375	0.3635793772	-0.2109544788	
705.0	0.07857379868	-0.1932860479	
705.625	0.1414416292	0.1106926529	
706.25	0.2702102361	0.01498784497	
706.875	0.1452352377	0.140158426	
707.5	0.2344827624	0.3264271339	
708.125	0.4850966487	-0.06190502531	
708.75	0.2747131059	-0.4654380466	
709.375	-0.3109341407	-0.148814362	
710.0	-0.09047178969	0.290874253	
710.625	0.2267473596	0.1203226958	
711.25	-0.1343389236	0.1470236499	
711.875	0.3454678098	0.06037486247	
712.5	0.09511249322	-0.07855440244	
713.125	0.2934901741	-0.1378279736	
713.75	0.02174413188	-0.3534307966	
714.375	-0.03657329084	-0.09662954475	
715.0	0.03068153712	-0.2633668642	
715.625	-0.1110926764	-0.1766252604	
716.25	0.1531904373	-0.09639115596	
716.875	0.4012200104	-0.2205631637	
717.5	0.2926717355	-0.2204866802	
718.125	0.5024685389	0.1648299579	
718.75	0.7575991858	-0.3462384238	
719.375	0.4511379174	-0.6548325399	
720.0	0.3722267223	-0.5486771822	
720.625	-0.02385264624	-1.02641834	
721.25	-0.3800971948	-0.6323362568	
721.875	0.2611953813	-0.7542502552	
722.5	-0.913327029	-0.7549202438	
723.125	-0.4512325269	0.3841071087	
723.75	-0.4082509035	0.2410568821	
724.375	0.3597909456	0.6057824716	
725.0	0.119716102	0.05928797637	
725.625	0.01753241068	0.5504710068	
726.25	0.4307939983	0.60183084	
726.875	-0.06210670758	0.4150407547	
727.5	-0.2387057815	1.410417317	
728.125	0.8333297433	1.797854106	
728.75	0.2025505093	1.192101547	
729.375	-1.106068021	3.450969143	
730.0	2.078918967	3.482082479	
730.625	0.2561928593	2.040831533	
731.25	-0.9770980681	3.601148536	
731.875	-0.446409611	4.025869327	
732.5	-1.583875891	0.2429368244	
733.125	-2.956688219	0.7027758605	
733.75	0.09997827549	1.549122917	
734.375	0.2988101929	0.1282814898	
735.0	0.0776360514	-1.102361221	
735.625	-0.0445398005	0.5687248088	
736.25	-0.2760901575	0.2603101765	
736.875	0.7490280123	0.694155955	
737.5	0.5469943933	-0.5429950664	
738.125	1.045082498	0.4405884022	
738.75	2.149317575	-2.114619871	
739.375	-0.1704188927	-1.52538859	
740.0	2.251805868	1.017185626	
740.625	7.123446601	-1.878347306	
741.25	0.2546192673	-2.550503699	
741.875	-3.821021956	-1.412634763	
742.5	-2.533637782	-0.3600464112	
743.125	0.1161493073	-0.185377494	
743.75	0.2485043437	-1.186146991	
744.375	-0.5268925746	0.2712241143	
745.0	-0.008012935571	-0.02484135956	
745.625	0.1847687384	-0.07612026876	
746.25	-0.04160646278	0.02645779967	
746.875	-0.2239358467	-0.02105068505	
747.5	0.06202640832	0.3850954645	
748.125	0.174249228	0.2404355818	
748.75	0.1276733779	0.4703560036	
749.375	0.2577548043	0.4824570901	
750.0	-0.1689353645	0.06385893607	
