!Created with skrf (http://scikit-rf.org).
# GHz S RI R (50+0j) 
!freq	ReS11	ImS11	
500.0	-0.8099253681	-3.441893928	
500.625	1.469412085	-1.419900444	
501.25	-2.151176753	-1.661133924	
501.875	-0.7994840217	-0.6869258647	
502.5	-0.3024000242	-0.5926988767	
503.125	-0.2170779332	0.1960582983	
503.75	-0.03675137841	-0.02508569667	
504.375	0.1857092293	0.01481881683	
505.0	-0.1008416509	-0.06531539935	
505.625	0.1989369345	-0.199486287	
506.25	-0.4656997221	0.03059253641	
506.875	-0.2764300428	-0.8488138165	
507.5	-1.772132262	0.1249452982	
508.125	1.549000643	-1.063579982	
508.75	1.963941305	-4.345726363	
509.375	-2.710653405	-2.889809393	
510.0	-0.4007334237	-1.11130101	
510.625	-0.6593696797	-0.6597456504	
511.25	-0.1957757064	-0.05063653355	
511.875	-0.3936389303	-0.1227182942	
512.5	-0.005120324836	0.1966699079	
513.125	-0.084835669	-0.1692783278	
513.75	-0.1222618937	-0.2896768888	
514.375	-0.5327600833	0.006559298317	
515.0	1.427857936	-0.3410017028	
515.625	-2.939747686	-1.089339827	
516.25	1.514382174	-0.2357784357	
516.875	-0.9692365327	-2.77851056	
517.5	-0.755246283	0.2818977069	
518.125	0.05566247791	-0.4780648025	
518.75	-0.6076286789	0.2244936331	
519.375	-0.2277136635	-0.01778527929	
520.0	0.471662398	0.2039663704	
520.625	0.2709542263	-0.3088682255	
521.25	0.2190861508	-0.598268735	
521.875	-0.5588617643	0.1078954117	
522.5	-0.02849497957	-0.0666501862	
523.125	-0.1863547589	0.3071432187	
523.75	-0.04643535675	-0.1952154146	
524.375	-0.6053095962	0.3777286331	
525.0	-0.04587569378	0.01119711735	
525.625	0.06994836177	0.3646595176	
526.25	-0.1911632874	-0.2724944509	
526.875	0.02082925876	0.3024376326	
527.5	-0.1678298915	0.1583990384	
528.125	0.05769841039	1.129367264	
528.75	0.4907920543	0.3786773932	
529.375	-0.07278293824	0.3387032548	
530.0	0.431251965	0.2145526402	
530.625	-0.08470473234	0.9875182835	
531.25	1.146870974	-0.3659137477	
531.875	0.6334394583	-0.0331932792	
532.5	-0.7843353253	-0.5092168159	
533.125	0.8713862825	0.08434143588	
533.75	-0.4273997182	-0.731009532	
534.375	0.3284255588	-0.4700371052	
535.0	-1.175566262	-0.1537854202	
535.625	-0.06439412054	0.1493237293	
536.25	-0.1263286025	0.3180283482	
536.875	0.3098356726	-0.1426525948	
537.5	0.1117817353	0.05255393206	
538.125	0.447547578	-0.2352823471	
538.75	0.122883563	-0.3004855536	
539.375	-0.04942541466	-0.3904372887	
540.0	-0.4880253702	-0.3727622423	
540.625	-0.2869378879	0.01999958519	
541.25	-0.2316659547	-0.05169206954	
541.875	-0.1178152972	0.05574942701	
542.5	-0.0588687397	-0.1441403533	
543.125	-0.2722967135	-0.1422039753	
543.75	-0.1614329663	0.1723088095	
544.375	-0.1673650632	-0.1092568883	
545.0	0.13542922	0.3128973616	
545.625	-0.1236569178	-0.05111231796	
546.25	0.4981584889	0.2540984064	
546.875	0.01461326871	-0.2000117236	
547.5	0.3934482036	-0.1706354471	
548.125	-0.3652315798	-0.5008214707	
548.75	-0.08879262589	-0.102843221	
549.375	-0.257871237	-0.3285976119	
550.0	-0.2461469285	0.1571871993	
550.625	-0.02286431226	-0.1001406113	
551.25	-0.273376014	0.1675174458	
551.875	-0.06493330243	0.1062381924	
552.5	-0.1850641168	0.2161710994	
553.125	0.02556640375	0.1391298848	
553.75	0.09779415291	0.1409374096	
554.375	0.2331910065	-0.02774434253	
555.0	0.2067240087	-0.1590493607	
555.625	0.2014504855	-0.246995696	
556.25	0.149701148	-0.3509631113	
556.875	-0.1072454731	-0.3681471765	
557.5	-0.2184781385	-0.2285811113	
558.125	-0.2662333748	-0.1064290235	
558.75	-0.2575457983	0.01973282521	
559.375	-0.2228169577	0.02604644045	
560.0	-0.2678104079	0.195246938	
560.625	-0.0382302874	0.2512289229	
561.25	-0.06414767453	0.1856843793	
561.875	0.1436704405	0.160777573	
562.5	-0.02572958164	0.01825074192	
563.125	0.1913907435	0.2846623097	
563.75	0.2756330083	-0.1462819924	
564.375	0.3083649385	-0.06619818058	
565.0	0.1519854148	-0.4866413794	
565.625	-0.09676693807	-0.1863964681	
566.25	-0.215234213	-0.3855689364	
566.875	-0.4255364418	-0.06789657338	
567.5	-0.1610544378	-0.1889543974	
568.125	-0.3124673567	-0.5603096504	
568.75	-0.6532340118	-0.01069357583	
569.375	-0.2910466637	0.07677643982	
570.0	-0.6017053685	0.5840367248	
570.625	0.1953193555	0.4485694133	
571.25	-0.2995293047	0.08179849138	
571.875	0.523554281	0.2294005168	
572.5	-0.09541316386	0.1714277233	
573.125	0.5300037638	-0.4244117432	
573.75	-0.2141112612	-0.3650838053	
574.375	0.1680469786	0.1369625628	
575.0	0.09304800583	-0.4221986507	
575.625	0.02901193907	0.1645453475	
576.25	0.331968012	-0.4308895755	
576.875	-0.2985953471	-0.267047802	
577.5	0.2246018812	-0.1313636054	
578.125	-0.08716115278	-0.661384695	
578.75	-0.3662106626	-0.1197326742	
579.375	-0.01270958511	-0.02933138928	
580.0	-0.1723695128	-0.324961631	
580.625	-0.09858464217	0.2153704022	
581.25	-0.372704489	-0.1530896749	
581.875	0.1643229031	0.6294938332	
582.5	0.1795864527	-0.04178813794	
583.125	-0.119088667	0.4571782187	
583.75	0.4459991758	-0.2553799769	
584.375	-0.2743392371	0.4255851884	
585.0	0.6391671869	-0.002773071011	
585.625	-0.01240231063	-0.1415597445	
586.25	0.449103272	0.1329815403	
586.875	0.1446953744	-0.5985283194	
587.5	-0.01589260969	-0.03838285677	
588.125	0.1165055909	-0.5493339168	
588.75	-0.2177416258	-0.2728121141	
589.375	0.5029527424	-0.171361735	
590.0	-0.357419592	-0.508881614	
590.625	-0.1552483665	0.007641416952	
591.25	-0.4269812018	0.1233555224	
591.875	-0.1684973011	0.4045769121	
592.5	0.2693321306	0.07512012954	
593.125	-0.390681242	0.1824013874	
593.75	0.3997702916	0.1321201326	
594.375	-0.02029228521	0.3050696533	
595.0	0.7410283158	0.4131009722	
595.625	0.1444294878	-0.1234688511	
596.25	0.3992037531	0.4619409973	
596.875	0.6143166307	-0.2483406417	
597.5	-0.1621809629	0.2704946032	
598.125	0.5759213608	0.5416428334	
598.75	0.4480021617	-0.0309881452	
599.375	0.3330560589	0.09938443242	
600.0	0.5516342167	-0.4237574407	
600.625	0.1027755172	-0.3762371458	
601.25	0.3401613916	-0.3287256397	
601.875	-0.3273285582	-0.4128263003	
602.5	-0.07395098536	-0.05540276823	
603.125	-0.3874805772	0.1216623346	
603.75	-0.154190435	0.1552051617	
604.375	-0.2220073246	0.228584211	
605.0	-0.1769837064	-0.0493723009	
605.625	-0.2588052872	0.4186547486	
606.25	0.05096692723	-0.09626963731	
606.875	-0.8981575633	0.2294168299	
607.5	0.1000420582	0.4568573874	
608.125	-0.4588610618	0.3544011187	
608.75	0.8998818731	0.488017048	
609.375	0.04815643404	0.0005100610936	
610.0	0.7443194578	-0.2393549103	
610.625	-0.1284259168	-0.4840756136	
611.25	0.4135901236	-0.225136264	
611.875	-0.4979577887	-0.2128316277	
612.5	-0.1084731839	-0.2327195398	
613.125	-0.7013815791	0.1086193373	
613.75	0.1169324744	0.1608417947	
614.375	-0.1036729877	0.4993760419	
615.0	0.2709188895	-0.1704667127	
615.625	-0.3407040093	0.3644965833	
616.25	0.2963454093	0.3844917706	
616.875	-0.402833587	0.1177086585	
617.5	-0.1641520938	0.8161749912	
618.125	0.166202602	0.2194623679	
618.75	-0.1880089848	0.6049117274	
619.375	0.4307240779	0.2452404345	
620.0	0.253663775	0.2077289477	
620.625	0.2796383989	-0.485991086	
621.25	-0.08909794404	-0.3024243305	
621.875	-0.653620364	-0.2478276225	
622.5	-0.2077197565	0.1719965826	
623.125	-0.384423055	0.427264922	
623.75	0.5146474293	-0.1346442718	
624.375	0.03299168197	0.2747447425	
625.0	-0.135793655	-0.3943321816	
625.625	0.3111549863	0.04639561104	
626.25	-0.2914973572	-0.6084766443	
626.875	-0.125193085	0.2555709267	
627.5	-0.2634203743	-0.5454916005	
628.125	-0.4883043111	-0.03003322079	
628.75	-0.06680154604	-0.1072161945	
629.375	-0.07644237843	-0.4759338987	
630.0	-0.5983742797	-0.09387326974	
630.625	-0.3668830325	-0.02718679851	
631.25	-0.4108164869	0.5687899474	
631.875	0.1359931992	0.4478100731	
632.5	0.09606221734	0.5196838047	
633.125	0.6776074109	0.02210852838	
633.75	0.2444857326	-0.177828824	
634.375	0.1227563355	-0.1858875275	
635.0	0.1103919079	-0.4939957676	
635.625	-0.5782290836	0.06865973883	
636.25	-0.06264810754	-0.2670703869	
636.875	-0.3681704682	0.6624212301	
637.5	0.3010555432	-0.02603412928	
638.125	-0.6131292326	0.3258203434	
638.75	0.4085955003	0.2495806933	
639.375	-0.4996850824	0.4710634222	
640.0	0.7254502299	0.8260949155	
640.625	0.3976040802	-0.1278771556	
641.25	0.4129837087	0.3466029913	
641.875	0.7340519577	-0.6919000558	
642.5	-0.3885358856	-0.3631056519	
643.125	0.1006820272	-0.3140354503	
643.75	-0.6457854724	-0.1788829082	
644.375	0.06417694004	0.02251863056	
645.0	-0.6596668958	0.4804060129	
645.625	0.4076210952	0.387068181	
646.25	0.1143129361	0.09590086751	
646.875	0.4314102693	0.2620186654	
647.5	0.01371978179	-0.3989884407	
648.125	0.2496939139	0.5953985024	
648.75	0.9791805572	-0.5206024743	
649.375	-0.1729736379	-0.4729798826	
650.0	1.035523139	-0.2091986257	
650.625	0.04413416749	-1.441732	
651.25	-0.03396035943	0.07538739846	
651.875	1.298955812	-0.2861855307	
652.5	0.3294347752	-0.8969587816	
653.125	0.3123908807	0.2802546731	
653.75	0.7399719161	-0.8706577553	
654.375	-0.608813168	-0.4553350184	
655.0	-0.1824366533	-0.3531427441	
655.625	-0.866946199	0.7081605816	
656.25	0.4812562203	0.07179301841	
656.875	-0.244186626	0.2756253491	
657.5	0.4333192918	0.2377592487	
658.125	0.09386020909	0.07555307841	
658.75	0.6328122253	0.6009243518	
659.375	0.9033853052	-0.7424992287	
660.0	0.09177028383	-0.5086363102	
660.625	0.6297458886	-0.4918308582	
661.25	0.1960611226	-1.270739577	
661.875	0.1772064057	-0.00639500046	
662.5	1.019540901	-0.6558804203	
663.125	0.1863445528	-0.7742430725	
663.75	0.4266625933	-0.07589779353	
664.375	-0.1564997267	-1.301119431	
665.0	-0.7511144288	0.004158191266	
665.625	-0.477155831	-0.03904641185	
666.25	-0.41245132	0.8162480385	
666.875	0.4939745809	0.1583629314	
667.5	0.3108454792	0.5283304006	
668.125	0.5740371454	-0.3126530852	
668.75	0.1813082331	-0.1103934076	
669.375	0.5634435986	-0.6349799377	
670.0	-0.3883831522	-0.5548301907	
670.625	0.07225796389	-0.1630287788	
671.25	0.3010673506	-0.4172843307	
671.875	0.2863498499	-0.6845814862	
672.5	0.00928573088	-0.2705945901	
673.125	0.9357104332	-0.2651027109	
673.75	-0.06716307111	-0.6940067799	
674.375	0.2840262201	-0.273022412	
675.0	-0.3289760173	-1.002919941	
675.625	-0.4446927264	0.3933872779	
676.25	-0.1441536762	-0.6701601493	
676.875	-0.7583815432	0.4219693507	
677.5	0.1058811257	0.0920999785	
678.125	-0.6586233498	0.1696964549	
678.75	0.4761626915	0.7235739582	
679.375	0.1522287417	-0.01956300224	
680.0	0.5933460822	-0.02642620723	
680.625	-0.09426248528	-0.5636465149	
681.25	0.2341010015	0.4942125122	
681.875	0.5922567761	-0.2385009599	
682.5	0.2086618218	0.05848175554	
683.125	0.4583684739	0.3540180125	
683.75	0.8529420162	0.2865185745	
684.375	0.631605092	-0.4389516717	
685.0	0.1282340253	0.4558779716	
685.625	1.330984791	-0.01745900831	
686.25	-0.008991662483	-0.6699118868	
686.875	1.398327585	0.3790019058	
687.5	-0.2132672289	-1.52228998	
688.125	0.4719808704	-0.3012839625	
688.75	-1.557525077	-0.9318133494	
689.375	0.2158858843	1.199653376	
690.0	-0.5343922147	0.6032039613	
690.625	1.177229385	0.5834058842	
691.25	0.4516992762	0.2988570205	
691.875	1.009976756	0.9725346023	
692.5	1.535160539	0.08636435599	
693.125	1.271350899	0.1024281408	
693.75	1.386222014	-0.6745823338	
694.375	0.7701149054	-0.8885236699	
695.0	1.099530989	-0.7441166132	
695.625	0.8514246193	-0.3580579461	
696.25	1.412103824	0.8241548092	
696.875	1.364015592	0.05161932227	
697.5	0.2539547501	1.141502728	
698.125	2.3442188	0.2256958691	
698.75	-0.006517836263	-0.6029056066	
699.375	-0.9676630204	-1.558497911	
700.0	-0.1240387888	1.376781835	
700.625	-0.3612971745	0.2860947897	
701.25	1.275282449	0.4516863085	
701.875	0.15367962	0.2210889008	
702.5	0.9451205656	0.9853127824	
703.125	0.9076204053	-0.4014403489	
703.75	0.8782749406	0.3134544283	
704.375	0.7320739522	-0.927646368	
705.0	0.006340059485	-0.01834726264	
705.625	1.369673662	0.0885445207	
706.25	0.2391322486	-0.210256432	
706.875	0.287872424	1.198294596	
707.5	1.507720363	0.362386648	
708.125	0.3956438814	0.3914303254	
708.75	0.955603086	-1.261004173	
709.375	-0.9458545461	-0.2398734519	
710.0	-0.4341036441	0.3519242208	
710.625	0.2940344046	0.4581949483	
711.25	0.1171301309	0.1496332406	
711.875	0.6169758559	0.3277740105	
712.5	0.5993471314	-0.129449449	
713.125	0.6078320115	-0.5161077775	
713.75	0.1778766121	-0.4733246639	
714.375	0.2650257946	-0.6814196106	
715.0	-0.5020169734	-0.4631038555	
715.625	0.4094609961	-0.005747059851	
716.25	0.7024895327	-1.403656426	
716.875	-0.3529262757	-0.2652356872	
717.5	1.940726111	0.6829623821	
718.125	2.324915178	-1.492106526	
718.75	0.1720707294	1.216363574	
719.375	3.624363039	-3.003882909	
720.0	-0.6468461835	-1.024522065	
720.625	1.559983431	-1.917010798	
721.25	-0.8212153042	-3.588140747	
721.875	-1.713901215	-1.361307706	
722.5	-0.9138826106	-2.219593074	
723.125	-2.365214186	0.08601465177	
723.75	-0.301879155	1.096436414	
724.375	-0.266846338	1.015270031	
725.0	0.922815485	0.8784193874	
725.625	0.2270973857	0.7020044591	
726.25	-0.2409356756	1.592613167	
726.875	-0.008300378535	3.132417085	
727.5	2.056619008	2.064038219	
728.125	-3.693677456	4.332708967	
728.75	3.322007464	13.19753318	
729.375	3.481765522	3.089396107	
730.0	-13.11407085	15.91296618	
730.625	12.54330075	12.22833883	
731.25	-6.816371916	1.305999121	
731.875	-11.09931085	12.33023214	
732.5	-0.3536915299	7.485307093	
733.125	-6.401638139	-2.674127277	
733.75	-2.127953266	5.683762621	
734.375	2.308445937	-0.2952679713	
735.0	-0.07603111802	-0.6184819742	
735.625	-1.995737266	0.04621344811	
736.25	0.9676648325	0.6304402521	
736.875	0.5020590893	2.104790403	
737.5	3.531175434	-0.302162113	
738.125	1.708053703	-2.221719003	
738.75	5.60923951	0.5368881595	
739.375	10.41391505	-9.799792715	
740.0	-3.793881404	-13.54014076	
740.625	-0.006472697265	12.55607283	
741.25	14.10957447	22.76168167	
741.875	16.39919681	-0.05782392635	
742.5	-7.47974022	-17.21599505	
743.125	-6.26537069	-2.789035065	
743.75	2.253654351	-0.6756681706	
744.375	-2.992188725	-0.3369700367	
745.0	0.3065510676	-0.3460476739	
745.625	0.4113781261	0.09709903932	
746.25	-0.2811940762	-0.2895173386	
746.875	-0.2241578779	0.01122998619	
747.5	-0.3817541207	0.9032940984	
748.125	0.6391267311	1.227795787	
748.75	0.4741191374	0.6087342256	
749.375	0.8405093423	2.863730495	
750.0	0.06531336234	0.9792133957	
