!Created with skrf (http://scikit-rf.org).
# GHz S RI R (50+0j) 
!freq	ReS11	ImS11	
500.0	0.2241528403	-5.035063459	
500.625	-1.92646819	-2.273081639	
501.25	-2.41735001	-3.031925984	
501.875	-1.344803646	-0.5578592043	
502.5	-0.1861039433	-0.3785304561	
503.125	-0.2130803796	0.1435097255	
503.75	0.08019625832	0.006159927843	
504.375	0.1397314804	0.07240040584	
505.0	-0.05219434431	-0.1720405032	
505.625	0.110633357	0.02243270937	
506.25	-0.3736495164	-0.4037673662	
506.875	0.4465374237	-0.06296005601	
507.5	-1.385910114	-1.701521413	
508.125	0.5856296888	-0.01368967265	
508.75	3.143870154	-4.452059011	
509.375	-2.916038134	-2.983919843	
510.0	-0.4052647754	-0.09194032189	
510.625	-0.4415860128	-0.7379804716	
511.25	-0.4391847313	0.04231060035	
511.875	-0.2616899453	0.04126747903	
512.5	-0.1769586185	0.1522689565	
513.125	-0.1314459123	-0.2724411284	
513.75	-0.08187660238	-0.1199743185	
514.375	-0.3659869976	-0.04709761112	
515.0	0.5670895031	0.4401383478	
515.625	-1.313403498	-2.428005917	
516.25	-0.4435414118	0.8836869902	
516.875	0.4055876932	-2.472670986	
517.5	-0.9998953763	-0.5296098158	
518.125	0.3053829129	-0.1506116412	
518.75	-0.8596082763	-0.3689131906	
519.375	-0.07617369002	0.00322126513	
520.0	0.4262364285	0.2982062543	
520.625	0.3519238618	-0.3867862231	
521.25	0.03198312669	-0.3750571669	
521.875	-0.580780341	-0.1349935935	
522.5	0.01498973311	0.05664219064	
523.125	-0.2601699712	0.2312933473	
523.75	-0.01038434633	-0.06710831234	
524.375	-0.6582331302	0.1228702566	
525.0	0.1942486508	0.1666898953	
525.625	-0.06770933147	0.1972358704	
526.25	0.1019927308	-0.2212970433	
526.875	-0.1914983083	0.3645712825	
527.5	0.1128684783	0.2494374443	
528.125	-0.2188050629	0.86441092	
528.75	0.5651656797	0.744230728	
529.375	-0.1342457148	0.1564447768	
530.0	0.4635590017	0.4659826956	
530.625	0.04379058778	0.5826200252	
531.25	1.576010051	0.1098157348	
531.875	0.2369351835	-0.2120264335	
532.5	-0.2714270965	-0.7128136847	
533.125	0.3422531793	0.4880745249	
533.75	-0.06322210897	-1.10692023	
534.375	-0.1443227132	-0.1269302908	
535.0	-0.7946725977	-0.5892907692	
535.625	-0.118889677	0.543242363	
536.25	-0.1299745235	0.1836745163	
536.875	0.406197017	-0.02230679842	
537.5	-0.003619378833	-0.01486639478	
538.125	0.5045023987	-0.1049108369	
538.75	0.1340144927	-0.4197503186	
539.375	-0.06473413572	-0.2953550899	
540.0	-0.3891996513	-0.4131780795	
540.625	-0.4097078686	-0.01951097092	
541.25	-0.1548814129	0.05107949375	
541.875	-0.1641330342	-0.07348330743	
542.5	-0.04663376623	-0.08070907267	
543.125	-0.2381795019	-0.1389248066	
543.75	-0.1875865294	0.1092417616	
544.375	-0.06495456042	-0.03029671538	
545.0	-0.006160924034	0.2931570339	
545.625	0.1093725006	-0.1368779572	
546.25	0.2110515533	0.4112056369	
546.875	0.2782541922	-0.3337382228	
547.5	0.1485861427	-0.06138015913	
548.125	-0.09408181854	-0.6134935575	
548.75	-0.3161020239	0.002802548131	
549.375	-0.1264674076	-0.3082013382	
550.0	-0.2991660885	0.1155860121	
550.625	0.01841505227	-0.02764324191	
551.25	-0.3196132126	0.07708535634	
551.875	-0.04652785445	0.2177620909	
552.5	-0.1377751152	0.1226674453	
553.125	-0.003097206938	0.1990125772	
553.75	0.08948290035	0.09216468481	
554.375	0.2419517858	-0.003984865502	
555.0	0.2031049189	-0.1787149799	
555.625	0.1870187348	-0.2428565132	
556.25	0.1438313642	-0.3461105188	
556.875	-0.1010981332	-0.3754070244	
557.5	-0.2317524125	-0.2253081551	
558.125	-0.255735352	-0.09242312443	
558.75	-0.2714116353	0.002885609278	
559.375	-0.2134124188	0.07088466994	
560.0	-0.253348254	0.1442175864	
560.625	-0.06742525138	0.3148072646	
561.25	-0.01071996753	0.1258694442	
561.875	0.1012571911	0.2038184917	
562.5	0.03821739808	0.004885931653	
563.125	0.09233916792	0.2607769189	
563.75	0.4142107414	-0.09915435548	
564.375	0.1465765784	-0.1595828292	
565.0	0.2853936943	-0.3668395497	
565.625	-0.2112315702	-0.3131621346	
566.25	-0.1201516762	-0.269101632	
566.875	-0.4537356988	-0.1807861401	
567.5	-0.2290952467	-0.09301159358	
568.125	-0.2434269169	-0.5141078046	
568.75	-0.6934943508	-0.1001446905	
569.375	-0.2876820874	0.2922124538	
570.0	-0.506145853	0.2264780973	
570.625	-0.04092966822	0.7731867156	
571.25	0.02372912518	-0.07156408075	
571.875	0.2485057078	0.5127745296	
572.5	-0.06177163632	-0.2322518409	
573.125	0.5804319249	-0.1133476892	
573.75	-0.1203484882	-0.5549878063	
574.375	-0.03614053581	0.1777136613	
575.0	0.3105800301	-0.2850061401	
575.625	-0.2482621473	-0.09813963592	
576.25	0.377865041	-0.09055603366	
576.875	-0.1408447447	-0.5457565482	
577.5	-0.1295874336	-0.1138980204	
578.125	0.1441973253	-0.4752319788	
578.75	-0.4727221679	-0.3051512265	
579.375	-0.05213011478	0.02280615604	
580.0	-0.07997069645	-0.2882219746	
580.625	-0.2561769415	0.1692550227	
581.25	-0.08167728692	-0.107055403	
581.875	-0.2073728744	0.6303871265	
582.5	0.5151361016	0.2347678659	
583.125	-0.2097349276	-0.03521852413	
583.75	0.4974371771	0.3122535438	
584.375	-0.3788307229	-0.06418718773	
585.0	0.6132831485	0.3250590936	
585.625	0.152945666	-0.3576119757	
586.25	0.2625784623	0.2108303762	
586.875	0.3298877734	-0.5415098883	
587.5	-0.2788924531	-0.1321820119	
588.125	0.2260137393	-0.277592042	
588.75	-0.03851752517	-0.5801272292	
589.375	0.05382096184	-0.03305285812	
590.0	-0.0803211165	-0.7133240875	
590.625	-0.3597382166	0.1530089777	
591.25	-0.2923933537	0.03378669655	
591.875	-0.1784811754	0.3761307447	
592.5	0.1930637861	0.1773715474	
593.125	-0.3178149312	-0.05659076253	
593.75	0.4076883752	0.4213335635	
594.375	0.1161872617	-0.0665659375	
595.0	0.2939388327	0.6453358665	
595.625	0.691760505	-0.1760387345	
596.25	0.04326239763	0.3678727681	
596.875	0.7392150098	0.08609554978	
597.5	0.02792999474	-0.1774689752	
598.125	0.2859178126	0.696931841	
598.75	0.6200645924	0.03977148266	
599.375	0.2612160728	-0.09894968007	
600.0	0.5254167112	-0.1907315882	
600.625	0.2609832297	-0.5831249333	
601.25	0.1295126883	-0.2426899065	
601.875	-0.1599669868	-0.4749634588	
602.5	-0.1891632982	0.1264563969	
603.125	-0.3432605242	-0.02164409984	
603.75	-0.1797824432	0.2869486253	
604.375	-0.2308781736	0.1035925793	
605.0	-0.05294680621	0.1036330417	
605.625	-0.4342607483	0.1936847983	
606.25	0.08007184455	0.2663324311	
606.875	-0.5821949518	-0.2632481268	
607.5	-0.2257967791	0.9190683347	
608.125	-0.1522199861	0.1316894889	
608.75	0.5271089771	0.7997003198	
609.375	0.1900013244	-0.4725581964	
610.0	0.5630086709	0.09454543186	
610.625	0.06231497125	-0.6836502467	
611.25	0.0449231835	0.01868274394	
611.875	-0.3505879558	-0.5529818719	
612.5	-0.1685731053	0.02726692438	
613.125	-0.5986840758	-0.09941641391	
613.75	0.005637771357	0.4797579796	
614.375	-0.2266361768	0.1856594009	
615.0	0.4312585372	0.08402203726	
615.625	-0.3079735004	0.05322523863	
616.25	-0.002367225754	0.6828431395	
616.875	0.02040229167	0.05678963495	
617.5	-0.4449314404	0.6442631964	
618.125	0.2656882068	0.5199525083	
618.75	-0.1508891606	0.2467868694	
619.375	0.4073372074	0.4674052425	
620.0	0.2495700384	0.0183862477	
620.625	0.3622406767	-0.3995820167	
621.25	-0.2695042613	-0.2821636801	
621.875	-0.4357340773	-0.3137449437	
622.5	-0.3995554123	0.3305836539	
623.125	-0.2041485768	0.2258987361	
623.75	0.5563605157	0.15322679	
624.375	-0.2426196299	-0.02513913075	
625.0	0.4221982126	-0.4002787967	
625.625	-0.05394673803	0.1473903355	
626.25	0.06023650497	-0.6256820176	
626.875	-0.5606410756	0.1051805241	
627.5	0.1061122538	-0.234508822	
628.125	-0.5758561055	-0.3068389281	
628.75	-0.1721546095	-0.02830216047	
629.375	-0.03579628602	-0.3780854159	
630.0	-0.583145243	-0.2841223851	
630.625	-0.2974335887	0.2588218518	
631.25	-0.463891638	0.3679691422	
631.875	0.09997423727	0.6364601668	
632.5	0.2268184417	0.2861539908	
633.125	0.5857456176	0.261609439	
633.75	0.2664513633	-0.3082071979	
634.375	0.112946641	-0.2060422847	
635.0	0.07683536335	-0.3610559663	
635.625	-0.5869604912	-0.1735304323	
636.25	0.07637746581	0.2550097156	
636.875	-0.6500674937	0.1784417105	
637.5	0.292926912	0.455465812	
638.125	-0.3901426624	-0.168613471	
638.75	0.02427001178	0.8120168642	
639.375	-0.07370515493	-0.02342571082	
640.0	0.2835605256	1.001910174	
640.625	0.81636687	-0.1162797056	
641.25	0.1943434447	0.1667271082	
641.875	0.7957462234	-0.3220932453	
642.5	-0.3912824465	-0.7522941998	
643.125	-0.09036472869	0.04597859431	
643.75	-0.3304979614	-0.4256303372	
644.375	-0.4299583928	0.3055072319	
645.0	-0.3941542435	-0.02550832084	
645.625	0.3505403387	0.6987617914	
646.25	0.2010641035	-0.0617198856	
646.875	0.2030992969	0.2259342164	
647.5	0.3394047717	-0.2833986356	
648.125	-0.1021452154	0.3456982041	
648.75	1.105002933	-0.05273300163	
649.375	0.1363407678	-1.089227895	
650.0	0.09909353353	0.01459188404	
650.625	1.017488646	-0.9433807133	
651.25	-0.3408343746	-0.7859618707	
651.875	0.7258507483	0.2634079758	
652.5	0.9828527584	-0.8660808474	
653.125	-0.09518490947	-0.1096674073	
653.75	0.9662087961	-0.5526573484	
654.375	-0.6098636878	-0.8453413536	
655.0	-0.3440844462	0.2089920896	
655.625	-0.6380058807	0.01558809356	
656.25	0.3578200274	0.8157933115	
656.875	-0.1259374636	-0.2272142795	
657.5	0.2258886979	0.506383444	
658.125	0.4102291391	0.04309994922	
658.75	0.3511130252	0.363789915	
659.375	1.095126627	-0.520861188	
660.0	0.0543325564	-0.7601228373	
660.625	0.3642545933	-0.3783081799	
661.25	0.7233210075	-0.9050939472	
661.875	-0.1832527568	-0.8710190406	
662.5	0.7640379355	0.1181563781	
663.125	0.6633676075	-1.007797517	
663.75	-0.08486221855	-0.3389222768	
664.375	0.3496130133	-0.9759253602	
665.0	-1.071963761	-0.1712795681	
665.625	-0.2803439084	0.1386863362	
666.25	-0.4803471303	0.5655603398	
666.875	0.5736791579	0.5588571811	
667.5	0.08569579221	-0.01262583419	
668.125	0.8286917223	0.01574214333	
668.75	0.1465503767	-0.4634991527	
669.375	0.3458201235	-0.2331897799	
670.0	-0.09091564377	-0.8619889592	
670.625	-0.1900655385	-0.1130291915	
671.25	0.3338295946	-0.3675941961	
671.875	0.3790470408	-0.5709873902	
672.5	0.15622159	-0.5662901702	
673.125	0.3036259232	0.03907918567	
673.75	0.5813928228	-1.005059482	
674.375	-0.2573580463	-0.1845994308	
675.0	0.1067905124	-0.7593439834	
675.625	-0.9693266926	-0.07718949063	
676.25	0.2775737115	-0.09977555844	
676.875	-0.9774215013	-0.05099178089	
677.5	0.05259818679	0.4585601816	
678.125	-0.3795595307	-0.04697622634	
678.75	0.06175838123	0.8754387769	
679.375	0.6498399494	-0.2876310653	
680.0	0.1549579927	0.111885602	
680.625	0.4019007169	-0.3811973185	
681.25	-0.2367578029	-0.09498907696	
681.875	0.8009821686	0.3347360259	
682.5	0.3308307798	-0.1789161023	
683.125	0.3610061102	0.2957160321	
683.75	0.7278134268	0.3000884495	
684.375	0.8560418896	-0.2106353667	
685.0	0.05834351549	-0.176596642	
685.625	0.9820530611	0.704519114	
686.25	0.8213128534	-0.9777260239	
686.875	0.08773580867	0.284907043	
687.5	1.246556582	-1.492692476	
688.125	-0.6940869075	0.0178797838	
688.75	-0.8356660511	-1.126750983	
689.375	-0.5310727284	1.615656643	
690.0	-0.01082916933	-0.1109650073	
690.625	0.8775122627	1.280819971	
691.25	0.8141704007	0.09783759304	
691.875	0.7755631075	0.7195626268	
692.5	1.530134652	0.5181015805	
693.125	1.359660678	-0.3206232172	
693.75	1.379885442	-0.5225882749	
694.375	0.8106070041	-0.9658074748	
695.0	1.014123516	-0.6378516194	
695.625	1.053176234	-0.4817234639	
696.25	0.8341414069	0.4768635062	
696.875	1.641487084	0.7679186502	
697.5	0.535678769	0.2970488857	
698.125	1.781916518	0.974804557	
698.75	0.1396109118	-1.806466314	
699.375	-0.1078227911	-0.831125362	
700.0	-0.8307362118	1.528959451	
700.625	0.4794955488	-0.004216735672	
701.25	0.6494656221	1.143932604	
701.875	0.7203950837	-0.1065416981	
702.5	0.4452305009	0.8224000769	
703.125	1.423053778	0.02213757134	
703.75	0.3060275258	-0.1125736591	
704.375	1.15235889	-0.5180609826	
705.0	0.1125546262	-0.6151818274	
705.625	0.5660441479	0.5600588567	
706.25	1.129122409	-0.1123772992	
706.875	-0.02614653321	0.6023272928	
707.5	1.175968583	1.169604242	
708.125	0.6280775022	-0.5331130104	
708.75	1.094279883	-0.680099815	
709.375	-1.225000632	-0.47386477	
710.0	-0.06917472291	0.3871460213	
710.625	0.1829533313	0.4967481857	
711.25	0.2328660263	0.1591205541	
711.875	0.5068114278	0.2415024979	
712.5	0.7082635782	-0.1964402476	
713.125	0.6380098623	-0.3530075906	
713.75	0.1278049311	-0.6296917761	
714.375	0.154160519	-0.4084318161	
715.0	-0.2516497201	-0.7099880608	
715.625	-0.1341916182	-0.03973289775	
716.25	1.071900351	-0.5517325065	
716.875	0.4270108439	-1.52801089	
717.5	0.3613528839	0.963089042	
718.125	2.808271884	-0.06936976655	
718.75	0.7066112319	-1.769502804	
719.375	3.010780215	0.4426253577	
720.0	-0.7475259921	-3.99822777	
720.625	1.039112138	-1.18206527	
721.25	-0.04018182065	-3.597331411	
721.875	-2.142706561	-2.251238735	
722.5	-0.8299555504	-0.7982974362	
723.125	-2.278020469	-0.5900600382	
723.75	-0.605726461	1.496385997	
724.375	0.2359007907	0.7954937664	
725.0	0.1060061035	0.9916603928	
725.625	0.9527075618	0.9321910097	
726.25	-0.1125820713	1.081521108	
726.875	-0.4669715298	2.834241672	
727.5	1.426036227	4.223555593	
728.125	-0.8003201364	0.9398608189	
728.75	-5.056745474	11.47891992	
729.375	7.159195241	10.12725529	
730.0	-3.2726652	1.78046352	
730.625	-1.482381271	21.47205764	
731.25	7.245088741	1.042861523	
731.875	-12.35458376	4.691209195	
732.5	-9.318630802	8.866203632	
733.125	-1.033927357	1.386854263	
733.75	-3.946021797	4.194033848	
734.375	3.259382518	-0.434694531	
735.0	-0.4955342706	-0.7179342249	
735.625	-1.026768065	-0.3126622215	
736.25	0.2427640035	2.078361781	
736.875	0.5648315077	0.03398813074	
737.5	3.376915375	1.15599305	
738.125	3.813349415	-2.681216872	
738.75	1.014909575	-2.189824237	
739.375	11.33927373	-1.285205449	
740.0	7.38964973	-16.15225473	
740.625	-6.40134093	-0.1354140791	
741.25	-17.12833219	31.49194213	
741.875	2.494775037	15.89642869	
742.5	9.876441095	-8.526006048	
743.125	-1.716132267	-10.01282035	
743.75	-1.694573909	-0.301974586	
744.375	-1.162929747	-1.63893073	
745.0	0.9713998412	0.04147762638	
745.625	0.2264769555	0.3710131657	
746.25	-0.3727963181	-0.4293757019	
746.875	-0.2317286701	0.2372788071	
747.5	-0.3641740719	0.6925457469	
748.125	0.3351032239	1.515914975	
748.75	1.232909241	1.12056466	
749.375	0.1247731676	0.6089222643	
750.0	-1.432244969	1.000488286	
