!Created with skrf (http://scikit-rf.org).
# GHz S RI R (50+0j) 
!freq	ReS11	ImS11	
500.0	2.084982268	-1.945910097	
500.625	-0.05152422534	-4.5461507	
501.25	-0.9356813377	-0.592095054	
501.875	-1.307430946	-1.877354247	
502.5	-0.4895314718	-0.2072796688	
503.125	-0.09883177487	-0.04288814038	
503.75	0.08721012653	0.4388299355	
504.375	-0.05503218409	-0.06406629235	
505.0	0.22930649	-0.08746571024	
505.625	-0.2287485233	-0.03689861474	
506.25	0.2444125582	-0.3621644055	
506.875	-0.4679425921	0.9708634325	
507.5	0.9189134978	-0.6823986164	
508.125	0.2336159596	-3.048629867	
508.75	-1.068525841	-2.442821034	
509.375	1.68817858	-3.231171078	
510.0	-1.882535183	-0.05334637975	
510.625	-0.2268436755	-0.204777286	
511.25	-0.3578533825	-0.4585578822	
511.875	-0.4504174713	0.07498890099	
512.5	-0.07793164328	0.105424797	
513.125	0.02188866117	-0.2865722937	
513.75	-0.4513040017	-0.08686089184	
514.375	0.1259024936	-0.03818671072	
515.0	-0.992953088	-0.7586179029	
515.625	1.755067391	0.1420385232	
516.25	-2.634864874	-4.267299987	
516.875	-0.8427487384	0.7460740407	
517.5	0.502674165	-0.793690491	
518.125	-0.3669217293	0.2696414262	
518.75	0.3278769064	-0.7401093271	
519.375	-0.1720987541	0.2630055641	
520.0	0.1787714346	0.02995040037	
520.625	0.5779786228	0.0006382408513	
521.25	-0.3807710573	-0.8088928379	
521.875	-0.141002046	-0.04467909644	
522.5	-0.2538254328	0.111931899	
523.125	-0.01158492227	-0.1283559679	
523.75	-0.4494815941	0.1976713025	
524.375	-0.1126853514	-0.07996844939	
525.0	-0.2499058476	0.6196892023	
525.625	0.1790183074	-0.1768027557	
526.25	0.006098571476	0.1758222123	
526.875	-0.1282136802	-0.07696041808	
527.5	-0.2380063358	0.8746581845	
528.125	0.4346927941	0.3502847849	
528.75	-0.3347403983	0.6658564078	
529.375	0.3229792356	0.1057100648	
530.0	-0.312512674	0.6460045289	
530.625	0.7182833751	0.4795589029	
531.25	0.7908543152	0.5672924164	
531.875	0.6064352292	-1.07580775	
532.5	0.1437109014	0.09901955926	
533.125	-0.2758364587	-0.7198498846	
533.75	0.7049331696	0.03722631299	
534.375	-0.9862778725	-1.006268894	
535.0	-0.2380330615	0.01562125947	
535.625	-0.6728371355	0.1940100255	
536.25	0.1743702773	0.2550390302	
536.875	0.1047241291	0.1295828076	
537.5	0.2540318774	-0.1702141513	
538.125	0.0863044077	-0.1799940454	
538.75	0.4801947971	-0.1511995448	
539.375	-0.3547028968	-0.3967351458	
540.0	-0.2227176915	-0.2376683505	
540.625	-0.4234786692	-0.1328275134	
541.25	-0.2155884944	0.1066674322	
541.875	-0.05381845442	-0.03577557824	
542.5	-0.1538284937	-0.1959223503	
543.125	-0.2116342478	0.05582514358	
543.75	-0.1033967017	-0.1569516534	
544.375	-0.1459826571	0.2956635656	
545.0	-0.04166589745	-0.0971954981	
545.625	0.2675535572	0.3711198436	
546.25	0.07769827812	-0.1890871222	
546.875	0.3714044061	0.2151491475	
547.5	-0.01182286226	-0.5168991399	
548.125	0.0225066336	-0.1703914216	
548.75	-0.2865663413	-0.4508367297	
549.375	-0.3977140025	-0.03511114652	
550.0	-0.02422082655	-0.06146435507	
550.625	-0.2610356277	0.1007188872	
551.25	-0.04189848516	0.01089564936	
551.875	-0.2750962411	0.1817159486	
552.5	0.001554952976	0.2227711983	
553.125	-0.07197831237	0.1265950301	
553.75	0.1491467607	0.1103232917	
554.375	0.193374936	-0.01611266525	
555.0	0.2355358894	-0.1583023539	
555.625	0.1815435313	-0.2725323975	
556.25	0.1255495926	-0.3290750954	
556.875	-0.08713485021	-0.3722426648	
557.5	-0.2395095996	-0.235588672	
558.125	-0.2725039288	-0.06743693151	
558.75	-0.2278046263	-0.01285939654	
559.375	-0.2846586228	0.05147402933	
560.0	-0.1677261604	0.1986671905	
560.625	-0.1503824213	0.2030288856	
561.25	0.04658813373	0.3023816209	
561.875	0.06543920158	0.001002651111	
562.5	0.01011752151	0.2339940816	
563.125	0.1724378878	0.0192469302	
563.75	0.283352662	0.1361765338	
564.375	0.3358573872	-0.3622264611	
565.0	0.02705094706	-0.2335511492	
565.625	0.04437583989	-0.4057737784	
566.25	-0.3947190344	-0.200142488	
566.875	-0.1840120926	-0.1066085878	
567.5	-0.3456478883	-0.3920995294	
568.125	-0.4905829596	-0.2419078299	
568.75	-0.2854291337	-0.2388255197	
569.375	-0.7824886177	0.2768274419	
570.0	0.01109797534	0.526005544	
570.625	-0.2945768173	0.1231579467	
571.25	0.09680581699	0.6624223277	
571.875	-0.1394653367	-0.09785260008	
572.5	0.5938161722	0.136515533	
573.125	-0.1235805046	-0.4231149327	
573.75	0.2276905959	0.05709582804	
574.375	0.09886841409	-0.4937748591	
575.0	-0.1115799708	0.1606989375	
575.625	0.324550277	-0.3302435771	
576.25	-0.1996534379	-0.3256445992	
576.875	0.2545309592	-0.1115673277	
577.5	-0.003310740503	-0.6511840783	
578.125	-0.2970824888	-0.2140802055	
578.75	0.0193567373	-0.2012752712	
579.375	-0.2587240297	-0.3635977945	
580.0	-0.2097588072	0.1798390706	
580.625	-0.0743033634	-0.3304154795	
581.25	-0.3020060594	0.4452372886	
581.875	0.1361413379	0.02960711679	
582.5	-0.242100873	0.4489774671	
583.125	0.6326421497	0.2438033276	
583.75	-0.3358165366	-0.06899681098	
584.375	0.4956763052	0.3139657852	
585.0	-0.1630207033	-0.1168208447	
585.625	0.565404934	0.3125161013	
586.25	0.3056744336	-0.4740377201	
586.875	0.05806233372	-0.03306391773	
587.5	0.1322757758	-0.5344299101	
588.125	-0.3496872886	-0.2646265877	
588.75	0.3126000229	-0.09229837589	
589.375	0.2116444917	-0.6147173336	
590.0	-0.1712527778	-0.1258201733	
590.625	-0.3838842121	-0.29311667	
591.25	-0.348273897	0.4314780973	
591.875	0.0507635175	0.1693259393	
592.5	-0.1473967154	0.07335149489	
593.125	0.1306131682	0.1779482388	
593.75	-0.1775961649	0.2149769869	
594.375	0.651201206	0.4146703725	
595.0	0.2962496742	-0.1520378604	
595.625	0.140235723	0.5074550468	
596.25	0.831664942	-0.06307741681	
596.875	-0.1259539015	0.1091523202	
597.5	0.6150252626	0.4912549595	
598.125	0.3889629262	-0.08551717978	
598.75	0.1763663222	0.4289559351	
599.375	0.6783790236	-0.2139395905	
600.0	0.1539884243	-0.307449183	
600.625	0.4323969636	-0.2353533375	
601.25	0.17012941	-0.6253829673	
601.875	-0.1482342392	-0.1300423255	
602.5	-0.3440030885	-0.1385982471	
603.125	-0.1973694741	0.1553003299	
603.75	-0.2404571688	0.1830537919	
604.375	-0.1722766199	0.07234984652	
605.0	-0.2938838378	0.2606282955	
605.625	0.09942950755	0.07014515039	
606.25	-0.6040582881	0.08067327539	
606.875	-0.07983737002	0.4606595354	
607.5	-0.4686383896	-0.03455108236	
608.125	0.04568386707	1.067549969	
608.75	0.1816530861	-0.02990127419	
609.375	0.7529444018	0.2286406592	
610.0	0.2290471009	-0.6352816012	
610.625	0.311162379	0.03286694911	
611.25	-0.1106061293	-0.6553108097	
611.875	-0.03480244252	-0.05646790575	
612.5	-0.5005952813	-0.3934271649	
613.125	-0.1366988591	0.3270187339	
613.75	-0.4586189356	0.1785777962	
614.375	0.3705279566	0.3307282951	
615.0	-0.2785341747	0.03042246676	
615.625	0.3871442967	0.2880962952	
616.25	-0.2483667924	0.008229755344	
616.875	-0.3349095562	0.7041404039	
617.5	0.2168503374	0.3759082984	
618.125	-0.3605972827	0.4749054678	
618.75	0.3075569507	0.5244972162	
619.375	0.06527323871	0.2029631601	
620.0	0.5929269446	0.1812552242	
620.625	0.1121549727	-0.2926315429	
621.25	-0.1577953429	-0.5161962399	
621.875	-0.4510123605	-0.03191751197	
622.5	-0.4715045638	-0.0596444523	
623.125	0.08659509899	0.6367394509	
623.75	-0.04289885434	-0.004792687381	
624.375	0.4083026397	-0.3054097696	
625.0	-0.1296861113	0.2163683644	
625.625	0.3876098543	-0.4591939562	
626.25	-0.397833897	0.07539861799	
626.875	-0.02926041498	-0.5122452355	
627.5	-0.6242753921	0.01934615531	
628.125	-0.03232067349	0.03211284303	
628.75	-0.06308282273	-0.5071514425	
629.375	-0.4381371786	-0.2084990472	
630.0	-0.2185340149	-0.2593557438	
630.625	-0.6412091841	0.1241118526	
631.25	-0.1305868465	0.5524950484	
631.875	-0.1272100025	0.385040587	
632.5	0.4194007618	0.5509421951	
633.125	0.4669582195	0.01283808886	
633.75	0.2754866262	-0.1440286232	
634.375	0.2873293079	-0.2907014012	
635.0	-0.3275157613	-0.3348961556	
635.625	-0.01608838395	-0.2850207597	
636.25	-0.6311807668	0.2813622516	
636.875	0.2129310525	0.3123152146	
637.5	-0.4748906712	-0.1073278515	
638.125	0.2615059248	0.5741612509	
638.75	-0.3303986048	-0.06794945058	
639.375	-0.03369414536	1.002749535	
640.0	0.601567584	0.1954840134	
640.625	0.1374460767	0.3955927561	
641.25	0.9926332651	-0.02472401923	
641.875	0.0250178659	-0.5825634732	
642.5	0.2356185986	-0.2293279143	
643.125	-0.6049951563	-0.5731431262	
643.75	-0.003080463596	0.258927596	
644.375	-0.5969365275	-0.281142244	
645.0	-0.2201594781	0.6098638759	
645.625	0.1891034353	0.2036175744	
646.25	0.1542519829	0.4624004004	
646.875	0.5140201564	-0.3558794072	
647.5	-0.2483084521	0.2198929183	
648.125	0.7877703668	0.151406718	
648.75	0.0756388341	-0.5293386784	
649.375	0.9256377083	0.1051040858	
650.0	0.3250354195	-1.446518169	
650.625	-0.283406662	-0.204337122	
651.25	1.09810377	-0.2448354263	
651.875	0.454237759	-1.182743575	
652.5	0.05727366897	0.150199418	
653.125	1.090513537	-0.2080179002	
653.75	-0.008305673835	-0.8758217609	
654.375	0.08610511285	-0.2419794641	
655.0	-1.005298965	-0.601446819	
655.625	-0.01391864616	0.7358393344	
656.25	-0.1288228641	0.0163363286	
656.875	0.2465138854	0.5375093923	
657.5	0.06152732941	-0.1967699752	
658.125	0.2024073606	0.7409077776	
658.75	0.8956171605	-0.07747862609	
659.375	0.4213546323	-0.4055890779	
660.0	0.6562670919	-0.2803343022	
660.625	0.308193491	-1.353186858	
661.25	-0.1455865214	-0.2630307028	
661.875	0.9372088534	-0.4262352733	
662.5	0.495080868	-0.9794871727	
663.125	0.05672836557	-0.1146314368	
663.75	0.8674621813	-0.916077471	
664.375	-0.6483432281	-0.5392190166	
665.0	-0.1649794663	-0.4582483182	
665.625	-1.047524311	0.2370713225	
666.25	0.2014799117	0.6574820952	
666.875	-0.05757292899	0.4235778824	
667.5	0.6829486993	0.2875382253	
668.125	0.2476320335	-0.2963886993	
668.75	0.5658731576	-0.00942267172	
669.375	0.08293887341	-0.8552732887	
670.0	-0.07197827169	-0.2245934111	
670.625	0.1771890623	-0.4444482428	
671.25	0.04606495512	-0.6075017131	
671.875	-0.002818192038	-0.1969351882	
672.5	0.7637542423	-0.2333393871	
673.125	0.3018624927	-0.7489450725	
673.75	0.08969234929	-0.2094332839	
674.375	0.5223461917	-0.7326727729	
675.0	-0.8844996723	-0.4589448512	
675.625	0.2358420472	-0.2270874893	
676.25	-0.9398064938	-0.1732412684	
676.875	-0.009736820072	0.4874414145	
677.5	-0.4836103937	-0.436991869	
678.125	-0.1505887221	0.8836372433	
678.75	0.04702218976	0.1244486424	
679.375	0.4057904205	0.4559594921	
680.0	0.5288149274	-0.6049544413	
680.625	-0.2614840287	0.1247186937	
681.25	0.6092266501	-0.05625081246	
681.875	0.2332001844	-0.1719595593	
682.5	0.2119953435	0.2939334255	
683.125	0.7940477499	0.3117204333	
683.75	0.5966909689	-0.1928721401	
684.375	0.308784577	0.09339873438	
685.0	0.9079160982	0.4263667787	
685.625	0.6648434219	-0.819349259	
686.25	0.2619993696	0.7487019202	
686.875	1.230677301	-1.281734844	
687.5	-0.2555653849	-0.1311418318	
688.125	0.5297234088	-1.376145294	
688.75	-1.757983262	0.2844201841	
689.375	-0.2215427011	-0.101121806	
690.0	0.3286277097	1.551379796	
690.625	0.6036394328	-0.008471586366	
691.25	0.4023302057	0.9034788467	
691.875	1.486794731	0.5558785546	
692.5	1.041526002	0.2792825764	
693.125	1.563647493	0.002257859374	
693.75	1.245438133	-0.7427419402	
694.375	0.9422272451	-0.8148931741	
695.0	0.8803567845	-0.856945799	
695.625	0.9918173087	0.03983995261	
696.25	1.655240049	-0.05549145846	
696.875	0.4900501342	0.4111512021	
697.5	1.333944513	1.693534066	
698.125	1.186414122	-0.6721228441	
698.75	1.355293555	-0.4344919579	
699.375	-1.800649303	-0.9393025345	
700.0	0.2151042206	0.448027157	
700.625	0.1157505518	1.441628036	
701.25	0.594916051	-0.2026415769	
701.875	0.2063365947	0.8665265338	
702.5	1.396185768	0.3136116311	
703.125	0.3858253588	0.2825865916	
703.75	1.309420757	-0.2507214153	
704.375	0.1659904417	-0.7177624573	
705.0	0.9032307738	0.2515202718	
705.625	0.6689537824	-0.6844521559	
706.25	-0.00726625517	0.4769793042	
706.875	1.194440589	1.068134683	
707.5	0.4763583961	-0.03773771245	
708.125	1.290967018	0.647607195	
708.75	0.2779674299	-1.434392812	
709.375	-0.3938177602	-0.3560934799	
710.0	-0.6411869358	0.6245583462	
710.625	0.4574126237	0.1535612617	
711.25	0.1360100047	0.3930414947	
711.875	0.5565863305	0.09779949557	
712.5	0.8017327823	-0.04050465975	
713.125	0.4388356078	-0.5285636834	
713.75	0.3698940558	-0.3593404086	
714.375	-0.09415792146	-0.8578258452	
715.0	-0.2341814423	-0.003537496613	
715.625	0.5874806497	-0.8938182924	
716.25	-0.4955164183	-0.7761908136	
716.875	0.8734417627	0.4439999359	
717.5	2.329819928	-0.6394659378	
718.125	-0.1399822191	-1.082914087	
718.75	3.332543319	1.048390602	
719.375	0.8796512133	-3.007547747	
720.0	0.6393005076	-0.7942800214	
720.625	1.373319627	-3.675762148	
721.25	-1.855839593	-1.974934666	
721.875	0.235881456	-2.038455075	
722.5	-2.089854145	-2.077555987	
723.125	-1.966428092	0.6074665733	
723.75	-0.6937913285	0.6081242856	
724.375	0.05429420023	1.529893975	
725.0	0.653894681	0.5017431325	
725.625	0.1598386653	0.8400092084	
726.25	-0.1785181146	2.099600005	
726.875	1.487456595	2.543944338	
727.5	-1.444782688	1.523328341	
728.125	-0.1497715487	8.756296677	
728.75	6.413971428	6.209093546	
729.375	-6.520841908	1.038150784	
730.0	6.913046582	19.01663408	
730.625	3.932437684	1.140652082	
731.25	-10.13097582	8.600306068	
731.875	-1.54065868	16.53499619	
732.5	-1.422447294	-0.5392296144	
733.125	-9.264270845	1.64848852	
733.75	-0.2376084647	4.236339554	
734.375	1.384206904	-0.2460410738	
735.0	0.8829901227	-1.872579382	
735.625	-0.9443883867	1.576758011	
736.25	-0.6298014089	0.4803669067	
736.875	1.331490309	1.857172962	
737.5	3.280777381	-0.5963827928	
738.125	0.900892122	-0.808833761	
738.75	8.063307681	-1.82467658	
739.375	3.559201673	-9.565225843	
740.0	-4.464454888	1.273949964	
740.625	22.58225691	15.61586486	
741.25	14.27237294	-14.89048318	
741.875	-11.39821182	-8.739654076	
742.5	-15.21335043	-10.7865086	
743.125	-0.8795821435	1.89688548	
743.75	1.804664216	-4.141750396	
744.375	-1.969310568	1.354128118	
745.0	-0.05096824555	-0.1534372507	
745.625	0.4139932304	-0.1034591577	
746.25	-0.03177116589	-0.05718769908	
746.875	-0.6317308995	-0.1731705143	
747.5	-0.03211994863	1.130613853	
748.125	0.591799478	0.8095798352	
748.75	0.485049147	1.2082918	
749.375	0.1035276688	1.163354059	
750.0	0.08310029923	0.1566243387	
