!Created with skrf (http://scikit-rf.org).
# GHz S RI R (50+0j) 
!freq	ReS11	ImS11	
500.0	3.03280942	-2.699214308	
500.625	0.2058378817	-3.606203353	
501.25	-1.339699127	-1.237070677	
501.875	-0.659765153	-2.213261248	
502.5	-0.4966555011	-0.2483550538	
503.125	-0.1394225176	-0.06698770322	
503.75	0.1160993442	0.4688661749	
504.375	-0.05682571388	-0.0536380516	
505.0	0.2517737772	-0.09436261515	
505.625	-0.2208500588	-0.03251415977	
506.25	0.2742572532	-0.4330714248	
506.875	-0.4136132087	1.040727999	
507.5	1.028147992	-0.9216203014	
508.125	-0.05998881156	-3.13464355	
508.75	-0.9528911477	-2.25972197	
509.375	1.647650937	-3.665443949	
510.0	-2.935920584	-0.6807033121	
510.625	-0.03624302985	-0.3066327479	
511.25	-0.5298668108	-0.2859457736	
511.875	-0.4716627287	0.04974228061	
512.5	-0.02829202296	0.006117476879	
513.125	0.004921082002	-0.3561580355	
513.75	-0.4153805079	-0.1023755043	
514.375	0.1560817275	-0.1094068156	
515.0	-1.022964954	-0.449600462	
515.625	1.735671412	0.1524611443	
516.25	-3.202241035	-4.580502719	
516.875	-0.7479154166	0.6614822442	
517.5	0.5953446542	-0.8275553304	
518.125	-0.3812288121	0.3065102348	
518.75	0.4370040306	-0.8661815359	
519.375	-0.1666367021	0.2916145475	
520.0	0.1941107633	0.07047079297	
520.625	0.6331199551	0.004302647185	
521.25	-0.3613384148	-0.8763944598	
521.875	-0.1450318997	-0.08290766874	
522.5	-0.2613524346	0.08742061278	
523.125	-0.02516243697	-0.1214578471	
523.75	-0.4335155358	0.1267812442	
524.375	-0.1690340254	-0.0960063775	
525.0	-0.2572693684	0.6452787254	
525.625	0.1608743338	-0.1368220477	
526.25	-0.01858208957	0.1719024672	
526.875	-0.1340772441	-0.08898297241	
527.5	-0.24188529	0.9400414097	
528.125	0.4896168346	0.395677138	
528.75	-0.4349199305	0.7322747576	
529.375	0.3755374678	0.1008682365	
530.0	-0.3251694603	0.7547975608	
530.625	0.7155297847	0.6717403065	
531.25	0.7850590182	0.6500707239	
531.875	0.7508811682	-0.9473312791	
532.5	0.2075007225	0.05614258583	
533.125	-0.2113819354	-0.6603595975	
533.75	0.7595530744	-0.01628519358	
534.375	-0.8876494613	-1.100335389	
535.0	-0.2463429039	-0.08587277301	
535.625	-0.7102566264	0.1494658656	
536.25	0.1635507255	0.2742833186	
536.875	0.09928590296	0.1621994949	
537.5	0.2652216062	-0.1820335604	
538.125	0.08611010517	-0.1433304616	
538.75	0.559048527	-0.1897187531	
539.375	-0.3690918978	-0.3912422868	
540.0	-0.2102052894	-0.2921705144	
540.625	-0.4657345601	-0.16083843	
541.25	-0.2117784948	0.1073364293	
541.875	-0.05643650977	-0.06944609124	
542.5	-0.1799403222	-0.2030374736	
543.125	-0.1963325499	0.02245246012	
543.75	-0.145231728	-0.1631798665	
544.375	-0.1365337407	0.2926946977	
545.0	-0.07907256152	-0.08264072206	
545.625	0.2736829872	0.3743890546	
546.25	0.06618078583	-0.1648317008	
546.875	0.4262285083	0.241201242	
547.5	-0.02099926789	-0.510789661	
548.125	0.07127048696	-0.1932224227	
548.75	-0.303924779	-0.5043459128	
549.375	-0.4015929058	-0.02875019788	
550.0	-0.03816550691	-0.1045915992	
550.625	-0.2596397112	0.1118195723	
551.25	-0.05747763088	-0.01545940095	
551.875	-0.3116265052	0.1863778084	
552.5	-0.01024958639	0.212962812	
553.125	-0.09497533762	0.1393493754	
553.75	0.1476454184	0.1221595389	
554.375	0.2049495652	0.008789873305	
555.0	0.2642350982	-0.1535960625	
555.625	0.2091202178	-0.2729577981	
556.25	0.1597685053	-0.3357833943	
556.875	-0.06496787597	-0.3911575886	
557.5	-0.231066862	-0.2768615911	
558.125	-0.2793212583	-0.08476534975	
558.75	-0.2409493495	-0.03122497687	
559.375	-0.302579653	0.04279582456	
560.0	-0.1803536327	0.1814438599	
560.625	-0.1840837221	0.2135929407	
561.25	0.05399339993	0.3161204784	
561.875	0.0405005785	0.001974954884	
562.5	0.02851396849	0.2529093963	
563.125	0.146610043	0.03125470761	
563.75	0.3205178553	0.1655086595	
564.375	0.3518594732	-0.3704690449	
565.0	0.06510943539	-0.2141549211	
565.625	0.059046236	-0.4613806847	
566.25	-0.3902622922	-0.1873090125	
566.875	-0.1739866456	-0.1689057663	
567.5	-0.3951133378	-0.4120880999	
568.125	-0.4608108998	-0.233996617	
568.75	-0.3183395575	-0.3428051446	
569.375	-0.8225578479	0.2774859009	
570.0	-0.02882744869	0.5006718679	
570.625	-0.3767616975	0.122783243	
571.25	0.1288490287	0.6770426179	
571.875	-0.1797111975	-0.05600672768	
572.5	0.6407997288	0.1374517478	
573.125	-0.151976051	-0.3675168929	
573.75	0.3383635522	0.04285223878	
574.375	0.01180591561	-0.5298547887	
575.0	-0.04932934787	0.2027938878	
575.625	0.3238555325	-0.3867834565	
576.25	-0.2107373503	-0.2911745806	
576.875	0.2996043953	-0.1603200747	
577.5	-0.0221991513	-0.67404479	
578.125	-0.281008564	-0.2072689714	
578.75	0.05099217367	-0.2564311954	
579.375	-0.3118248991	-0.377776489	
580.0	-0.1327285716	0.1967850808	
580.625	-0.1506407327	-0.3514440498	
581.25	-0.2680989548	0.4458610937	
581.875	0.05024932585	0.02957780467	
582.5	-0.2285235448	0.5441278969	
583.125	0.656334877	0.1752898111	
583.75	-0.3502896741	-0.0242857362	
584.375	0.5260370494	0.2932109476	
585.0	-0.2040517784	-0.0488286166	
585.625	0.6423082514	0.3174656099	
586.25	0.2869049277	-0.4676409003	
586.875	0.1345377546	0.01092054607	
587.5	0.1121219937	-0.6059927329	
588.125	-0.3321764109	-0.2010323956	
588.75	0.3786357431	-0.1531543988	
589.375	0.1967184727	-0.6375960594	
590.0	-0.1111214943	-0.1302827797	
590.625	-0.4037818561	-0.3553125627	
591.25	-0.3778442884	0.4432057237	
591.875	0.01498294694	0.1507561393	
592.5	-0.166094304	0.1051588553	
593.125	0.1348104626	0.1385717136	
593.75	-0.1933624193	0.2962572867	
594.375	0.6881874571	0.3624152374	
595.0	0.2398148985	-0.09212507947	
595.625	0.2008968366	0.5783153526	
596.25	0.8000240822	-0.1210101945	
596.875	-0.1211391343	0.2000621055	
597.5	0.6795217425	0.485963708	
598.125	0.3448322962	-0.07244842887	
598.75	0.1867351485	0.5053696362	
599.375	0.7215010951	-0.2155795239	
600.0	0.181205078	-0.2626538217	
600.625	0.4996893019	-0.2521922905	
601.25	0.1799951967	-0.6392692276	
601.875	-0.1182796701	-0.1508557274	
602.5	-0.3763803336	-0.171840109	
603.125	-0.2110917481	0.1523037479	
603.75	-0.2658959412	0.1595393861	
604.375	-0.2308847405	0.0845079456	
605.0	-0.2780185056	0.272606219	
605.625	0.04577865049	0.03507032866	
606.25	-0.6421857746	0.1281899502	
606.875	-0.1057855352	0.4165036331	
607.5	-0.5323264115	-0.03820122015	
608.125	-0.01328569519	1.079664941	
608.75	0.1198846538	0.03700916856	
609.375	0.7978135225	0.3049336832	
610.0	0.2476105691	-0.6408132609	
610.625	0.3569560262	0.06439023532	
611.25	-0.1286264169	-0.6523010855	
611.875	-0.02170908158	-0.07984901032	
612.5	-0.5401382103	-0.4001087209	
613.125	-0.1449284745	0.259604347	
613.75	-0.4900125546	0.2142962779	
614.375	0.365100609	0.3180441888	
615.0	-0.2645344143	0.0906255821	
615.625	0.3875269583	0.2383572848	
616.25	-0.259861572	0.03374420199	
616.875	-0.3384263452	0.7613777824	
617.5	0.2137812736	0.3517421969	
618.125	-0.4260180071	0.5376837769	
618.75	0.2918702612	0.5768111726	
619.375	0.009728352145	0.2184324553	
620.0	0.6433331387	0.2411349604	
620.625	0.1412926964	-0.2828533186	
621.25	-0.1301161305	-0.5604928287	
621.875	-0.4750382957	-0.09350043261	
622.5	-0.5148899609	-0.08314644025	
623.125	0.05454977023	0.6187454456	
623.75	-0.007423317058	0.06845217242	
624.375	0.3910231857	-0.3255407659	
625.0	-0.1054447127	0.2204797259	
625.625	0.3987289541	-0.4942251704	
626.25	-0.3434936935	0.06701085276	
626.875	-0.08788191898	-0.58080233	
627.5	-0.6386379568	0.02163801568	
628.125	0.002112334255	0.01882028398	
628.75	-0.09624227752	-0.598054784	
629.375	-0.3917422441	-0.1581249505	
630.0	-0.20873059	-0.3603424343	
630.625	-0.707195294	0.1297511461	
631.25	-0.1691532956	0.5014368224	
631.875	-0.2349062499	0.4115031535	
632.5	0.4120511367	0.6040993027	
633.125	0.460377958	0.07221234621	
633.75	0.3143885744	-0.09762462255	
634.375	0.3424119392	-0.3125822273	
635.0	-0.2866877165	-0.3152548306	
635.625	-0.03643541161	-0.3547418414	
636.25	-0.6522108948	0.2643745985	
636.875	0.180392438	0.2911333287	
637.5	-0.5831319176	-0.05056101339	
638.125	0.2762828149	0.5097413492	
638.75	-0.4237974346	-0.06351527193	
639.375	-0.04226247109	1.060144102	
640.0	0.5451600988	0.2078876883	
640.625	0.0954686703	0.5529854879	
641.25	1.044339307	0.002488246184	
641.875	0.05736757554	-0.510127124	
642.5	0.3396792885	-0.2739489654	
643.125	-0.6551217915	-0.5925015353	
643.75	0.07211492358	0.1580767521	
644.375	-0.6547714054	-0.3126954014	
645.0	-0.2286420599	0.5954606436	
645.625	0.09496068263	0.2036512077	
646.25	0.2418797639	0.5657830517	
646.875	0.4425899637	-0.3890018037	
647.5	-0.2096472299	0.2815639418	
648.125	0.8014199969	0.1311362318	
648.75	0.03243108993	-0.4229605581	
649.375	1.12699026	0.02536664023	
650.0	0.266057568	-1.456175481	
650.625	-0.1781581043	-0.1022528548	
651.25	1.22866985	-0.3059813577	
651.875	0.4101010883	-1.206072277	
652.5	0.1489143713	0.3001387032	
653.125	1.209188267	-0.2007277989	
653.75	0.02760985994	-0.7998402204	
654.375	0.2722269343	-0.3017163547	
655.0	-1.094026898	-0.6793626088	
655.625	-0.0742152791	0.6695624195	
656.25	-0.2207207223	0.04145542384	
656.875	0.2773716893	0.579309758	
657.5	-0.03026801377	-0.2058246336	
658.125	0.2580475468	0.8249279049	
658.75	0.8697875155	-0.03028245288	
659.375	0.4838649286	-0.3115382942	
660.0	0.836203844	-0.2782645693	
660.625	0.217618222	-1.371363535	
661.25	0.02651812026	-0.2020892698	
661.875	1.026746112	-0.4915423676	
662.5	0.5339785444	-0.97305636	
663.125	0.1578906362	0.02621015942	
663.75	0.9574541583	-0.9826434459	
664.375	-0.5627391408	-0.5470046643	
665.0	-0.1238727405	-0.6059306519	
665.625	-1.151914893	0.2116120092	
666.25	0.1677463975	0.5755731778	
666.875	-0.09965219371	0.5491295666	
667.5	0.7089806319	0.3075564271	
668.125	0.2245600418	-0.2212987282	
668.75	0.6923702845	0.01390232397	
669.375	0.07658079912	-0.8528859191	
670.0	0.004943940355	-0.2406106586	
670.625	0.21561499	-0.4898335972	
671.25	0.02049247191	-0.626501364	
671.875	0.102608667	-0.1147324175	
672.5	0.8203339785	-0.3072593273	
673.125	0.3353082895	-0.6923656239	
673.75	0.195361492	-0.1688161204	
674.375	0.6257197834	-0.8168469742	
675.0	-0.837155539	-0.4396221349	
675.625	0.2703723475	-0.3959907892	
676.25	-0.954152825	-0.2215840081	
676.875	0.01379231358	0.4669885579	
677.5	-0.5661805727	-0.5363933048	
678.125	-0.1396409592	0.8725537069	
678.75	-0.07706925923	0.1405145048	
679.375	0.4593363654	0.5920296777	
680.0	0.5059019147	-0.6400362891	
680.625	-0.1473616798	0.2406874642	
681.25	0.6059245638	-0.1177787519	
681.875	0.2137648926	-0.1437728827	
682.5	0.2147234647	0.4056221597	
683.125	0.8748284136	0.3215824574	
683.75	0.5676566871	-0.1176998976	
684.375	0.3561242369	0.2110796506	
685.0	0.9656055771	0.459143178	
685.625	0.6041561309	-0.7121381282	
686.25	0.476912279	0.9087623092	
686.875	1.20310184	-1.198863759	
687.5	-0.04517470734	-0.09563591596	
688.125	0.7649776532	-1.412098849	
688.75	-1.756750974	0.1658767983	
689.375	-0.344641019	-0.205321656	
690.0	0.2502779985	1.665424625	
690.625	0.5369271897	0.05337015756	
691.25	0.3952612251	1.070332971	
691.875	1.507190052	0.5479665559	
692.5	1.048089096	0.4504500124	
693.125	1.653624481	0.1058465877	
693.75	1.374305714	-0.700644573	
694.375	1.069423282	-0.7999164766	
695.0	1.023671125	-0.7519013085	
695.625	1.137603591	0.08832393052	
696.25	1.645752158	0.02649435968	
696.875	0.4464605618	0.6078776844	
697.5	1.281656769	1.966460768	
698.125	1.235991018	-0.3271193183	
698.75	1.620735308	-0.1593734546	
699.375	-1.592297107	-1.24279685	
700.0	0.08084100204	0.4551689062	
700.625	-0.08012031807	1.536802477	
701.25	0.5559174999	-0.1500192388	
701.875	0.2014568013	1.001024009	
702.5	1.434336781	0.3986423958	
703.125	0.4272509342	0.422312718	
703.75	1.361212062	-0.232955645	
704.375	0.2085415944	-0.6364402141	
705.0	1.079753053	0.1745678996	
705.625	0.6660909423	-0.6228825561	
706.25	0.01213188368	0.6281233352	
706.875	1.213494324	1.145754261	
707.5	0.3394069253	0.1242146342	
708.125	1.177540357	0.9666974301	
708.75	0.5977662295	-1.424589405	
709.375	-0.204914982	-0.4769411373	
710.0	-0.9195593155	0.5404546921	
710.625	0.3931273654	0.1893299993	
711.25	0.07924803222	0.518321289	
711.875	0.5495432436	0.1095374285	
712.5	0.8415576377	0.01798028349	
713.125	0.5629490833	-0.4764768429	
713.75	0.4409959515	-0.3968843436	
714.375	-0.07606984078	-0.8550511266	
715.0	-0.139727969	-0.02303738727	
715.625	0.4884864572	-1.083471138	
716.25	-0.4369671897	-0.6450493432	
716.875	1.038787913	0.4458740834	
717.5	2.47829146	-0.7266402679	
718.125	-0.2547843001	-0.6644412081	
718.75	3.622870897	1.19713521	
719.375	1.145721928	-2.784484599	
720.0	1.046580333	-0.369305481	
720.625	2.000126585	-4.200129362	
721.25	-1.619053535	-1.64189984	
721.875	0.6977483358	-2.469196485	
722.5	-1.912147062	-2.47988087	
723.125	-2.00867643	0.3052680533	
723.75	-1.010449112	0.4508697106	
724.375	0.07832620583	1.625026248	
725.0	0.4993568522	0.5542980875	
725.625	0.1369810743	0.9589533	
726.25	-0.1142252387	2.269174815	
726.875	1.269867297	2.239956408	
727.5	-1.871843068	1.975602361	
728.125	0.1164572997	8.743965013	
728.75	4.22484957	4.139057998	
729.375	-10.72553179	2.565333427	
730.0	8.125481138	18.44699446	
730.625	2.469159508	0.4820426189	
731.25	-10.73465556	9.112438102	
731.875	-3.383696212	15.55938556	
732.5	-2.903407465	-3.553759877	
733.125	-10.47097113	0.6321577102	
733.75	-1.239670537	3.947305107	
734.375	1.121847649	0.3535612769	
735.0	1.323070399	-2.053817393	
735.625	-0.9159730627	1.393796977	
736.25	-0.8836234516	0.6318712243	
736.875	1.31641906	2.023073216	
737.5	3.296310973	-0.6643208265	
738.125	1.513896903	0.3246099297	
738.75	8.796966482	-3.131116713	
739.375	3.908919699	-10.3651636	
740.0	-1.775065641	3.004072969	
740.625	21.6076611	11.57271082	
741.25	14.63538517	-14.17297296	
741.875	-17.34738277	-15.37177002	
742.5	-21.9366004	-1.44383082	
743.125	-0.4685360519	3.023583735	
743.75	4.414635142	-6.933832225	
744.375	-1.970120588	1.040852387	
745.0	-0.22931789	-0.1447024885	
745.625	0.3851762107	-0.1062857129	
746.25	-0.1282295273	0.1080203582	
746.875	-0.449454708	-0.1782510544	
747.5	-0.05770520352	1.071071142	
748.125	0.3378355241	1.045311082	
748.75	0.1660794943	1.433656219	
749.375	0.6802117674	1.049539464	
750.0	-1.101690391	-0.3581365937	
