!Created with skrf (http://scikit-rf.org).
# GHz S RI R (50+0j) 
!freq	ReS11	ImS11	
500.0	-1.195284788	-5.053815488	
500.625	-0.812946302	-2.268206592	
501.25	-0.3884792342	-1.376070251	
501.875	-1.116198786	-2.644200494	
502.5	-0.498172043	-0.07918939222	
503.125	-0.2099378485	-0.09720473066	
503.75	0.2823486353	0.3053200423	
504.375	0.01196724133	0.07316270472	
505.0	0.07131187414	-0.2213687182	
505.625	0.04474938927	0.1326374026	
506.25	-0.3529329481	-0.6762383554	
506.875	0.2427540003	0.7001362511	
507.5	0.8291370327	-1.319779338	
508.125	-0.2317501235	-3.20111687	
508.75	-0.3546483228	-1.238080657	
509.375	0.1540328827	-6.439061669	
510.0	-1.473475545	0.7946711973	
510.625	0.0403038551	-0.771741116	
511.25	-0.6152045033	0.1600683862	
511.875	-0.204068191	-0.07356346082	
512.5	-0.08365388018	0.1493354167	
513.125	0.08705478519	-0.4075477283	
513.75	-0.3529785419	0.01378737062	
514.375	0.00611651775	-0.3300715212	
515.0	-0.9494208277	0.2581777244	
515.625	1.668904671	-2.09754057	
516.25	-3.638557749	-1.983716757	
516.875	0.6528074649	-0.08092900474	
517.5	-0.2347826655	-1.313409337	
518.125	0.05369759458	0.3120844395	
518.75	-0.1404456585	-0.8965912049	
519.375	-0.1002092924	0.2412710967	
520.0	0.1605640085	0.187503802	
520.625	0.7287877696	-0.2558049556	
521.25	-0.4042837556	-0.5410085637	
521.875	-0.1651102841	-0.2532082179	
522.5	-0.1976007191	0.2481162869	
523.125	-0.2725752882	-0.1430431279	
523.75	-0.1990631616	0.2006941812	
524.375	-0.4500807706	-0.2517882959	
525.0	0.1965031489	0.6548395032	
525.625	-0.1006997928	-0.07296330732	
526.25	0.1434491193	0.08339537126	
526.875	-0.3219245826	0.001466159603	
527.5	0.127162371	0.8471268225	
528.125	0.01408441922	0.3056765761	
528.75	-0.1393603323	1.042387487	
529.375	0.1604651026	-0.08875867859	
530.0	0.1909176596	0.9121132108	
530.625	0.2656476702	0.3203662111	
531.25	1.314497404	0.8325468499	
531.875	0.1461185459	-0.8846569548	
532.5	0.21204722	-0.2354669084	
533.125	-0.426548593	-0.1353333261	
533.75	0.7365364904	-0.6037661516	
534.375	-0.8140714767	-0.517964738	
535.0	-0.2177452987	-0.4131916746	
535.625	-0.6997242933	0.5217113045	
536.25	0.1077136954	0.1550221409	
536.875	0.2043340434	0.166925604	
537.5	0.2016128846	-0.2105938912	
538.125	0.1418936971	0.009904405495	
538.75	0.4998129422	-0.4598297777	
539.375	-0.2200273424	-0.1938983446	
540.0	-0.2230300332	-0.4971849571	
540.625	-0.5824457065	-0.001318502029	
541.25	-0.1266702153	0.06028744837	
541.875	-0.00833426107	-0.05987297644	
542.5	-0.228886162	-0.2148208609	
543.125	-0.08594101889	0.09407054117	
543.75	-0.2803692056	-0.1935170063	
544.375	0.02778295817	0.2476148968	
545.0	-0.1903854656	0.08389976437	
545.625	0.3532248947	0.1105378742	
546.25	-0.05684245089	0.08275329669	
546.875	0.615258729	-0.05508447223	
547.5	-0.1016814214	-0.2521840733	
548.125	0.1167822168	-0.3470658947	
548.75	-0.4293039895	-0.417761529	
549.375	-0.2488173396	0.03485288313	
550.0	-0.2017004761	-0.1608403839	
550.625	-0.09236970586	0.1666521715	
551.25	-0.1978246263	-0.08234832793	
551.875	-0.2092090668	0.3118283552	
552.5	-0.03215257654	0.1099714405	
553.125	-0.08828944896	0.1760774474	
553.75	0.1446227182	0.105280895	
554.375	0.2037842331	0.01147021054	
555.0	0.2555075984	-0.1706246392	
555.625	0.1857461902	-0.2680576368	
556.25	0.1612830532	-0.3320169527	
556.875	-0.08351553804	-0.3963952078	
557.5	-0.241910552	-0.2457767838	
558.125	-0.2608131412	-0.08741867348	
558.75	-0.2613613475	-0.0333118724	
559.375	-0.2836807752	0.0773185359	
560.0	-0.1832068949	0.1589032281	
560.625	-0.1794330815	0.2477825135	
561.25	0.09276834286	0.2713748475	
561.875	-0.02840256348	0.06679110694	
562.5	0.1460305571	0.1493215124	
563.125	0.02881322854	0.1743657207	
563.75	0.4584288954	0.04371299296	
564.375	0.1674645502	-0.3390892838	
565.0	0.2054752097	-0.1801633407	
565.625	-0.03289786732	-0.4936783687	
566.25	-0.3655084456	-0.1509983645	
566.875	-0.1651880496	-0.2040703952	
567.5	-0.4693380788	-0.371447641	
568.125	-0.2880582792	-0.1663105916	
568.75	-0.5733729954	-0.4182580289	
569.375	-0.5345757825	0.4220133185	
570.0	-0.2232511675	0.24221753	
570.625	-0.4638262539	0.5150231199	
571.25	0.3888990547	0.323682661	
571.875	-0.2202196593	0.258207285	
572.5	0.6096133862	-0.1279030108	
573.125	-0.09002790266	-0.1251336866	
573.75	0.4463034925	-0.1855345261	
574.375	-0.2625831454	-0.306618629	
575.0	0.2890938528	0.1412639676	
575.625	-0.05906148289	-0.4413517813	
576.25	-0.03327908909	0.06679361973	
576.875	0.2694370784	-0.5200740001	
577.5	-0.2233932312	-0.5164957342	
578.125	-0.1197618545	-0.1328110861	
578.75	0.003096892247	-0.3970972587	
579.375	-0.446878598	-0.2209606627	
580.0	0.0974981372	0.06788835796	
580.625	-0.3720105164	-0.2082789879	
581.25	0.01430465234	0.261761112	
581.875	-0.2635045971	0.1756081674	
582.5	0.1588648514	0.7098694483	
583.125	0.4108107369	-0.1906091998	
583.75	-0.2786183395	0.3301764868	
584.375	0.4757459704	-0.1784627338	
585.0	-0.1264180397	0.3632565608	
585.625	0.7336474199	-0.1189593854	
586.25	-0.007555398141	-0.2126961218	
586.875	0.5243558567	-0.1656466477	
587.5	-0.2776646736	-0.5219643866	
588.125	-0.01843111504	-0.001648092046	
588.75	0.3702735896	-0.4334129709	
589.375	-0.009513827426	-0.5610499301	
590.0	0.01778488544	-0.2277708641	
590.625	-0.4793081971	-0.2974809681	
591.25	-0.1983572341	0.3726579776	
591.875	-0.1309493389	0.126507911	
592.5	0.02613795979	0.2609288194	
593.125	-0.1059865198	-0.06551388882	
593.75	0.1327156067	0.4978725934	
594.375	0.5152985108	0.02377181261	
595.0	0.03813413969	0.1136868101	
595.625	0.5058579488	0.6827123553	
596.25	0.4010185884	-0.3743350182	
596.875	0.1194631947	0.4379411949	
597.5	0.7060838172	0.1290010708	
598.125	-0.03276001224	0.09145580675	
598.75	0.7244927992	0.5236724044	
599.375	0.2599196361	-0.3217276048	
600.0	0.4172972974	-0.0603576283	
600.625	0.5346343017	-0.4786512434	
601.25	-0.03024894504	-0.5146545389	
601.875	-0.04133592747	-0.2813027575	
602.5	-0.3163620681	-0.08109822867	
603.125	-0.3018153313	0.1035621286	
603.75	-0.1487825005	0.1641437842	
604.375	-0.2829921521	0.1001080456	
605.0	-0.1506848167	0.2595706572	
605.625	-0.1440341792	-0.02548204247	
606.25	-0.3689061972	0.3299237824	
606.875	-0.09577371906	0.06896562536	
607.5	-0.8784812334	0.3189081063	
608.125	0.4285021305	0.6155536483	
608.75	-0.02261577357	0.4245371603	
609.375	0.9436938248	-0.06657434579	
610.0	-0.02316834385	-0.2480257891	
610.625	0.5938741436	-0.3654082515	
611.25	-0.2744417047	-0.3897729027	
611.875	0.1391484085	-0.2780721085	
612.5	-0.7239336197	-0.08662128523	
613.125	-0.1438819773	-0.02083470166	
613.75	-0.4517555021	0.416803059	
614.375	0.309579384	0.02633787049	
615.0	-0.05727404768	0.4359548579	
615.625	0.199772471	-0.09013367142	
616.25	-0.4405924267	0.3709658172	
616.875	0.06713566521	0.726877624	
617.5	-0.1974696846	0.08327184613	
618.125	-0.1850219008	0.8148058168	
618.75	0.2664724561	0.2864992097	
619.375	-0.02623703804	0.4384633389	
620.0	0.5653054864	-0.009082207056	
620.625	0.2588092324	-0.1850728549	
621.25	-0.2592467682	-0.5360483545	
621.875	-0.3348904113	-0.1390884494	
622.5	-0.6454423174	0.05124636441	
623.125	0.0764471506	0.3690866554	
623.75	0.1775173692	0.3012808364	
624.375	0.04757485039	-0.4247577351	
625.0	0.1754931301	0.2955859666	
625.625	0.003396559127	-0.6503964635	
626.25	0.1163690509	0.06501091436	
626.875	-0.422479015	-0.5349955891	
627.5	-0.388681853	0.2064039682	
628.125	0.04627312568	-0.3196354824	
628.75	-0.5242173224	-0.3369151216	
629.375	0.02401730727	-0.1644657241	
630.0	-0.5021445531	-0.4444746314	
630.625	-0.5957992545	0.3118835821	
631.25	-0.1496351193	0.3173335604	
631.875	-0.2322680581	0.5599234664	
632.5	0.3555570535	0.5158184471	
633.125	0.5269810767	0.03551514558	
633.75	0.2696568894	-0.03648036982	
634.375	0.2150629895	-0.504888957	
635.0	0.006396993761	-0.1334479401	
635.625	-0.3640392311	-0.3756260491	
636.25	-0.320692902	0.3560348024	
636.875	-0.1121891602	-0.08272557755	
637.5	-0.343515427	0.6007677927	
638.125	0.2644177934	-0.03506640943	
638.75	-0.638708315	0.2838595448	
639.375	0.2462809115	0.861005419	
640.0	0.3239659676	0.2063399006	
640.625	0.4275952074	0.7230099316	
641.25	0.8273148677	-0.2971259553	
641.875	0.2696319464	-0.06907178647	
642.5	0.2207582227	-0.899233391	
643.125	-0.4673570789	0.1670562928	
643.75	0.03992126863	-0.3783625173	
644.375	-0.7720993792	0.02370689034	
645.0	-0.1218855061	0.4781513797	
645.625	-0.05348133091	0.1550429264	
646.25	0.5489922118	0.5925209402	
646.875	0.1352217548	-0.3992550757	
647.5	0.08325030443	0.4691429045	
648.125	0.4795833994	-0.3725781109	
648.75	0.3362795566	0.4367332414	
649.375	0.9707202805	-0.9416547258	
650.0	-0.273678487	-0.8272205014	
650.625	0.5373746177	0.08580504987	
651.25	1.060607914	-1.076032545	
651.875	-0.1673308869	-0.6460052598	
652.5	0.7245595661	0.3815164336	
653.125	0.9184638936	-0.7159027538	
653.75	0.01707615245	-0.2053229565	
654.375	0.3522581437	-1.088141904	
655.0	-0.9931836605	0.05821879445	
655.625	0.0114247339	0.2410884325	
656.25	-0.4298178145	0.4590980703	
656.875	0.5624065724	0.2559227836	
657.5	-0.3692240368	0.09499404108	
658.125	0.5783626942	0.591736008	
658.75	0.627011671	-0.05403544887	
659.375	0.5531914066	0.009231072466	
660.0	0.8865657584	-1.009394768	
660.625	-0.1532041329	-0.6216207416	
661.25	0.6463855885	-0.3289187963	
661.875	0.8065670409	-0.9122651892	
662.5	0.05452814212	-0.7681193599	
663.125	0.7233372277	0.2190394593	
663.75	0.3692600648	-1.224555364	
664.375	-0.1840162512	-0.2588033074	
665.0	-0.523591077	-0.9925049265	
665.625	-0.6305002939	0.7011922834	
666.25	-0.3675944821	0.1724488998	
666.875	0.2483776652	0.8021914181	
667.5	0.6210952268	-0.01352823922	
668.125	0.1325416403	0.08768064553	
668.75	0.8151128342	-0.2791038363	
669.375	-0.029176773	-0.621331016	
670.0	0.09344664506	-0.319269116	
670.625	0.1019075478	-0.65047772	
671.25	-0.1505892037	-0.2513198996	
671.875	0.5736227513	-0.3999905377	
672.5	0.3985679816	-0.52287992	
673.125	0.2130869788	-0.3682209426	
673.75	0.5743402244	-0.1138674789	
674.375	0.199360309	-1.208399623	
675.0	-0.49601009	0.07807659012	
675.625	-0.1175337033	-0.8165844296	
676.25	-0.8531172705	0.2205016269	
676.875	0.2799842293	-0.1829373781	
677.5	-1.00475291	0.2725181537	
678.125	0.224443763	0.09999495237	
678.75	-0.4266642249	0.6057442975	
679.375	1.015740733	0.1894366422	
680.0	-0.1064820163	-0.4261135533	
680.625	0.3490512347	0.2079804084	
681.25	0.3815301718	-0.2887541101	
681.875	0.1202432857	-0.0489653515	
682.5	0.3840823821	0.4838641724	
683.125	0.8059040207	0.01953763103	
683.75	0.4467920589	0.1267059737	
684.375	0.5824847403	0.3496955421	
685.0	0.9723234039	-0.2198709509	
685.625	0.04830439414	0.1475317333	
686.25	1.393387198	0.1558077817	
686.875	0.1658946763	-1.063827967	
687.5	0.6963189417	0.1860348294	
688.125	0.05198859199	-2.001897559	
688.75	-0.7141272313	0.5305994703	
689.375	-1.434110548	0.1766106795	
690.0	0.9028519005	1.02834742	
690.625	-0.1391943141	0.2844502659	
691.25	1.346494186	1.096070828	
691.875	0.7879705893	0.2480598709	
692.5	1.220008432	0.7239149014	
693.125	1.715652127	-0.05184656964	
693.75	1.174102148	-0.6181807178	
694.375	1.061208945	-0.9451270996	
695.0	0.7496113028	-0.5730376206	
695.625	1.577310735	-0.06614109066	
696.25	1.072646741	-0.1062895278	
696.875	0.4863228462	1.301883091	
697.5	1.722680067	0.9295475303	
698.125	0.5916319599	0.4227766048	
698.75	1.916318558	-1.068541807	
699.375	-1.579033594	-0.3483274262	
700.0	-0.9727294524	-0.1055141087	
700.625	0.8582736821	1.157659664	
701.25	0.08757161909	0.05959115519	
701.875	0.8524049074	1.168958777	
702.5	0.5884992155	-0.03565749788	
703.125	0.8712918666	0.7359137221	
703.75	1.087798024	-0.6232191466	
704.375	0.2678492245	0.04794276049	
705.0	1.09521012	-0.6168847717	
705.625	0.08933740676	-0.2279442482	
706.25	0.547640741	1.103582024	
706.875	1.188014899	0.234015635	
707.5	0.01525698352	0.8094282694	
708.125	1.628263357	0.3898273918	
708.75	0.07634766467	-0.8143524518	
709.375	-0.2753022983	-1.153058731	
710.0	-0.4130842647	1.006152788	
710.625	-0.05269759652	0.07780071842	
711.25	0.3818733944	0.4462724711	
711.875	0.4172085466	0.2705459705	
712.5	0.8257012955	-0.104858951	
713.125	0.392137317	-0.2740573605	
713.75	0.6426621062	-0.6228369623	
714.375	-0.3664030634	-0.6406168987	
715.0	0.4264433221	-0.24682483	
715.625	-0.3660379849	-0.9346550824	
716.25	0.1798648904	0.05354741682	
716.875	1.695719203	-0.4153454948	
717.5	0.780020034	-1.516152833	
718.125	0.777784679	1.867030555	
718.75	3.425690231	-1.087070252	
719.375	0.421718158	-1.500640549	
720.0	2.561222283	-0.8270121623	
720.625	-0.0277266602	-4.023233046	
721.25	0.3486984422	-1.151193928	
721.875	-0.5036202988	-3.15373589	
722.5	-2.535305404	-1.592606728	
723.125	-0.9852883508	-0.3737940426	
723.75	-1.665371864	1.191051373	
724.375	0.5225049542	1.081729639	
725.0	0.3450583889	0.6317360102	
725.625	-0.04452565736	1.134290959	
726.25	0.8155820274	2.388718025	
726.875	0.2270867017	0.7671672535	
727.5	-1.811620169	4.575996737	
728.125	2.576449545	5.95855334	
728.75	-1.546035641	1.812594944	
729.375	-6.096853212	15.23565099	
730.0	9.500222765	8.727550394	
730.625	-6.829054326	1.714536061	
731.25	-2.480090104	19.96432551	
731.875	2.947966402	7.621492075	
732.5	-10.91666038	-3.117040998	
733.125	-7.508935287	3.279121556	
733.75	-0.3808625854	3.387613322	
734.375	1.209688086	2.638828673	
735.0	-1.138206368	-2.112889454	
735.625	-0.4427759127	-0.1617057223	
736.25	-0.8563644581	1.53105213	
736.875	1.965757521	1.566225753	
737.5	1.670102441	-0.9817437589	
738.125	3.529739502	1.766693929	
738.75	7.094839761	-6.837471203	
739.375	-0.8120519458	-7.480061853	
740.0	9.850360719	8.07492523	
740.625	21.06991395	-17.71948286	
741.25	-13.90326962	-5.27920552	
741.875	-32.42763275	3.237072512	
742.5	-3.131282104	12.11338769	
743.125	7.732844184	-2.729520192	
743.75	-1.260388878	-6.099073214	
744.375	-0.7556088561	0.9176386119	
745.0	-0.2758111909	0.1906553538	
745.625	0.2409739941	-0.349115397	
746.25	0.2133077667	-0.2260872012	
746.875	-1.109580389	0.07149922778	
747.5	0.05305956588	0.7530774645	
748.125	-0.08895977306	1.136569722	
748.75	1.282548759	3.146664639	
749.375	1.321843028	0.4655899815	
750.0	-4.246730669	0.03852209736	
