!Created with skrf (http://scikit-rf.org).
# GHz S MA R 50.0 
!freq magS11 angS11
500.0 0.0148024834698 127.421206162
500.625 0.0116028175727 155.263752945
501.25 0.017929002336 -162.611992895
501.875 0.0351686051244 -166.37159962
502.5 0.00913257979843 121.074847967
503.125 0.0156326348573 89.2585095491
503.75 0.0110077009775 -6.61993547145
504.375 0.00545509136755 -41.9583397368
505.0 0.0260458292035 -63.0085924232
505.625 0.0249743596651 -73.0063425849
506.25 0.0284887794763 -123.587256499
506.875 0.0569392373245 -102.245529832
507.5 0.0424794173691 -132.711555891
508.125 0.0464599818913 -92.9949382774
508.75 0.0681073573571 -129.175483774
509.375 0.0627248315342 -124.353805106
510.0 0.0301480677692 -151.664451797
510.625 0.0395334422324 -156.070115635
511.25 0.0658014621055 -166.488545947
511.875 0.0511058795834 146.09144438
512.5 0.0450461985259 114.989638681
513.125 0.0504926508487 46.4982499909
513.75 0.0619615546637 32.6957635848
514.375 0.0601964427912 35.9534045407
515.0 0.0344889363313 -16.0790966601
515.625 0.0643088303651 42.9587084223
516.25 0.0829391108467 25.4052213004
516.875 0.132101368941 71.9110199784
517.5 0.114126914175 18.7439186949
518.125 0.172743438199 66.4681586614
518.75 0.0801244947663 14.2406819632
519.375 0.0808947418219 26.6781175691
520.0 0.0916227348357 -1.82668833269
520.625 0.0889575138286 -9.69951673431
521.25 0.0806205354492 -23.0702399423
521.875 0.0797269468281 4.33279645943
522.5 0.0795835362533 -40.8556109957
523.125 0.164230464853 -38.5610976484
523.75 0.211357224968 -59.6308561596
524.375 0.221425063795 -43.3189318163
525.0 0.0634991709535 -60.0081229651
525.625 0.0345581959062 -22.7533354423
526.25 0.042636914057 -3.81910628364
526.875 0.0611315602193 -11.9717460147
527.5 0.0417146643729 -26.970414577
528.125 0.0374315169123 -50.9711462835
528.75 0.0584858873545 -70.1833867069
529.375 0.100791282263 -101.094806002
530.0 0.0439015956591 -125.488621795
530.625 0.040574782076 -136.030416896
531.25 0.137942882429 -134.900953823
531.875 0.190278588537 -143.526933481
532.5 0.138180283337 -167.47231632
533.125 0.0972086388104 179.93011956
533.75 0.114829564901 172.906952201
534.375 0.124019090649 -174.994386104
535.0 0.0720730569151 160.969032963
535.625 0.0535711821811 179.035427298
536.25 0.059135582551 170.948256389
536.875 0.0760156695397 -159.734950499
537.5 0.0954148479048 -140.311709041
538.125 0.105320162568 -172.277799605
538.75 0.0997709773459 -175.572606071
539.375 0.0827743281289 -157.823105581
540.0 0.0887635474465 -148.853214138
540.625 0.140356279652 -152.011824462
541.25 0.134431087672 -137.583701663
541.875 0.0901135010751 -138.410275684
542.5 0.107145228277 -137.453815124
543.125 0.147033012758 -163.830761393
543.75 0.128832738554 163.650445787
544.375 0.100664014445 139.720097467
545.0 0.0707887981812 92.9941549829
545.625 0.0845609467467 89.0539472483
546.25 0.080879936344 69.6967179339
546.875 0.0982203952593 57.1357893959
547.5 0.104379666822 61.5325239988
548.125 0.123516437248 82.6949872369
548.75 0.090777858005 94.4694490486
549.375 0.105770249477 91.0808803335
550.0 0.068615995491 128.254390639
550.625 0.0380968483918 171.368785913
551.25 0.0367040606787 -122.831496709
551.875 0.0755051918474 -162.548705917
552.5 0.107609215654 -158.283983462
553.125 0.0961555304062 -165.695101591
553.75 0.0924770258521 -166.499452125
554.375 0.117954451593 167.108758958
555.0 0.115191187904 168.651562705
555.625 0.0889991077239 163.693247839
556.25 0.0921202930426 165.612168923
556.875 0.128468755147 166.362711116
557.5 0.111503527897 170.104204122
558.125 0.0935055615862 167.748578734
558.75 0.0723077667063 -177.55423108
559.375 0.0706252368941 -168.312446534
560.0 0.041202212628 -137.200939744
560.625 0.0570638974189 -124.730470954
561.25 0.0879859076542 -145.128256017
561.875 0.110598680921 -161.970459957
562.5 0.082796028307 -178.129646156
563.125 0.102433329732 151.70525046
563.75 0.127351870171 135.588904003
564.375 0.109139426145 122.989749868
565.0 0.0812253201176 124.251687062
565.625 0.0721841499322 127.174251643
566.25 0.0901022288584 161.813665603
566.875 0.0797482572864 179.800783099
567.5 0.0669528657236 -169.791849113
568.125 0.0754562157435 -163.095619003
568.75 0.0733968686694 -144.837881908
569.375 0.0512306479864 -106.636927371
570.0 0.0648740146218 -105.004755652
570.625 0.088325376724 -108.53599386
571.25 0.0855095054808 -112.421915371
571.875 0.0908968655727 -127.147129237
572.5 0.110401546761 -149.959933542
573.125 0.135147628663 -168.668430404
573.75 0.10667243795 162.92896988
574.375 0.0876615028765 147.461272658
575.0 0.0933342739871 169.173024705
575.625 0.103825753428 163.246973987
576.25 0.0842897547058 150.026289535
576.875 0.0836805113624 129.001709966
577.5 0.0692286855416 151.983962489
578.125 0.0529319801095 173.7169177
578.75 0.0425306898617 172.179182186
579.375 0.0586849619822 157.511482206
580.0 0.0666101535015 -165.500004268
580.625 0.0801591069862 -143.333882198
581.25 0.0879477654351 -159.677041789
581.875 0.117146983132 -174.625294905
582.5 0.11682374023 -173.145593839
583.125 0.0892489149237 -164.085227258
583.75 0.082316524915 -163.698089894
584.375 0.103611325767 -152.690573667
585.0 0.0971858486796 -144.422430179
585.625 0.0715942715813 -140.731561018
586.25 0.0719948857662 -139.057240541
586.875 0.0829585284265 -134.408443429
587.5 0.0703164862529 -139.465699838
588.125 0.0564492481849 -167.01206104
588.75 0.0685044588327 -161.059926614
589.375 0.0853486741333 -147.958081251
590.0 0.093053348086 -169.180192039
590.625 0.10730948602 171.733150875
591.25 0.121285280937 162.169956752
591.875 0.0858194101885 165.717343762
592.5 0.0654449854076 141.946591109
593.125 0.0565624121612 167.111427572
593.75 0.0777484624721 178.441792614
594.375 0.0576958795457 -142.308851472
595.0 0.0420781876751 -122.509118708
595.625 0.0693549073876 -84.4158391574
596.25 0.0814232266267 -72.0698456273
596.875 0.069428081668 -58.5117980973
597.5 0.0550619869294 -68.9335097482
598.125 0.0683777290069 -51.0292275836
598.75 0.0744061975086 -55.175038154
599.375 0.0902733471804 -62.3501334398
600.0 0.0995174342387 -64.9667132424
600.625 0.0979037962091 -62.3633866523
601.25 0.0834204406364 -70.7775954359
601.875 0.0678321113424 -82.6329671023
602.5 0.0595632012027 -93.8843222206
603.125 0.0431614309523 -31.185832915
603.75 0.0345464747453 -12.9414256351
604.375 0.039033644495 -12.972283161
605.0 0.0509994625659 -29.2937729646
605.625 0.0467015816835 -6.35306040524
606.25 0.0267838772586 21.3650252069
606.875 0.030252346714 49.9765033642
607.5 0.0668934306297 47.2450384789
608.125 0.0822619642614 34.8370182946
608.75 0.0744416976037 31.7716848389
609.375 0.0668515914737 40.235587831
610.0 0.0555892452176 34.0833919213
610.625 0.0604815909754 42.9930764431
611.25 0.049043948532 37.5665626572
611.875 0.0289795645099 49.1637460576
612.5 0.0233993502764 97.9407647355
613.125 0.0151414983084 139.235159171
613.75 0.057530335036 131.454957595
614.375 0.065968851009 132.429662283
615.0 0.0425950954819 127.678460131
615.625 0.0137642551612 154.424192342
616.25 0.0799955768056 140.801528399
616.875 0.0629817665272 134.458037607
617.5 0.0394107056105 122.931950216
618.125 0.0113198574946 128.32938681
618.75 0.06214647822 155.203903267
619.375 0.0384757946036 158.46995855
620.0 0.00583052071911 153.619848201
620.625 0.0298070018862 -68.6576131298
621.25 0.0430920969693 -109.403023534
621.875 0.0677426949515 -124.656708342
622.5 0.0728999092113 -168.850482712
623.125 0.0619411519721 -169.440931197
623.75 0.0898260250209 163.921739928
624.375 0.0612450826036 -178.610170063
625.0 0.0484722502528 -142.497907053
625.625 0.0180887889038 -117.190841921
626.25 0.0195165408423 -179.012051436
626.875 0.00555744037014 17.4459940371
627.5 0.0343526264363 -17.6105938811
628.125 0.0374159241783 -20.410632895
628.75 0.0458853208861 1.46230482036
629.375 0.046536449773 -6.92160364146
630.0 0.0615894458259 -7.92101198348
630.625 0.0705715718786 11.2161312784
631.25 0.0731054318135 -15.3423788833
631.875 0.0673510980456 -2.01165780009
632.5 0.0617953151302 0.587353515698
633.125 0.0434166666298 8.73744152002
633.75 0.0440590941015 28.5560982725
634.375 0.0462337694407 2.08899424173
635.0 0.0325021500295 -3.46925956374
635.625 0.0383097309693 30.7253489077
636.25 0.0725455424302 52.0455998266
636.875 0.0642627010757 41.5221770461
637.5 0.0404323565032 39.4174474258
638.125 0.0425314544592 77.1178341742
638.75 0.0742248267366 82.1310447555
639.375 0.102769808248 101.460418296
640.0 0.0685373560333 102.055637673
640.625 0.0515591025693 105.881892695
641.25 0.0585149606519 121.890330429
641.875 0.0746980215108 162.575122368
642.5 0.0546720890221 161.401602794
643.125 0.0620098902581 161.361365244
643.75 0.0673184237229 179.596010091
644.375 0.0829793348869 -164.442574996
645.0 0.0772105790707 -178.507225415
645.625 0.0852419981961 170.889477764
646.25 0.0866609577773 169.645142894
646.875 0.0831545650027 -171.876237905
647.5 0.0503610228932 175.388165673
648.125 0.0705354114151 -178.148159504
648.75 0.0660983532668 -167.705334465
649.375 0.0600849055549 -138.24387486
650.0 0.0259817386754 -131.950955073
650.625 0.0609962503407 -82.566235203
651.25 0.0650133442227 -63.9126585149
651.875 0.0791600537214 -39.7726475734
652.5 0.0924770450617 -21.1191708324
653.125 0.11993193738 1.81481992888
653.75 0.100565853153 5.00275862532
654.375 0.118224024835 10.7705943491
655.0 0.106838892406 12.970532749
655.625 0.0729911595905 24.2517284975
656.25 0.0558460865995 17.4783976468
656.875 0.0825995149209 12.256840975
657.5 0.0758750600424 26.2022066224
658.125 0.0628385796773 53.7734052637
658.75 0.0637971862714 69.1086732832
659.375 0.0863586773899 45.8827844555
660.0 0.130447305388 29.330853876
660.625 0.10597257729 21.4274185245
661.25 0.104572612892 9.31779167481
661.875 0.113964165555 -9.50599645042
662.5 0.133547151066 -15.5420561785
663.125 0.100676584526 -13.3758699793
663.75 0.104232797167 10.5978741831
664.375 0.0946697691772 61.2138605186
665.0 0.0573883415388 91.7762506228
665.625 0.0525807824295 120.49265391
666.25 0.0820403858035 139.817908672
666.875 0.12840757619 173.884079961
667.5 0.0798659854048 -162.55818634
668.125 0.0935375049404 -173.015718837
668.75 0.118778375811 172.605206237
669.375 0.142474854687 -178.425876452
670.0 0.0660007294624 -165.821012988
670.625 0.0829892909426 -165.563572327
671.25 0.116517859413 177.603095571
671.875 0.109800029936 173.819225001
672.5 0.0858407422097 160.17509297
673.125 0.0805084718867 161.467734574
673.75 0.105702436002 163.690668981
674.375 0.124883633153 170.505411929
675.0 0.100122644899 -166.508412291
675.625 0.117697696132 -142.545551736
676.25 0.121650802851 -120.315117254
676.875 0.123864963496 -119.223872122
677.5 0.100078898091 -122.027836955
678.125 0.115962629655 -112.013907012
678.75 0.0733713090851 -88.0421159085
679.375 0.0572528989489 -70.7363980782
680.0 0.0767740670708 -72.4987428813
680.625 0.120121390929 -68.7861939788
681.25 0.0996913591886 -64.612072611
681.875 0.103696777151 -88.1050726694
682.5 0.149117041989 -120.963495451
683.125 0.145848702981 -113.647321632
683.75 0.13194060851 -100.113465575
684.375 0.122355023983 -76.7641131912
685.0 0.133649412559 -35.248649065
685.625 0.11844113746 2.24376687242
686.25 0.103720329576 26.2615980012
686.875 0.0953891766112 50.3284696713
687.5 0.0833029015773 89.7018841529
688.125 0.0839262606442 116.896421749
688.75 0.103580867409 119.81553192
689.375 0.149851377566 124.274215079
690.0 0.133822584665 138.415106445
690.625 0.126440335526 126.731223156
691.25 0.138845164434 104.645550057
691.875 0.172027526158 78.6323908181
692.5 0.1266932995 44.4589919949
693.125 0.0965034632018 -15.2794246956
693.75 0.0914725023749 -32.6361657223
694.375 0.136953267972 -23.2731756762
695.0 0.132266151965 16.5434364258
695.625 0.10268967987 59.9738112837
696.25 0.12398649025 111.455147656
696.875 0.128595315824 -173.006954026
697.5 0.143051121521 -138.286686612
698.125 0.129112113866 -126.637998739
698.75 0.139971055416 -132.067520148
699.375 0.102399338018 -118.784920164
700.0 0.0989784515954 -110.074074321
700.625 0.11330136447 -84.4034758628
701.25 0.106248507226 -64.4254562379
701.875 0.0811374718095 -51.6126180563
702.5 0.10431603586 -79.8473972844
703.125 0.173452266551 -113.86516167
703.75 0.194387545395 -155.922754877
704.375 0.112710255712 -176.306394749
705.0 0.110429866662 164.196600429
705.625 0.149867738182 -167.476902988
706.25 0.140520026809 -105.987209107
706.875 0.0936028858717 -60.3286304338
707.5 0.0719178858909 -27.8119624132
708.125 0.095564698685 24.1681422747
708.75 0.115509403276 71.1468730649
709.375 0.108023393479 103.03731252
710.0 0.101502809727 144.520384995
710.625 0.110407025902 165.101594031
711.25 0.121957656511 176.756091333
711.875 0.136410573408 173.317571202
712.5 0.148987937169 149.337065028
713.125 0.12677631471 101.456938182
713.75 0.0999085487059 52.3428304312
714.375 0.113635835139 13.9695209298
715.0 0.107027816349 57.2599408191
715.625 0.0852196000448 61.2520463769
716.25 0.0792978189961 76.6441507359
716.875 0.116446421717 102.774944306
717.5 0.144407282712 142.310407616
718.125 0.117987804571 179.512147493
718.75 0.107976329292 -178.742265682
719.375 0.12054203092 -156.874431298
720.0 0.12527217494 -134.827053897
720.625 0.112276657093 -56.7986276344
721.25 0.0951694131864 -9.01048043199
721.875 0.0838739063776 38.7096342508
722.5 0.070001813099 67.5553051776
723.125 0.0864188502133 80.8823626797
723.75 0.118960682075 50.2369330023
724.375 0.11479847994 8.15959989373
725.0 0.0837189621815 -48.2667434595
725.625 0.12390117382 -46.7569940064
726.25 0.114604660639 -61.2455876016
726.875 0.0952744588007 -47.066884705
727.5 0.0719734138122 -38.7838580379
728.125 0.0741349922085 -7.30755028996
728.75 0.0955877490352 37.6826601269
729.375 0.0915074456728 27.259460072
730.0 0.0706230780127 15.6297434157
730.625 0.0436823753048 6.8100944186
731.25 0.106089935787 87.0040714608
731.875 0.0823209712757 122.279707739
732.5 0.0694927385413 156.827918609
733.125 0.0875095998313 178.179990407
733.75 0.0983276936737 -163.472357669
734.375 0.0845269189412 -174.488372159
735.0 0.0627841281042 157.759284536
735.625 0.0300377439622 129.51568822
736.25 0.0826277857595 161.856179378
736.875 0.0775361735594 169.979877174
737.5 0.0961272909576 -175.673010976
738.125 0.0610410483786 -175.772522696
738.75 0.107268548614 -158.193347231
739.375 0.0639447801075 -155.767551665
740.0 0.0316294125091 -123.635894659
740.625 0.0543186864708 -146.288630244
741.25 0.0274950820082 -152.012324509
741.875 0.0584830960647 -101.822575067
742.5 0.0623631112972 -19.4656765988
743.125 0.0334079334719 60.2010161655
743.75 0.0208652484391 148.648287726
744.375 0.0395858254288 122.912333867
745.0 0.0464486756665 158.267274961
745.625 0.066028822814 120.761936992
746.25 0.0651257827036 102.454686051
746.875 0.101679790494 34.1400483456
747.5 0.0590405205761 6.12425871306
748.125 0.0318040453257 0.425523371533
748.75 0.0210847014545 42.3869075063
749.375 0.0330413611383 7.6307339625
750.0 0.0330797600303 -84.5955917279
