!Created with skrf (http://scikit-rf.org).
# GHz S RI R (50+0j) 
!freq	ReS11	ImS11	
500.0	-0.1949947032	-0.7174584152	
500.625	0.7208163305	-0.5717413003	
501.25	-0.5638960521	-0.7174719156	
501.875	-0.06741713602	-0.1327560271	
502.5	-0.001715005126	-0.1772011398	
503.125	-0.05272703469	0.0342315951	
503.75	-0.05483858092	0.04611026062	
504.375	0.05083210016	-0.01627462524	
505.0	-0.008174738846	0.00105796935	
505.625	0.0279523902	-0.08318153557	
506.25	-0.0940996496	0.0273302583	
506.875	-0.07774079246	-0.2083125585	
507.5	-0.3942883515	-0.2069867182	
508.125	0.2397427506	-0.2041525066	
508.75	0.542905766	-1.205480673	
509.375	-0.3717314886	-1.183762712	
510.0	-0.1476171139	-0.2944340573	
510.625	-0.1401352769	-0.2282406479	
511.25	-0.0711683553	-0.012246883	
511.875	-0.06025588403	-0.07335061424	
512.5	-0.01080182754	0.05655743957	
513.125	-0.01320563535	-0.02155597216	
513.75	-0.01778250966	-0.1081677954	
514.375	-0.1193534532	0.06496107432	
515.0	0.2610494257	-0.2292124519	
515.625	-0.3885956313	-0.1431875645	
516.25	0.4608715641	-0.4592058486	
516.875	-0.2185241201	-0.666229581	
517.5	-0.1577924378	-0.03499022828	
518.125	0.02131834075	-0.06911788246	
518.75	-0.1226198242	-0.09526765981	
519.375	-0.02077594053	0.005190133775	
520.0	0.09207519114	0.07624637258	
520.625	0.1378918519	-0.08051726273	
521.25	-0.05514401271	-0.1345765593	
521.875	-0.09570039139	-0.09272745506	
522.5	-0.07837702805	0.03859767408	
523.125	0.005058272938	-0.05941235065	
523.75	-0.2050973487	-0.06315213539	
524.375	-0.02755589026	0.09522302488	
525.0	-0.1537062225	0.03671920994	
525.625	0.1142386912	0.1010895377	
526.25	-0.09180587735	-0.05747858183	
526.875	-0.0001543095924	0.09784509761	
527.5	-0.0692684311	0.06440840858	
528.125	0.06094393946	0.2970392891	
528.75	0.1047298693	0.2020600881	
529.375	-0.04542912305	0.02070499594	
530.0	0.1309432074	0.1886406281	
530.625	0.2095331601	0.3593182776	
531.25	0.3438896607	0.189366158	
531.875	0.1857654784	-0.2859222193	
532.5	-0.005444695234	0.01123273211	
533.125	0.1559650245	-0.1315561535	
533.75	0.03106495926	-0.05984919764	
534.375	0.009548854321	-0.3242458381	
535.0	-0.2922532295	-0.04799670174	
535.625	-0.09000722404	0.04885022339	
536.25	-0.0274716104	0.1035556353	
536.875	0.0880328973	-0.02504392934	
537.5	0.05507975267	0.007285101031	
538.125	0.1242142791	-0.08806022961	
538.75	0.0549679017	-0.07630245535	
539.375	-0.009735888604	-0.1743236317	
540.0	-0.1861357278	-0.136720316	
540.625	-0.176430225	0.008204773836	
541.25	-0.08053654684	-0.02463910943	
541.875	-0.06889152808	0.004357690669	
542.5	0.002937833098	-0.06915888755	
543.125	-0.110146575	-0.117878215	
543.75	-0.04449568502	0.0471419787	
544.375	-0.08894147492	0.02007770531	
545.0	0.06286523367	0.08952280736	
545.625	-0.0253386022	0.04318004862	
546.25	0.1547570164	0.05673044789	
546.875	0.05663334513	-0.05200827448	
547.5	0.1074348566	-0.07000859331	
548.125	-0.07471773331	-0.2020680337	
548.75	-0.08497409924	-0.04345841776	
549.375	-0.07892039533	-0.110636531	
550.0	-0.09525385645	0.04032541172	
550.625	-0.01986569667	-0.02232291127	
551.25	-0.09656714743	0.04143272032	
551.875	-0.03641894588	0.04278634685	
552.5	-0.06355839566	0.05979637137	
553.125	-0.002545228479	0.06940309672	
553.75	0.03067036896	0.04158503441	
554.375	0.09246310712	-0.0002099897952	
555.0	0.0816955456	-0.06645557843	
555.625	0.08004431868	-0.08979907918	
556.25	0.06398569623	-0.1313914227	
556.875	-0.03176227794	-0.1448942109	
557.5	-0.08447316629	-0.09311962082	
558.125	-0.1057474325	-0.04062905451	
558.75	-0.1028629566	0.0008850593034	
559.375	-0.0938191348	0.01682461143	
560.0	-0.1023131621	0.06441480829	
560.625	-0.03748162679	0.1137386286	
561.25	-0.0007746899783	0.06665036025	
561.875	0.02989625698	0.07059830976	
562.5	0.01229417546	0.01374094644	
563.125	0.05425204042	0.1023683807	
563.75	0.1398570941	-0.03074469836	
564.375	0.09636483533	-0.0502294288	
565.0	0.10910706	-0.1504257827	
565.625	-0.07690196237	-0.1333985145	
566.25	-0.05293269167	-0.1035949242	
566.875	-0.1705344729	-0.1093773121	
567.5	-0.1103774352	-0.02551021532	
568.125	-0.08157919562	-0.1856605259	
568.75	-0.2913522992	-0.02339104068	
569.375	-0.115416251	0.06959503306	
570.0	-0.188175333	0.1587377469	
570.625	0.004941373087	0.2181711466	
571.25	-0.03394717462	0.01664244583	
571.875	0.098696428	0.1401368827	
572.5	0.04168850965	-0.05628557	
573.125	0.1469266461	-0.03674337239	
573.75	0.01265472063	-0.2046875655	
574.375	-0.03901098623	0.02098050186	
575.0	0.1015607878	-0.09451811264	
575.625	-0.0437644504	-0.04409669086	
576.25	0.1089986511	-0.05185548522	
576.875	-0.02882596795	-0.1956569965	
577.5	-0.08159646048	-0.07786090365	
578.125	0.0585951587	-0.1190282127	
578.75	-0.1592411286	-0.2255425877	
579.375	-0.09218694487	0.06085281431	
580.0	0.01996795303	-0.1206134565	
580.625	-0.1231130938	0.06093465069	
581.25	-0.06327315235	-0.1111963714	
581.875	-0.05034060087	0.2677855872	
582.5	0.1482387158	0.09344207176	
583.125	-0.05190277809	0.04158642903	
583.75	0.1388289326	0.07682306827	
584.375	-0.04139729449	-0.03212522366	
585.0	0.1348240619	0.150889918	
585.625	0.159949285	-0.09139855843	
586.25	0.0766886783	0.03374137385	
586.875	0.1504814314	-0.1562525842	
587.5	-0.09169600824	-0.1124865545	
588.125	0.05439188494	-0.08193031653	
588.75	0.04464567932	-0.2099108364	
589.375	-0.02419179881	-0.1075275743	
590.0	0.0499499005	-0.1701291385	
590.625	-0.280247276	-0.007398282974	
591.25	-0.003052053637	0.06929204712	
591.875	-0.1443712493	0.06853639567	
592.5	0.09369415649	0.1231605795	
593.125	-0.1817267577	-0.01272224756	
593.75	0.18156427	0.09919644857	
594.375	0.05620519282	0.01857161042	
595.0	0.1198995947	0.1792765593	
595.625	0.2110820244	-0.007288327509	
596.25	0.04399511197	0.04298173734	
596.875	0.2164921666	0.07029659499	
597.5	0.1554923807	-0.001006304978	
598.125	0.05675218315	0.1182862551	
598.75	0.2068962796	0.07725069134	
599.375	0.1524850539	-0.0900128807	
600.0	0.1448919865	-0.05437570029	
600.625	0.1817291509	-0.195173762	
601.25	-0.01185654544	-0.2012164115	
601.875	0.01489314234	-0.08453695786	
602.5	-0.2085758711	-0.04068762178	
603.125	0.01524454504	0.06764255311	
603.75	-0.1467822827	-0.0302218458	
604.375	-0.038173128	0.2406179303	
605.0	0.01882142712	-0.0362017285	
605.625	-0.1739778026	0.06102014486	
606.25	-0.01486560641	0.1181679173	
606.875	-0.2648921421	0.05318491687	
607.5	-0.1943767058	0.2418056692	
608.125	0.03620511235	0.1670941397	
608.75	0.1025398395	0.1912099298	
609.375	0.1608321655	-0.01542852143	
610.0	0.0898576112	-0.1312370988	
610.625	0.1480011493	-0.06495658511	
611.25	-0.03987354897	-0.2326143485	
611.875	-0.1207300344	-0.03063508618	
612.5	-0.1450538356	-0.146479312	
613.125	-0.2212353586	0.1221883939	
613.75	-0.004600285454	0.01729684396	
614.375	-0.03542450772	0.1920596014	
615.0	0.1014346971	-0.04994935274	
615.625	-0.1343450434	0.07748108824	
616.25	0.05681084764	0.197458244	
616.875	-0.008288649698	0.0633777997	
617.5	-0.1487044846	0.1955916293	
618.125	0.05201645253	0.2612726483	
618.75	-0.001161074042	0.2125786401	
619.375	0.06575806156	0.1984609631	
620.0	0.1903432869	-0.01028905237	
620.625	0.08608349271	-0.0793754442	
621.25	-0.008165433678	-0.1888924353	
621.875	-0.2715820932	-0.06339654174	
622.5	-0.09870671795	0.02729758753	
623.125	-0.1152591071	0.1763283733	
623.75	0.2072084608	0.009514843495	
624.375	-0.01808698973	0.01568969044	
625.0	0.08193721877	-0.1045173799	
625.625	0.00328557292	-0.007588879606	
626.25	0.008595344711	-0.1842849507	
626.875	-0.1995573144	-0.04684119905	
627.5	-0.07813779231	-0.01976034431	
628.125	-0.1319535888	-0.1402298215	
628.75	-0.1274142697	-0.05539093795	
629.375	-0.03637117377	-0.1251030846	
630.0	-0.1556993162	-0.1304445813	
630.625	-0.1991632701	0.08453867403	
631.25	-0.09671928005	0.1105302233	
631.875	-0.03533582578	0.2697805661	
632.5	0.2566305812	0.1712199734	
633.125	0.1160884979	0.04918556478	
633.75	0.2366086695	-0.04211103342	
634.375	-0.07875951381	-0.1459013569	
635.0	0.08415470513	-0.1175722376	
635.625	-0.2595506419	-0.09505660505	
636.25	-0.0605820955	0.08990673052	
636.875	-0.1419215323	0.0596700438	
637.5	0.004112680175	0.1795044427	
638.125	-0.04338745379	-0.02694092713	
638.75	-0.124175338	0.2250502697	
639.375	0.1007056255	0.1907318529	
640.0	0.02299659037	0.1913268999	
640.625	0.2508798886	0.2153993796	
641.25	0.2528056258	-0.0978488165	
641.875	0.1558662103	-0.0641870609	
642.5	0.02911421724	-0.2921492268	
643.125	-0.2915134843	0.002733266459	
643.75	-0.007666671015	-0.1009913393	
644.375	-0.2545087677	0.03413741946	
645.0	0.01311136676	0.1187526609	
645.625	-0.1971508648	0.2126348223	
646.25	0.3116618654	0.06043827257	
646.875	-0.07209674854	-0.07152567037	
647.5	0.2286100953	0.1193909661	
648.125	0.06040180945	-0.09167178307	
648.75	0.2624304571	0.1589171882	
649.375	0.2755301733	-0.380049713	
650.0	-0.02195111178	-0.2018589514	
650.625	0.2574334179	-0.1549477309	
651.25	0.2525554903	-0.4094176904	
651.875	0.05592320154	-0.1331027675	
652.5	0.3302783812	0.04376433153	
653.125	0.2960276417	-0.2105427992	
653.75	0.01308950633	-0.1682981651	
654.375	0.09064033516	-0.3257655642	
655.0	-0.4330596317	-0.05158661685	
655.625	-0.02619786604	0.1192429017	
656.25	-0.2341860925	0.1901366323	
656.875	0.2527197316	0.08251260694	
657.5	-0.1276744148	0.0884571124	
658.125	0.2985362614	0.2325411381	
658.75	0.1590891247	-0.08286593908	
659.375	0.2712767611	0.04943404778	
660.0	0.3252300627	-0.3933151094	
660.625	-0.06101938282	-0.2228255461	
661.25	0.2742461426	-0.1739476788	
661.875	0.2346257861	-0.3403906098	
662.5	0.1075429809	-0.1755368439	
663.125	0.328152396	-0.06544727018	
663.75	0.09860728626	-0.3826465406	
664.375	-0.03855596383	-0.1808233064	
665.0	-0.1801176993	-0.2815892211	
665.625	-0.3747492212	0.1330086418	
666.25	-0.01554191904	0.1647672952	
666.875	0.006104179355	0.2485670468	
667.5	0.2928181817	0.03912292726	
668.125	0.07059564424	0.01125507351	
668.75	0.3513066955	-0.1373067328	
669.375	-0.05418489489	-0.2514532388	
670.0	0.09566961508	-0.09094989409	
670.625	0.06242864327	-0.2816066261	
671.25	-0.1211745422	-0.08352924008	
671.875	0.2387373235	-0.02596423225	
672.5	0.240742016	-0.2404367119	
673.125	0.09176290503	-0.144424151	
673.75	0.2151504003	-0.113332306	
674.375	0.03978149935	-0.3682279391	
675.0	-0.04805034577	-0.06513614228	
675.625	-0.1055922961	-0.2254927095	
676.25	-0.2564846694	0.01482879631	
676.875	-0.02623130114	0.03693038149	
677.5	-0.2234298689	-0.07904734181	
678.125	-0.08232468785	0.2341783918	
678.75	-0.006243822518	0.04290635476	
679.375	0.1841611821	0.2460185302	
680.0	0.1635506985	-0.2378290814	
680.625	-0.03590509199	0.1391668876	
681.25	0.2919655996	-0.1219328969	
681.875	0.006109358753	-0.09442609673	
682.5	0.09657454674	0.3217115809	
683.125	0.4564939529	-0.01849385474	
683.75	0.03753596974	-0.06164267492	
684.375	0.3996054091	0.1407196668	
685.0	0.3818832873	-0.03637560054	
685.625	0.08007467377	-0.06436138832	
686.25	0.4148970065	0.1090435648	
686.875	0.1876541664	-0.2155860602	
687.5	0.1987013897	-0.1263775718	
688.125	0.1251470868	-0.4827333733	
688.75	-0.4801921269	-0.09896410682	
689.375	-0.1833921707	0.1495420896	
690.0	-0.01895657733	0.4652343554	
690.625	0.3367263509	0.1284050719	
691.25	0.01044697733	0.2651867545	
691.875	0.6120745675	0.440099402	
692.5	0.3629481628	-0.0382908659	
693.125	0.5277540022	0.2125888076	
693.75	0.7290542817	-0.2581041844	
694.375	0.150097705	-0.4396979622	
695.0	0.6490109992	-0.1518761933	
695.625	0.5480718874	-0.2170328776	
696.25	0.3245880223	0.06354799947	
696.875	0.3840518987	0.3869375307	
697.5	0.5197618223	0.4996264695	
698.125	0.5883256221	0.3137046348	
698.75	0.4875268816	-0.2658599825	
699.375	-0.3578540404	-0.4553875205	
700.0	-0.1717294243	0.3532293118	
700.625	-0.05332438953	0.3060177678	
701.25	0.3564180885	0.1372146495	
701.875	0.1165260309	0.07941384921	
702.5	0.2819743772	0.3735684088	
703.125	0.4928837134	-0.01309254586	
703.75	0.1487135898	-0.05307105806	
704.375	0.3943227554	-0.1612223164	
705.0	0.190804451	-0.2728204944	
705.625	0.2145153266	0.1169903131	
706.25	0.3786665635	0.2242273414	
706.875	0.2409420585	0.08404937151	
707.5	0.273193797	0.3578398894	
708.125	0.3197555823	0.1303947746	
708.75	0.2063794574	-0.3392481633	
709.375	-0.08398002417	-0.2405990412	
710.0	-0.2966310171	-0.03363480706	
710.625	0.1288609116	0.09646984951	
711.25	-0.03018823253	0.1387090969	
711.875	0.3149226261	0.07816820214	
712.5	0.1025948932	-0.05530970665	
713.125	0.3419839833	-0.0443265094	
713.75	0.09822500183	-0.3153982303	
714.375	-0.04204687752	-0.1081489242	
715.0	0.05878250755	-0.2316698691	
715.625	-0.11360611	-0.2393537998	
716.25	0.1026674326	-0.1352846247	
716.875	0.4291295863	-0.1678089077	
717.5	0.3795408247	-0.2592895117	
718.125	0.4758651201	-0.00912577101	
718.75	0.7290296937	0.01553783282	
719.375	0.7883188214	-0.6606761283	
720.0	0.3575744854	-0.5063686979	
720.625	0.504230497	-1.023212444	
721.25	-0.5079759606	-0.6796871348	
721.875	0.07857204258	-0.716224854	
722.5	-0.6468641673	-0.8458085133	
723.125	-0.6512356229	0.1737611227	
723.75	-0.4481880799	0.0141773994	
724.375	0.1397152956	0.6552057441	
725.0	0.1558523456	0.1032371651	
725.625	-0.01111193535	0.5122736546	
726.25	0.2504225072	0.7235694181	
726.875	0.1504277155	0.5069857451	
727.5	-0.5233914571	1.193646602	
728.125	0.3105866456	2.043782263	
728.75	0.3756914465	1.478531377	
729.375	-1.825739483	2.456705354	
730.0	0.8919399354	4.177978525	
730.625	0.4199172883	2.35334141	
731.25	-2.244163352	2.731380046	
731.875	-1.81292223	3.223757037	
732.5	-0.1032080581	0.4359260156	
733.125	-2.644619815	-0.3319335019	
733.75	-0.5872469435	1.596498802	
734.375	0.3426793312	0.0234484524	
735.0	0.4267194168	-0.7345695569	
735.625	-0.396751501	0.4818080119	
736.25	-0.3789929336	0.1257028314	
736.875	0.4812317051	0.7892198272	
737.5	0.8399666854	-0.3004654949	
738.125	0.7242561613	0.3197005297	
738.75	2.479153972	-1.260226113	
739.375	0.7098365937	-2.325414932	
740.0	0.7431815832	0.7775502803	
740.625	5.201062278	1.02959702	
741.25	2.396327697	-1.583809697	
741.875	-2.712881774	-2.390645407	
742.5	-2.566462635	-1.849934242	
743.125	-0.1668197914	-0.5191547809	
743.75	0.5682736282	-1.049136183	
744.375	-0.6986222239	0.002087459502	
745.0	0.07111458548	-0.09054755016	
745.625	0.1564190701	0.04121009999	
746.25	-0.07577047899	-0.0380591888	
746.875	-0.2145539478	-0.1421807553	
747.5	-0.07340787279	0.3871402285	
748.125	0.1492862346	0.2750369217	
748.75	0.08771250824	0.4021956328	
749.375	0.1679529502	0.5113856907	
750.0	-0.2151828204	0.1631766267	
