!Created with skrf (http://scikit-rf.org).
# GHz S MA R 50.0 
!freq magS11 angS11
500.0 0.0149544340752 136.249437755
500.625 0.0082878863838 104.87779289
501.25 0.0187106004705 -169.716683642
501.875 0.0295736005098 179.350916653
502.5 0.0281410230018 165.117794403
503.125 0.0215023577293 122.520134563
503.75 0.0132733696393 109.869141672
504.375 0.0226969913916 -62.8591220175
505.0 0.00188789113589 47.5198692326
505.625 0.0210417350306 -72.9836290735
506.25 0.0485576659467 -104.590456158
506.875 0.0782624107068 -93.8868686277
507.5 0.0378589715589 -144.917854331
508.125 0.0386065980879 -109.559425568
508.75 0.0571606012415 -129.487188573
509.375 0.0608282051032 -130.977612856
510.0 0.0324371438092 -133.49589688
510.625 0.0220488509335 -171.06348028
511.25 0.0534512022677 179.716506097
511.875 0.0643441236504 149.377681753
512.5 0.034481508931 79.8660439337
513.125 0.0477197494176 33.4288259005
513.75 0.0551083014003 33.6464623506
514.375 0.0443003384048 17.1399859971
515.0 0.0526367015067 0.698881972709
515.625 0.0984340909154 45.4695992196
516.25 0.0874877014661 28.157854955
516.875 0.124884178622 68.9288874414
517.5 0.105012531149 15.9894510943
518.125 0.200627158042 70.5412059773
518.75 0.0965685357209 13.4716865675
519.375 0.053728204768 8.14207653847
520.0 0.0874053926426 -7.39753215634
520.625 0.108825986094 -5.71596180808
521.25 0.0914300784945 -24.087893788
521.875 0.0745101242922 0.0714911493539
522.5 0.0953264019224 -35.4776016
523.125 0.184091894117 -35.1594399322
523.75 0.214173753243 -58.5841975662
524.375 0.227765004997 -48.9703203582
525.0 0.0737189693587 -46.468234337
525.625 0.037119743441 -51.917203325
526.25 0.058534246604 -9.09317998887
526.875 0.040621289199 -41.6228253049
527.5 0.0460098431935 -34.2942918531
528.125 0.0377465139663 -68.1006789151
528.75 0.0675403509648 -73.7050707702
529.375 0.0682842737736 -124.997818301
530.0 0.0386494324277 -141.704000976
530.625 0.0362275539314 -141.807252226
531.25 0.133529583586 -142.494782948
531.875 0.132308595335 -151.701191988
532.5 0.12551662796 -174.588493451
533.125 0.0934665792214 171.733744643
533.75 0.131873784074 163.276185513
534.375 0.0884597089453 172.448677786
535.0 0.090026486473 159.265149915
535.625 0.0687278999598 173.279475823
536.25 0.0730416272594 159.401931219
536.875 0.0650730373149 -160.09685533
537.5 0.0876630160482 -144.495981515
538.125 0.102853782246 -174.82919534
538.75 0.118477823429 178.211844972
539.375 0.0579519458714 -169.52556079
540.0 0.0877591847084 -155.357448096
540.625 0.121648353178 -158.522211222
541.25 0.140751371479 -144.83167308
541.875 0.0886838102734 -143.639217926
542.5 0.103684208479 -141.210117753
543.125 0.128580212328 -168.237398997
543.75 0.143544046974 158.12165118
544.375 0.0847044222065 131.97209433
545.0 0.0896093234305 89.3760322788
545.625 0.105262440321 78.9421385136
546.25 0.0928155494449 66.1711238652
546.875 0.0967020017389 52.1228387239
547.5 0.108190061887 56.7397306536
548.125 0.112457009962 76.4054295453
548.75 0.101925415878 87.3003923765
549.375 0.0765701665363 82.6248929715
550.0 0.0876564997097 121.948805648
550.625 0.0485672700489 147.139852187
551.25 0.0387465720307 -145.681879431
551.875 0.0556672136739 -151.053777418
552.5 0.10299107333 -164.071569318
553.125 0.0851280603099 -169.327584293
553.75 0.0949170734394 -176.823815774
554.375 0.10002864899 167.15805996
555.0 0.122245697236 162.546873303
555.625 0.102273796604 154.995121852
556.25 0.0994339858891 161.145069982
556.875 0.12656009949 161.497387002
557.5 0.102971564376 165.298137426
558.125 0.0907772118452 163.576343103
558.75 0.0834766474721 176.319312932
559.375 0.0553630316609 -176.541129924
560.0 0.0420388006613 -149.731459335
560.625 0.0594787787697 -147.518382275
561.25 0.0897251927895 -154.765671836
561.875 0.100857729242 -163.546086429
562.5 0.0922310416087 171.853424766
563.125 0.102020533495 143.774941619
563.75 0.13956913791 125.39765249
564.375 0.0929186937252 122.259781611
565.0 0.0842551454065 119.39741718
565.625 0.0848002312168 112.655620381
566.25 0.0987720036403 146.95626363
566.875 0.0797735561096 174.435920072
567.5 0.0692808429368 -177.121506033
568.125 0.0768561673063 -170.325082927
568.75 0.0632157928852 -149.92874591
569.375 0.0533831293674 -123.790991395
570.0 0.0574260417048 -101.013298837
570.625 0.0915862363578 -120.273540103
571.25 0.0902314996412 -122.111393669
571.875 0.0892958743425 -134.204179238
572.5 0.109520336159 -155.095736673
573.125 0.13656211101 -173.953280237
573.75 0.100029088728 160.53308142
574.375 0.0880280823891 142.250706012
575.0 0.106179335652 151.188909375
575.625 0.111498636624 151.071525261
576.25 0.0919187423337 142.079653173
576.875 0.0716224234186 131.974487646
577.5 0.0843661547941 131.158324022
578.125 0.0628709316892 153.947171106
578.75 0.0491269759979 160.105230604
579.375 0.0572791327704 150.92851008
580.0 0.066287530562 -174.003817681
580.625 0.0772577952034 -149.028296606
581.25 0.0886853981327 -166.198071865
581.875 0.115068849693 173.737315868
582.5 0.1093103272 -169.919374238
583.125 0.093945048368 -169.260511838
583.75 0.0789001457673 -166.647381756
584.375 0.105733629346 -169.157774286
585.0 0.092210029241 -143.585445589
585.625 0.0713131288671 -143.242527805
586.25 0.0698121736976 -138.031484286
586.875 0.0849819175531 -148.202975969
587.5 0.0696997152504 -136.94588496
588.125 0.0587995545215 -172.501099419
588.75 0.0623668799086 -160.326730265
589.375 0.0804890152295 -166.818438212
590.0 0.0940287917884 -164.612743805
590.625 0.106126403978 164.815187055
591.25 0.121918128442 153.427225243
591.875 0.0996247972384 153.581779103
592.5 0.0648506514439 143.434111967
593.125 0.0621852757154 150.823441351
593.75 0.0625832935106 173.610421538
594.375 0.0613333216694 -169.437009933
595.0 0.0486172331827 -103.579729451
595.625 0.0590173711493 -104.206121489
596.25 0.068977465836 -90.9374481257
596.875 0.0683317015217 -73.8948743021
597.5 0.0607755718313 -68.3111594765
598.125 0.0715585939301 -59.6101391601
598.75 0.0798504701364 -65.3210488464
599.375 0.0791667414976 -75.9340880981
600.0 0.110864528876 -58.2482391263
600.625 0.104436016389 -59.7262819527
601.25 0.0817871378035 -73.7411101676
601.875 0.0692584051856 -102.205004696
602.5 0.0631095476804 -80.715712627
603.125 0.0471959459502 -59.0500993895
603.75 0.0311744514493 -46.1307168164
604.375 0.0409769127429 -28.5208277841
605.0 0.0511310145098 -36.4239518149
605.625 0.0631127649495 8.81667866557
606.25 0.0357941051199 24.0123387738
606.875 0.0388362883375 46.650455965
607.5 0.0392592358298 35.1427213069
608.125 0.0793216061517 32.0216555784
608.75 0.0566248564715 15.9076180808
609.375 0.0651865331315 26.9156668546
610.0 0.0600678476741 30.5380890565
610.625 0.0776512290396 46.7253951168
611.25 0.0633272742094 42.6069411954
611.875 0.0401723258923 50.9109958254
612.5 0.011955906567 11.618946609
613.125 0.0372781092893 122.639759457
613.75 0.0509111368172 120.343381221
614.375 0.0376271863396 112.701318929
615.0 0.0314873756684 108.863859201
615.625 0.030136166721 132.636885209
616.25 0.0500684589451 131.199366408
616.875 0.0439676288758 124.59147057
617.5 0.0272202175132 110.641147428
618.125 0.0404362068299 133.804060076
618.75 0.0316313272059 145.182820841
619.375 0.013625925718 123.492274925
620.0 0.0155638138822 -23.5359067897
620.625 0.0252823183531 -178.352552048
621.25 0.0400800272978 -116.41734476
621.875 0.0633329402676 -104.569612263
622.5 0.0700160248816 -159.337391053
623.125 0.0664878830395 176.913514655
623.75 0.061554778306 164.419479363
624.375 0.0386249571999 -173.478285311
625.0 0.0413164761864 -151.414629201
625.625 0.0230210258865 -136.701855172
626.25 0.0454155651678 178.767846792
626.875 0.0155131741532 167.103938412
627.5 0.0197833175185 -35.9838811545
628.125 0.0547799581577 -5.67595868514
628.75 0.0345235203087 -63.3585359029
629.375 0.0360520635914 -27.9423898384
630.0 0.0677558479946 -10.3491988356
630.625 0.0834672476372 19.6056115684
631.25 0.0686046324483 -1.43318031427
631.875 0.0683660350468 -21.3407736918
632.5 0.0621938938176 -14.1269446093
633.125 0.0554192719914 25.4309737129
633.75 0.0444037485591 -14.6621267174
634.375 0.0419318629012 1.14484773669
635.0 0.0398570063791 29.7095850644
635.625 0.033895119586 36.3563886481
636.25 0.0665184443571 46.4638178263
636.875 0.0571923507286 13.8834077205
637.5 0.0393122104232 25.713430106
638.125 0.0332366772024 50.1214073835
638.75 0.0974331776815 75.7315914201
639.375 0.0842693109319 78.7224903082
640.0 0.0677708901805 98.0549546118
640.625 0.0571754528535 92.4815478585
641.25 0.0697596952589 122.67021278
641.875 0.0514412387507 121.992155012
642.5 0.0454057954004 148.517500334
643.125 0.0551951419627 157.195076281
643.75 0.0885729278699 173.807214003
644.375 0.054102212641 167.173816059
645.0 0.0656103457478 172.044482487
645.625 0.0888021861491 158.626174878
646.25 0.107849762357 166.573262148
646.875 0.0694739169583 171.937548098
647.5 0.0678201321283 179.914151755
648.125 0.0903322452935 -178.524864622
648.75 0.0760222281286 -165.82280077
649.375 0.0570172432692 -149.328281385
650.0 0.046709368205 -123.478447528
650.625 0.0575859500373 -90.9854789374
651.25 0.0684024342442 -66.966872978
651.875 0.0745995190677 -46.3367710575
652.5 0.067454815713 -26.9420089619
653.125 0.103236186417 -5.43328816275
653.75 0.109771677094 4.95408548732
654.375 0.0977856317831 2.56560990517
655.0 0.109596889396 9.43095568495
655.625 0.103670640568 24.9588658905
656.25 0.0618120687973 18.4789523442
656.875 0.0806510992014 4.62534994339
657.5 0.0635881315955 12.9549159485
658.125 0.057731219674 42.0346782272
658.75 0.0479683987759 59.4814120212
659.375 0.0931611826964 31.7452353343
660.0 0.09947527471 23.1545622613
660.625 0.108065265801 15.8698322708
661.25 0.100850544834 -0.272646768429
661.875 0.12704326755 -14.8128371714
662.5 0.100054174227 -26.7201898838
663.125 0.0964410216246 -17.5120842848
663.75 0.0899564396176 -1.67311819897
664.375 0.117931856089 50.5433086065
665.0 0.0718157387114 89.702986271
665.625 0.0694119610558 107.78265069
666.25 0.0881403635879 126.428414997
666.875 0.0968886363749 165.336754336
667.5 0.0988374819398 -171.426365214
668.125 0.108160973034 177.165949731
668.75 0.130183022006 165.281538711
669.375 0.142904638482 173.289221085
670.0 0.0854565356165 -173.13531404
670.625 0.0887185283261 -173.801827353
671.25 0.110327732405 171.369556006
671.875 0.117169713097 163.159728808
672.5 0.057933968061 154.177575834
673.125 0.0782065633127 152.467080335
673.75 0.114185361922 154.415255725
674.375 0.112305594543 166.594554171
675.0 0.11522697336 -178.080542829
675.625 0.130279526847 -152.684756525
676.25 0.130538802363 -129.475002093
676.875 0.120448512571 -123.914804494
677.5 0.127020189757 -131.82842569
678.125 0.126833759691 -119.461600787
678.75 0.0684184553962 -98.0293512837
679.375 0.0615992238059 -85.3556340055
680.0 0.0654279659918 -74.9243387773
680.625 0.110754194926 -77.0139052231
681.25 0.101740715869 -78.1893267958
681.875 0.10268475353 -98.0709001637
682.5 0.13718630485 -124.831465696
683.125 0.159306383929 -123.920221437
683.75 0.140322609655 -107.362786294
684.375 0.114863407178 -81.617661757
685.0 0.145673129802 -46.8523466575
685.625 0.119174315228 -1.86361742471
686.25 0.102528425666 19.9605695427
686.875 0.0801011507522 43.7314631191
687.5 0.0884517155109 71.3353220091
688.125 0.0721679221023 113.383468237
688.75 0.095114127123 114.30580796
689.375 0.128104241437 118.6262
690.0 0.140046832692 128.382545726
690.625 0.110781134284 126.942421357
691.25 0.139394776914 97.4746487784
691.875 0.196701131633 62.9673280252
692.5 0.151235874447 36.1665055375
693.125 0.0998678167171 -22.1732212924
693.75 0.0842866528258 -35.1296733103
694.375 0.125618411341 -27.6399249799
695.0 0.11984711613 11.3869105686
695.625 0.106140669991 47.4817540264
696.25 0.108926518702 115.14203708
696.875 0.137989602965 168.426651747
697.5 0.142944839477 -146.488023733
698.125 0.140716791315 -135.255633026
698.75 0.131889296858 -131.877438226
699.375 0.103813209461 -123.224247411
700.0 0.0881353346849 -112.409107177
700.625 0.122275360922 -103.483392876
701.25 0.0900034350204 -61.0320835175
701.875 0.0796045527596 -61.2015393453
702.5 0.0956057572087 -83.5240540571
703.125 0.167773068599 -128.581142585
703.75 0.196301430555 -162.506396399
704.375 0.130872115358 168.816739222
705.0 0.108428919044 160.830826366
705.625 0.134761857563 -169.028359877
706.25 0.15929392071 -125.212445329
706.875 0.0829701296924 -54.9641394119
707.5 0.0739074712364 -38.0649257619
708.125 0.0848197283654 17.3896055721
708.75 0.110591058154 50.4858423776
709.375 0.105173975536 113.37291838
710.0 0.103356823016 127.703390881
710.625 0.107238571113 147.941107517
711.25 0.116961453909 161.824087784
711.875 0.146049233251 171.409162336
712.5 0.150099395607 146.173142301
713.125 0.118897128878 101.460699491
713.75 0.108005764203 37.2041752785
714.375 0.112753731195 12.2639973962
715.0 0.11401424535 21.2587320189
715.625 0.0875503635302 46.8812654643
716.25 0.0795032308624 76.123154357
716.875 0.103050186596 88.2822244825
717.5 0.151697248539 157.669481453
718.125 0.120104149499 165.639308498
718.75 0.0923794300057 169.544450531
719.375 0.116127331391 -173.91002112
720.0 0.126167631519 -141.593679864
720.625 0.117159683489 -76.9476568536
721.25 0.100598843756 -30.9818771368
721.875 0.0881390520497 9.1337799739
722.5 0.0835014213006 89.7814126212
723.125 0.0947681382967 78.9613873292
723.75 0.107833339038 44.7223708839
724.375 0.108896932869 -9.45530495304
725.0 0.0933738485507 -43.1858281376
725.625 0.100642853244 -65.7050326362
726.25 0.127718585503 -61.8946548498
726.875 0.106411345278 -51.5065581864
727.5 0.0780896807027 -51.8718153631
728.125 0.104806830759 13.5124659775
728.75 0.0977374957605 19.0497560983
729.375 0.0804547500337 20.5848611854
730.0 0.0661526315186 -5.50363859241
730.625 0.0492571327239 1.86325728219
731.25 0.0740617208825 64.533381846
731.875 0.0654629354796 106.827857228
732.5 0.0771207190456 148.42941627
733.125 0.0593597941904 154.444256897
733.75 0.0781155381512 172.154566318
734.375 0.053137497768 165.92339585
735.0 0.045079628519 128.61756738
735.625 0.0691526727336 148.6097145
736.25 0.0390151438068 140.597058098
736.875 0.0316886580639 172.040456715
737.5 0.0722416638547 176.268659641
738.125 0.0685683546568 178.432603597
738.75 0.0838133839719 -178.705162549
739.375 0.0554970881088 -178.670081978
740.0 0.0516643574169 -147.598416714
740.625 0.0195110472422 -122.548658856
741.25 0.085094680877 -155.245114612
741.875 0.0512491780631 -113.972308285
742.5 0.0158569052115 -2.92792336872
743.125 0.0217077078688 113.42202111
743.75 0.0682963896099 76.5909559856
744.375 0.0514056364556 90.1470683951
745.0 0.0694672294206 110.711781377
745.625 0.0683328671872 146.114423489
746.25 0.0962083658346 68.0725087501
746.875 0.065568066308 39.6749831318
747.5 0.0290056291909 19.4892230979
748.125 0.0225459313387 -11.0788248737
748.75 0.0251395521628 51.6106790741
749.375 0.0554562970223 -68.9465866171
750.0 0.0372348624205 -119.573562362
