!Created with skrf (http://scikit-rf.org).
# GHz S MA R 50.0 
!freq magS11 angS11
500.0 0.0132599337132 -173.093869344
500.625 0.0165058070605 25.5141835613
501.25 0.0229826655511 -173.408218286
501.875 0.024963179636 -177.121920756
502.5 0.0198280118516 154.305710861
503.125 0.0130429437895 50.0384230097
503.75 0.00756440824081 -21.3250754509
504.375 0.0177656338939 -61.2888736992
505.0 0.0203038382246 -61.999198668
505.625 0.0436466865881 -79.9899997259
506.25 0.0281553384724 -119.728572779
506.875 0.0682087000419 -95.2236694415
507.5 0.0597732365789 -106.902778609
508.125 0.0442630323622 -99.5965544169
508.75 0.0629269164055 -126.805190672
509.375 0.05605584462 -146.076684007
510.0 0.0603271418285 -106.774004416
510.625 0.043656666097 -158.844872052
511.25 0.0651299430079 -170.7473821
511.875 0.0574799649192 149.711696493
512.5 0.042842083327 109.949538301
513.125 0.0632618680131 56.6596433485
513.75 0.0568391363206 40.4472404181
514.375 0.0440826299081 25.3218941749
515.0 0.0761445270159 8.80368766077
515.625 0.0689949570569 42.7539457628
516.25 0.0881602074874 27.9653253671
516.875 0.105481492643 66.4965641109
517.5 0.142583996521 22.4215991939
518.125 0.169111084272 61.4022825499
518.75 0.083165930488 12.3000911883
519.375 0.0744417136679 22.877439247
520.0 0.112926427537 -0.441332279181
520.625 0.0935144562873 -9.53751522681
521.25 0.0809413225657 -24.7486495243
521.875 0.0638967552665 -3.28311697821
522.5 0.115622971331 -31.5935789843
523.125 0.162063499536 -42.0389264004
523.75 0.21140209408 -57.2586503347
524.375 0.204870295116 -52.7945370039
525.0 0.0823255738456 -35.2134970715
525.625 0.041245502039 -28.7969478001
526.25 0.0535414719541 -5.16127927493
526.875 0.0595683805475 -17.0343959007
527.5 0.0583907903282 -23.7490438515
528.125 0.0424632138002 -55.7970842317
528.75 0.0568733035308 -70.7724680675
529.375 0.0948287200576 -106.755760861
530.0 0.044406758554 -133.260789992
530.625 0.0399073983679 -141.602897843
531.25 0.119541308322 -140.410546789
531.875 0.187980910158 -146.767570117
532.5 0.148206313128 -169.897175185
533.125 0.102242612373 174.329587785
533.75 0.122109692577 169.310785605
534.375 0.118210516511 -179.252758932
535.0 0.0994371956204 164.442638306
535.625 0.0579457648337 176.228686811
536.25 0.0710452328158 163.27016573
536.875 0.0934582046829 -161.556248383
537.5 0.0927557205533 -143.903380316
538.125 0.104655665732 -172.863403687
538.75 0.1127578471 -178.770062745
539.375 0.0861742363712 -160.866239003
540.0 0.105276181434 -156.726379174
540.625 0.136950808984 -156.941239543
541.25 0.129708895631 -143.007855415
541.875 0.108510607847 -145.120769053
542.5 0.103067018838 -139.616778983
543.125 0.144250780523 -167.414122214
543.75 0.139240579976 159.663381553
544.375 0.0987059131034 136.490705051
545.0 0.100222299853 90.1049561077
545.625 0.09066168165 83.61549574
546.25 0.0878981745609 68.9838281339
546.875 0.0835290047293 55.0341853202
547.5 0.124643509116 57.2751591492
548.125 0.122009041524 79.3482607648
548.75 0.0949955273902 91.2284498867
549.375 0.102003868554 87.9807744792
550.0 0.101601315865 125.530526739
550.625 0.0444713316384 158.80022357
551.25 0.0390448143533 -132.106801314
551.875 0.0689072571884 -163.506469306
552.5 0.119849766203 -167.597286855
553.125 0.0950410218014 -169.170245832
553.75 0.0944567610232 -171.552341951
554.375 0.113176769426 165.641860202
555.0 0.136185893363 161.502352731
555.625 0.0884441184455 161.954535762
556.25 0.0995643374255 163.336102691
556.875 0.115912401911 165.807998002
557.5 0.122519445967 165.928243577
558.125 0.0937505627955 166.247373806
558.75 0.0788274162449 -179.140510157
559.375 0.0694638482353 -171.894616968
560.0 0.050871187118 -150.441767269
560.625 0.0540592609429 -129.683362179
561.25 0.0865460107602 -147.448553253
561.875 0.105318207216 -162.724041641
562.5 0.0997270044748 169.368797107
563.125 0.101875912334 146.236963099
563.75 0.132127909908 131.583797907
564.375 0.107826361078 120.724061763
565.0 0.09220760593 118.592752981
565.625 0.0753450598722 121.746712556
566.25 0.0891268484389 156.84423561
566.875 0.0716940432576 -178.174801292
567.5 0.0794019862668 177.26267231
568.125 0.0742163858409 -165.922478067
568.75 0.0727421601498 -149.036651387
569.375 0.0527079894937 -116.752505065
570.0 0.0625436854914 -115.747024881
570.625 0.0863415294853 -107.448955043
571.25 0.0897390331677 -117.628489766
571.875 0.0845452316824 -128.896828116
572.5 0.115720941004 -162.219549741
573.125 0.135305444973 -171.02284558
573.75 0.106496804525 161.184685006
574.375 0.0807107314534 150.866388436
575.0 0.113895668375 145.942517268
575.625 0.101180786108 162.667380102
576.25 0.0846785449121 148.359581674
576.875 0.0820530840942 127.852455393
577.5 0.092810636006 128.930312585
578.125 0.0558766070497 168.49670643
578.75 0.0466736236356 166.523770039
579.375 0.0510335194042 165.758011084
580.0 0.0715230916698 173.075711536
580.625 0.0790374071808 -145.635396658
581.25 0.0908022154834 -163.991984728
581.875 0.117481120486 176.714947301
582.5 0.12113364593 -179.360177537
583.125 0.097382162449 -173.635936259
583.75 0.0822351391919 -167.849060676
584.375 0.106085512978 -160.551886897
585.0 0.0962580248365 -144.588527054
585.625 0.074838235701 -149.741639026
586.25 0.0722227407876 -142.933227654
586.875 0.0841091474918 -143.931436478
587.5 0.0756827817341 -149.800893908
588.125 0.0604341548182 178.422942577
588.75 0.0668380962379 -166.979561086
589.375 0.0829802988288 -158.761265176
590.0 0.093186579516 -169.874632435
590.625 0.102619163688 158.833060121
591.25 0.121691799255 153.509414572
591.875 0.092492456312 162.182097726
592.5 0.0619534117684 146.433605737
593.125 0.0642849693695 139.152253104
593.75 0.076151551847 167.674946974
594.375 0.0592249659718 -155.16102539
595.0 0.0421645922969 -122.726320303
595.625 0.0528358589912 -115.119252538
596.25 0.0783842542804 -81.7973900188
596.875 0.0702514152552 -67.6302625592
597.5 0.0576868863484 -59.8364458925
598.125 0.0596389816706 -70.1517342786
598.75 0.0809604454418 -63.4802105511
599.375 0.0832817967058 -71.6743264878
600.0 0.096955556102 -72.0345285139
600.625 0.0981900025835 -67.640495093
601.25 0.0840004874314 -77.6504038298
601.875 0.0687155112327 -93.3651578145
602.5 0.0614072157727 -86.790437311
603.125 0.0445489902059 -80.5701945029
603.75 0.0398387583967 -14.4736346058
604.375 0.0404219439201 -24.440460903
605.0 0.0550737194252 -15.5475932909
605.625 0.0459373039953 -22.4426797561
606.25 0.0237959423496 8.3701222643
606.875 0.0279124301171 50.2133011748
607.5 0.0518710253503 38.8300794905
608.125 0.0519998967385 20.2178757451
608.75 0.0775406410054 29.9279295374
609.375 0.0637332760985 29.4250743709
610.0 0.0715502996538 43.9435315088
610.625 0.054349958818 25.1660226262
611.25 0.0505493988531 35.2787375007
611.875 0.0332081678269 42.8201367762
612.5 0.0105572797826 54.3032568283
613.125 0.0213938913762 128.997270048
613.75 0.0242133356898 128.579873243
614.375 0.0693283726753 130.074418547
615.0 0.0442402306206 119.617369851
615.625 0.0308131830124 133.765938896
616.25 0.0209943025789 163.417116829
616.875 0.0738212062599 134.585410263
617.5 0.0419789841348 119.497349811
618.125 0.0208673958207 125.009696017
618.75 0.00645088071188 -127.934172764
619.375 0.044516081406 154.665634334
620.0 0.00495350760415 48.7493113054
620.625 0.0217134892926 -79.1506867955
621.25 0.0526800143283 -79.6978270489
621.875 0.0644092356845 -119.063313679
622.5 0.0724656255394 -172.134754643
623.125 0.0810556323233 165.551781635
623.75 0.0442772507442 -167.813674926
624.375 0.0664659498035 176.491431336
625.0 0.039409897745 -145.214137242
625.625 0.0423247293186 -144.516537703
626.25 0.00400274649069 175.329316107
626.875 0.00298660195167 -30.7449271049
627.5 0.0323908574933 -19.3023320971
628.125 0.0486632854104 -6.96498866736
628.75 0.040204849423 -6.15798186782
629.375 0.0568741480396 -0.123606563051
630.0 0.069294634466 -2.64503272107
630.625 0.0806803905466 18.3800376714
631.25 0.079566351005 16.0444995332
631.875 0.067119627074 -4.92602545009
632.5 0.0634203598159 -0.619755382378
633.125 0.0484218126379 24.6962754389
633.75 0.0399365176975 16.2290289089
634.375 0.0549155069138 34.3577524667
635.0 0.035091624694 -16.6570827869
635.625 0.0361209551111 41.3853713742
636.25 0.0553363165599 32.6750567309
636.875 0.0762741195227 47.6436325312
637.5 0.055536842072 55.135043863
638.125 0.0454857456786 67.6436826498
638.75 0.0950172967821 79.7366172603
639.375 0.0980724311115 96.3423112888
640.0 0.0803739737244 110.373095293
640.625 0.0577682261302 104.799025451
641.25 0.0553462092858 117.447501774
641.875 0.069670538109 155.534722492
642.5 0.0535746301419 154.425632188
643.125 0.0581188749755 160.738191629
643.75 0.0843996097966 178.088636042
644.375 0.0839057520861 -169.496752448
645.0 0.0836631087422 179.457654271
645.625 0.0933587766766 168.546109147
646.25 0.0935604374434 168.578446011
646.875 0.0701496658662 -179.328658065
647.5 0.0822108737255 -174.009582145
648.125 0.0761819498319 179.053461197
648.75 0.0717589481572 -166.36689202
649.375 0.0460657721724 -157.620400892
650.0 0.0659994275071 -119.780673248
650.625 0.0540088880346 -89.2049774319
651.25 0.0709804853191 -63.5308716171
651.875 0.0648062232377 -45.8185961831
652.5 0.103205868822 -25.0838906449
653.125 0.119322364037 -2.35529774814
653.75 0.106281164694 5.28379514584
654.375 0.114249877561 7.80341165052
655.0 0.131530874516 14.5198552019
655.625 0.0766766431684 19.1070232642
656.25 0.0606952322588 21.9236008153
656.875 0.0674037986038 1.60354691657
657.5 0.0948057192061 24.0068018753
658.125 0.082786685508 48.8766166981
658.75 0.0632169492029 61.8706650172
659.375 0.09309048059 35.7114760053
660.0 0.123267479639 24.6068940085
660.625 0.125478976556 16.4551900639
661.25 0.109440939198 3.91832957768
661.875 0.114562944906 -12.2361537596
662.5 0.12997394344 -20.1489951592
663.125 0.0978669630365 -18.0950804706
663.75 0.10619610077 4.93387667267
664.375 0.112917707336 55.380272511
665.0 0.08883851821 90.6233353238
665.625 0.0541134155034 115.364038643
666.25 0.078157488648 133.619618891
666.875 0.121171942477 169.765915789
667.5 0.111020273057 -172.486490127
668.125 0.0903470050819 -174.282990677
668.75 0.121074303492 170.338341355
669.375 0.125618025811 172.133440208
670.0 0.0990154675667 -171.93215806
670.625 0.0746757482874 -167.989830547
671.25 0.117134733786 173.966299848
671.875 0.107282509262 166.006474252
672.5 0.0823342550073 155.070691547
673.125 0.0736315543119 160.061790016
673.75 0.107528115888 161.901654737
674.375 0.115512165128 168.307343175
675.0 0.126079094069 -178.211233853
675.625 0.109943900296 -145.259082776
676.25 0.121138100895 -124.600082013
676.875 0.111137533992 -119.985676473
677.5 0.137941944253 -131.725991706
678.125 0.106391165833 -115.168215383
678.75 0.074616124127 -93.5816217999
679.375 0.0576967670015 -79.8759875877
680.0 0.0853052021881 -84.7199740993
680.625 0.133172243764 -80.4089283285
681.25 0.103471766542 -70.7919820517
681.875 0.100538365154 -91.3680989404
682.5 0.133232956143 -119.366488976
683.125 0.180760697155 -126.114752374
683.75 0.125085188581 -100.81388353
684.375 0.121184196431 -79.9243914171
685.0 0.141137476177 -41.3488439907
685.625 0.140493779226 -4.36482559296
686.25 0.116609221373 20.7058985428
686.875 0.0933742052461 43.6097296525
687.5 0.0886453918382 78.9593064825
688.125 0.0870903864903 103.788786409
688.75 0.107488209061 108.204708326
689.375 0.14756324521 118.409583256
690.0 0.134247103118 134.70343495
690.625 0.123975790156 124.639369509
691.25 0.147684940859 93.4967814916
691.875 0.171375834306 74.6220686866
692.5 0.13334768326 41.2493790969
693.125 0.0829900185756 -16.5497676702
693.75 0.103276216199 -45.0635566379
694.375 0.133654388741 -26.7464481225
695.0 0.134482991283 11.3895350401
695.625 0.101873597398 57.8968402937
696.25 0.120270394469 110.718469056
696.875 0.14679228771 165.733489416
697.5 0.138403091687 -137.774580648
698.125 0.138661934227 -132.120487207
698.75 0.134453570203 -132.972052423
699.375 0.115288573872 -127.829829132
700.0 0.0992297515161 -115.15007438
700.625 0.119852157251 -97.297716347
701.25 0.104825553937 -66.7535389272
701.875 0.0858761637613 -66.4755166834
702.5 0.10038013683 -86.4758316062
703.125 0.172459909705 -118.47281106
703.75 0.179539823198 -153.786741429
704.375 0.137257308553 164.63586788
705.0 0.107818073498 162.479251753
705.625 0.146478843225 -173.802248129
706.25 0.155067602775 -118.948642296
706.875 0.0957023605053 -67.4695858613
707.5 0.0808252201398 -45.1149482431
708.125 0.0915367394555 15.8745021249
708.75 0.115247420664 62.0196343109
709.375 0.107616937581 102.467468299
710.0 0.102707109162 122.543147411
710.625 0.109428858757 165.539809304
711.25 0.121490457165 171.320270966
711.875 0.145167524219 159.939951311
712.5 0.157531865338 138.654014659
713.125 0.124762845726 96.7933609329
713.75 0.101424560233 49.4359182181
714.375 0.108521706517 26.3954530378
715.0 0.119723247516 11.8964249478
715.625 0.0891988932314 65.5105377525
716.25 0.0782075683302 72.8415174026
716.875 0.109068987576 96.0415736428
717.5 0.144216839314 141.844902262
718.125 0.116811554027 157.512886793
718.75 0.101899740047 174.147431229
719.375 0.121818150391 -165.227618752
720.0 0.124758272448 -126.332391175
720.625 0.113622551909 -88.3542122189
721.25 0.0968420106275 -16.959554283
721.875 0.0842673515812 17.967145294
722.5 0.0711270563061 61.6671725504
723.125 0.0765705163855 64.0151555884
723.75 0.111120403691 37.1716918147
724.375 0.122330411678 2.4858564753
725.0 0.0921729304673 -42.0787616924
725.625 0.0823147636276 -81.4657837636
726.25 0.121256871567 -65.5858819344
726.875 0.100214429636 -51.6908087423
727.5 0.0766747663943 -38.452120573
728.125 0.0717705270945 -10.3387501589
728.75 0.0711089264686 1.9827587195
729.375 0.0826162924924 13.8554381563
730.0 0.0774162859332 10.6110142202
730.625 0.0633560392772 26.2893420503
731.25 0.0402021679316 41.9580498803
731.875 0.0944569325629 124.679737745
732.5 0.0715931009943 150.136312337
733.125 0.0647812885809 164.648684859
733.75 0.0489506104745 140.833350361
734.375 0.0745292643644 175.705735881
735.0 0.0681678913544 151.371068588
735.625 0.0424150663064 130.674834991
736.25 0.0024562475871 -142.184257279
736.875 0.0813793956479 164.045677786
737.5 0.0938274285429 174.302666435
738.125 0.0907198673051 -167.100442342
738.75 0.0386191582983 166.267742289
739.375 0.0848833863572 -156.469835458
740.0 0.037205753298 -127.112553911
740.625 0.0323919127458 -144.436321559
741.25 0.0366930383825 -152.020086212
741.875 0.0107393714478 -61.7411638933
742.5 0.0699242031703 -23.552816046
743.125 0.023352538914 69.940616127
743.75 0.0244540913727 114.457211096
744.375 0.0378645115764 166.888077903
745.0 0.047996551449 150.450332463
745.625 0.0639093065933 140.529481894
746.25 0.0700497203649 91.128056761
746.875 0.0534815121278 70.624284062
747.5 0.0603919079894 3.97201095033
748.125 0.0235372600201 -8.82130722428
748.75 0.0293854506179 33.9690964646
749.375 0.0308410261781 -13.634694939
750.0 0.0353231516844 -54.606481909
