!Created with skrf (http://scikit-rf.org).
# GHz S RI R (50+0j) 
!freq	ReS11	ImS11	
500.0	0.1766485282	-0.640400278	
500.625	0.8152682273	-1.741776138	
501.25	-1.012703255	-0.5503660688	
501.875	-0.01895427849	-0.6298363437	
502.5	-0.1304322695	-0.2612086987	
503.125	-0.03562876237	0.03233515628	
503.75	-0.04388610871	0.1287222394	
504.375	0.01917302366	-0.06368127832	
505.0	0.03831959135	0.02008579363	
505.625	-0.03555418896	-0.1254249001	
506.25	-0.02367773636	0.0519411909	
506.875	-0.5668943224	0.0303148131	
507.5	-0.2858417116	0.02989690611	
508.125	0.7131496576	-1.022859112	
508.75	0.5049339214	-1.908765943	
509.375	-0.6019055103	-0.9196135339	
510.0	-0.2840124372	-0.7594432566	
510.625	-0.2669889855	-0.1337332273	
511.25	-0.01747324511	-0.01048652273	
511.875	-0.1995186713	-0.06964830258	
512.5	0.06093800703	0.06287780888	
513.125	0.02851629946	-0.04006991019	
513.75	-0.1490868411	-0.1315270117	
514.375	-0.02886272564	0.1048361775	
515.0	0.07843466791	-0.4036457255	
515.625	-0.2594705209	0.2177505785	
516.25	0.3285726742	-1.842889787	
516.875	-0.7635741934	-0.7699777382	
517.5	-0.1053771777	0.01052634357	
518.125	-0.05934044869	-0.1440926263	
518.75	0.06162978084	-0.07415889742	
519.375	-0.08684338731	0.008749309846	
520.0	0.2063734887	0.09024208847	
520.625	0.1499675913	-0.1465539145	
521.25	-0.03551332896	-0.3174405348	
521.875	-0.3035820653	-0.1145751741	
522.5	0.03195134944	0.1186452307	
523.125	-0.1492647186	-0.07143807316	
523.75	-0.2124973964	0.1326118029	
524.375	-0.007855118326	-0.04375197676	
525.0	-0.2075474879	0.2828234273	
525.625	0.1805859443	0.003201952695	
526.25	-0.07411285924	0.08310837745	
526.875	0.03448645786	0.0424142465	
527.5	-0.1944105471	0.1599014405	
528.125	0.1714042659	0.5283740635	
528.75	-0.005429346272	0.1649602075	
529.375	-0.01320359418	0.1694605818	
530.0	0.01956417875	0.1610710998	
530.625	0.04336301308	0.3019216094	
531.25	0.5942713667	0.2158181184	
531.875	0.08412300956	-0.3467148362	
532.5	0.02258692045	-0.01225110958	
533.125	-0.1563406288	-0.1632146878	
533.75	0.07058076367	0.0666191403	
534.375	-0.2579828175	-0.4677585391	
535.0	-0.2208370319	0.01037048077	
535.625	-0.2442037837	0.08103175393	
536.25	0.009144269233	0.1830729052	
536.875	0.07197001977	-0.01942580446	
537.5	0.1323011906	-0.02101014636	
538.125	0.1151849478	-0.158066998	
538.75	0.141452351	-0.1005133971	
539.375	-0.09822446073	-0.2946183477	
540.0	-0.2673262346	-0.08100779647	
540.625	-0.1298251833	-0.07469175451	
541.25	-0.150631313	-0.03329733263	
541.875	-0.00244031824	0.03587085762	
542.5	0.01121306547	-0.1032105735	
543.125	-0.1312230109	0.03980204283	
543.75	0.05813831939	0.0082092498	
544.375	-0.10879566	0.09936310063	
545.0	0.02270977992	0.006916868958	
545.625	0.03594527872	0.1541941492	
546.25	0.1988498843	-0.03232836994	
546.875	0.08876589817	0.01340972417	
547.5	0.1371294003	-0.2132629522	
548.125	-0.1277005061	-0.1625031075	
548.75	-0.06385087234	-0.1334380324	
549.375	-0.1973526697	-0.1282652194	
550.0	-0.05351624647	0.05860608318	
550.625	-0.1041766055	-0.03632302328	
551.25	-0.07992240513	0.09197555741	
551.875	-0.08969302435	0.04841620632	
552.5	-0.0718349905	0.1367151146	
553.125	0.002006183384	0.06012906696	
553.75	0.04656000824	0.07104620774	
554.375	0.1238499064	-0.02077172802	
555.0	0.1187070591	-0.08670011075	
555.625	0.1136223299	-0.1470175087	
556.25	0.07214070154	-0.1915430436	
556.875	-0.05480256152	-0.1996611764	
557.5	-0.1272191891	-0.1317351351	
558.125	-0.1602510769	-0.04941381655	
558.75	-0.1372043056	0.009012512034	
559.375	-0.137554213	0.02195820087	
560.0	-0.1337650947	0.1124600073	
560.625	-0.0395194641	0.138566452	
561.25	-0.02641043909	0.1173246802	
561.875	0.07785761839	0.06978286958	
562.5	-0.02335704898	0.04832799524	
563.125	0.139018303	0.1102905449	
563.75	0.1325894272	-0.04516671017	
564.375	0.1936271984	-0.08531029297	
565.0	0.07142524463	-0.2531236483	
565.625	-0.05518418875	-0.1339023152	
566.25	-0.09296693896	-0.2077031005	
566.875	-0.2363911887	-0.03821811578	
567.5	-0.1016170838	-0.1135651434	
568.125	-0.2352446597	-0.3312247337	
568.75	-0.2851863574	0.0002259031943	
569.375	-0.2717456529	-0.03583270915	
570.0	-0.1991318206	0.3770708712	
570.625	0.06296050056	0.1660127626	
571.25	-0.1333723064	0.1491717795	
571.875	0.1991176414	0.05368754411	
572.5	0.05017254731	0.0485525005	
573.125	0.2394138938	-0.2262562543	
573.75	-0.06344874649	-0.1800820313	
574.375	0.08988631829	0.01934301372	
575.0	0.01126155446	-0.1795993602	
575.625	0.04405965334	0.03027395041	
576.25	0.1549963476	-0.2051219764	
576.875	-0.1192992148	-0.1904940104	
577.5	0.04246096374	-0.1058600568	
578.125	-0.005158691148	-0.3220262016	
578.75	-0.2651281787	-0.09514824437	
579.375	0.009038299464	-0.037678838	
580.0	-0.1551104998	-0.1529419535	
580.625	0.04715323982	0.1303462681	
581.25	-0.2728362641	-0.01361087548	
581.875	0.226105711	0.3050567388	
582.5	0.09185708575	0.01176977638	
583.125	-0.008285922688	0.1890224215	
583.75	0.1823001167	-0.03053295006	
584.375	-0.1035832988	0.1818641163	
585.0	0.2766291242	0.06744810542	
585.625	0.07552274812	-0.06709892365	
586.25	0.2247610319	0.02466037779	
586.875	0.005192865946	-0.3036489489	
587.5	-0.03212463244	-0.05524855486	
588.125	0.05761806961	-0.2475560603	
588.75	-0.06721269841	-0.2440753929	
589.375	0.05217898807	-0.0543237301	
590.0	-0.0621865362	-0.3566657512	
590.625	-0.2311608649	0.07928453813	
591.25	-0.1287908103	0.03894840476	
591.875	-0.1531427844	0.3001433333	
592.5	0.1463916268	-0.0127413744	
593.125	-0.1311055169	0.1555840553	
593.75	0.1575829783	0.05829231138	
594.375	0.06047537659	0.3027765466	
595.0	0.3298481072	0.2090321147	
595.625	0.2316753831	-0.04490973053	
596.25	0.1367022702	0.1559555363	
596.875	0.2948107449	-0.02668202642	
597.5	0.1263798127	0.004596767472	
598.125	0.1493549995	0.2343971372	
598.75	0.316860596	0.0244369606	
599.375	0.2365343905	-0.00505282781	
600.0	0.2903409599	-0.1697509316	
600.625	0.1504060671	-0.3042454475	
601.25	0.01480557717	-0.1418468842	
601.875	-0.007463592826	-0.2780676584	
602.5	-0.2309834615	0.09260771868	
603.125	-0.05406826407	-0.01118662866	
603.75	-0.2945932133	0.1489085037	
604.375	0.02967400238	0.1797772286	
605.0	-0.1947122355	-0.01329875607	
605.625	-0.1295764784	0.2286075883	
606.25	-0.08056116935	-0.06309680994	
606.875	-0.352651875	0.04927901178	
607.5	-0.07208069622	0.151390509	
608.125	-0.05412567867	0.1970636973	
608.75	0.2716525688	0.2642752364	
609.375	0.2985389039	-0.1434202552	
610.0	0.1431887761	-0.101674924	
610.625	0.2032420937	-0.2753218784	
611.25	-0.07356141773	-0.24278951	
611.875	0.01671090027	-0.1452317487	
612.5	-0.2908795267	-0.2036300432	
613.125	-0.1230162941	0.1624007635	
613.75	-0.2022269496	0.07104508023	
614.375	0.1470994109	0.2708854548	
615.0	-0.02177448445	-0.100864226	
615.625	-0.05771933238	0.2837577155	
616.25	0.1118685502	0.1413513655	
616.875	-0.2106628054	0.1999548772	
617.5	-0.001120777292	0.3637081076	
618.125	0.1448157842	0.2081975894	
618.75	-0.0958406341	0.1742086547	
619.375	0.178626376	0.2300454475	
620.0	0.4099963705	0.02873428499	
620.625	0.1769767708	-0.1537550916	
621.25	-0.2195007682	-0.2998567155	
621.875	-0.2179694679	0.02512934484	
622.5	-0.1833822582	-0.05107649679	
623.125	1.262356517e-06	0.3407621871	
623.75	0.1122828884	-0.05712288408	
624.375	0.1372456027	0.0313321384	
625.0	-0.05951959523	-0.1152249119	
625.625	0.1302251705	-0.04022432082	
626.25	-0.1120576271	-0.2647195627	
626.875	-0.1883595283	0.004675208665	
627.5	-0.1067900793	-0.1474564479	
628.125	-0.1955683181	-0.08956341558	
628.75	-0.06273416782	-0.05618478837	
629.375	-0.08063825757	-0.2516381507	
630.0	-0.3398462483	-0.03199126883	
630.625	-0.2077351219	0.2280084409	
631.25	-0.2332435549	0.2769094194	
631.875	0.03211928775	0.4254191909	
632.5	0.1644240485	0.1397159142	
633.125	0.1621270544	0.2345058131	
633.75	0.2225611603	-0.2222871103	
634.375	0.06307396371	-0.0759379537	
635.0	0.02454357023	-0.3097839121	
635.625	-0.2453496724	0.0394506873	
636.25	-0.1380896821	-0.01952428197	
636.875	-0.1496721955	0.2766725346	
637.5	0.08419785146	0.0635643505	
638.125	-0.190478487	0.1011525052	
638.75	0.006066995787	0.3656085869	
639.375	0.01621367121	0.1580677675	
640.0	0.1567249842	0.4250290827	
640.625	0.4459815591	0.07117507406	
641.25	0.2395001903	-0.09947017098	
641.875	0.3234448392	-0.2136948835	
642.5	-0.1401621441	-0.4175001564	
643.125	-0.05533850824	-0.04585809634	
643.75	-0.1701571784	-0.3728414569	
644.375	-0.2104774221	0.1963216806	
645.0	-0.1915472855	-0.04296680647	
645.625	0.1573554492	0.4256291165	
646.25	0.2636373312	-0.2558406553	
646.875	0.02753208261	0.1426285066	
647.5	0.2177565891	-0.107883212	
648.125	-0.02287075715	0.1647237346	
648.75	0.5927027106	-0.1073134373	
649.375	0.09231193122	-0.4362302411	
650.0	0.190248023	-0.1932590206	
650.625	0.4321031352	-0.4804555393	
651.25	-0.008695170529	-0.4364177174	
651.875	0.3036541603	0.006471745861	
652.5	0.5258334224	-0.2633690209	
653.125	0.1322818991	-0.2944781196	
653.75	0.2989725465	-0.138792902	
654.375	-0.2368602417	-0.5266866634	
655.0	-0.279656414	0.1052106088	
655.625	-0.2060605412	0.03999516821	
656.25	0.07790349467	0.4830948543	
656.875	0.07814442465	-0.1726873486	
657.5	-0.002119254173	0.336357636	
658.125	0.3316577213	0.04174451408	
658.75	0.1929351408	0.1030636726	
659.375	0.7781509793	-0.2322163507	
660.0	0.03522759302	-0.5336067123	
660.625	0.1803690239	-0.2564824474	
661.25	0.3004806285	-0.4871527963	
661.875	0.06904103519	-0.4648572704	
662.5	0.257362618	-0.08465562906	
663.125	0.4632983894	-0.4174997882	
663.75	-0.002701028383	-0.3800741634	
664.375	0.0674122371	-0.3695124289	
665.0	-0.4953498965	-0.3084238533	
665.625	-0.2572913203	0.2497856064	
666.25	-0.1971147985	0.2326043487	
666.875	0.2560812371	0.3523956585	
667.5	0.1810459843	-0.03510081234	
668.125	0.3057400999	0.1665716296	
668.75	0.2453729514	-0.4214591862	
669.375	0.005584075456	-0.1385769238	
670.0	0.1485860142	-0.3030451319	
670.625	-0.256251921	-0.3844474903	
671.25	0.0614775128	-0.03539541073	
671.875	0.2690934451	-0.4288407385	
672.5	0.1055997777	-0.2935498659	
673.125	0.2509008064	-0.08757212209	
673.75	0.2869985599	-0.4582740106	
674.375	-0.161363165	-0.289511916	
675.0	-0.002189003564	-0.2455125628	
675.625	-0.3838257008	-0.2129585375	
676.25	-0.1685534952	0.1608228368	
676.875	-0.1197785656	-0.1346304353	
677.5	-0.3079457755	0.2011653158	
678.125	0.00832348122	0.1401561186	
678.75	-0.07939706327	0.3122601562	
679.375	0.5547770857	0.05581663165	
680.0	-0.07015076341	-0.1609963025	
680.625	0.2650718942	0.003783415347	
681.25	0.1208171029	-0.2816572365	
681.875	-0.1328392649	0.3230670065	
682.5	0.5217659715	0.2436242095	
683.125	0.2274348883	-0.2266042483	
683.75	0.3010209784	0.3904422748	
684.375	0.5677178344	0.1007457552	
685.0	0.06805457685	-0.1151405536	
685.625	0.296034987	0.2797345231	
686.25	0.5326508897	-0.2878732697	
686.875	0.1321612172	-0.2311584592	
687.5	0.4206488113	-0.4345130394	
688.125	-0.3381043207	-0.7487773568	
688.75	-0.3351731778	0.03739388512	
689.375	-0.5233619658	0.3711000038	
690.0	0.3267195651	0.5371435938	
690.625	0.1752891467	0.07858413726	
691.25	0.4568126622	0.6077021874	
691.875	0.7902521749	0.07220898323	
692.5	0.419092338	0.3183817065	
693.125	1.095818432	0.06425244662	
693.75	0.680110439	-0.6998521572	
694.375	0.5888720032	-0.100520087	
695.0	0.8287935465	-0.4176087131	
695.625	0.3324710069	-0.1822954255	
696.25	0.4130996608	0.2663485212	
696.875	0.8141234052	0.6582509923	
697.5	0.4464059285	0.4736078311	
698.125	0.7221766729	0.1819833481	
698.75	0.5215287518	-0.7736367913	
699.375	-0.7574565128	-0.1743303326	
700.0	-0.2661723689	0.1886355239	
700.625	0.01920852499	0.5855398809	
701.25	0.2953518665	-0.003452911575	
701.875	0.1842341616	0.4060689345	
702.5	0.6757121904	0.3401929682	
703.125	0.3557328591	-0.08116913386	
703.75	0.5553647395	0.04492727686	
704.375	0.4500250162	-0.425186848	
705.0	0.1138071549	-0.1110714593	
705.625	0.4082959815	0.2241371055	
706.25	0.2187567715	0.1340356481	
706.875	0.1565033941	0.2716108749	
707.5	0.3997723464	0.5802011962	
708.125	0.7300968711	-0.2074515432	
708.75	0.1006367945	-0.7645599127	
709.375	-0.4651746528	-0.3920561811	
710.0	-0.05184874492	0.4701319162	
710.625	0.1861180699	-0.080639268	
711.25	0.1199089885	0.4433639839	
711.875	0.2224454352	-0.0744697674	
712.5	0.4014491663	0.1120781328	
713.125	0.4095953451	-0.3630604836	
713.75	-0.0498266211	-0.3426135983	
714.375	0.1586932129	-0.2220935399	
715.0	-0.1331220112	-0.4101782888	
715.625	-0.06528798476	-0.1663092924	
716.25	0.3852843453	-0.2469703928	
716.875	0.4774460276	-0.4043468078	
717.5	0.3434067223	-0.02269090394	
718.125	1.11294118	0.2278675267	
718.75	1.071872751	-0.6940956816	
719.375	0.5033184857	-0.644373273	
720.0	1.04241475	-0.9106352994	
720.625	-0.4756800826	-1.150014497	
721.25	-0.07251993663	-0.8597086436	
721.875	-0.08128682369	-1.960573148	
722.5	-1.299387118	-0.6007374432	
723.125	-0.5485216134	-0.2189352081	
723.75	-0.6691089761	0.870186983	
724.375	0.4714483367	0.4687179689	
725.0	-0.007801644547	0.3813569907	
725.625	0.3530932401	0.8893108986	
726.25	0.3830670476	0.5374912888	
726.875	-0.4624430755	1.139768402	
727.5	0.07794965066	2.394649137	
728.125	1.026066066	1.905733106	
728.75	-1.270869382	3.156647514	
729.375	0.9561467995	6.242506663	
730.0	2.365956173	3.622632857	
730.625	-1.219269715	4.145670916	
731.25	0.6719328157	6.688906612	
731.875	0.8746709887	3.854179016	
732.5	-4.67458869	0.8553587394	
733.125	-4.485955793	2.775400637	
733.75	0.2122585709	1.479802772	
734.375	1.090406911	1.076308622	
735.0	-1.001766983	-1.206956084	
735.625	-0.1680153242	0.1293424202	
736.25	-0.3158354453	0.8996471911	
736.875	1.222961623	0.4591310546	
737.5	0.2751146426	0.1535910353	
738.125	3.078173762	-0.2833757261	
738.75	1.723603676	-3.049644374	
739.375	0.7475877494	-1.11307843	
740.0	7.166941404	0.1318903168	
740.625	6.331244689	-7.171937666	
741.25	-2.90981773	-0.5796716322	
741.875	-8.68843679	5.52142615	
742.5	-1.884173519	0.5484914431	
743.125	2.171359165	-2.569925736	
743.75	-0.7831176755	-1.849542974	
744.375	-0.3487983568	0.3985616705	
745.0	-0.1152436398	0.1939752257	
745.625	0.05743520468	-0.3164354783	
746.25	0.0921590203	-0.09662333593	
746.875	-0.3892657179	0.08925412264	
747.5	0.104805876	0.4649331821	
748.125	0.03968699486	0.5257587406	
748.75	0.4860853507	0.8299054875	
749.375	0.3802759101	0.5178744762	
750.0	-0.4886976572	0.2155390549	
