!Created with skrf (http://scikit-rf.org).
# GHz S RI R (50+0j) 
!freq	ReS11	ImS11	
500.0	-0.2661037344	-0.7329863163	
500.625	0.5145376007	-0.4648176789	
501.25	-0.5568066456	-0.7942673127	
501.875	-0.1189725885	-0.09799024583	
502.5	0.009486563455	-0.1601280532	
503.125	-0.04325831285	0.04415753767	
503.75	-0.04489202002	0.04646880615	
504.375	0.04649087718	-0.01302950661	
505.0	-0.008552790102	0.001304930768	
505.625	0.02343742495	-0.08321699368	
506.25	-0.1185489129	-0.003622919766	
506.875	-0.04277654578	-0.1804292957	
507.5	-0.3666079034	-0.3357322395	
508.125	0.2426473488	-0.2270221956	
508.75	0.6360473089	-1.152295954	
509.375	-0.3934699631	-0.8731285758	
510.0	-0.1272674546	-0.1580824024	
510.625	-0.1645238055	-0.2143856344	
511.25	-0.1036719742	0.03429035866	
511.875	-0.07666165177	-0.09860313559	
512.5	-0.008735577793	0.06632307079	
513.125	-0.01968876404	-0.01398795022	
513.75	-0.0159657995	-0.08744368256	
514.375	-0.09116450281	0.07453641594	
515.0	0.1906917169	-0.1739780887	
515.625	-0.3443147561	-0.2919737134	
516.25	0.3763761562	-0.5089813036	
516.875	-0.1369530065	-0.6470464462	
517.5	-0.1774923703	-0.1621832179	
518.125	0.04404677862	-0.02752124804	
518.75	-0.09612348487	-0.06293073439	
519.375	-0.02518846937	0.01149697266	
520.0	0.103655617	0.04586814356	
520.625	0.1402035498	-0.1034172793	
521.25	-0.01935819064	-0.2355683243	
521.875	-0.09269890067	-0.09281063565	
522.5	-0.08958740699	0.07349845771	
523.125	0.03932565255	-0.06002713481	
523.75	-0.207683326	-0.06157109271	
524.375	-0.04802281344	0.1288910385	
525.0	-0.1294030729	0.03372837909	
525.625	0.1083804666	0.09975845117	
526.25	-0.08675483526	-0.03435278562	
526.875	0.006341707488	0.08048315726	
527.5	-0.08922707625	0.08671271028	
528.125	-0.009037430847	0.2780450906	
528.75	-0.0199894404	0.07609261339	
529.375	-0.008062536589	0.01490376505	
530.0	0.0515135911	0.1780151058	
530.625	0.1776461985	0.2583470541	
531.25	0.3419217604	0.1905187949	
531.875	0.1725519676	-0.2861998309	
532.5	-0.0867978265	0.006273544428	
533.125	0.07696064819	-0.164006962	
533.75	-0.02488363751	-0.05332377176	
534.375	0.001234555591	-0.2907619621	
535.0	-0.2890360108	-0.05046893549	
535.625	-0.07888400022	0.06488587587	
536.25	-0.02635436155	0.09915257325	
536.875	0.09061328955	-0.02699412757	
537.5	0.04990045358	0.0007264309418	
538.125	0.1219132709	-0.0952036686	
538.75	0.04780035756	-0.0825956994	
539.375	-0.02020825432	-0.1632741686	
540.0	-0.159185668	-0.1398690154	
540.625	-0.1584431465	0.01727246884	
541.25	-0.06310393799	-0.03784211328	
541.875	-0.08403767602	0.03001492887	
542.5	0.01569080024	-0.03915922249	
543.125	-0.1115651059	-0.09318064527	
543.75	-0.01921356751	0.03269889572	
544.375	-0.0873166431	0.01179218467	
545.0	0.05796780432	0.07290493881	
545.625	-0.007363744015	0.05283878666	
546.25	0.1524070217	0.06989753868	
546.875	0.0613558991	-0.07032625823	
547.5	0.08622122494	-0.05703184175	
548.125	-0.0744012471	-0.194602072	
548.75	-0.08918337315	-0.04204358715	
549.375	-0.08161337069	-0.1022858889	
550.0	-0.0921458637	0.04895091975	
550.625	-0.02345624198	-0.02347138488	
551.25	-0.09446694754	0.04076940888	
551.875	-0.02932219077	0.05990985792	
552.5	-0.0478717378	0.04159680127	
553.125	0.0006197338689	0.07119668195	
553.75	0.03129766134	0.03494236528	
554.375	0.09121794034	-0.003308935254	
555.0	0.07476034421	-0.07296605558	
555.625	0.07486973401	-0.09599496583	
556.25	0.05548606252	-0.1340747677	
556.875	-0.03952464047	-0.1364741972	
557.5	-0.08856219336	-0.08568448108	
558.125	-0.105486901	-0.03429416248	
558.75	-0.1048837463	0.007845352053	
559.375	-0.0908457742	0.02776591851	
560.0	-0.09415564823	0.06372070514	
560.625	-0.0338104569	0.116371348	
561.25	0.003895500571	0.05768152608	
561.875	0.03499445035	0.06892958833	
562.5	0.009035716263	0.01533720132	
563.125	0.06309220242	0.09680631261	
563.75	0.1458124166	-0.03771256701	
564.375	0.07241546939	-0.06983947233	
565.0	0.1199358662	-0.1238711744	
565.625	-0.08374013514	-0.1380660145	
566.25	-0.03849070663	-0.06181551285	
566.875	-0.1719262656	-0.1011301634	
567.5	-0.1100522602	-0.02965776871	
568.125	-0.0952599202	-0.1899750323	
568.75	-0.2792120587	0.001854584126	
569.375	-0.127811501	0.08289306556	
570.0	-0.1631750024	0.1700884771	
570.625	0.006699568312	0.2250071806	
571.25	0.003311159591	0.007153242681	
571.875	0.07825784891	0.1374248591	
572.5	0.06234198959	-0.07287253577	
573.125	0.1366209194	-0.03208830783	
573.75	0.009489850463	-0.2014713933	
574.375	-0.03741632591	0.02060516529	
575.0	0.09490169201	-0.08243372819	
575.625	-0.05464161351	-0.05470885891	
576.25	0.08870738778	-0.01861577338	
576.875	-0.01340297721	-0.2106368616	
577.5	-0.09459214306	-0.09658377279	
578.125	0.03013858497	-0.1142050334	
578.75	-0.1502572498	-0.2363902997	
579.375	-0.08092572804	0.06674967964	
580.0	-0.01235940135	-0.1070955883	
580.625	-0.1053922945	0.0904118953	
581.25	-0.04757984705	-0.07686511332	
581.875	-0.04141379119	0.2326899597	
582.5	0.1620829256	0.1030732311	
583.125	-0.03890820713	0.01207777491	
583.75	0.09901318816	0.09871809861	
584.375	-0.02363518531	-0.04796958237	
585.0	0.1326925989	0.1456909704	
585.625	0.1297242552	-0.1173365202	
586.25	0.0745852159	0.01475333872	
586.875	0.1342548932	-0.1611651313	
587.5	-0.1100029425	-0.1133746454	
588.125	0.03636141801	-0.06737394011	
588.75	0.05783143169	-0.2076828643	
589.375	-0.0511983521	-0.1319434859	
590.0	0.04519543615	-0.1317986877	
590.625	-0.2974956766	0.003314702943	
591.25	-0.01298633211	0.08609558955	
591.875	-0.1665144059	0.08899718139	
592.5	0.1083549874	0.09795689345	
593.125	-0.1644128652	0.02484984858	
593.75	0.1728954202	0.1302499842	
594.375	0.06061938739	0.01903528058	
595.0	0.1106782773	0.1489866051	
595.625	0.2347849001	0.03069172009	
596.25	0.06354641795	-0.02863968799	
596.875	0.2163659119	0.06373414695	
597.5	0.1643629985	-0.009195108685	
598.125	0.08693925835	0.122036251	
598.75	0.2206812914	0.06680763653	
599.375	0.1463607552	-0.1138898542	
600.0	0.1215255494	-0.06911468768	
600.625	0.1683968264	-0.1860175507	
601.25	-0.03504206421	-0.2143718007	
601.875	0.007044519669	-0.04701933383	
602.5	-0.2099087237	-0.03468658076	
603.125	0.009322855774	0.08429642447	
603.75	-0.1278588992	-0.007776880232	
604.375	-0.06190062282	0.2249834518	
605.0	0.01245435994	-0.01556097253	
605.625	-0.1480564743	0.07979137279	
606.25	0.001274017296	0.0637394753	
606.875	-0.1997767448	0.0356784291	
607.5	-0.1475389567	0.2166644176	
608.125	0.0973336336	0.1969519916	
608.75	0.08354504874	0.147890831	
609.375	0.2022245351	-0.04538635477	
610.0	0.06781763425	-0.1501130954	
610.625	0.1298472239	-0.07533326624	
611.25	-0.02275179309	-0.2133403423	
611.875	-0.09906924618	-0.02550533225	
612.5	-0.1310113148	-0.1511410983	
613.125	-0.2276039267	0.1329286715	
613.75	0.01398783009	0.030119911	
614.375	-0.0315069787	0.1628661377	
615.0	0.07685358389	-0.07586881115	
615.625	-0.1101234588	0.07006432	
616.25	0.005038575663	0.2368915092	
616.875	0.01049149978	0.0864656093	
617.5	-0.01231575194	0.259765678	
618.125	0.04082400891	0.2430784419	
618.75	0.06536431851	0.09222641885	
619.375	0.02615465203	0.2045557752	
620.0	0.248778393	0.0807181038	
620.625	0.04248129394	-0.1096995705	
621.25	0.007616630943	-0.1456121013	
621.875	-0.2480990317	0.0007085586658	
622.5	-0.03383825456	0.1152336533	
623.125	-0.09168056748	0.1905752433	
623.75	0.1798029314	-0.01872566625	
624.375	-0.01792920607	0.01122038073	
625.0	0.09098565318	-0.09133110629	
625.625	-0.01992699716	-0.02813293035	
626.25	0.01144516632	-0.1618084575	
626.875	-0.1917150452	-0.05941440477	
627.5	-0.07763909886	-0.003459216077	
628.125	-0.1107051872	-0.1215041068	
628.75	-0.1225073331	-0.06373254677	
629.375	-0.08655765229	-0.09864370907	
630.0	-0.2127839216	-0.118447144	
630.625	-0.1837354938	0.1364260382	
631.25	-0.1060040966	0.1084310882	
631.875	-0.09200299994	0.2567947143	
632.5	0.2528879758	0.1659341649	
633.125	0.09724816632	0.02797126946	
633.75	0.229711796	-0.03879859696	
634.375	-0.0905666159	-0.1490034451	
635.0	0.05648859317	-0.1331502145	
635.625	-0.2542884969	-0.07913947198	
636.25	-0.0577027192	0.1002532814	
636.875	-0.1275736402	0.06072795005	
637.5	-0.007897286455	0.1980737346	
638.125	-0.02464146628	-0.01301380151	
638.75	-0.1215806921	0.2074189027	
639.375	0.1059150438	0.2320034504	
640.0	0.07315107861	0.1406061985	
640.625	0.2682184774	0.1970617578	
641.25	0.3045782503	-0.1162107201	
641.875	0.1069450096	-0.08783464759	
642.5	0.07010940391	-0.2883030684	
643.125	-0.2712247858	-0.009391947447	
643.75	0.000817353537	-0.1270177308	
644.375	-0.285568119	0.03242427022	
645.0	0.09401873144	0.1744021089	
645.625	-0.1037648634	0.1819554292	
646.25	0.3828327282	0.03686113537	
646.875	-0.05952378779	-0.08354841642	
647.5	0.1831889353	0.1139495781	
648.125	0.08122191481	-0.09253840624	
648.75	0.2214330817	0.1394233519	
649.375	0.270907657	-0.3811850948	
650.0	-0.02135689643	-0.238559106	
650.625	0.2102643898	-0.1405354404	
651.25	0.2602303816	-0.3678908086	
651.875	0.04071319124	-0.1877048201	
652.5	0.2893022447	0.03821270462	
653.125	0.3223688885	-0.234746732	
653.75	-0.002683888414	-0.194619928	
654.375	0.09205541495	-0.3064991611	
655.0	-0.4559632044	-0.006934957398	
655.625	-0.01977874818	0.1303446208	
656.25	-0.1873807303	0.1535573044	
656.875	0.2392440023	0.09696359574	
657.5	-0.1289934962	0.06969546412	
658.125	0.3537002204	0.2190113217	
658.75	0.1886767067	-0.08929235357	
659.375	0.2662541328	0.006629210543	
660.0	0.313095372	-0.4105205083	
660.625	-0.08902799003	-0.2448147488	
661.25	0.2125214075	-0.1632692226	
661.875	0.2333802122	-0.3509341861	
662.5	0.09490852251	-0.2345983197	
663.125	0.2826170666	-0.05638058492	
663.75	0.1100651173	-0.3985273779	
664.375	-0.08008959273	-0.1781487229	
665.0	-0.1992061382	-0.2541382606	
665.625	-0.3482910106	0.1817681333	
666.25	0.0574669817	0.1685388087	
666.875	0.01783306714	0.2395536436	
667.5	0.2653211028	0.02763455042	
668.125	0.08228975996	-0.02747508166	
668.75	0.3762492197	-0.1057605969	
669.375	-0.05319145428	-0.275361937	
670.0	0.03503632868	-0.1085087875	
670.625	0.05118516527	-0.266774463	
671.25	-0.1219747801	-0.1139752804	
671.875	0.1931933974	-0.04053246245	
672.5	0.2192431691	-0.2596794829	
673.125	0.07783341196	-0.1573700645	
673.75	0.1782720915	-0.1232378188	
674.375	0.05050609381	-0.361827089	
675.0	-0.1429053147	-0.07918815416	
675.625	-0.0939018264	-0.1882732781	
676.25	-0.248903925	0.05176815898	
676.875	-0.02064072813	0.06527881793	
677.5	-0.2198945037	-0.06533253504	
678.125	-0.04362719349	0.2563641439	
678.75	0.01263914067	0.04646527315	
679.375	0.2005870595	0.1933923957	
680.0	0.1574863887	-0.2583522657	
680.625	-0.07053221114	0.1780540163	
681.25	0.2420750654	-0.03918757085	
681.875	-0.0854602068	-0.1146317458	
682.5	0.0661071953	0.2470214767	
683.125	0.4208905791	0.06025182485	
683.75	0.05062028511	-0.03972325017	
684.375	0.357594782	0.1561329753	
685.0	0.3211015362	-0.06395873004	
685.625	0.0973619798	-0.123403054	
686.25	0.4252284886	0.02856779321	
686.875	0.2059874509	-0.3142766179	
687.5	0.1208391858	-0.1612963985	
688.125	0.06373696127	-0.4617605064	
688.75	-0.4970961237	-0.04984680372	
689.375	-0.1079220501	0.1613962627	
690.0	-0.01999502174	0.4213610563	
690.625	0.3613685999	0.08559276292	
691.25	0.03978840915	0.2250782188	
691.875	0.5850626579	0.3957229872	
692.5	0.3062809235	-0.1478811358	
693.125	0.5083676615	0.1224222039	
693.75	0.6710515901	-0.2709523734	
694.375	0.1298198856	-0.3493448134	
695.0	0.4806073959	-0.09517136464	
695.625	0.308002093	-0.3167947037	
696.25	0.3605214273	0.02508528619	
696.875	0.2318294809	0.3511798706	
697.5	0.4997078728	0.4073943156	
698.125	0.5376857613	0.1276633105	
698.75	0.4067469603	-0.304352743	
699.375	-0.3791567323	-0.411023585	
700.0	-0.06598567143	0.3801189324	
700.625	-0.03080511742	0.2241060871	
701.25	0.3707678482	0.126381984	
701.875	0.1252761004	0.05427964429	
702.5	0.2844771753	0.3273371446	
703.125	0.4870567266	-0.08438157049	
703.75	0.1736806688	-0.1020542427	
704.375	0.353854469	-0.09236814105	
705.0	0.1696933952	-0.2243832509	
705.625	0.1608651306	0.05707816247	
706.25	0.3190082097	0.1925554434	
706.875	0.2667224407	0.1195315377	
707.5	0.3129914901	0.2545584688	
708.125	0.4633959988	0.1172220453	
708.75	0.3259541801	-0.4390227909	
709.375	-0.1725769124	-0.1517906336	
710.0	-0.2713051097	0.1547349547	
710.625	0.1744082077	0.05786284987	
711.25	-0.1194565704	0.110834767	
711.875	0.3249011679	0.07328773993	
712.5	0.1070488494	-0.1235649418	
713.125	0.3034986723	-0.0733077843	
713.75	0.09057633466	-0.3307459234	
714.375	-0.05529947888	-0.1258983317	
715.0	0.07717767594	-0.2176206818	
715.625	-0.08723301742	-0.2508072877	
716.25	0.0777319682	-0.1244677649	
716.875	0.4079620009	-0.1354048271	
717.5	0.4311691215	-0.2191909625	
718.125	0.3824169609	-0.01769613434	
718.75	0.8631614253	-0.08861514991	
719.375	0.8455992149	-0.7830095492	
720.0	0.2847262448	-0.4020082631	
720.625	0.1690583748	-1.21697481	
721.25	-0.3793307839	-0.4986859237	
721.875	0.2129431111	-0.7062341774	
722.5	-0.759086359	-0.7868975517	
723.125	-0.6713151302	0.3426062258	
723.75	-0.3610915603	0.1837484146	
724.375	0.1196441791	0.7260745741	
725.0	0.2213607149	0.1104369984	
725.625	0.01016603213	0.4537005085	
726.25	0.197009154	0.7311240041	
726.875	0.2059913834	0.5411235054	
727.5	-0.3961612873	1.143762433	
728.125	0.4537856654	1.980806403	
728.75	0.7147624349	1.484108509	
729.375	-1.440965199	2.511415262	
730.0	0.5871089296	4.704520589	
730.625	1.049719928	1.863682777	
731.25	-1.832600924	2.838665697	
731.875	-1.735220059	3.806826792	
732.5	-0.3018297835	1.018369463	
733.125	-2.874563811	-0.14477951	
733.75	-0.2915948119	1.542776738	
734.375	0.4470972363	0.07533206594	
735.0	0.5237032717	-0.8035349798	
735.625	-0.4302094216	0.5419531696	
736.25	-0.168211754	0.1979256542	
736.875	0.4599165449	0.6968407766	
737.5	0.915870135	-0.350201943	
738.125	0.5696138283	0.008865607719	
738.75	2.315213787	-1.157166566	
739.375	0.6596391796	-2.748184827	
740.0	0.4625210167	0.2986702736	
740.625	5.650192821	1.247402229	
741.25	3.443005815	-0.4456983408	
741.875	-2.868528172	-2.887098802	
742.5	-2.312051303	-2.440661642	
743.125	-1.03072288	-0.4435178365	
743.75	0.5356267868	-0.8110202252	
744.375	-0.7918629096	0.06830086412	
745.0	0.0909733849	-0.06729779954	
745.625	0.1524433228	0.003809362104	
746.25	-0.08978509757	-0.02927006148	
746.875	-0.171962658	-0.07027606998	
747.5	-0.07871694841	0.3858090899	
748.125	0.2168611337	0.2749516927	
748.75	0.1330664992	0.3391993672	
749.375	0.1756567272	0.4765110573	
750.0	-0.1897735428	0.2572803332	
