!Created with skrf (http://scikit-rf.org).
# GHz S RI R (50+0j) 
!freq	ReS11	ImS11	
500.0	0.4019366477	-2.755016485	
500.625	0.07830809637	-4.5274176	
501.25	-0.7207595942	-1.241925771	
501.875	-2.019413378	-2.847805004	
502.5	-0.4427617983	-0.2643875875	
503.125	-0.1252302654	-0.06050950674	
503.75	0.1033921228	0.4416638274	
504.375	-0.06386134583	-0.0601365453	
505.0	0.2362841036	-0.08124026606	
505.625	-0.2281734525	-0.04893519048	
506.25	0.2504409733	-0.3941810959	
506.875	-0.3908834279	1.020810619	
507.5	0.9722768825	-0.9286102544	
508.125	0.3129967542	-3.070923172	
508.75	-0.7399851155	-2.580207241	
509.375	1.662434049	-3.371858912	
510.0	-2.791199508	0.2034093494	
510.625	-0.08668119398	-0.2444049046	
511.25	-0.5024035821	-0.2431828893	
511.875	-0.43272651	0.1300351143	
512.5	-0.1194425904	0.08048210789	
513.125	0.06592415914	-0.3185216598	
513.75	-0.3829835015	-0.1076910184	
514.375	0.1280531025	-0.06453801598	
515.0	-0.9974227139	-0.6647679243	
515.625	1.774726556	-0.1201639274	
516.25	-2.708006503	-4.605838256	
516.875	-0.9401521968	0.5457350737	
517.5	0.5571081516	-0.755633894	
518.125	-0.4035893481	0.2609492063	
518.75	0.3070632034	-0.8255638395	
519.375	-0.1864043374	0.2398601052	
520.0	0.2396014124	0.02293371158	
520.625	0.5960873301	-0.02320348909	
521.25	-0.386722695	-0.8000587936	
521.875	-0.2101942659	-0.03875067239	
522.5	-0.2150964351	0.08574409681	
523.125	-0.05067298092	-0.09877988997	
523.75	-0.4159482753	0.1507065063	
524.375	-0.2255511838	-0.0866457592	
525.0	-0.2104310802	0.553214913	
525.625	0.1576508687	-0.1334070076	
526.25	0.004839835098	0.1792155606	
526.875	-0.1319514586	-0.08276326305	
527.5	-0.3132057312	0.8707584116	
528.125	0.4710150339	0.4395678896	
528.75	-0.3787422605	0.7481290832	
529.375	0.4116980337	0.154474174	
530.0	-0.4132716207	0.6895270393	
530.625	0.7122627044	0.6792550679	
531.25	0.8365559347	0.5632172573	
531.875	0.6624200259	-0.9727785228	
532.5	0.1470094895	0.04271871932	
533.125	-0.1924399215	-0.5727624784	
533.75	0.8492583437	0.03264235912	
534.375	-0.8884184425	-1.031127777	
535.0	-0.2870071409	-0.05670353905	
535.625	-0.6650842598	0.1897981026	
536.25	0.1650173477	0.2563445716	
536.875	0.09781308519	0.1478185905	
537.5	0.2670683384	-0.1644628582	
538.125	0.09907942607	-0.1562205307	
538.75	0.524448981	-0.1451370978	
539.375	-0.3533710979	-0.3985553273	
540.0	-0.1989605376	-0.2715837871	
540.625	-0.4550583833	-0.1654867533	
541.25	-0.2153763738	0.1106772932	
541.875	-0.04339286989	-0.05380287216	
542.5	-0.1671175599	-0.2013172199	
543.125	-0.1961189838	0.02740577382	
543.75	-0.1257876747	-0.1717944928	
544.375	-0.1396844492	0.2865061529	
545.0	-0.05357105758	-0.06244979247	
545.625	0.2604268663	0.348039836	
546.25	0.06508349019	-0.1691942141	
546.875	0.3820112731	0.2112329909	
547.5	0.009009295726	-0.5121798621	
548.125	0.05575146992	-0.179932414	
548.75	-0.2748448892	-0.4796270287	
549.375	-0.4006415512	-0.05582817887	
550.0	-0.02460471754	-0.0784131695	
550.625	-0.2669862366	0.08646506018	
551.25	-0.04692912052	0.0003858983623	
551.875	-0.2985432378	0.1738072107	
552.5	-0.008499790449	0.2140388253	
553.125	-0.1043607979	0.1335294107	
553.75	0.1458273961	0.1119233113	
554.375	0.1965369234	0.002713002542	
555.0	0.2501659118	-0.154049769	
555.625	0.2003304218	-0.2716977772	
556.25	0.1520274037	-0.3269169325	
556.875	-0.06666073409	-0.3839638946	
557.5	-0.2312135297	-0.2554678658	
558.125	-0.2733511952	-0.07907167671	
558.75	-0.2339636107	-0.03012638705	
559.375	-0.2928900133	0.03807664959	
560.0	-0.1780689859	0.1845997545	
560.625	-0.1770840547	0.2034078209	
561.25	0.05009697604	0.3074684	
561.875	0.04676340907	0.003932369388	
562.5	0.02042057878	0.2421978821	
563.125	0.1581040734	0.02982953985	
563.75	0.293652151	0.1580686947	
564.375	0.3539076418	-0.3572853656	
565.0	0.04444312239	-0.2340458037	
565.625	0.06282269381	-0.4277038921	
566.25	-0.3859959808	-0.1976504174	
566.875	-0.1741625687	-0.1509144001	
567.5	-0.3679445069	-0.4093203834	
568.125	-0.4516321557	-0.2515120572	
568.75	-0.3045094982	-0.321524533	
569.375	-0.8067164924	0.2664632805	
570.0	-0.03377101694	0.5022122012	
570.625	-0.3401776193	0.1062769639	
571.25	0.05487433313	0.6813824879	
571.875	-0.1421778563	-0.08177193384	
572.5	0.6039879309	0.1598712608	
573.125	-0.1217826126	-0.39926474	
573.75	0.2777587825	0.06214514923	
574.375	0.06350745095	-0.5121935945	
575.0	-0.06743803427	0.1842496122	
575.625	0.3197620643	-0.3620005021	
576.25	-0.1968188611	-0.3007433068	
576.875	0.2813799692	-0.1291033105	
577.5	0.01195794454	-0.65352565	
578.125	-0.2814846709	-0.230165879	
578.75	0.03899518296	-0.218685743	
579.375	-0.2580007305	-0.3881859037	
580.0	-0.1862158747	0.1836075209	
580.625	-0.100717838	-0.3448487786	
581.25	-0.2856791862	0.4320360114	
581.875	0.07657649978	0.02808949696	
582.5	-0.2402504082	0.5032261073	
583.125	0.6104193296	0.2167755987	
583.75	-0.3259697042	-0.04115198433	
584.375	0.5188029991	0.3065816653	
585.0	-0.1641460484	-0.09051667158	
585.625	0.5807512593	0.3338613819	
586.25	0.3265101294	-0.4552595675	
586.875	0.0928297547	-0.01534432324	
587.5	0.1343304183	-0.5650920576	
588.125	-0.3259395502	-0.235996857	
588.75	0.3499339959	-0.123754636	
589.375	0.2265570189	-0.6172889811	
590.0	-0.132757892	-0.1318731077	
590.625	-0.3744568229	-0.3429170458	
591.25	-0.3820606996	0.4271162717	
591.875	0.02030078932	0.1633260228	
592.5	-0.1719876574	0.07875233632	
593.125	0.131002372	0.1614673425	
593.75	-0.2031516574	0.2505324969	
594.375	0.6641106549	0.4150280748	
595.0	0.2637813185	-0.09990052774	
595.625	0.1753819593	0.5355338196	
596.25	0.7884430318	-0.06233712276	
596.875	-0.1341782535	0.1729875629	
597.5	0.6121930781	0.5028976941	
598.125	0.3779435601	-0.05233446971	
598.75	0.1633617403	0.4597382402	
599.375	0.6938371442	-0.1966364652	
600.0	0.1847570143	-0.2770392329	
600.625	0.4733828039	-0.2238810614	
601.25	0.2241099216	-0.5954729497	
601.875	-0.09573898778	-0.144225612	
602.5	-0.3297279627	-0.1769061372	
603.125	-0.2450995974	0.1593099077	
603.75	-0.2410758557	0.1663885469	
604.375	-0.2179772401	0.06302893133	
605.0	-0.2784084881	0.277099989	
605.625	0.07205302605	0.04117135928	
606.25	-0.6146416262	0.08089440049	
606.875	-0.123674969	0.4167952819	
607.5	-0.5306051534	-0.06271067362	
608.125	0.01001425981	1.057183585	
608.75	0.157289631	0.02635948693	
609.375	0.7609938574	0.2670020328	
610.0	0.303737786	-0.5888281613	
610.625	0.3473431467	0.04121294844	
611.25	-0.09967469902	-0.6582421764	
611.875	-0.04858633585	-0.09911608803	
612.5	-0.5439268614	-0.4247790819	
613.125	-0.2063155533	0.2484257276	
613.75	-0.4106629397	0.2314122186	
614.375	0.3312186556	0.2956056845	
615.0	-0.2893165191	0.07534086847	
615.625	0.295588898	0.2486686112	
616.25	-0.2669345835	0.05501584211	
616.875	-0.3460049693	0.6954167093	
617.5	0.2000196461	0.3445766419	
618.125	-0.3924073934	0.4713474547	
618.75	0.2729284994	0.568694221	
619.375	0.04456817708	0.2143714946	
620.0	0.5960793654	0.2106876113	
620.625	0.1289346202	-0.3012952443	
621.25	-0.1069661132	-0.5094113529	
621.875	-0.4589333765	-0.1102700543	
622.5	-0.5070106609	-0.08720519736	
623.125	0.004018950601	0.5713991811	
623.75	0.01569574387	0.05697661079	
624.375	0.3711613283	-0.3117734843	
625.0	-0.1060690939	0.1990206785	
625.625	0.3674107924	-0.4240211814	
626.25	-0.3493646107	0.06138302805	
626.875	-0.05121428608	-0.5407116913	
627.5	-0.6146127034	-0.003002785993	
628.125	-0.0006792159639	0.006328022285	
628.75	-0.07075368638	-0.551314677	
629.375	-0.4134536418	-0.1843177737	
630.0	-0.2073430707	-0.3073440657	
630.625	-0.6740481204	0.09070316521	
631.25	-0.1743035289	0.5232254369	
631.875	-0.1847317912	0.3880268334	
632.5	0.4035386698	0.5958748565	
633.125	0.4672905585	0.05000396928	
633.75	0.3101297579	-0.1005780074	
634.375	0.2889901598	-0.3198257723	
635.0	-0.2812236608	-0.2989389383	
635.625	-0.04734355194	-0.3273664416	
636.25	-0.6083328421	0.2576711468	
636.875	0.1803298108	0.2910261538	
637.5	-0.4983218903	-0.07486225049	
638.125	0.2372980363	0.5281944129	
638.75	-0.3861454903	-0.07078541294	
639.375	-0.06347061708	1.014710472	
640.0	0.5810794002	0.2248215877	
640.625	0.1067616179	0.474284086	
641.25	1.009281389	-0.01245576061	
641.875	0.03915640299	-0.5326725442	
642.5	0.2914802602	-0.2588244329	
643.125	-0.6262968809	-0.5763205723	
643.75	0.05412920438	0.2024763755	
644.375	-0.6228373594	-0.2976922176	
645.0	-0.2216320823	0.6017251046	
645.625	0.1294053573	0.1897912294	
646.25	0.194315683	0.5316517701	
646.875	0.4604654255	-0.3659332379	
647.5	-0.209767188	0.2455615007	
648.125	0.7825493205	0.1442174384	
648.75	0.05757166755	-0.4717016757	
649.375	0.9954909777	0.04342759736	
650.0	0.2963424633	-1.407083219	
650.625	-0.2126166676	-0.1518120514	
651.25	1.155903848	-0.2828628253	
651.875	0.4411770118	-1.188330217	
652.5	0.122075182	0.2474537642	
653.125	1.161379053	-0.209782415	
653.75	0.01414915662	-0.8398922305	
654.375	0.1621817918	-0.2623713695	
655.0	-1.034447919	-0.6265350797	
655.625	-0.05449716229	0.6973064354	
656.25	-0.1685921851	0.0306737023	
656.875	0.2541780767	0.5581526142	
657.5	-0.01918966807	-0.2079112542	
658.125	0.2669020025	0.7988912655	
658.75	0.8560199161	-0.0670497178	
659.375	0.4555609163	-0.3464883503	
660.0	0.7510389996	-0.2922738096	
660.625	0.2843580099	-1.34909679	
661.25	-0.0655810042	-0.2400359687	
661.875	0.9900836354	-0.4368177977	
662.5	0.5232168709	-0.9629447789	
663.125	0.106267206	-0.04852317625	
663.75	0.8961884193	-0.9428028467	
664.375	-0.5949539533	-0.5048223872	
665.0	-0.146044049	-0.5521126058	
665.625	-1.099840498	0.2281051719	
666.25	0.1831224484	0.6095753505	
666.875	-0.08395679345	0.466637501	
667.5	0.6841376736	0.3092722689	
668.125	0.2510431698	-0.2683446381	
668.75	0.621109694	0.007596282462	
669.375	0.09091278956	-0.8547468225	
670.0	-0.02348077629	-0.2349885988	
670.625	0.1978808826	-0.4844138069	
671.25	0.002310481542	-0.612131051	
671.875	0.08232606888	-0.127684214	
672.5	0.7778734027	-0.3054858544	
673.125	0.3118440909	-0.7139137666	
673.75	0.1341740217	-0.1898557513	
674.375	0.5622154088	-0.7531345748	
675.0	-0.8404017611	-0.4693135015	
675.625	0.2449406864	-0.2989547526	
676.25	-0.9446322365	-0.1813161756	
676.875	-0.01832194373	0.4594175285	
677.5	-0.5418635892	-0.4793888117	
678.125	-0.09850380237	0.8864469112	
678.75	-0.02242182193	0.1252040903	
679.375	0.4497374174	0.5221321614	
680.0	0.5131052218	-0.6174225552	
680.625	-0.2119046956	0.1574982419	
681.25	0.5892754775	-0.06298466596	
681.875	0.2278778195	-0.1476858097	
682.5	0.1756641829	0.3091552548	
683.125	0.8132115711	0.3471549741	
683.75	0.5759531572	-0.154402651	
684.375	0.3301986117	0.1877271185	
685.0	0.9622363231	0.4630369128	
685.625	0.5829348613	-0.7583549766	
686.25	0.4250250032	0.7774030793	
686.875	1.137776219	-1.198080253	
687.5	-0.1405826121	-0.06567971575	
688.125	0.6124400369	-1.412681572	
688.75	-1.74542971	0.1474494207	
689.375	-0.2748582221	-0.06560654211	
690.0	0.3318856399	1.596633309	
690.625	0.5999504735	0.05143088288	
691.25	0.3898808509	0.9178846678	
691.875	1.456693403	0.5587007839	
692.5	1.037121893	0.3914464573	
693.125	1.536984235	0.02022485852	
693.75	1.32403024	-0.6928459425	
694.375	0.9695887774	-0.8038433012	
695.0	0.9213917297	-0.6780772834	
695.625	1.070266477	0.09409069404	
696.25	1.569360135	0.002575751748	
696.875	0.4731873932	0.5860640553	
697.5	1.380798383	1.794967674	
698.125	1.208083286	-0.4892104468	
698.75	1.405614225	-0.3541945085	
699.375	-1.655717224	-1.076148783	
700.0	0.07954263977	0.5348815909	
700.625	0.1340368708	1.496910629	
701.25	0.6248174423	-0.1267714849	
701.875	0.2083553666	0.8259200732	
702.5	1.290775317	0.3966544877	
703.125	0.4263278212	0.3879111846	
703.75	1.233540551	-0.2522102233	
704.375	0.2297390539	-0.5941495747	
705.0	0.9731417707	0.1806543371	
705.625	0.626348016	-0.5387809424	
706.25	0.02386060817	0.5755816223	
706.875	1.154244545	1.044128518	
707.5	0.5059889115	0.1403316553	
708.125	1.261951743	0.7145561493	
708.75	0.382820312	-1.392522687	
709.375	-0.3417398128	-0.3759892378	
710.0	-0.810415885	0.5657813864	
710.625	0.4380840116	0.1700735734	
711.25	0.1311843988	0.4161167972	
711.875	0.5405274027	0.1227346858	
712.5	0.7938209515	-0.01471445288	
713.125	0.5191495066	-0.4514218885	
713.75	0.4204314914	-0.3964783323	
714.375	-0.05598976769	-0.769276116	
715.0	-0.1497487887	-0.07580057542	
715.625	0.5086512968	-0.9840131716	
716.25	-0.3569250773	-0.6853538578	
716.875	0.9778266354	0.4170729022	
717.5	2.344914983	-0.6194731293	
718.125	0.06603250334	-0.8888366417	
718.75	3.268870108	1.050380977	
719.375	1.046672343	-2.816051476	
720.0	0.7480800397	-0.7144873645	
720.625	1.554587979	-3.950882724	
721.25	-1.785168557	-1.815787277	
721.875	0.3859692629	-2.235885665	
722.5	-2.043992186	-2.252384938	
723.125	-1.965761656	0.5063411461	
723.75	-0.8338929215	0.5304229282	
724.375	0.1053213033	1.606286017	
725.0	0.5563139962	0.4853780492	
725.625	0.1543147194	0.9362971154	
726.25	-0.07722663192	2.127212818	
726.875	1.282609639	2.328733715	
727.5	-1.710850878	1.895948692	
728.125	0.3609737153	8.486873584	
728.75	4.529325162	6.758818556	
729.375	-8.052823441	3.883281901	
730.0	7.493285737	15.09314623	
730.625	3.183583499	1.049715188	
731.25	-9.30538507	13.19228516	
731.875	-2.250928823	15.41796992	
732.5	-1.964925031	-1.981981481	
733.125	-9.986937635	1.455854006	
733.75	-0.7769857043	4.210922968	
734.375	1.317883693	0.08348010848	
735.0	1.052248898	-2.024079611	
735.625	-0.9180364216	1.416686462	
736.25	-0.7692200388	0.5870739544	
736.875	1.362602574	1.942168198	
737.5	3.143460964	-0.7611380552	
738.125	1.254889217	-0.07283045008	
738.75	9.016526993	-2.531097212	
739.375	3.674039047	-10.35682709	
740.0	-2.632432415	1.145389238	
740.625	18.2888687	14.78114828	
741.25	14.34750786	-16.08847715	
741.875	-11.58528311	-46.97262899	
742.5	-16.91915258	-6.479823861	
743.125	-1.352908259	2.097643196	
743.75	3.066042681	-6.16832634	
744.375	-2.167452406	1.409569086	
745.0	-0.2818869674	-0.1501042792	
745.625	0.3380471598	-0.119230443	
746.25	-0.02608143248	0.02362341325	
746.875	-0.6322992043	-0.1306039842	
747.5	-0.1032636695	0.900309338	
748.125	0.8345876222	0.9767895087	
748.75	0.3603222774	0.9688165385	
749.375	-0.4545108338	1.495064535	
750.0	-0.8718563651	-0.6382585665	
