!Created with skrf (http://scikit-rf.org).
# GHz S RI R (50+0j) 
!freq	ReS11	ImS11	
500.0	-2.909268541	-6.329884285	
500.625	1.185552547	-1.834061185	
501.25	-1.547830521	-3.647390373	
501.875	-1.729726476	-0.8823656827	
502.5	-0.2014859735	-0.0152269838	
503.125	-0.3022932546	-0.09154354898	
503.75	0.3519459293	0.1847151842	
504.375	0.04530029635	0.1050741698	
505.0	-0.01318135756	-0.2223421842	
505.625	0.2039801209	0.01477290087	
506.25	-0.6754513487	-0.3186695335	
506.875	0.5921838319	-0.3547902749	
507.5	-0.1874770642	-2.019868797	
508.125	-1.35479813	-2.23616445	
508.75	1.36444794	-0.7816510998	
509.375	-1.436060573	-4.980091631	
510.0	-1.108499078	0.3393619027	
510.625	-0.2005539171	-0.8468373054	
511.25	-0.3756254822	0.1789783829	
511.875	-0.2719931391	-0.2975227581	
512.5	-0.09924604941	0.1916981705	
513.125	-0.1761563513	-0.2898185697	
513.75	-0.07264397722	0.05410925004	
514.375	-0.1632556564	-0.480170801	
515.0	-0.6019809538	1.137173755	
515.625	0.8938549136	-3.419837974	
516.25	-2.69453249	0.2291698193	
516.875	0.9700241921	-1.215971951	
517.5	-0.8159182452	-1.040214291	
518.125	0.3221645928	0.08183607871	
518.75	-0.6957852216	-0.8560835223	
519.375	-0.02584567151	0.1358059398	
520.0	0.2309855265	0.3284067672	
520.625	0.5551826661	-0.3238181088	
521.25	-0.2452022422	-0.4189970904	
521.875	-0.3948496259	-0.3291130079	
522.5	-0.01205772432	0.2430073052	
523.125	-0.3380922662	-0.07794895062	
523.75	-0.113076105	0.1790425584	
524.375	-0.5878717186	-0.1314848233	
525.0	0.3516055959	0.3163970433	
525.625	-0.1585627602	0.1056824038	
526.25	0.2023672563	-0.09899210382	
526.875	-0.3579791155	0.2215584125	
527.5	0.2698215677	0.5188296382	
528.125	-0.1950482516	0.4649389476	
528.75	0.1885631477	1.061700341	
529.375	0.02203192804	-0.08889121204	
530.0	0.4267601041	0.643726241	
530.625	-0.02336568117	0.4735727003	
531.25	1.859291219	0.243344682	
531.875	-0.08810406701	-0.4222429982	
532.5	0.1944237416	-0.7143200689	
533.125	-0.3298312733	0.4487102221	
533.75	0.4767109647	-1.007992063	
534.375	-0.5627769007	-0.2011962153	
535.0	-0.5042936179	-0.6476808607	
535.625	-0.3096353819	0.7143612537	
536.25	-0.04788213501	0.09227194174	
536.875	0.3024921827	0.1262107531	
537.5	0.1195512985	-0.2135438528	
538.125	0.2373031033	0.04194929407	
538.75	0.3548485611	-0.4859815931	
539.375	-0.1376980555	-0.2098335321	
540.0	-0.3396733629	-0.5239075642	
540.625	-0.4836837715	0.1665586101	
541.25	-0.06066663318	-0.06899588849	
541.875	-0.1704482409	-0.07605111104	
542.5	-0.1882941537	-0.05363140506	
543.125	-0.006823915543	-0.07320467278	
543.75	-0.4025598978	-0.09731248415	
544.375	0.154576975	0.1340045045	
545.0	-0.2090801737	0.2374593226	
545.625	0.3084799322	-0.04526540493	
546.25	0.0005051843812	0.2870355246	
546.875	0.4548116888	-0.3390316215	
547.5	0.03478103795	-0.04082913335	
548.125	0.05749223507	-0.5192574796	
548.75	-0.4916164388	-0.2370300628	
549.375	-0.1260253653	-0.0138200823	
550.0	-0.2915919872	-0.0991064526	
550.625	-0.01322249631	0.1222310046	
551.25	-0.2796879498	-0.0320685017	
551.875	-0.06772592784	0.2866355525	
552.5	-0.1353867939	0.07869380335	
553.125	-0.0174650834	0.2166878278	
553.75	0.1136847685	0.07866568833	
554.375	0.2143092723	0.01558532867	
555.0	0.239056118	-0.189753138	
555.625	0.1671761458	-0.2597890245	
556.25	0.1482245092	-0.3251905071	
556.875	-0.1002970145	-0.381397048	
557.5	-0.2409609537	-0.2253053913	
558.125	-0.2640218243	-0.08539473196	
558.75	-0.269802264	-0.004296705658	
559.375	-0.2326305129	0.08982564457	
560.0	-0.2094521784	0.1268636064	
560.625	-0.1476593055	0.2943607113	
561.25	0.1073998482	0.2223473016	
561.875	-0.02928466456	0.08990283597	
562.5	0.1494287705	0.1156749693	
563.125	0.04889972842	0.2082278699	
563.75	0.4303582206	-0.08391501027	
564.375	0.1175729695	-0.1586208211	
565.0	0.3349185986	-0.3489381426	
565.625	-0.2395490491	-0.3822468127	
566.25	-0.188481669	-0.1265428897	
566.875	-0.2570298867	-0.2962336837	
567.5	-0.518158302	-0.244617262	
568.125	-0.2001421751	-0.1323825992	
568.75	-0.6313685848	-0.4061534343	
569.375	-0.4270630425	0.4684042281	
570.0	-0.3339580459	0.218075488	
570.625	-0.1384854612	0.7041795619	
571.25	0.1429369428	-0.007158224873	
571.875	0.04583529757	0.4983703752	
572.5	0.2897748547	-0.403155235	
573.125	0.136160238	0.0716328073	
573.75	0.3724993888	-0.4337283965	
574.375	-0.2805967485	-0.1795705493	
575.0	0.3481848715	0.0354362905	
575.625	-0.1892232981	-0.3247466148	
576.25	0.282433352	0.03796050585	
576.875	-0.0497066051	-0.6084220767	
577.5	-0.2727369314	-0.2254829959	
578.125	0.1428360925	-0.2433541149	
578.75	-0.2311980651	-0.5048855875	
579.375	-0.3911984117	0.01954627876	
580.0	0.1300413102	-0.07517708756	
580.625	-0.4423143339	-0.05218756298	
581.25	0.06047236921	0.08191316767	
581.875	-0.3094373852	0.4150388601	
582.5	0.4481062515	0.4629015193	
583.125	0.02226595479	-0.196650126	
583.75	0.1012878374	0.498694451	
584.375	0.0633972597	-0.377720054	
585.0	0.1882027182	0.5518688861	
585.625	0.5144375043	-0.3139162828	
586.25	0.02079995966	-0.003110938797	
586.875	0.4486345811	-0.4386559707	
587.5	-0.3385671284	-0.2082286175	
588.125	0.2164255705	-0.2153004954	
588.75	0.1072541723	-0.6073369781	
589.375	-0.1480007755	-0.2606106052	
590.0	0.1451965339	-0.4156596196	
590.625	-0.6003236747	-0.1203864267	
591.25	-0.1492893623	0.3360532837	
591.875	-0.1275501704	0.1011637708	
592.5	0.0367532201	0.3049964905	
593.125	-0.2057379462	-0.05139571424	
593.75	0.2909958338	0.3262926631	
594.375	0.2543404095	0.0523731056	
595.0	0.1735908089	0.4373800542	
595.625	0.8455022303	0.23993566	
596.25	-0.0259621911	-0.205367128	
596.875	0.4752318527	0.4729077681	
597.5	0.5558294926	-0.05748316705	
598.125	0.02740485497	0.3098849206	
598.75	0.7245593577	0.1786336031	
599.375	0.1930097999	-0.1087776938	
600.0	0.6145754048	-0.2067678737	
600.625	0.1859218293	-0.6551968277	
601.25	0.02207954455	-0.2235845071	
601.875	-0.02241188562	-0.4305330452	
602.5	-0.3531011184	0.04073164847	
603.125	-0.2793433082	0.1642412491	
603.75	-0.1219223706	0.06588734244	
604.375	-0.42528299	0.1471939281	
605.0	0.08845798591	0.2731116617	
605.625	-0.3704897317	-0.02821791928	
606.25	-0.1265953335	0.3722331918	
606.875	-0.3037670701	-0.07957235036	
607.5	-0.6064914213	0.7350987052	
608.125	0.2219367502	0.2112078218	
608.75	0.1401201316	0.6791204828	
609.375	0.7373780897	-0.4765722025	
610.0	0.1749519388	0.03572530527	
610.625	0.3807409847	-0.5619998375	
611.25	-0.1876046029	-0.15260148	
611.875	-0.01028743093	-0.5466415809	
612.5	-0.4478114856	0.1871744397	
613.125	-0.3562019009	-0.1942137305	
613.75	-0.2569653869	0.5906126227	
614.375	0.08829029307	-0.07628674318	
615.0	0.2680580349	0.3993534569	
615.625	-0.099896934	-0.150962504	
616.25	-0.3008951424	0.5831404536	
616.875	0.223590317	0.3849204403	
617.5	-0.465485788	0.3473491059	
618.125	0.1539147482	0.7282042937	
618.75	0.08342986745	0.1511887905	
619.375	0.1683728165	0.6123025939	
620.0	0.4180348991	-0.1169604494	
620.625	0.3409702319	-0.2430666644	
621.25	-0.3451413819	-0.3611517245	
621.875	-0.3107629214	-0.2407573171	
622.5	-0.6154138262	0.3034749238	
623.125	-0.04136996656	0.1823418517	
623.75	0.3886439367	0.2939697421	
624.375	-0.1500472102	-0.2627117011	
625.0	0.457689721	0.02612636183	
625.625	-0.36590183	-0.1913486967	
626.25	0.2734760582	-0.2981184622	
626.875	-0.6304213978	-0.271276648	
627.5	-0.1668813455	0.1585504605	
628.125	-0.1216026206	-0.4015143921	
628.75	-0.4139643471	-0.1680981922	
629.375	-0.0166605101	-0.3051312976	
630.0	-0.576958931	-0.3121610428	
630.625	-0.2973865374	0.3294993876	
631.25	-0.4421147338	0.2338256907	
631.875	-0.01587907048	0.7442731598	
632.5	0.392032523	0.330079762	
633.125	0.4168921598	0.03248599018	
633.75	0.3737370588	0.03768118819	
634.375	0.002152058274	-0.5927953114	
635.0	0.09289147572	-0.08470283367	
635.625	-0.5130998159	-0.3807335646	
636.25	-0.09456363866	0.3649939028	
636.875	-0.4626437387	0.06366813921	
637.5	0.1850999399	0.4788432663	
638.125	-0.1929908012	-0.1807961044	
638.75	-0.3892956339	0.7663246022	
639.375	0.5060404254	0.3674240964	
640.0	-0.06635458893	0.384235215	
640.625	0.6921552435	0.5932788899	
641.25	0.6498079507	-0.388529152	
641.875	0.2956165431	-0.06556867096	
642.5	-0.1988234463	-0.9552153504	
643.125	-0.07516298916	0.06201470078	
643.75	-0.3642955506	-0.5384202515	
644.375	-0.4652069226	0.4298949672	
645.0	-0.0783017695	-0.002496979698	
645.625	-0.1447179562	0.7008528808	
646.25	0.706684565	0.1410861938	
646.875	-0.07813393451	-0.2704178394	
647.5	0.3630193536	0.4870855242	
648.125	0.09222389104	-0.4523887041	
648.75	0.8296924945	0.4246484348	
649.375	0.4382691649	-1.124705826	
650.0	-0.09757155931	-0.2303252387	
650.625	1.09098389	-0.5272209543	
651.25	0.02858155643	-1.36022139	
651.875	0.04390731628	0.1525433069	
652.5	1.17607514	-0.02446911102	
653.125	0.4530212046	-0.7919802969	
653.75	0.2088245201	-0.03384676662	
654.375	-0.2422656968	-1.186246913	
655.0	-0.6200874617	0.2793083988	
655.625	-0.3584838736	-0.05926166357	
656.25	0.02008665142	0.9080900379	
656.875	0.2751554287	-0.3808285725	
657.5	-0.08806378297	0.5864549913	
658.125	0.5986777155	0.2633079413	
658.75	0.4929294047	-0.09854668498	
659.375	0.7606780184	0.1160991957	
660.0	0.4917673411	-1.229920097	
660.625	0.04871076563	-0.352039996	
661.25	0.6927960598	-0.6462945592	
661.875	0.2275683538	-1.108968321	
662.5	0.1811077827	0.06387472393	
663.125	1.170213399	-0.537652223	
663.75	-0.1670053338	-0.8836658619	
664.375	0.1365352694	-0.3418808193	
665.0	-0.8147511885	-0.7862265975	
665.625	-0.3673520708	0.5471658373	
666.25	-0.521331358	0.4303239368	
666.875	0.577739547	0.6019155286	
667.5	0.1682026817	-0.0690527862	
668.125	0.6947130949	0.2977023822	
668.75	0.3773530862	-0.6762667447	
669.375	0.02851755018	-0.3169252296	
670.0	0.1892743859	-0.4129742883	
670.625	0.001810936433	-0.6785152884	
671.25	-0.153487053	-0.1678322554	
671.875	0.5390696182	-0.4106027217	
672.5	0.3263046394	-0.5809230277	
673.125	0.2838658268	-0.1386834641	
673.75	0.6703987261	-0.7567060617	
674.375	-0.4193267263	-0.5476682236	
675.0	0.2316520575	-0.2371205481	
675.625	-0.7073072057	-0.6823244201	
676.25	-0.4802608038	0.5234507483	
676.875	-0.09452427308	-0.4535238597	
677.5	-0.629235566	0.5652452101	
678.125	-0.07750393074	-0.01937479171	
678.75	-0.1644507433	0.8764995093	
679.375	0.6663294293	-0.3793804147	
680.0	0.1559350106	0.174756681	
680.625	0.4463826569	-0.2775940516	
681.25	0.004975723351	-0.3791477461	
681.875	0.04953729416	0.4311088478	
682.5	0.7711819051	0.2759839371	
683.125	0.537848074	-0.1015063046	
683.75	0.3314519485	0.03929742097	
684.375	0.8552012326	0.4688696207	
685.0	0.6419331514	-0.6042768853	
685.625	0.5090771223	0.5492375108	
686.25	1.116479991	-0.5442388761	
686.875	-0.1205733864	-0.3065420104	
687.5	1.440491843	-0.4172052549	
688.125	-1.186600682	-1.416517461	
688.75	0.006812117701	-0.2995491386	
689.375	-1.30053009	1.047039059	
690.0	0.7872342615	0.4932317436	
690.625	-0.02980974688	0.863814675	
691.25	1.290042719	0.2487863823	
691.875	0.6015127534	0.5717852177	
692.5	1.546981328	0.6858281238	
693.125	1.502814366	-0.4649694978	
693.75	1.109966561	-0.3873426968	
694.375	0.9096136478	-1.080948974	
695.0	0.9131877313	-0.4561002525	
695.625	1.471026051	-0.5916608905	
696.25	0.6064141764	0.03548566875	
696.875	1.22458346	1.569857816	
697.5	1.314893856	0.09693632724	
698.125	0.9721565991	0.9966440789	
698.75	1.006994256	-1.86187606	
699.375	-0.4855409876	0.04188443674	
700.0	-1.440829882	0.8452951422	
700.625	0.9489965935	0.4367452796	
701.25	-0.06993764962	0.6031357023	
701.875	1.283242801	0.3975657792	
702.5	0.3084515341	0.3618383755	
703.125	1.272729008	0.5024395856	
703.75	0.5190233839	-0.7103080247	
704.375	0.8618658216	0.05580060692	
705.0	0.4670092637	-0.8831330716	
705.625	0.1089474067	0.2558367229	
706.25	1.323175707	0.6827349522	
706.875	0.3459757113	-0.07954581345	
707.5	0.5229275667	1.242066503	
708.125	1.490445874	-0.2172722961	
708.75	0.3718991919	-0.5022040657	
709.375	-0.8255380159	-0.9759976104	
710.0	-0.06330709116	0.7395411238	
710.625	-0.09186316296	0.3833832531	
711.25	0.4766634497	0.1827582851	
711.875	0.3034417503	0.2205436711	
712.5	0.8077541313	-0.04854809656	
713.125	0.5177256875	-0.3253426729	
713.75	0.3881327652	-0.8484538519	
714.375	-0.3295657992	-0.1759628348	
715.0	0.4651967706	-0.7976339981	
715.625	-0.6272056235	-0.4433890799	
716.25	0.6800655855	0.07398432693	
716.875	1.376941728	-1.269395264	
717.5	-0.2667490489	-0.2249349259	
718.125	2.845710984	0.961002417	
718.75	1.898706743	-2.235698352	
719.375	0.4974530587	0.8823029701	
720.0	2.715949247	-4.200512587	
720.625	-1.318638698	-1.699941956	
721.25	0.5305641707	-2.033718577	
721.875	-0.7735068613	-3.029056487	
722.5	-2.103439178	-0.7742537008	
723.125	-1.688368527	-0.9955432895	
723.75	-0.8302502808	1.671306634	
724.375	0.3465287719	0.6782307279	
725.0	0.163381816	0.8674709219	
725.625	0.5997819942	1.503197305	
726.25	1.022197143	1.074336698	
726.875	-1.022238061	1.429161572	
727.5	-0.2953492543	4.855850638	
728.125	3.201256899	3.517694882	
728.75	-6.807569199	7.8775427	
729.375	5.932949526	17.48116588	
730.0	3.520157168	1.381414668	
730.625	-12.33372141	16.14546031	
731.25	8.995651075	12.77560505	
731.875	-6.282077386	-1.940245947	
732.5	-13.6677252	4.604295182	
733.125	-6.345978499	4.647461692	
733.75	-0.04876986132	1.749374921	
734.375	3.063895723	2.271634748	
735.0	-1.072278213	-0.8125901182	
735.625	-0.8416155842	-0.1855334745	
736.25	-0.1335534893	2.339803121	
736.875	1.208682998	-0.210955801	
737.5	1.988628277	1.842485683	
738.125	5.479732405	-1.471593694	
738.75	2.989614593	-6.277838615	
739.375	-1.978537203	-0.797537536	
740.0	16.90126166	6.012841064	
740.625	6.743250953	-23.03612328	
741.25	-17.24220541	8.395763027	
741.875	-14.28454538	26.82883077	
742.5	10.35930449	-0.673300253	
743.125	-2.77287242	-9.867384219	
743.75	-3.446746718	-1.343711629	
744.375	0.07081098491	-0.4436254772	
745.0	0.01864105752	0.6984589819	
745.625	-0.1760269337	-0.2225310659	
746.25	0.04295551323	-0.5123190377	
746.875	-0.5559996692	0.2359840273	
747.5	0.1448190247	0.6136724879	
748.125	-0.1921414851	1.549602544	
748.75	1.210167312	0.6184339695	
749.375	0.08806474699	0.4983637291	
750.0	-10.14550338	-1.90961241	
