!Created with skrf (http://scikit-rf.org).
# GHz S RI R (50+0j) 
!freq	ReS11	ImS11	
500.0	-0.2722006456	-0.8370488116	
500.625	0.947873698	-0.7151279521	
501.25	-0.8364016119	-0.8917563445	
501.875	-0.1420491676	-0.2140287937	
502.5	-0.01990716001	-0.2032964984	
503.125	-0.07327587962	0.0435915039	
503.75	-0.07448570647	0.06177676044	
504.375	0.05782478124	-0.01745971008	
505.0	-0.006309720589	0.0009446481838	
505.625	0.03790943818	-0.09420606733	
506.25	-0.09732197244	0.04736918626	
506.875	-0.09681584941	-0.2460123379	
507.5	-0.5375737409	-0.194264531	
508.125	0.2880920581	-0.2835042011	
508.75	0.9801654468	-1.160465229	
509.375	-0.4431334608	-1.306541994	
510.0	-0.1808714517	-0.1777347842	
510.625	-0.1432070134	-0.2177209898	
511.25	-0.09467414485	-0.01241794826	
511.875	-0.1167742497	-0.1551598535	
512.5	-0.01522724272	0.06083694092	
513.125	0.002449910773	-0.02726610597	
513.75	-0.005946045751	-0.1263369382	
514.375	-0.149519087	0.0625069085	
515.0	0.3329223736	-0.1342770183	
515.625	-0.5133632703	-0.08071712016	
516.25	0.2273444183	-0.2353842268	
516.875	-0.04208157701	-0.7780579767	
517.5	-0.1025055073	-0.03559503259	
518.125	0.007088218968	-0.0905518452	
518.75	-0.1818274284	-0.1281183382	
519.375	-0.03513957325	0.01065900667	
520.0	0.1002629146	0.1278390953	
520.625	0.1799489616	-0.07451271959	
521.25	-0.06869895356	-0.1739629827	
521.875	-0.08949834595	-0.1362173704	
522.5	-0.1030057286	0.08707091735	
523.125	0.01795799843	-0.06851262336	
523.75	-0.2564629433	-0.009204812953	
524.375	-0.01733750532	0.1121335927	
525.0	-0.1915825261	0.04998070722	
525.625	0.1663178502	0.0915648048	
526.25	-0.1031389588	-0.06671424315	
526.875	0.006022211703	0.09232641269	
527.5	-0.04037896795	0.06623106367	
528.125	0.1435989811	0.3204167096	
528.75	0.1725974105	0.2637979118	
529.375	-0.04156652456	0.01929271082	
530.0	0.1019008756	0.2451781769	
530.625	0.1735243124	0.2661432704	
531.25	0.4130365756	0.3086822585	
531.875	0.3238889791	-0.2819124994	
532.5	0.003476820962	0.03358195735	
533.125	0.2395454186	-0.1782496405	
533.75	0.05213427992	-0.05437622074	
534.375	0.02070917942	-0.4115395332	
535.0	-0.3098772791	-0.04323546816	
535.625	-0.1087554298	0.05192404976	
536.25	-0.03321540407	0.1252594541	
536.875	0.1134438187	-0.02732149362	
537.5	0.06388279452	0.004671934533	
538.125	0.1530362514	-0.1058848652	
538.75	0.06606588198	-0.09799420275	
539.375	-0.03408750278	-0.1948366404	
540.0	-0.2560876284	-0.169454865	
540.625	-0.1817407118	0.02802060659	
541.25	-0.09626478988	-0.05346990679	
541.875	-0.1211327057	-0.03264750296	
542.5	0.02212800339	-0.04903025125	
543.125	-0.1558634653	-0.1784244102	
543.75	-0.04284255158	0.04767354187	
544.375	-0.110363572	0.01093955057	
545.0	0.0556971828	0.07739925474	
545.625	-0.03584005147	0.04838506331	
546.25	0.1690839936	0.05478331243	
546.875	0.06346849073	-0.04215812201	
547.5	0.1354302729	-0.1048410366	
548.125	-0.09733012437	-0.23881515	
548.75	-0.1011780371	-0.05995177091	
549.375	-0.0890138363	-0.1279730569	
550.0	-0.1125755732	0.04350721691	
550.625	-0.01966253379	-0.01601022348	
551.25	-0.1170714354	0.05285845832	
551.875	-0.0425215165	0.05529347301	
552.5	-0.08023261781	0.07591638257	
553.125	-0.003336809876	0.09203706733	
553.75	0.03336946056	0.05356863643	
554.375	0.1120300545	-0.0002898199468	
555.0	0.101086611	-0.07160672846	
555.625	0.1016484851	-0.1026808008	
556.25	0.07741785201	-0.153482587	
556.875	-0.03505159618	-0.171851984	
557.5	-0.0980994584	-0.1127416172	
558.125	-0.1226600097	-0.05137645403	
558.75	-0.1222555179	-0.002508791227	
559.375	-0.1114815734	0.01514388443	
560.0	-0.1201449803	0.0732393771	
560.625	-0.04625629656	0.1399868108	
561.25	-0.001796880874	0.07937263814	
561.875	0.03221690152	0.08147563013	
562.5	0.01290428868	0.01920785831	
563.125	0.05674540579	0.1222784036	
563.75	0.1698185558	-0.02711754059	
564.375	0.112672682	-0.0558045676	
565.0	0.1316099365	-0.1806264734	
565.625	-0.09792208392	-0.1704814032	
566.25	-0.05716449349	-0.1144196324	
566.875	-0.1982142047	-0.1184846986	
567.5	-0.134296613	-0.002642429121	
568.125	-0.08778366723	-0.243428193	
568.75	-0.3485493421	-0.02163407776	
569.375	-0.1568508281	0.07563894391	
570.0	-0.2519149775	0.1960942365	
570.625	0.01348702068	0.2594838573	
571.25	-0.02431115368	0.03953617962	
571.875	0.1009389647	0.1665174629	
572.5	0.04822966578	-0.08352377272	
573.125	0.1750468568	-0.02857026143	
573.75	0.02747668022	-0.2416870358	
574.375	-0.04664535364	0.006711523737	
575.0	0.1229693441	-0.09629219592	
575.625	-0.0528082476	-0.05934531918	
576.25	0.1335306297	-0.0594712088	
576.875	-0.03367620949	-0.2333525755	
577.5	-0.07519145624	-0.09299916948	
578.125	0.08459429299	-0.1305440632	
578.75	-0.1530792863	-0.2303707398	
579.375	-0.1034332629	0.0456546352	
580.0	0.04149639806	-0.1775413813	
580.625	-0.1459544298	0.07683157427	
581.25	-0.07377819648	-0.0700618857	
581.875	-0.06573130943	0.2960442679	
582.5	0.1709754237	0.07930486076	
583.125	-0.02854948767	0.03794226009	
583.75	0.1665529681	0.08836915259	
584.375	-0.03935938354	-0.04205911078	
585.0	0.1418306688	0.1769742656	
585.625	0.2027168265	-0.08739508405	
586.25	0.09326450231	0.02546219062	
586.875	0.1835003111	-0.1591064969	
587.5	-0.1031659924	-0.1438516654	
588.125	0.06540342481	-0.08917959645	
588.75	0.06801388316	-0.2550442481	
589.375	-0.03463674522	-0.1266013064	
590.0	0.05781495789	-0.2106087979	
590.625	-0.3007061116	-0.02655375834	
591.25	0.001634319849	0.07445624622	
591.875	-0.1459007919	0.07929450849	
592.5	0.08069362356	0.1289502336	
593.125	-0.1361444383	-0.03668019595	
593.75	0.2224079686	0.09454955488	
594.375	0.07774906349	0.02997278914	
595.0	0.1425283302	0.2025377107	
595.625	0.2755344885	0.04839730244	
596.25	0.05814691138	0.05805567136	
596.875	0.2217214525	0.1302810956	
597.5	0.2071676769	0.01275450926	
598.125	0.06219926561	0.1118037303	
598.75	0.2282032405	0.141359565	
599.375	0.1919150943	-0.1122287024	
600.0	0.1704013059	-0.069343498	
600.625	0.2257972573	-0.230292142	
601.25	-0.0335171124	-0.2534781078	
601.875	0.0285350415	-0.09595910042	
602.5	-0.2344294174	-0.05559746368	
603.125	-0.02167416672	0.08843185035	
603.75	-0.1968460277	-0.03708903681	
604.375	-0.08064101561	0.2177647597	
605.0	0.01857047976	-0.01153730592	
605.625	-0.1745376705	0.125265708	
606.25	-0.03799517775	0.1445956352	
606.875	-0.2769462816	0.07779203184	
607.5	-0.2486247343	0.2724845865	
608.125	-0.0176407658	0.2189218248	
608.75	0.1347907964	0.2130435078	
609.375	0.3108777116	-0.006139007116	
610.0	0.0976074974	-0.1734308214	
610.625	0.1205005906	-0.08801014213	
611.25	-0.03090232559	-0.2826366711	
611.875	-0.1004555283	-0.01362843897	
612.5	-0.1728978557	-0.1922626312	
613.125	-0.2530882708	0.1594999489	
613.75	-0.02612267822	0.03334673788	
614.375	-0.01910267134	0.2392201812	
615.0	0.1511787007	-0.03123688335	
615.625	-0.1406376965	0.0658683089	
616.25	0.06132484362	0.179157473	
616.875	-0.07205736011	0.1180104446	
617.5	-0.1834357707	0.2269918467	
618.125	0.0269775338	0.3452518132	
618.75	0.02944215218	0.179455348	
619.375	0.05805673002	0.1754457394	
620.0	0.2447981831	0.0102161483	
620.625	0.08426427203	-0.07933265264	
621.25	-0.03049912808	-0.2860968909	
621.875	-0.3376858771	-0.09892576423	
622.5	-0.1325164667	0.02648798017	
623.125	-0.1471679609	0.2294742487	
623.75	0.2251805172	0.009310462285	
624.375	-0.0261536798	0.01784108398	
625.0	0.09338160664	-0.1169906445	
625.625	0.01149137863	-0.007558933157	
626.25	0.01315390189	-0.2094904563	
626.875	-0.22861929	-0.06017895105	
627.5	-0.0989381888	-0.02579368225	
628.125	-0.1406187918	-0.1604205859	
628.75	-0.1287287846	-0.08730040662	
629.375	-0.01457090237	-0.1401855899	
630.0	-0.1532040869	-0.1856788482	
630.625	-0.2317134848	0.1125925181	
631.25	-0.06945002414	0.1350152911	
631.875	-0.07175941046	0.3324731357	
632.5	0.2823432249	0.1970889045	
633.125	0.1360625533	0.07684264165	
633.75	0.2884736762	-0.06503612012	
634.375	-0.02639452861	-0.135426723	
635.0	0.1198019095	-0.1255093975	
635.625	-0.2530142692	-0.1218989363	
636.25	-0.08321477636	0.09342549727	
636.875	-0.163600178	0.0435831661	
637.5	0.01133927565	0.1915739974	
638.125	-0.04821507631	-0.03622701243	
638.75	-0.1560698209	0.2517491829	
639.375	0.101928762	0.245408613	
640.0	0.01101106008	0.2244403943	
640.625	0.2321626853	0.2847242067	
641.25	0.3000159788	-0.08415955227	
641.875	0.1703558836	-0.0590338656	
642.5	0.07816714084	-0.3477063788	
643.125	-0.2936761942	0.01030633977	
643.75	-0.004978841576	-0.1457214068	
644.375	-0.3562916769	0.02994640809	
645.0	-0.02359420355	0.1139773304	
645.625	-0.2701652114	0.254305501	
646.25	0.3726056212	0.105035482	
646.875	-0.03740447081	-0.05729741312	
647.5	0.1882609985	0.1505356214	
648.125	0.1106925545	-0.1090703204	
648.75	0.2938342329	0.1411202217	
649.375	0.3255371982	-0.4098922219	
650.0	-0.003362943448	-0.2442425662	
650.625	0.3072893242	-0.1690056567	
651.25	0.301227736	-0.4331927048	
651.875	0.08660571419	-0.1580022046	
652.5	0.3516710847	0.09502452544	
653.125	0.3818263213	-0.2206326702	
653.75	0.06686114124	-0.1523022136	
654.375	0.1487709107	-0.4015920966	
655.0	-0.4467594906	-0.07883255472	
655.625	0.01215330676	0.1433439221	
656.25	-0.2007893237	0.2256581526	
656.875	0.2489500888	0.09066099381	
657.5	-0.2543680235	0.112414422	
658.125	0.2723221962	0.2590167769	
658.75	0.1733720886	-0.07404275481	
659.375	0.3187869298	0.0590034037	
660.0	0.3943028476	-0.4192016356	
660.625	-0.01162064327	-0.3156183124	
661.25	0.3324362114	-0.1848068173	
661.875	0.3124167351	-0.3722209474	
662.5	0.1515365148	-0.2165669129	
663.125	0.378094659	-0.0433201513	
663.75	0.1687877521	-0.4491936638	
664.375	-0.04491703653	-0.2276077134	
665.0	-0.1773975688	-0.3409567931	
665.625	-0.4797986736	0.1259664485	
666.25	-0.02291283038	0.2012385763	
666.875	0.006613177528	0.3092143902	
667.5	0.3378438128	0.06591183713	
668.125	0.04168986237	0.01890048429	
668.75	0.3708732078	-0.1104152127	
669.375	-0.01875489418	-0.2950587274	
670.0	0.1434269369	-0.1004986096	
670.625	0.07605482266	-0.3332409349	
671.25	-0.1171130263	-0.1177229191	
671.875	0.2625351303	-0.02930011306	
672.5	0.2866090222	-0.2655501065	
673.125	0.1297615905	-0.1612239605	
673.75	0.2477089132	-0.1136602191	
674.375	0.1071595939	-0.4141959919	
675.0	-0.1148848137	-0.1119280679	
675.625	-0.09183055956	-0.2680869676	
676.25	-0.317838625	-0.03886831253	
676.875	-0.04743899402	0.06507784177	
677.5	-0.2391936841	-0.1532688128	
678.125	-0.13018234	0.2888443879	
678.75	-0.02957112049	0.02199389616	
679.375	0.2130044407	0.3101736242	
680.0	0.1770502638	-0.3498028714	
680.625	-0.02062037266	0.09990674417	
681.25	0.3363049623	-0.1672378554	
681.875	0.03440809643	-0.1022547156	
682.5	0.06903189206	0.272648109	
683.125	0.5171170852	-0.06104454713	
683.75	0.08494790777	-0.02064722314	
684.375	0.4212179381	0.1498592219	
685.0	0.4513348387	0.02376433263	
685.625	0.100647609	-0.01849613426	
686.25	0.4433787815	0.2340989788	
686.875	0.2365883325	-0.1874013925	
687.5	0.2336247075	-0.1149469599	
688.125	0.1898256707	-0.5466806733	
688.75	-0.6050764232	-0.1888147645	
689.375	-0.1806484137	0.161465481	
690.0	-0.1004543229	0.5584443579	
690.625	0.3841749187	0.1927128194	
691.25	0.05332782524	0.3013674197	
691.875	0.7636476915	0.524114954	
692.5	0.5508216151	0.014501872	
693.125	0.6144749738	0.2364333909	
693.75	0.8299693088	-0.3795593244	
694.375	0.2541140033	-0.5127253617	
695.0	0.8098845438	-0.2629003978	
695.625	0.6994981471	-0.1928479231	
696.25	0.4402338265	0.04870101074	
696.875	0.2919508845	0.4800754432	
697.5	0.4955561407	0.6857900089	
698.125	0.5881683473	0.2061215588	
698.75	0.6730953435	-0.165092934	
699.375	-0.4441644119	-0.6150481535	
700.0	-0.2430273	0.4418680296	
700.625	-0.1218052952	0.3598380882	
701.25	0.4410999989	0.1923977995	
701.875	0.1182265011	0.1487309219	
702.5	0.34231744	0.4896017652	
703.125	0.604269862	0.06227463203	
703.75	0.2066278622	-0.05817033043	
704.375	0.4466731391	-0.2210633328	
705.0	0.245183145	-0.2916154488	
705.625	0.3807353336	0.1148040848	
706.25	0.3936221664	0.3089463892	
706.875	0.2779710721	0.2239694489	
707.5	0.09577456463	0.3886932301	
708.125	0.2726053713	0.2846649596	
708.75	0.3325803351	-0.4008257011	
709.375	-0.01866293827	-0.2662809588	
710.0	-0.3870558869	0.1297539639	
710.625	0.2274542294	0.1745848263	
711.25	-0.06218801355	0.1765884499	
711.875	0.3982038938	0.1780017928	
712.5	0.1486683822	-0.00689676496	
713.125	0.4057106071	-0.03227903021	
713.75	0.1630495491	-0.366227523	
714.375	-0.03565011323	-0.1420343924	
715.0	0.09419400157	-0.2526133208	
715.625	-0.09006382325	-0.2810324698	
716.25	0.1130808805	-0.1856640669	
716.875	0.5362930132	-0.1630147935	
717.5	0.5087259328	-0.2507410947	
718.125	0.4611868426	0.2277603574	
718.75	0.8629936351	0.2559044314	
719.375	0.6698546508	-0.6211866529	
720.0	0.6203732989	-0.3828119	
720.625	1.289562178	-1.160695461	
721.25	-0.7913627523	-0.9959545092	
721.875	0.2822872683	-0.9035868247	
722.5	-0.698495998	-1.187020445	
723.125	-0.7020382898	-0.004068782808	
723.75	-0.5936077634	-0.03850155772	
724.375	0.07077153035	0.705375731	
725.0	0.1350504879	0.2001522799	
725.625	-0.0406265877	0.6063321717	
726.25	0.226615797	0.8868650541	
726.875	0.1583489878	0.6348902564	
727.5	-0.7094029865	1.407904934	
728.125	0.08909918567	2.538967081	
728.75	0.2801767097	1.937966172	
729.375	-2.279871365	2.316520976	
730.0	0.1148058676	5.370080872	
730.625	-0.0411957552	2.474315352	
731.25	-3.195273885	2.276813636	
731.875	-3.314949912	4.550088142	
732.5	-0.2038308882	-0.0761553691	
733.125	-3.292721734	-0.8920357638	
733.75	-0.8831715504	2.144058947	
734.375	0.3237096036	0.1134044954	
735.0	0.5853511032	-0.734425335	
735.625	-0.4889147681	0.390526112	
736.25	-0.4607764573	0.1448377025	
736.875	0.5118076815	0.9811775846	
737.5	1.133340439	-0.1874038329	
738.125	0.8433971418	0.4052909182	
738.75	3.382910847	-1.07201628	
739.375	1.306229708	-2.836957946	
740.0	0.4248623343	1.086073492	
740.625	6.508961799	2.945892795	
741.25	3.688554975	-0.929766438	
741.875	-4.058413841	-3.515586035	
742.5	-3.992080702	-3.97442765	
743.125	-0.533945586	-0.7706369654	
743.75	0.6597325741	-1.168684543	
744.375	-0.7688936995	-0.1128538321	
745.0	0.1186827583	-0.1600674002	
745.625	0.192078039	0.07677231938	
746.25	-0.04610070736	-0.07103644859	
746.875	-0.2249238547	-0.1427222095	
747.5	-0.1321331618	0.5030939205	
748.125	0.1337266277	0.4379750595	
748.75	0.07639557948	0.5099278106	
749.375	0.1588880708	0.6155107197	
750.0	-0.3519164091	0.252328257	
