!Created with skrf (http://scikit-rf.org).
# GHz S RI R (50+0j) 
!freq	ReS11	ImS11	
500.0	-0.1378468045	-1.168359322	
500.625	0.2121429978	-0.4215309863	
501.25	-0.4235147389	-1.113615737	
501.875	-0.3553834736	-0.2553393408	
502.5	0.02801390969	-0.1460183694	
503.125	-0.1373744758	0.0325877158	
503.75	0.03862940455	0.03005860805	
504.375	0.05031719373	0.02176883305	
505.0	-0.002383899915	-0.04483310039	
505.625	0.07468371327	-0.05613961469	
506.25	-0.1518960618	-0.1049458589	
506.875	0.09901612142	-0.0375784904	
507.5	-0.2101436325	-0.6717856819	
508.125	-0.1398332849	-0.3092746446	
508.75	0.9241685997	-0.5332266074	
509.375	-0.3848808432	-1.570137436	
510.0	-0.4168248576	-0.07976984132	
510.625	-0.01785713003	-0.2417900634	
511.25	-0.2022157658	0.007425759354	
511.875	-0.05694122245	-0.04281211895	
512.5	-0.05364375717	0.077111377	
513.125	-0.05100311276	-0.0653771418	
513.75	0.0124493647	-0.02816526767	
514.375	-0.1496295387	-0.0716691899	
515.0	0.3021275606	0.2874287425	
515.625	-0.1423165886	-0.8194179116	
516.25	-0.4763030194	-0.1484717556	
516.875	0.1093414714	-0.6336550416	
517.5	-0.1421376936	-0.2823994831	
518.125	0.0276350096	0.04194008869	
518.75	-0.06981585197	-0.2851410457	
519.375	-0.02367201322	0.06538587358	
520.0	0.1207349986	0.08669843356	
520.625	0.2268715241	-0.03690542071	
521.25	-0.1465369209	-0.2860441441	
521.875	-0.07965814849	-0.01500258013	
522.5	-0.09225318869	-0.002193076723	
523.125	0.08275609351	0.05154407686	
523.75	-0.1610093123	-0.1443215433	
524.375	-0.2371382739	0.1653269379	
525.0	0.01210517787	-0.003672981247	
525.625	-0.03345397711	0.1193966132	
526.25	0.03254767364	-0.1004208577	
526.875	-0.1109130071	0.113092556	
527.5	0.02697283245	0.1012590129	
528.125	-0.07977072901	0.1875473279	
528.75	0.00336788084	0.3739553069	
529.375	0.06321797651	-0.05084431481	
530.0	0.02755662261	0.1557845948	
530.625	0.2543843799	0.1995236614	
531.25	0.3850511746	0.04721827023	
531.875	0.408713347	-0.196851709	
532.5	-0.1707391878	-0.2987284594	
533.125	0.2093008706	-0.06430139823	
533.75	-0.04058906213	-0.2158514387	
534.375	0.05443999099	-0.2242317869	
535.0	-0.3010215403	-0.2115798929	
535.625	-0.1046602993	0.1420054098	
536.25	-0.03544157744	0.07780356879	
536.875	0.1359237311	0.01583010419	
537.5	0.02139122269	-0.04493752721	
538.125	0.1759978509	-0.01443582107	
538.75	0.09104372472	-0.1831398238	
539.375	-0.03139413728	-0.113809589	
540.0	-0.1440703299	-0.168315665	
540.625	-0.2020737734	0.03634961999	
541.25	-0.0588414025	0.01791988917	
541.875	-0.09875883933	-0.05199822303	
542.5	-0.04588743028	0.008024001148	
543.125	-0.08883817523	-0.1004939637	
543.75	-0.1535214003	0.0437038711	
544.375	-0.04834594392	-0.02239302903	
545.0	-0.03157386976	0.1379481867	
545.625	0.04739911815	0.003836446555	
546.25	0.09474818012	0.1054666578	
546.875	0.1525974625	-0.09502178201	
547.5	0.0292825426	-0.06212054875	
548.125	-0.004927111916	-0.2118413252	
548.75	-0.1942551388	-0.09223517503	
549.375	-0.05531519696	-0.06058078737	
550.0	-0.1310659572	-0.01922476211	
550.625	-0.01189867811	0.02849871592	
551.25	-0.1151287755	0.003619506375	
551.875	-0.05237919567	0.1073259772	
552.5	-0.0274050095	0.05108602481	
553.125	-0.01803839925	0.08275046076	
553.75	0.04486924662	0.03538547876	
554.375	0.1034126879	0.00847711042	
555.0	0.1092741992	-0.08585915997	
555.625	0.08569855241	-0.1083417528	
556.25	0.07121885031	-0.1468606855	
556.875	-0.03794163086	-0.1737414942	
557.5	-0.1024874101	-0.1048927027	
558.125	-0.1165142694	-0.04126085517	
558.75	-0.1204766635	-0.005938831962	
559.375	-0.1137946562	0.02972321755	
560.0	-0.0954690084	0.0609032264	
560.625	-0.0673286617	0.1291512315	
561.25	0.03128350652	0.09399446459	
561.875	-0.004466402311	0.05255772394	
562.5	0.05380411848	0.05634709501	
563.125	0.03155889718	0.07521528629	
563.75	0.1890228966	0.008828923813	
564.375	0.09026837858	-0.1204401535	
565.0	0.09527711273	-0.0917179618	
565.625	-0.05646692378	-0.2100187108	
566.25	-0.09684010698	-0.0629382671	
566.875	-0.1063031831	-0.1424425248	
567.5	-0.2143874374	-0.09312090352	
568.125	-0.06593695205	-0.09502647713	
568.75	-0.2653291008	-0.157727668	
569.375	-0.2114259299	0.1973875248	
570.0	-0.114362847	0.1279203082	
570.625	-0.1234636666	0.2418074027	
571.25	0.08357492859	0.08601297274	
571.875	-0.02216261402	0.14830082	
572.5	0.1861351594	-0.0812621615	
573.125	0.02601603776	-0.02036589858	
573.75	0.1566862261	-0.1315812392	
574.375	-0.1040075694	-0.1148909097	
575.0	0.0943747104	0.04648695733	
575.625	0.01556427314	-0.1670420151	
576.25	-0.005147537116	-0.03452154857	
576.875	0.07771011642	-0.1893319568	
577.5	-0.07827970444	-0.2435016702	
578.125	-0.04980236536	-0.06784651044	
578.75	-0.02078109574	-0.1957927711	
579.375	-0.2420242831	-0.07302501007	
580.0	0.05535033685	0.01692346418	
580.625	-0.2158849719	-0.07559456897	
581.25	0.007926630928	0.122903171	
581.875	-0.1235327294	0.1067988485	
582.5	0.08790678338	0.2551450557	
583.125	0.09228742438	-0.08593089799	
583.75	-0.04272909087	0.1134433718	
584.375	0.1263213746	-0.00643461824	
585.0	0.004327393325	0.0960970484	
585.625	0.2990195987	-0.03182686772	
586.25	0.07862542763	-0.1420203974	
586.875	0.1367911384	-0.05633217937	
587.5	-0.02959245147	-0.2402333964	
588.125	-0.05024433646	-0.05572809746	
588.75	0.1288668006	-0.1406479029	
589.375	0.01809408734	-0.2497037924	
590.0	-0.04309509006	-0.08066013487	
590.625	-0.2036125908	-0.1892575943	
591.25	-0.1222694557	0.2380049011	
591.875	-0.0066664139	0.02896854393	
592.5	-0.06220669316	0.1513155741	
593.125	0.01822064727	-0.09624374513	
593.75	-0.001680568554	0.2383662226	
594.375	0.2462568443	0.02253888977	
595.0	0.07968467247	0.06246019153	
595.625	0.2747186834	0.136474425	
596.25	0.1965213526	-0.06174601587	
596.875	0.06885605646	0.08120566639	
597.5	0.2439317553	0.1133983468	
598.125	0.1062537797	0.05183713594	
598.75	0.1248959845	0.1445554806	
599.375	0.284488136	-0.08078534802	
600.0	0.0718634077	-0.1591154539	
600.625	0.1563839911	-0.1497671785	
601.25	0.06327171827	-0.2847614812	
601.875	-0.1172662393	-0.05945316755	
602.5	-0.1013709598	-0.1228041287	
603.125	-0.1441512971	0.185973254	
603.75	-0.01941401647	0.0275375502	
604.375	-0.201723217	0.03708700229	
605.0	0.0673391913	0.1694598416	
605.625	-0.05153149577	-0.06022501141	
606.25	-0.05611406878	0.1958161546	
606.875	-0.04868491809	0.09140719947	
607.5	-0.248643402	0.1095271499	
608.125	0.02057556556	0.3524256337	
608.75	0.1428295007	0.05987543961	
609.375	0.2759567481	0.06506521415	
610.0	0.1727444778	-0.1405841925	
610.625	-0.001864351669	-0.09233763643	
611.25	0.04479070401	-0.1150407938	
611.875	-0.1958109097	-0.09374330981	
612.5	-0.05554862482	-0.05772341758	
613.125	-0.3031054012	-0.02039563581	
613.75	-0.0104541682	0.2634490808	
614.375	-0.04614812516	0.01699778375	
615.0	0.1151915514	0.1431045703	
615.625	-0.01054582286	-0.03925094481	
616.25	-0.1442925124	0.2158349319	
616.875	0.02644101578	0.2832205805	
617.5	-0.03563294534	0.08501057647	
618.125	-0.09235892903	0.2712312175	
618.75	0.05557765794	0.1682870245	
619.375	0.02028605417	0.09107573208	
620.0	0.2856013007	0.1371825148	
620.625	0.01300278709	-0.2070067985	
621.25	-0.1426921588	-0.0545278928	
621.875	-0.2680188282	-0.1368444253	
622.5	-0.1765835306	0.165196791	
623.125	-0.03215474149	0.0746412874	
623.75	0.1819081315	0.1384080256	
624.375	-0.03954001979	-0.09512525443	
625.0	0.1176649612	0.01502567903	
625.625	-0.01062755753	-0.1697913958	
626.25	0.0120392185	-0.07036460698	
626.875	-0.1585982733	-0.1560319511	
627.5	-0.1949129646	0.03847587231	
628.125	-0.02859006859	-0.06451191977	
628.75	-0.1255093747	-0.2196601601	
629.375	-0.1295376973	-0.1602552424	
630.0	-0.1568451153	-0.1551893051	
630.625	-0.2964254738	0.07521213665	
631.25	-0.08311376463	0.2317509775	
631.875	-0.03327223626	0.1011152862	
632.5	0.1931245518	0.2482418869	
633.125	0.1935716442	-0.01979709338	
633.75	0.1573088001	0.01655512088	
634.375	0.1408615329	-0.2788499842	
635.0	-0.03909860182	-0.05195878011	
635.625	-0.1305117561	-0.1876397	
636.25	-0.2013076701	0.1956115027	
636.875	-0.01076234614	0.05990027102	
637.5	-0.1636719003	0.08802635763	
638.125	0.04598889356	0.1128058055	
638.75	-0.1581903018	0.1026603338	
639.375	0.02843953782	0.3659477204	
640.0	0.2129027021	0.1521889808	
640.625	0.1432206579	0.2144944641	
641.25	0.4166327826	-0.01366859043	
641.875	0.05062322085	-0.2174191978	
642.5	0.07147227437	-0.07168284749	
643.125	-0.2096270416	-0.2139037373	
643.75	-0.0605705793	0.05533825338	
644.375	-0.2617633392	-0.1046806889	
645.0	-0.1711706844	0.4389990695	
645.625	0.0768709922	0.07015407535	
646.25	0.1864939589	0.2355658823	
646.875	0.1703203453	-0.2208109205	
647.5	-0.09939136612	0.2157304129	
648.125	0.3157281915	-0.01068613508	
648.75	0.1069615469	-0.1019373053	
649.375	0.3781794503	-0.08383552664	
650.0	0.1539078077	-0.5375690966	
650.625	-0.005790212855	-0.1636784187	
651.25	0.3567595818	-0.1620341515	
651.875	0.290044082	-0.3855239418	
652.5	0.1190793667	-0.02791472386	
653.125	0.4336891105	-0.01203412298	
653.75	0.1134856734	-0.3708541692	
654.375	-0.01017953006	-0.1640874909	
655.0	-0.2799570793	-0.3407327042	
655.625	-0.1392705582	0.3322582354	
656.25	0.03180127366	0.03846502803	
656.875	-0.04077256183	0.3039109699	
657.5	0.09304207705	-0.03950308148	
658.125	-0.07990275738	0.4297593278	
658.75	0.489132539	0.02775095373	
659.375	0.1831885517	-0.1578685637	
660.0	0.3395215797	-0.1859256676	
660.625	0.1367125841	-0.5627295699	
661.25	-0.005684827526	-0.203538211	
661.875	0.3502708646	-0.189599756	
662.5	0.2846541682	-0.3317808457	
663.125	0.1235464305	-0.1416202771	
663.75	0.3165756517	-0.2496071813	
664.375	-0.1725839979	-0.3992144116	
665.0	-0.1688643655	-0.1454476742	
665.625	-0.4091504859	0.002821655107	
666.25	-0.03374819282	0.3704970563	
666.875	0.05412330641	0.1094449618	
667.5	0.2293309963	0.23784192	
668.125	0.2164881745	-0.1242376939	
668.75	0.1601075142	-0.03520067837	
669.375	0.2621474828	-0.3825041787	
670.0	-0.1646626149	-0.1816274418	
670.625	0.1387591455	-0.1458601405	
671.25	0.07771365803	-0.317675959	
671.875	-0.01420959203	-0.1029735009	
672.5	0.2898791228	-0.03341059437	
673.125	0.1814718009	-0.3403383789	
673.75	0.07295285411	-0.1573227129	
674.375	0.1686042492	-0.2643475262	
675.0	-0.21927519	-0.3383758569	
675.625	-0.09041537213	-0.0109142624	
676.25	-0.2093027126	-0.1672443419	
676.875	-0.1941719794	0.1228035036	
677.5	-0.04213068576	-0.03121626487	
678.125	-0.301479383	0.1577375669	
678.75	0.1901162366	0.2404502901	
679.375	0.03752760677	0.06791809914	
680.0	0.3004495254	-0.03674043579	
680.625	-0.1533851698	-0.2933329658	
681.25	0.08373412066	0.2252987028	
681.875	0.306035304	-0.04240097231	
682.5	-0.02220100402	0.01078573236	
683.125	0.233544418	0.2961195005	
683.75	0.4768963865	-0.1399469873	
684.375	-0.007675526948	-0.0197398726	
685.0	0.3654484261	0.2509789642	
685.625	0.3914618572	-0.1380851288	
686.25	0.1787830257	0.05435498034	
686.875	0.563789006	-0.05518774573	
687.5	0.0512681158	-0.4055702041	
688.125	0.1104747571	-0.3009880313	
688.75	-0.4804697681	-0.2728918735	
689.375	-0.1897460452	0.4798555405	
690.0	-0.07167062697	0.2023102122	
690.625	0.3625531458	0.4450217183	
691.25	0.361254144	0.03818022887	
691.875	0.275042682	0.4212267348	
692.5	0.8516655379	0.294947363	
693.125	0.3503684577	-0.1840006326	
693.75	0.6028501541	-0.03946016362	
694.375	0.3857658159	-0.7173996813	
695.0	0.199940586	-0.3633047822	
695.625	0.5030841018	0.2042716279	
696.25	0.6841834479	0.02471689301	
696.875	0.2886654263	0.4068239414	
697.5	0.3836600755	0.4406461882	
698.125	0.7967029151	0.2015494911	
698.75	0.288898936	-0.3603559491	
699.375	-0.3115260723	-0.2710562938	
700.0	-0.3251145272	0.4844643051	
700.625	0.1759357272	0.148064879	
701.25	0.1460207372	0.3710864777	
701.875	0.4887724012	0.1823695531	
702.5	0.1870190354	0.201247199	
703.125	0.4965908397	0.2589782777	
703.75	0.4040501606	-0.2876796456	
704.375	0.1608632614	-0.05533095436	
705.0	0.3437795853	-0.2453292979	
705.625	0.2324748101	-0.1667541112	
706.25	0.1149805052	0.2322005434	
706.875	0.3441422684	0.4784573378	
707.5	0.2362207945	0.3677089585	
708.125	0.3938682024	0.2754888892	
708.75	0.4335639023	-0.4502679733	
709.375	-0.3713633207	-0.1670007102	
710.0	-0.03950791494	0.1753804679	
710.625	0.07951489186	0.3352751768	
711.25	-0.003626689216	0.002055724926	
711.875	0.2223992118	0.2503309247	
712.5	0.5131117503	-0.1336904549	
713.125	0.1393066137	-0.1229976762	
713.75	0.2834231783	-0.2534150502	
714.375	-0.06820409212	-0.3294077271	
715.0	-0.02320234481	-0.08155793863	
715.625	0.1120624825	-0.2997268307	
716.25	0.005495102758	-0.3273291732	
716.875	0.2768288646	-0.0500176711	
717.5	0.7558851441	0.04522974965	
718.125	0.683049407	-0.1018057179	
718.75	0.6215231964	0.2474041035	
719.375	1.09676864	-0.6544773234	
720.0	0.4211373477	-1.101514737	
720.625	0.499108632	-0.604374944	
721.25	-0.125895892	-1.402049571	
721.875	-0.3398389983	-0.6370442717	
722.5	-0.3905579787	-1.040510894	
723.125	-1.27858213	-0.1773445033	
723.75	-0.2311833293	0.4955019398	
724.375	-0.2227746251	0.4193984538	
725.0	0.4199316649	0.5366206625	
725.625	0.068633913	0.2073942014	
726.25	-0.1866127069	0.8294641724	
726.875	0.1508287289	1.187910458	
727.5	0.09688617105	0.8842568748	
728.125	-0.7502815977	2.251141863	
728.75	0.4668183621	3.444416168	
729.375	-0.04439426652	2.107213599	
730.0	-1.807277899	4.603612268	
730.625	1.448429617	6.191847204	
731.25	-0.5136430126	1.851566943	
731.875	-3.946511325	2.104544716	
732.5	-3.457390668	2.158011025	
733.125	-1.497900782	-0.1981073317	
733.75	-1.544037976	1.495977232	
734.375	1.064548272	0.2305659019	
735.0	0.09331942132	-0.3484825629	
735.625	-0.8427762885	-0.1028027381	
736.25	0.4644109443	0.5130496676	
736.875	-0.009753188838	0.6018964827	
737.5	1.484124489	0.4051404452	
738.125	1.087578681	-1.011570976	
738.75	1.152143245	0.03951457939	
739.375	4.583830629	-2.04652517	
740.0	0.6453332296	-3.90169117	
740.625	0.3468275855	2.355424247	
741.25	4.233794599	4.789123363	
741.875	1.927311463	0.3452826213	
742.5	-0.5104871546	-4.625986968	
743.125	-0.5395944258	-2.341166406	
743.75	-0.1244570067	-0.360379497	
744.375	-0.2211181668	-0.6729424135	
745.0	0.2250452826	0.218797575	
745.625	0.0105871097	0.09388904751	
746.25	-0.03853346851	-0.1930080474	
746.875	-0.1188003355	0.1030509092	
747.5	-0.2177535914	0.2738466062	
748.125	0.1736751118	0.6510378285	
748.75	0.2663266099	0.28351947	
749.375	0.007559481709	0.5037797743	
750.0	-0.4498778962	0.4126195761	
