!Created with skrf (http://scikit-rf.org).
# GHz S RI R (50+0j) 
!freq	ReS11	ImS11	
500.0	0.7189737304	-2.535316648	
500.625	-0.9861681887	-3.656471124	
501.25	-0.9187188294	-2.301154133	
501.875	-1.681188367	-0.589578946	
502.5	-0.1392487729	-0.2452669208	
503.125	-0.2195238727	-0.05806318325	
503.75	0.2366158799	0.3787078779	
504.375	-0.05400627857	-0.006203767312	
505.0	0.1729169391	-0.1014966469	
505.625	-0.1703535673	-0.01781990536	
506.25	0.02165389386	-0.5066858394	
506.875	0.5030484815	0.6553365286	
507.5	-0.04896152066	-2.347389555	
508.125	-1.530658328	-1.883766301	
508.75	1.010399645	-0.6831713367	
509.375	0.684338976	-5.584102335	
510.0	-2.403954714	0.2162907171	
510.625	-0.3029649303	-0.2294757881	
511.25	-0.2287343011	-0.2266996577	
511.875	-0.3940967995	0.09181260169	
512.5	-0.1113046074	0.1392965609	
513.125	-0.05297096182	-0.2797716422	
513.75	-0.213989771	-0.04180326554	
514.375	-0.1050856311	-0.2486038482	
515.0	-1.138691523	0.2566996009	
515.625	2.260193352	-1.983144754	
516.25	-3.891840967	-1.935735699	
516.875	0.2740458646	0.3148381695	
517.5	0.09034769114	-1.168660966	
518.125	-0.01407704871	0.376024221	
518.75	-0.1945711316	-1.081985547	
519.375	-0.0401287183	0.2350878378	
520.0	0.1478584553	0.179452716	
520.625	0.6419393232	-0.2266722274	
521.25	-0.3384666301	-0.5434109776	
521.875	-0.241460656	-0.1852835926	
522.5	-0.115296964	0.2087724166	
523.125	-0.2403218371	-0.155203827	
523.75	-0.2485929213	0.2354255827	
524.375	-0.2445167489	-0.1516920695	
525.0	-0.0008590541215	0.6383418557	
525.625	-0.04539116066	-0.1036750297	
526.25	0.1505619535	0.0894583459	
526.875	-0.323404601	0.01161675884	
527.5	0.1306510978	0.7747901834	
528.125	0.05998469291	0.3143578307	
528.75	-0.1344952206	0.9057860064	
529.375	0.2690153211	-0.0445821308	
530.0	-0.08239836238	0.7978145438	
530.625	0.5636328307	0.4354510667	
531.25	1.088655512	0.5599443218	
531.875	0.08274231137	-0.9000783114	
532.5	0.3092964757	-0.2852569777	
533.125	-0.6854029328	-0.1553380131	
533.75	0.9422891712	-0.6193048525	
534.375	-0.933806497	-0.4851329639	
535.0	-0.2427690112	-0.2707456165	
535.625	-0.6874524035	0.5452655613	
536.25	0.1015553996	0.04264404239	
536.875	0.2887325567	0.1991740229	
537.5	0.1482531872	-0.2327800029	
538.125	0.1006926718	-0.02757317303	
538.75	0.4867472767	-0.3390967561	
539.375	-0.2681096652	-0.304099596	
540.0	-0.3227565405	-0.3059651249	
540.625	-0.4480330342	-0.07409544781	
541.25	-0.1210166037	0.09075350544	
541.875	-0.140961806	-0.1316630735	
542.5	-0.1548857182	-0.02931208209	
543.125	-0.1128563756	-0.0889498662	
543.75	-0.2903214032	-0.1042273875	
544.375	0.03119862547	0.2604553635	
545.0	-0.2132303276	0.01404401399	
545.625	0.4025477503	0.193609272	
546.25	-0.04357028027	-0.03121220835	
546.875	0.5541045913	0.03406022168	
547.5	-0.1353257432	-0.2671543113	
548.125	0.1395721052	-0.3725519196	
548.75	-0.49476285	-0.3404798471	
549.375	-0.2109783876	0.05544927305	
550.0	-0.1578780824	-0.148955219	
550.625	-0.1576918363	0.1722907864	
551.25	-0.1160890548	-0.03752758951	
551.875	-0.2242665905	0.2599662226	
552.5	-0.00745317051	0.1317835028	
553.125	-0.07384124225	0.1957835278	
553.75	0.1220651483	0.0682463844	
554.375	0.2113311004	0.01078039909	
555.0	0.2342497747	-0.1852419501	
555.625	0.1683714628	-0.2677051	
556.25	0.1318908906	-0.3227341272	
556.875	-0.08938922579	-0.3745938278	
557.5	-0.2491500782	-0.2299895515	
558.125	-0.2635938615	-0.06330714938	
558.75	-0.2448620968	-0.01820500769	
559.375	-0.2596000434	0.09354681546	
560.0	-0.1727923589	0.1371262867	
560.625	-0.1662325436	0.2872660322	
561.25	0.1206869506	0.2275271633	
561.875	-0.009463898719	0.04172230843	
562.5	0.09234216308	0.2185571811	
563.125	0.1073505494	0.03325580369	
563.75	0.3558384518	0.1099431553	
564.375	0.2221136152	-0.3705472743	
565.0	0.1775687943	-0.1691177277	
565.625	-0.1503871951	-0.5001013427	
566.25	-0.2110887279	-0.07398649189	
566.875	-0.2806484907	-0.3066736332	
567.5	-0.4722748851	-0.2136336784	
568.125	-0.2964325976	-0.1462173026	
568.75	-0.4277827539	-0.3836463126	
569.375	-0.7151089729	0.4636011058	
570.0	0.04940290994	0.3502202907	
570.625	-0.4755981889	0.3319965012	
571.25	0.3915253506	0.365313296	
571.875	-0.193537432	0.2757697242	
572.5	0.5695711721	-0.2511998532	
573.125	-0.1177828369	0.0457953585	
573.75	0.4778702715	-0.3203138747	
574.375	-0.2301892178	-0.3669193487	
575.0	0.09862713111	0.2052054552	
575.625	0.1606359282	-0.4595466855	
576.25	-0.17215151	-0.04910632535	
576.875	0.2839793929	-0.4331669806	
577.5	-0.2363152707	-0.504191192	
578.125	-0.06050158636	-0.07262683359	
578.75	-0.05831820394	-0.4710533325	
579.375	-0.4442819065	-0.1370898992	
580.0	0.07174319284	0.09429148265	
580.625	-0.3043501497	-0.2710158557	
581.25	-0.02705520191	0.4163687809	
581.875	-0.1542770568	0.04115748107	
582.5	0.08428630347	0.7113691178	
583.125	0.4047177231	-0.1897805887	
583.75	-0.218872508	0.3254380138	
584.375	0.4704722883	-0.1829647831	
585.0	-0.1627435016	0.3428037082	
585.625	0.7231098443	-0.005217867088	
586.25	0.1222214872	-0.3702665672	
586.875	0.2573724846	-0.03775694375	
587.5	-0.1059514615	-0.5859010519	
588.125	-0.1349110762	-0.0008430170192	
588.75	0.308623289	-0.4501602682	
589.375	-0.1285168196	-0.4540308637	
590.0	0.1404619704	-0.2292815692	
590.625	-0.6672169078	-0.1935402449	
591.25	-0.11335623	0.3778360154	
591.875	-0.01433008014	0.1308643548	
592.5	-0.2088482841	0.1647397721	
593.125	0.2252308997	0.02636883012	
593.75	-0.1666670038	0.4815071629	
594.375	0.6223306183	0.02597877806	
595.0	0.08304614692	0.1671245827	
595.625	0.609792757	0.4619870003	
596.25	0.2435927381	-0.3187720467	
596.875	0.2567268958	0.5010314354	
597.5	0.7183932458	0.09118570565	
598.125	0.1713724511	-0.03029931778	
598.75	0.3310448105	0.3926528502	
599.375	0.5927682652	-0.2555079036	
600.0	0.2089401206	-0.2000458829	
600.625	0.4850171751	-0.4334892933	
601.25	-0.0734095257	-0.4616818304	
601.875	0.05097465864	-0.3325224629	
602.5	-0.4429463062	0.02189084459	
603.125	-0.0860568651	0.09905210583	
603.75	-0.2849150448	0.1745879125	
604.375	-0.2503120267	0.1043490702	
605.0	-0.1609957877	0.4292422136	
605.625	-0.01532637406	-0.2294824334	
606.25	-0.5339193396	0.4519506783	
606.875	0.01757687171	0.1450139073	
607.5	-0.8640199321	0.2666389395	
608.125	0.4237572144	0.6249624144	
608.75	0.003393157167	0.3843467997	
609.375	0.9197770709	-0.1068496551	
610.0	-0.1030405925	-0.3067452443	
610.625	0.5606636515	-0.2983784154	
611.25	-0.2565912732	-0.4038507582	
611.875	0.03448546324	-0.2558584239	
612.5	-0.6754542179	-0.04773267102	
613.125	-0.1712928826	-0.03511027386	
613.75	-0.3989198277	0.4456992117	
614.375	0.3545147702	0.0369681862	
615.0	-0.1255521943	0.4089202261	
615.625	0.2474566697	-0.03491826877	
616.25	-0.4124047872	0.2761449238	
616.875	-0.01957831841	0.7590651604	
617.5	-0.08443857162	0.1018794188	
618.125	-0.1624058266	0.730051916	
618.75	0.2792155405	0.2850031226	
619.375	0.02446372739	0.4211795136	
620.0	0.5617699375	-0.04936572815	
620.625	0.1762375366	-0.212846307	
621.25	-0.2681270929	-0.4957983526	
621.875	-0.3271513641	-0.08357682649	
622.5	-0.6818340271	0.05970663097	
623.125	0.2314102356	0.3819641676	
623.75	0.07512053745	0.3352538724	
624.375	0.05392513261	-0.4581320187	
625.0	0.1835633514	0.2455834004	
625.625	-0.08257250486	-0.6044826111	
626.25	0.1694688255	0.02480756477	
626.875	-0.4579176154	-0.5204477054	
627.5	-0.4076620076	0.2180690109	
628.125	0.03153889661	-0.1935853283	
628.75	-0.2498559919	-0.5088256166	
629.375	-0.2784725042	-0.1110446504	
630.0	-0.3052511691	-0.3158229431	
630.625	-0.6260524076	0.2720119921	
631.25	-0.1047078192	0.2768677709	
631.875	-0.1835438727	0.7042288803	
632.5	0.5010688794	0.2989182514	
633.125	0.3263487569	0.101145826	
633.75	0.4183775653	-0.1028600065	
634.375	0.1974027311	-0.4806261807	
635.0	-0.2611424841	-0.0539117748	
635.625	-0.1303627131	-0.4674396744	
636.25	-0.5316823987	0.4836689193	
636.875	0.2219693296	0.02562836009	
637.5	-0.5448933106	0.4537379464	
638.125	0.2734272322	-0.0131042663	
638.75	-0.5853901952	0.4433666956	
639.375	0.4958593236	0.7416282297	
640.0	-0.07452226832	0.07739948501	
640.625	0.6648794614	0.7142978138	
641.25	0.7999905181	-0.3707207666	
641.875	-0.01665829258	-0.3614588529	
642.5	0.3283139836	-0.4041306741	
643.125	-0.7239666199	-0.2547670869	
643.75	0.09882570868	-0.1742561692	
644.375	-0.7425054781	0.07158378163	
645.0	0.07012798649	0.3023264314	
645.625	-0.2904786512	0.5560501334	
646.25	0.7404552456	0.1106330828	
646.875	-0.004634794725	-0.2214035621	
647.5	0.03461875634	0.4078204047	
648.125	0.7558328694	-0.2238653092	
648.75	-0.1544221028	-0.04222530413	
649.375	1.263098258	-0.5110246718	
650.0	-0.2707039374	-1.111253412	
650.625	0.3663573126	0.09197515853	
651.25	0.9716721448	-1.121802207	
651.875	-0.3411564312	-0.4293633526	
652.5	0.8787686362	0.3406121103	
653.125	0.8092199111	-0.8757421914	
653.75	-0.1105089664	-0.3914057002	
654.375	0.336067018	-0.6081623745	
655.0	-1.14804337	-0.04768525614	
655.625	0.09133873523	0.4035125528	
656.25	-0.3481080091	0.3901514234	
656.875	0.6137994238	0.1428317418	
657.5	-0.396739627	0.2648370715	
658.125	0.6751899896	0.4288953149	
658.75	0.5710595332	-0.1170442449	
659.375	0.4061859676	-0.1594402229	
660.0	0.9977486526	-0.6698077806	
660.625	-0.2902811513	-1.066104054	
661.25	0.3726521998	-0.1400877227	
661.875	0.8114758565	-0.8639324465	
662.5	-0.01500397097	-0.7161665933	
663.125	0.899944731	0.03785991391	
663.75	0.07716575383	-1.188959652	
664.375	-0.1971124227	-0.2079217896	
665.0	-0.4291972347	-0.7719949889	
665.625	-0.9420202248	0.4742037403	
666.25	0.1319329035	0.3822174716	
666.875	0.07130360301	0.6317827472	
667.5	0.6627829145	0.00203602626	
668.125	0.1597217084	0.1466812209	
668.75	0.6792085959	-0.6308025524	
669.375	-0.09426223423	-0.3794771644	
670.0	0.1973891446	-0.3486126784	
670.625	0.05978270858	-0.6380108781	
671.25	-0.1640219532	-0.5019718732	
671.875	0.1851414792	0.01825375716	
672.5	0.8014675295	-0.5136715225	
673.125	0.08266203567	-0.6083044765	
673.75	0.4459437365	-0.1260053512	
674.375	-0.1259572447	-1.090019128	
675.0	-0.1224023173	-0.008157237426	
675.625	-0.4042516704	-0.7332694466	
676.25	-0.7867496817	0.3398658775	
676.875	0.2900278703	-0.0394906704	
677.5	-0.8194213016	-0.07383501144	
678.125	0.07752692161	0.5718159858	
678.75	-0.03470053293	0.2150544221	
679.375	0.6659234602	0.4582423905	
680.0	0.01979383046	-0.607450654	
680.625	0.3688086431	0.1434979481	
681.25	0.288133651	-0.3442607313	
681.875	-0.08914016271	0.1192787246	
682.5	0.7964993535	0.5405790181	
683.125	0.6043620848	-0.2403436092	
683.75	0.4144144709	0.0483942578	
684.375	0.3846432054	0.3482185481	
685.0	1.305383908	0.07101902262	
685.625	-0.1663369251	-0.5375895262	
686.25	1.34390878	0.5260931783	
686.875	0.1243731126	-1.142571345	
687.5	0.6803823161	0.095714576	
688.125	-0.4066560846	-1.929098167	
688.75	-0.448630559	0.6630901702	
689.375	-1.300000381	0.2714820788	
690.0	0.9648071537	0.9923676742	
690.625	0.2634312043	0.1296445346	
691.25	0.8002766215	0.9487749166	
691.875	1.154438682	0.2665218112	
692.5	1.165140624	0.5454070519	
693.125	1.644055797	-0.1721658273	
693.75	1.013169659	-0.7072166099	
694.375	1.054620282	-0.883504867	
695.0	0.8031943695	-0.7493775575	
695.625	1.3634183	-0.09700170834	
696.25	1.062070066	-0.2353216859	
696.875	0.4132629603	1.11015204	
697.5	2.0141881	0.9078008442	
698.125	0.4902999137	-0.02461753879	
698.75	1.546958199	-1.282318616	
699.375	-1.603916109	-0.1093815132	
700.0	-0.7654076666	0.01345011599	
700.625	1.031722348	0.9817911976	
701.25	0.09973649446	0.00224617834	
701.875	0.8180246923	1.065800455	
702.5	0.7237395055	-0.1247189105	
703.125	0.8300955496	0.6658932193	
703.75	1.099966878	-0.6822336639	
704.375	0.1115543786	-0.08693644156	
705.0	1.100009371	-0.516186673	
705.625	0.1437516921	-0.3166946376	
706.25	0.4845579575	1.026294231	
706.875	1.229243559	0.05990014592	
707.5	0.04976180126	0.8192753381	
708.125	1.677535394	0.13548391	
708.75	-0.08838238817	-0.9126444411	
709.375	-0.4775559256	-0.6830009397	
710.0	-0.4527124679	0.8442563919	
710.625	0.1616163989	0.1474320335	
711.25	0.35144342	0.3317569539	
711.875	0.4589561066	0.1628160792	
712.5	0.6823744158	-0.07009925249	
713.125	0.5863072989	-0.5015273004	
713.75	0.3545391969	-0.5665970099	
714.375	-0.2568446906	-0.5707563417	
715.0	0.3160065217	-0.1619058802	
715.625	-0.2101484433	-1.14738103	
716.25	-0.1963660387	-0.003285170668	
716.875	1.517406383	-0.05017737049	
717.5	1.532627124	-1.563048458	
718.125	0.2588614565	1.2046001	
718.75	3.343127385	-1.525360769	
719.375	-0.1068824311	-1.535153314	
720.0	3.239791839	-1.524321959	
720.625	-1.942778854	-3.461393916	
721.25	0.1602904103	-1.023830493	
721.875	-0.5132447276	-2.986773652	
722.5	-2.343391822	-1.727504621	
723.125	-1.342716531	0.4473939243	
723.75	-1.241452407	0.8516886925	
724.375	0.5979088748	1.208448122	
725.0	0.2627547824	0.6042946556	
725.625	0.1692730861	1.21040954	
726.25	0.8537184023	1.818892997	
726.875	0.1278129789	0.9759890642	
727.5	-1.82416695	4.126014009	
728.125	2.677467296	6.279202503	
728.75	2.379628174	1.022174036	
729.375	-8.278939904	14.8471451	
730.0	10.84451073	11.23702384	
730.625	-4.877794644	3.887370204	
731.25	1.9735287	21.95418433	
731.875	5.323804273	3.311703115	
732.5	-12.99832617	-0.5551236545	
733.125	-6.068718204	5.055814167	
733.75	0.2000221735	3.40124226	
734.375	0.6630116167	0.8708372607	
735.0	-0.3077004956	-2.652967211	
735.625	-0.1306348894	0.7628416023	
736.25	-0.6894594375	1.312338216	
736.875	1.981698144	1.425848093	
737.5	0.7188442395	-0.25619651	
738.125	5.529662296	-0.5598646651	
738.75	3.863150232	-5.610549919	
739.375	0.08992773347	-4.844613001	
740.0	6.085782583	7.105571684	
740.625	38.3155405	1.017793499	
741.25	-0.3972492771	-12.2817905	
741.875	-48.605887	3.933532523	
742.5	-10.16532607	1.898178187	
743.125	8.894760922	0.8006290539	
743.75	-3.466075955	-6.54469685	
744.375	0.122593449	0.7464694573	
745.0	-0.2996672997	0.6964159749	
745.625	-0.1001945745	-0.3715983388	
746.25	0.1233174099	-0.1637843469	
746.875	-0.8878852504	-0.07686407705	
747.5	0.09643403456	0.8475842314	
748.125	0.2977656923	0.856678463	
748.75	0.3771098342	1.41877321	
749.375	0.5827017397	2.029879423	
750.0	-0.683143927	1.002222128	
