!Created with skrf (http://scikit-rf.org).
# GHz S RI R (50+0j) 
!freq	ReS11	ImS11	
500.0	0.1640175453	-4.344447903	
500.625	-0.6470039299	-1.70905934	
501.25	-1.58066785	-3.249922657	
501.875	-1.114748659	0.05370698714	
502.5	-0.0456761071	-0.3356546736	
503.125	-0.3114838203	-0.002122391807	
503.75	0.3336173971	0.1850826443	
504.375	0.001931711165	0.07156370794	
505.0	0.09560286297	-0.1814550024	
505.625	-0.01872236523	0.07610328733	
506.25	-0.3457703377	-0.4725018972	
506.875	0.6389359353	-0.07756658598	
507.5	-1.066828799	-2.131609411	
508.125	-0.9171751043	-0.3389427647	
508.75	2.640045241	-1.681219443	
509.375	-0.7413586216	-5.426394292	
510.0	-0.9910989588	-0.05849038068	
510.625	-0.2603462445	-0.322250211	
511.25	-0.5044487211	-0.06440700408	
511.875	-0.3212535318	-0.009903594889	
512.5	-0.1277151623	0.1512915468	
513.125	-0.1386612548	-0.2859382057	
513.75	-0.1352801224	-0.1327448867	
514.375	-0.2819448045	-0.2235124263	
515.0	-0.180762685	0.9792183325	
515.625	0.2943368224	-3.355665248	
516.25	-3.054125999	0.5357165857	
516.875	0.8842726101	-0.9938539485	
517.5	-0.6329554404	-1.085321952	
518.125	0.27824348	0.1627351541	
518.75	-0.6134070913	-0.8948897122	
519.375	-0.01093044077	0.1184141806	
520.0	0.2079173055	0.31070152	
520.625	0.530609309	-0.3841251243	
521.25	-0.2171614665	-0.4296618159	
521.875	-0.4256427513	-0.2652024843	
522.5	-0.0003419812692	0.1793158288	
523.125	-0.3380596898	0.008988104144	
523.75	-0.1009726701	0.1519565759	
524.375	-0.5008146333	-0.1736907146	
525.0	0.2811866546	0.437689365	
525.625	-0.1430286016	0.07210076951	
526.25	0.1999645662	-0.08200655643	
526.875	-0.3459190366	0.2271230152	
527.5	0.2501285135	0.4735171087	
528.125	-0.1987220371	0.5214570372	
528.75	0.2053478304	1.036709199	
529.375	0.06956440644	-0.0815874221	
530.0	0.2867604539	0.7795361492	
530.625	0.2424262958	0.3935357185	
531.25	1.51343731	0.3654621188	
531.875	-0.01270863599	-0.4379505122	
532.5	0.148634962	-0.6707396752	
533.125	-0.3834522207	0.5837870147	
533.75	0.4876815791	-1.125661585	
534.375	-0.5715869921	-0.1216965065	
535.0	-0.4424734097	-0.5944047751	
535.625	-0.3220969507	0.7307925689	
536.25	-0.08395823317	0.07395427052	
536.875	0.371448688	0.1035367205	
537.5	0.0582556723	-0.1981322518	
538.125	0.2507532274	0.05954552704	
538.75	0.3631830936	-0.4669641224	
539.375	-0.1801713138	-0.2684552338	
540.0	-0.3333846657	-0.3542925505	
540.625	-0.4557108937	0.02450193246	
541.25	-0.09864105572	-0.005740396793	
541.875	-0.2104859753	-0.06226215562	
542.5	-0.06127327655	-0.03433642382	
543.125	-0.151747977	-0.1459496958	
543.75	-0.3445973053	0.01580416255	
544.375	0.1179387362	0.09767613302	
545.0	-0.2141667082	0.228978237	
545.625	0.3454460846	-0.04123350358	
546.25	-0.04761664781	0.2152534911	
546.875	0.4983902844	-0.2783651145	
547.5	0.001390773011	-0.06309712824	
548.125	0.04862928025	-0.5562983572	
548.75	-0.5051226111	-0.1210393692	
549.375	-0.07017821881	-0.08074330422	
550.0	-0.3092039172	-0.06864529314	
550.625	-0.02481496327	0.1343942186	
551.25	-0.2337096337	-0.03978258889	
551.875	-0.1274628033	0.2878051946	
552.5	-0.08928709888	0.09364890806	
553.125	-0.01932346095	0.2152074738	
553.75	0.09663006277	0.07875445555	
554.375	0.2296080201	0.006076206918	
555.0	0.2142870357	-0.1923484231	
555.625	0.1680424766	-0.2527645014	
556.25	0.1403330297	-0.3308522568	
556.875	-0.1045517472	-0.3813446019	
557.5	-0.2472651624	-0.220342205	
558.125	-0.2543331838	-0.07921157323	
558.75	-0.2660507728	-0.009072534739	
559.375	-0.2284568118	0.09298663662	
560.0	-0.2175192573	0.1291951029	
560.625	-0.1240453851	0.3246986316	
561.25	0.09819033086	0.1606053478	
561.875	-0.02046581777	0.1324754267	
562.5	0.1486611911	0.1137377734	
563.125	0.03303083465	0.1430308634	
563.75	0.4425404411	0.00986123702	
564.375	0.1158339447	-0.2634728363	
565.0	0.3080926234	-0.2830732702	
565.625	-0.2390439302	-0.3832945994	
566.25	-0.1209258608	-0.1587686876	
566.875	-0.3838559617	-0.2754951358	
567.5	-0.4332071874	-0.1055177164	
568.125	-0.1453836854	-0.2613032396	
568.75	-0.6519633842	-0.3457236134	
569.375	-0.4591379062	0.5185726562	
570.0	-0.1830379389	0.1582188688	
570.625	-0.3470230743	0.6988556273	
571.25	0.2631575642	0.01623695139	
571.875	0.00522662892	0.4836914444	
572.5	0.2715131823	-0.4162539692	
573.125	0.2529647669	0.1505613211	
573.75	0.2531209317	-0.5989266921	
574.375	-0.2755551988	-0.1064769269	
575.0	0.3300951119	0.05837278367	
575.625	-0.1337676678	-0.3971357166	
576.25	0.1531949218	0.08531437451	
576.875	0.02212130417	-0.6020344001	
577.5	-0.2802379079	-0.2659535528	
578.125	0.1533745828	-0.2340914197	
578.75	-0.2764212752	-0.515191276	
579.375	-0.331509738	0.06647195636	
580.0	0.1058738309	-0.1009641499	
580.625	-0.4289439086	-0.07541826193	
581.25	0.08959055486	0.1443856222	
581.875	-0.3368498691	0.3259071296	
582.5	0.4560763742	0.5227992594	
583.125	0.02942063533	-0.2106737285	
583.75	0.1392955169	0.4901784769	
584.375	0.01053319555	-0.3797605367	
585.0	0.2412696554	0.5785621879	
585.625	0.5402265849	-0.3084062727	
586.25	0.01402971911	-0.1205655793	
586.875	0.4230201458	-0.2618554078	
587.5	-0.3262893034	-0.3989091934	
588.125	0.1568461142	-0.1074389296	
588.75	0.1061636505	-0.6011558177	
589.375	-0.1152307334	-0.1841020433	
590.0	0.1764167242	-0.5490755669	
590.625	-0.6144449423	0.1030181717	
591.25	-0.1186651163	0.2027480898	
591.875	-0.1471259572	0.1313752176	
592.5	-0.06108189501	0.3385144255	
593.125	0.009594900531	-0.196529479	
593.75	0.1940611346	0.6089000422	
594.375	0.347214396	-0.09294858733	
595.0	0.1515090201	0.435528715	
595.625	0.7853801274	0.1193250569	
596.25	-0.04594110649	-0.0051074503	
596.875	0.6066143219	0.3634766593	
597.5	0.5091204644	-0.2147613812	
598.125	-0.007590093356	0.2785277213	
598.75	0.5563687148	0.3281764813	
599.375	0.3779385012	-0.2871240351	
600.0	0.3785870499	-0.1464364686	
600.625	0.3660303502	-0.5968010354	
601.25	-0.007405886998	-0.2513298664	
601.875	-0.0741732667	-0.4744484533	
602.5	-0.3526299178	0.1434916758	
603.125	-0.1783145626	-0.03866206214	
603.75	-0.2688370334	0.1962156891	
604.375	-0.2767298631	0.1561941941	
605.0	0.07251334936	0.2971726708	
605.625	-0.40155801	-0.1166841811	
606.25	-0.13871507	0.507407601	
606.875	-0.1652995596	-0.1717325116	
607.5	-0.7109535138	0.8090675624	
608.125	0.2309400776	0.2141711474	
608.75	0.169766484	0.6650140566	
609.375	0.7329316422	-0.5117646265	
610.0	0.1407294131	0.1109598564	
610.625	0.3957029401	-0.6206596425	
611.25	-0.2027628849	-0.1743789968	
611.875	-0.03523032901	-0.5096993567	
612.5	-0.4042184906	0.1776199293	
613.125	-0.3949102915	-0.1885427666	
613.75	-0.2196828806	0.5823938397	
614.375	0.04631195348	-0.07594219555	
615.0	0.2489841938	0.370227285	
615.625	-0.07034582553	-0.1693621056	
616.25	-0.3141030513	0.5493664326	
616.875	0.2076257574	0.4517878259	
617.5	-0.4303570766	0.2996291808	
618.125	0.1425119685	0.7138813246	
618.75	0.08911592706	0.1676581741	
619.375	0.2016109641	0.5836292525	
620.0	0.3972768656	-0.1090815709	
620.625	0.3181258172	-0.2574370142	
621.25	-0.3451670028	-0.3729390629	
621.875	-0.3044727006	-0.2414692159	
622.5	-0.6413316565	0.3102918379	
623.125	0.03157698125	0.122376163	
623.75	0.3965652826	0.3490209743	
624.375	-0.1700553569	-0.2731824664	
625.0	0.4464017605	0.02237574589	
625.625	-0.3381460091	-0.1426447249	
626.25	0.2234212388	-0.3539575607	
626.875	-0.6578770844	-0.2362343164	
627.5	-0.104608189	0.1855445904	
628.125	-0.1167062966	-0.4223682521	
628.75	-0.4151433581	-0.2722578089	
629.375	-0.09300885436	-0.1965727625	
630.0	-0.4385502797	-0.3651175387	
630.625	-0.4341007231	0.3881702744	
631.25	-0.4076821019	0.2313624984	
631.875	0.05104868848	0.724017011	
632.5	0.3570646328	0.2174241588	
633.125	0.383032632	0.2110460625	
633.75	0.4714877512	-0.1909557326	
634.375	-0.03235008786	-0.4630761997	
635.0	0.06544613794	-0.06732421539	
635.625	-0.4517931472	-0.4751395343	
636.25	-0.2147775883	0.522623274	
636.875	-0.2195208023	-0.2087245806	
637.5	0.01113410432	0.6882145624	
638.125	-0.09926670111	-0.2451785608	
638.75	-0.3259601896	0.787808328	
639.375	0.4754470897	0.1398094428	
640.0	-0.1642208516	0.7401743462	
640.625	0.9669901193	0.4119140202	
641.25	0.3978667015	-0.377255683	
641.875	0.2111751253	-0.09317394454	
642.5	0.1995605514	-0.8139418918	
643.125	-0.4322197482	0.1607594555	
643.75	-0.1265385297	-0.4319818906	
644.375	-0.5464204248	0.3376076078	
645.0	-0.1187430964	-0.05793934456	
645.625	0.1144450716	0.8889322814	
646.25	0.4726375254	-0.139570831	
646.875	-0.007036374181	0.01656176756	
647.5	0.3954607669	0.3543916929	
648.125	0.1746661368	-0.4783336545	
648.75	0.5203093467	0.5563114728	
649.375	0.7941549149	-1.171447878	
650.0	-0.3480420184	-0.4245059253	
650.625	0.9681840926	-0.2887913277	
651.25	0.1206564801	-1.364834908	
651.875	0.1138106973	0.2252463148	
652.5	1.277744225	-0.2037007508	
653.125	0.1600076926	-0.8040762191	
653.75	0.3289840643	-0.004117709105	
654.375	-0.1380713877	-1.179060527	
655.0	-0.7885267316	0.2793519846	
655.625	-0.1497621293	0.008819980778	
656.25	-0.1058879089	0.8018119271	
656.875	0.35396066	-0.3195541034	
657.5	-0.06823452455	0.5836084524	
658.125	0.5913693887	0.1923587291	
658.75	0.4313149623	-0.04146682004	
659.375	0.7920022158	0.07610779787	
660.0	0.5283661172	-1.228519877	
660.625	-0.09776325575	-0.3886561072	
661.25	0.7083327637	-0.5400828255	
661.875	0.3843312833	-1.130861478	
662.5	0.1172621708	0.02224164574	
663.125	1.102349099	-0.6379411947	
663.75	-0.2233792295	-0.7660045213	
664.375	0.1990714878	-0.3648674905	
665.0	-0.8235440073	-0.7538597664	
665.625	-0.5379966151	0.6313933846	
666.25	-0.2919550616	0.3119851525	
666.875	0.4049196853	0.7018055222	
667.5	0.3297410704	-0.1536142946	
668.125	0.6683280358	0.2896377951	
668.75	0.2615639786	-0.6205667416	
669.375	0.08322531975	-0.2427610738	
670.0	0.2603633371	-0.5724218963	
670.625	-0.1513284806	-0.6488310175	
671.25	-0.1400038	-0.1707027248	
671.875	0.5872628466	-0.2091968254	
672.5	0.4498600051	-0.7162975681	
673.125	0.07326630252	-0.2587667185	
673.75	0.7736332273	-0.5925516683	
674.375	-0.413705746	-0.5099837268	
675.0	0.1677618173	-0.4179267333	
675.625	-0.8047077646	-0.5434800467	
676.25	-0.3206658426	0.591344122	
676.875	-0.1779227448	-0.5815127196	
677.5	-0.6802762014	0.4938637549	
678.125	0.04260994567	0.195247176	
678.75	-0.2101041765	0.4965826363	
679.375	0.9028158824	0.04491980044	
680.0	-0.06532846737	-0.04199923411	
680.625	0.4652186673	-0.2205668071	
681.25	-0.0495208838	-0.3411812624	
681.875	0.2287868833	0.6008365638	
682.5	0.8535434966	-0.1291821707	
683.125	0.29611951	0.001934385084	
683.75	0.4341230011	0.1222039337	
684.375	0.7874084687	0.4795589642	
685.0	0.9230834982	-0.6965386878	
685.625	-0.03771395874	0.6022492981	
686.25	1.435898129	-0.5076552139	
686.875	-0.2324185073	-0.3748179803	
687.5	1.412954362	-0.5210678982	
688.125	-1.265255069	-1.087903768	
688.75	-0.01210567315	-0.5308383448	
689.375	-1.250826182	1.237538652	
690.0	0.8671850317	0.3804758889	
690.625	0.005660094392	0.7339195625	
691.25	1.199427409	0.5445187792	
691.875	0.8089222644	0.4146353799	
692.5	1.367965135	0.5775394593	
693.125	1.552897003	-0.3795026804	
693.75	1.111264796	-0.4666868706	
694.375	0.9419827119	-1.047339043	
695.0	0.8509430155	-0.5520947632	
695.625	1.304450236	-0.5022256704	
696.25	0.7124830259	0.05478976788	
696.875	1.208064534	1.488748605	
697.5	1.423235415	0.04793673784	
698.125	0.8710728143	0.9370698509	
698.75	1.033971885	-1.938529368	
699.375	-0.5944762562	0.1382417577	
700.0	-1.350621703	0.9392423375	
700.625	0.9641858514	0.3127736413	
701.25	-0.06655269202	0.6490657517	
701.875	1.306822516	0.389202392	
702.5	0.2726041005	0.3594178833	
703.125	1.255728799	0.4677662034	
703.75	0.5396333598	-0.7482521037	
704.375	0.837581928	0.1015377241	
705.0	0.5293333633	-0.8550621164	
705.625	0.06869374259	0.221730812	
706.25	1.301704727	0.6995182627	
706.875	0.3022094507	-0.06326128817	
707.5	0.5520767829	1.295585654	
708.125	1.468262198	-0.4755727756	
708.75	0.3149288641	-0.4567670155	
709.375	-0.8255442873	-0.8717291858	
710.0	-0.09355509382	0.7700306566	
710.625	0.02166858953	0.3285454763	
711.25	0.3655989431	0.186351946	
711.875	0.3891229157	0.1856681886	
712.5	0.7944225803	-0.06694868576	
713.125	0.4806763074	-0.4401329553	
713.75	0.3043861468	-0.7255161819	
714.375	-0.1785016637	-0.2470046753	
715.0	0.341985948	-0.7782129886	
715.625	-0.5756602694	-0.4967420557	
716.25	0.5873192785	0.1230145092	
716.875	1.572702485	-1.026964855	
717.5	-0.2034656035	-0.8029559518	
718.125	2.557358049	1.173075377	
718.75	1.968408074	-2.052984268	
719.375	0.4461413413	0.7142552132	
720.0	2.179461486	-5.04371433	
720.625	-1.31044463	-0.800195164	
721.25	0.4334131213	-2.535052833	
721.875	-0.9552360161	-3.096114148	
722.5	-2.392708553	-0.8988295483	
723.125	-1.259692246	-0.4719864834	
723.75	-1.079771884	1.592582116	
724.375	0.4019619257	0.7762549833	
725.0	0.1896468618	0.7915381508	
725.625	0.715532696	1.438793524	
726.25	0.5274865948	0.9853633414	
726.875	-0.9212059642	1.885886049	
727.5	-0.3544007335	5.016660511	
728.125	3.451611211	3.454848847	
728.75	-5.299749641	5.350117484	
729.375	3.304921775	17.43766889	
730.0	5.611384035	1.834979078	
730.625	-5.233113549	11.40637705	
731.25	18.46747432	18.74313534	
731.875	-7.158630269	-3.101769224	
732.5	-11.79673296	5.843627767	
733.125	-4.036249042	5.225282813	
733.75	-0.512213044	1.349921307	
734.375	2.693547326	2.236038766	
735.0	-1.499517782	-1.339425565	
735.625	-0.6030094873	-0.09715459164	
736.25	-0.3922900653	1.859759061	
736.875	1.791030338	0.1188524558	
737.5	2.132615374	1.996168115	
738.125	4.681963415	-2.521028667	
738.75	2.28676495	-5.037621381	
739.375	0.5771330728	0.7728217307	
740.0	22.82490286	-1.63604493	
740.625	6.294496888	-30.40039647	
741.25	-21.24546937	0.2594824272	
741.875	-16.47070462	20.70125085	
742.5	2.586893321	6.390578265	
743.125	3.374504723	-10.25659143	
743.75	-3.690718942	-1.871747428	
744.375	0.2759566826	-0.6664695104	
745.0	0.4377172945	1.075475144	
745.625	-0.3074158227	-0.0003725752768	
746.25	0.03124949402	-0.590351619	
746.875	-0.5683610475	0.4558011736	
747.5	0.1279639388	0.6689216335	
748.125	0.07162104145	1.318290586	
748.75	1.565175164	1.793421875	
749.375	0.8233905323	1.008621759	
750.0	-1.197268525	-0.6214547453	
