!Created with skrf (http://scikit-rf.org).
# GHz S RI R (50+0j) 
!freq	ReS11	ImS11	
500.0	-0.2440303315	-0.9622468452	
500.625	0.4406577369	-0.4521324205	
501.25	-0.5283834802	-0.8196044829	
501.875	-0.2762491958	-0.1281064994	
502.5	0.00660907492	-0.1333885271	
503.125	-0.07800661952	0.04985561641	
503.75	-0.01016751971	0.01904119755	
504.375	0.05056865278	-0.000664101024	
505.0	-0.01384046626	-0.02080504142	
505.625	0.0446640478	-0.05580584516	
506.25	-0.1304582788	-0.04795671733	
506.875	0.0196893244	-0.1840319584	
507.5	-0.3001027824	-0.4833623079	
508.125	0.1054664867	-0.1873311751	
508.75	0.7848385328	-0.9892543252	
509.375	-0.4756089544	-1.342769021	
510.0	-0.2910865417	-0.09006880164	
510.625	-0.05069580172	-0.2237932042	
511.25	-0.105913614	-0.02383006585	
511.875	-0.0316648083	-0.05363254815	
512.5	-0.02879448432	0.04518875702	
513.125	-0.03398463166	-0.01586423409	
513.75	0.01260862545	-0.06434348744	
514.375	-0.1295466037	0.02278899689	
515.0	0.2560558969	-0.0141385597	
515.625	-0.293052868	-0.4527083616	
516.25	0.18991229	-0.1274764393	
516.875	0.0811600401	-0.4687070446	
517.5	-0.1363936198	-0.2231608777	
518.125	0.02736800499	0.02350077231	
518.75	-0.1061557493	-0.07682575394	
519.375	-0.01907930681	0.03207521641	
520.0	0.08732264017	0.06784902213	
520.625	0.1766816336	-0.08500997492	
521.25	0.02286044167	-0.2304045021	
521.875	-0.05776300481	-0.08242657404	
522.5	-0.1167344157	0.05819904393	
523.125	0.07460110584	-0.004502643689	
523.75	-0.1532318875	-0.1193473227	
524.375	-0.1409664566	0.1726493436	
525.0	-0.03957576443	-0.01228633079	
525.625	0.03086085811	0.1340547429	
526.25	-0.07573734958	-0.07098196016	
526.875	-0.01776962245	0.1120804616	
527.5	-0.01623182583	0.06604416217	
528.125	-0.06477337855	0.2388560682	
528.75	0.07271780689	0.1251900599	
529.375	0.01692137389	-0.009408108841	
530.0	-0.01105615367	0.1396900627	
530.625	0.1508597227	0.2094669276	
531.25	0.2066280986	0.2154602913	
531.875	0.3012831762	-0.2368215712	
532.5	-0.1561324744	-0.06158767859	
533.125	0.1359341394	-0.1638235311	
533.75	-0.06227528066	-0.1722976634	
534.375	0.05354178486	-0.2557957124	
535.0	-0.2891104144	-0.09290230122	
535.625	-0.07433228497	0.08324878791	
536.25	-0.03111604861	0.0797222591	
536.875	0.1148639788	-0.007421912742	
537.5	0.02655079543	-0.01386803034	
538.125	0.1500956346	-0.06784426514	
538.75	0.06134093451	-0.1244161564	
539.375	-0.01273464741	-0.1385978047	
540.0	-0.1683247404	-0.1683845415	
540.625	-0.1520031835	0.02212774901	
541.25	-0.036442812	-0.04323835629	
541.875	-0.1010238816	-0.004705431334	
542.5	-0.008610505405	0.001244184998	
543.125	-0.08488274761	-0.1013812767	
543.75	-0.07074825329	0.07631538242	
544.375	-0.06230549618	-0.0153484703	
545.0	0.03364455692	0.08816474907	
545.625	-0.001303383186	0.02124531196	
546.25	0.1067081917	0.1062484861	
546.875	0.09484621214	-0.07928958097	
547.5	0.063588087	-0.05221026336	
548.125	-0.03339676761	-0.2041106183	
548.75	-0.1260637012	-0.04104382579	
549.375	-0.05377469685	-0.08865968213	
550.0	-0.1084195711	0.02559614157	
550.625	-0.008295222931	-0.009676640742	
551.25	-0.1001608492	0.01901850509	
551.875	-0.03975511565	0.07570375503	
552.5	-0.03765049443	0.03919031778	
553.125	-0.01142133225	0.07346749566	
553.75	0.03599794148	0.02718166233	
554.375	0.09127837326	0.007552545693	
555.0	0.0852797224	-0.07280734297	
555.625	0.08222814473	-0.09190992882	
556.25	0.06478159555	-0.1304329882	
556.875	-0.03691166053	-0.1447652365	
557.5	-0.08824711203	-0.0925967265	
558.125	-0.1037142027	-0.03967446126	
558.75	-0.1080600928	-0.002198103908	
559.375	-0.09662270669	0.02743097333	
560.0	-0.08948768281	0.05895810306	
560.625	-0.04884626317	0.1167300082	
561.25	0.0236149607	0.06400743823	
561.875	0.01183389026	0.06708261658	
562.5	0.02439040252	0.02128301536	
563.125	0.04437322209	0.09624442859	
563.75	0.1674930187	-0.01086195086	
564.375	0.07767930724	-0.08899843805	
565.0	0.1075185216	-0.09155490479	
565.625	-0.06383617971	-0.1731532096	
566.25	-0.07415628873	-0.02025586671	
566.875	-0.1269801335	-0.1257909781	
567.5	-0.1587512623	-0.04614266199	
568.125	-0.04072120777	-0.1499398326	
568.75	-0.281615705	-0.07392548472	
569.375	-0.125492845	0.1110002007	
570.0	-0.1608686293	0.1245218501	
570.625	-0.05247057258	0.2395153999	
571.25	0.06083970353	0.02546818966	
571.875	0.02009323024	0.1324829369	
572.5	0.1261857203	-0.0788909032	
573.125	0.06726618382	-0.001303941409	
573.75	0.1002536534	-0.1747365235	
574.375	-0.07119588221	-0.03298746954	
575.0	0.1085892094	-0.02824838731	
575.625	-0.03761895115	-0.1002554049	
576.25	0.03304638233	-0.003234037772	
576.875	0.04999317931	-0.1914534042	
577.5	-0.08013234542	-0.1540565332	
578.125	0.001284056348	-0.07354104052	
578.75	-0.02820422871	-0.2285414441	
579.375	-0.1668446535	0.00854188113	
580.0	0.04734043428	-0.06019202862	
580.625	-0.1843301995	0.03355560343	
581.25	0.02172433544	-0.006118812099	
581.875	-0.1027802729	0.2037207596	
582.5	0.1462456547	0.1835221044	
583.125	0.02996235829	-0.03639773828	
583.75	0.01567513736	0.1127541192	
584.375	0.05372920249	-0.06528364719	
585.0	0.03310279118	0.1372287355	
585.625	0.2151813695	-0.07035292793	
586.25	0.04641013478	-0.04964777235	
586.875	0.1531047287	-0.1052664223	
587.5	-0.07419969871	-0.1804705316	
588.125	-0.0057932108	-0.03897830097	
588.75	0.1034804687	-0.1665836127	
589.375	-0.02913665543	-0.2086592328	
590.0	0.008181830021	-0.07520561823	
590.625	-0.2445433667	-0.1223335707	
591.25	-0.04848679598	0.1552599794	
591.875	-0.1146353368	-0.006621813177	
592.5	0.02976089844	0.1463581042	
593.125	-0.06652906323	-0.04774027786	
593.75	0.08083201377	0.2031392437	
594.375	0.07884847601	-0.01869713981	
595.0	0.07147760297	0.1122450631	
595.625	0.215140546	0.1212193056	
596.25	0.13768883	-0.05598384522	
596.875	0.1377670903	0.1217189243	
597.5	0.2120244984	0.05152401405	
598.125	0.07254815458	0.07335538562	
598.75	0.1754040294	0.1359674133	
599.375	0.2067945473	-0.08162028553	
600.0	0.08764342562	-0.08483366323	
600.625	0.1851174826	-0.1270409398	
601.25	0.02894890414	-0.2464183267	
601.875	-0.06475737875	0.005617612542	
602.5	-0.1431899968	-0.1213064975	
603.125	-0.07324779224	0.126660595	
603.75	-0.07231073971	-0.02916833138	
604.375	-0.1778096398	0.1519714938	
605.0	0.04369333764	0.07999435938	
605.625	-0.1559723929	-0.0006646535891	
606.25	-0.02282311981	0.1134946282	
606.875	-0.1092602115	0.01737590205	
607.5	-0.1477191426	0.2139707696	
608.125	0.04558232709	0.2943528939	
608.75	0.08070396092	0.09869131198	
609.375	0.2390367553	-0.0007982968059	
610.0	0.1200859836	-0.1915243176	
610.625	0.07054154071	-0.04413310804	
611.25	0.0543482335	-0.1809496495	
611.875	-0.1301912312	-0.03829417103	
612.5	-0.04461184553	-0.1163396244	
613.125	-0.2853325923	0.04535174438	
613.75	0.04326033323	0.1487929048	
614.375	-0.07836598876	0.07981237444	
615.0	0.1419605416	0.02035957084	
615.625	-0.0735952646	-0.01367053532	
616.25	-0.08896961375	0.2341801746	
616.875	0.03115484458	0.1330494662	
617.5	-0.08086270543	0.2755537215	
618.125	-0.02745865288	0.2822165542	
618.75	0.1193927541	0.1339794826	
619.375	-0.01000396001	0.1236426181	
620.0	0.1082125366	0.1867211262	
620.625	0.03667789279	-0.1454997676	
621.25	-0.008264593919	-0.1231551004	
621.875	-0.272843742	-0.08943314114	
622.5	-0.1251604607	0.1922935457	
623.125	-0.1205277827	0.1455885218	
623.75	0.2013443937	0.03105007989	
624.375	-0.04324363891	-0.02841017859	
625.0	0.1231470567	-0.02889885397	
625.625	-0.04036180476	-0.08671327569	
626.25	0.038566193	-0.1049698355	
626.875	-0.1683316205	-0.1102214334	
627.5	-0.119124557	0.02740056892	
628.125	-0.07428975254	-0.07932519664	
628.75	-0.143039878	-0.1168269439	
629.375	-0.07884155798	-0.1130993682	
630.0	-0.1766976553	-0.1656605197	
630.625	-0.26711545	0.07726758941	
631.25	-0.07457130277	0.1200553478	
631.875	-0.1213423758	0.1444507147	
632.5	0.2047833961	0.2322995374	
633.125	0.1222081156	-0.05859445149	
633.75	0.1852820875	0.02022416012	
634.375	0.008974136521	-0.2080895032	
635.0	0.0500159505	-0.06147138413	
635.625	-0.1894486487	-0.1810816684	
636.25	-0.09748018781	0.1210905568	
636.875	-0.07767072516	0.026716017	
637.5	-0.09435983751	0.1800385419	
638.125	0.01322907267	0.01766634042	
638.75	-0.1726753354	0.1382290414	
639.375	0.05675262777	0.2935073827	
640.0	0.1176753426	0.1298982762	
640.625	0.1804912759	0.2446267326	
641.25	0.3550554397	0.002475981625	
641.875	0.07961242182	-0.1268008899	
642.5	0.1433910753	-0.1453449946	
643.125	-0.2484628755	-0.1443999728	
643.75	0.06581356525	0.02018192713	
644.375	-0.2603316689	-0.08812011784	
645.0	-0.008813660946	0.2932130105	
645.625	-0.06091113396	0.1062355459	
646.25	0.3261333191	0.3008796445	
646.875	0.02730374414	-0.1615502173	
647.5	0.07110680483	0.1627666051	
648.125	0.1794615726	-0.07283687201	
648.75	0.07744281033	0.0374712633	
649.375	0.3761579965	-0.2362821188	
650.0	0.02210237311	-0.3606601445	
650.625	0.1134055865	-0.08484218131	
651.25	0.3337611674	-0.2288311995	
651.875	0.1374673465	-0.2791246787	
652.5	0.1814667993	0.05534168149	
653.125	0.4057667426	-0.08890054502	
653.75	0.06398317153	-0.274810821	
654.375	0.0933641261	-0.194983732	
655.0	-0.4039594803	-0.2039968858	
655.625	-0.06243538656	0.2301981041	
656.25	-0.08453079922	-0.01455935294	
656.875	0.09802778896	0.2040920619	
657.5	-0.01967653107	-0.0692680236	
658.125	0.1577652308	0.3809024108	
658.75	0.3124561963	-0.04083280197	
659.375	0.1912202363	0.02306006207	
660.0	0.3738488484	-0.2680846164	
660.625	-0.01391055862	-0.3781741304	
661.25	0.1457827791	-0.1251540469	
661.875	0.3271188353	-0.2791914217	
662.5	0.1946257732	-0.2805664924	
663.125	0.1583618624	-0.06606497029	
663.75	0.2766079756	-0.2936847127	
664.375	-0.1411635827	-0.2710451608	
665.0	-0.1280884195	-0.2220102426	
665.625	-0.3931488557	0.07183639172	
666.25	0.02774851142	0.2669246103	
666.875	-0.01802184742	0.1745232674	
667.5	0.2526344176	0.126154828	
668.125	0.1187775569	-0.08027136681	
668.75	0.2375656082	0.05357408081	
669.375	0.114016309	-0.32876532	
670.0	-0.04826960744	-0.1093570458	
670.625	0.1166523798	-0.2101542238	
671.25	-0.03400856624	-0.2492541995	
671.875	0.09167904888	-0.0106692702	
672.5	0.320778849	-0.1689844809	
673.125	0.09381288039	-0.195478038	
673.75	0.1531156721	-0.1017507262	
674.375	0.165752887	-0.276903548	
675.0	-0.1898756556	-0.2353563565	
675.625	-0.03154789837	-0.09733313023	
676.25	-0.2541362501	-0.08992529347	
676.875	-0.1259401548	0.10330629	
677.5	-0.09361675436	-0.100983451	
678.125	-0.2256307825	0.2356416055	
678.75	0.1030347761	0.09888336209	
679.375	0.07124670124	0.2061242554	
680.0	0.2870578399	-0.154472863	
680.625	-0.1777224944	-0.02038229023	
681.25	0.2102128187	0.1078818045	
681.875	0.06564229779	-0.2182835742	
682.5	0.01312786016	0.08752229552	
683.125	0.3064302315	0.2424355557	
683.75	0.2093057431	-0.1582700269	
684.375	0.1324254537	0.1890578027	
685.0	0.3363135163	-0.01032737539	
685.625	0.2586399156	-0.1426332397	
686.25	0.2039040304	0.1597071987	
686.875	0.4780551626	-0.2249122316	
687.5	0.1545911095	-0.2304834975	
688.125	0.1628241037	-0.3526433601	
688.75	-0.4786345462	-0.285026658	
689.375	-0.09675665863	0.2987003355	
690.0	-0.1360408105	0.2864432544	
690.625	0.3864894976	0.2773101892	
691.25	0.1637686025	0.0944384178	
691.875	0.3629453178	0.5154487348	
692.5	0.6861784455	-0.1078050894	
693.125	0.3936711254	0.008189236506	
693.75	0.6703135767	-0.1033574993	
694.375	0.2135334546	-0.4648127648	
695.0	0.2021311759	-0.1424475701	
695.625	0.5556706065	-0.2998198445	
696.25	0.436626104	0.006775270586	
696.875	0.1854358884	0.303200419	
697.5	0.2926096218	0.5153089669	
698.125	0.5318409853	0.187131345	
698.75	0.358237583	-0.136439799	
699.375	-0.2060396214	-0.4954757209	
700.0	-0.2545202701	0.4084071357	
700.625	0.07710385337	0.08595934863	
701.25	0.289028775	0.3382778469	
701.875	0.2446929228	0.03128486652	
702.5	0.189157558	0.3080456758	
703.125	0.5370045623	0.1150307563	
703.75	0.2291030475	-0.2057449481	
704.375	0.2714000478	-0.005501411328	
705.0	0.2034016264	-0.2231083144	
705.625	0.1288969427	-0.08285804413	
706.25	0.3048869034	0.1313736866	
706.875	0.3296742505	0.2835499318	
707.5	0.1813969854	0.2227185027	
708.125	0.3596162303	0.2911223661	
708.75	0.530823326	-0.1718199617	
709.375	-0.1846446386	-0.1606702353	
710.0	-0.3413996234	0.05786177945	
710.625	0.146418326	0.2294165806	
711.25	-0.09263126325	-0.07745919042	
711.875	0.2550391273	0.2176906179	
712.5	0.2624317319	-0.1636873497	
713.125	0.1968369402	-0.01493280842	
713.75	0.2074057809	-0.2690021761	
714.375	-0.08661977807	-0.209958561	
715.0	0.07824203786	-0.1167561735	
715.625	-0.004470056608	-0.2918358119	
716.25	0.02536325576	-0.1456734076	
716.875	0.3423546887	-0.05498554663	
717.5	0.574064256	-0.1561552102	
718.125	0.3053797197	-0.04383544601	
718.75	0.7799635826	0.2589156135	
719.375	1.005458113	-0.2822265502	
720.0	0.1703844332	-0.4713598	
720.625	0.7110254449	-0.7746887295	
721.25	-0.3838861861	-0.9799958656	
721.875	-0.01826978711	-0.0907607653	
722.5	-0.4081585477	-0.9759355175	
723.125	-0.8824029485	0.0391831913	
723.75	-0.2511907014	0.1712666888	
724.375	-0.2200697021	0.6072409028	
725.0	0.3188455496	0.2158869151	
725.625	-0.01707824707	0.3389400242	
726.25	-0.005435702786	0.7777040571	
726.875	0.2125928491	0.8071331905	
727.5	-0.3629878544	0.7686837836	
728.125	-0.2640951079	2.140499839	
728.75	0.6601793428	2.196222922	
729.375	-1.344190716	1.611042144	
730.0	-0.9911061327	4.142126164	
730.625	1.171419127	2.5577868	
731.25	-1.84031035	1.924055859	
731.875	-3.671591956	3.038203538	
732.5	-1.806109214	2.063835544	
733.125	-1.322919719	-1.641674072	
733.75	-1.045626251	1.523101757	
734.375	0.6401605676	0.1761563683	
735.0	0.450660228	-0.19020362	
735.625	-0.763472258	0.1763591407	
736.25	0.03063150312	0.1572923089	
736.875	0.1754017505	0.7825404028	
737.5	1.187784241	-0.03542887186	
738.125	0.6258666499	-0.4735905671	
738.75	2.003450472	-0.02486255928	
739.375	2.491201774	-2.944473374	
740.0	-0.07836634635	-1.126219237	
740.625	2.139603116	3.156104874	
741.25	3.687351502	2.539365785	
741.875	-0.2042238279	-2.213653578	
742.5	-1.702328552	-3.875019946	
743.125	-1.128010142	-2.068724002	
743.75	0.2462238059	-0.2621814972	
744.375	-0.6098343034	-0.5143931402	
745.0	0.1722260172	0.05060407003	
745.625	0.09268969955	0.1400605761	
746.25	-0.08790660026	-0.1294463468	
746.875	-0.1210231886	-0.03877078119	
747.5	-0.1821955404	0.326483786	
748.125	0.2160562515	0.4342660203	
748.75	0.1376446701	0.3029522312	
749.375	0.01682171885	0.4694944883	
750.0	-0.2277812463	0.3504139816	
