!Created with skrf (http://scikit-rf.org).
# GHz S RI R (50+0j) 
!freq	ReS11	ImS11	
500.0	0.03295412215	-0.4176384371	
500.625	0.5436564744	-1.12887884	
501.25	-0.6230027164	-0.2967556988	
501.875	0.007635932148	-0.3371609294	
502.5	-0.09910611892	-0.1903395467	
503.125	-0.0208619141	0.02335965507	
503.75	-0.03854167529	0.07584711282	
504.375	0.0316088929	-0.02671503773	
505.0	0.02337850028	0.01159220357	
505.625	-0.0324919092	-0.08054066266	
506.25	-0.01477246802	0.03165417929	
506.875	-0.2524778159	-0.1167339655	
507.5	-0.2605425962	-0.03810818125	
508.125	0.4455721936	-0.6264404764	
508.75	0.5742170232	-1.193806661	
509.375	-0.1937496755	-0.8511144747	
510.0	-0.1111983382	-0.3715035975	
510.625	-0.177142089	-0.08395400064	
511.25	-0.04345812964	-0.01835202444	
511.875	-0.1183323821	-0.07085208196	
512.5	-0.01130735374	0.03482872778	
513.125	0.02573407993	-0.01783746413	
513.75	-0.06066707469	-0.09326797386	
514.375	0.01154631561	0.08872848195	
515.0	0.09257481497	-0.2746838507	
515.625	-0.2693817057	-0.1092693738	
516.25	0.1893381778	-0.6118003089	
516.875	-0.4469787663	-0.3495549773	
517.5	-0.08997452463	-0.003125070052	
518.125	-0.05067037218	-0.07370714941	
518.75	-0.1268870158	-0.004160543465	
519.375	-0.04666236022	0.006643813455	
520.0	0.1104028467	0.0489128847	
520.625	0.1187468341	-0.09392119314	
521.25	0.005487025945	-0.1074495888	
521.875	-0.1311525268	-0.07865364802	
522.5	-0.01029274014	0.08707108892	
523.125	-0.08024048499	-0.07548628261	
523.75	-0.1483717392	0.08796056228	
524.375	0.001349664211	-0.02489529585	
525.0	-0.1713630966	0.1725798564	
525.625	0.1324309587	0.02744479425	
526.25	-0.08834641148	0.01057745205	
526.875	0.02315341855	0.04742667517	
527.5	-0.1124721462	0.1522542286	
528.125	0.08825832301	0.3325420399	
528.75	0.1191108054	0.08403712008	
529.375	-0.002535670932	0.09358532098	
530.0	-0.08908403662	0.1941985672	
530.625	-0.02250174067	0.1728836253	
531.25	0.4095605232	0.2320460733	
531.875	0.07984023342	-0.2617395579	
532.5	-0.003706820789	0.03052106314	
533.125	-0.04758596225	-0.149586836	
533.75	0.1706608376	-0.02842659543	
534.375	-0.1047229268	-0.3497588737	
535.0	-0.182685085	-0.00456430137	
535.625	-0.1612669896	0.02789974479	
536.25	0.01100535783	0.1160563321	
536.875	0.05241094268	-0.01976934452	
537.5	0.07734998729	-0.02454729346	
538.125	0.08970456129	-0.1147397441	
538.75	0.07789847957	-0.04903752916	
539.375	-0.06130938718	-0.205460335	
540.0	-0.1707597069	-0.1097925464	
540.625	-0.09054228813	-0.05225949638	
541.25	-0.1195713949	-0.01682085917	
541.875	-0.006526954421	0.03848058298	
542.5	0.06759648742	-0.06444083664	
543.125	-0.1234848532	-0.01324368582	
543.75	-0.01005092069	-0.02825346177	
544.375	-0.1032448346	0.05282986565	
545.0	0.04628407716	0.02235768843	
545.625	0.01161847421	0.1058973135	
546.25	0.1291347144	-0.005493054691	
546.875	0.04525275009	0.003665826564	
547.5	0.1156297446	-0.1377299849	
548.125	-0.09570340609	-0.1221893585	
548.75	-0.05390270553	-0.0910788171	
549.375	-0.1226562058	-0.1031442798	
550.0	-0.0622808252	0.04610591906	
550.625	-0.05255742757	-0.03391583533	
551.25	-0.06927136817	0.06120238542	
551.875	-0.05148947734	0.03369078929	
552.5	-0.06306161648	0.07624183629	
553.125	-0.0007790678009	0.04500057515	
553.75	0.03895410551	0.05586592329	
554.375	0.09269180045	-0.009515569177	
555.0	0.08076020048	-0.05875250494	
555.625	0.08632271918	-0.09745197583	
556.25	0.05782650992	-0.1301111648	
556.875	-0.0340209062	-0.1412957933	
557.5	-0.08869749075	-0.09603109526	
558.125	-0.1124319858	-0.03677217371	
558.75	-0.1002058161	0.003669001972	
559.375	-0.09951058017	0.01327136323	
560.0	-0.09943427913	0.0797368266	
560.625	-0.02816332028	0.09900394128	
561.25	-0.01498879893	0.08542946234	
561.875	0.05549092316	0.05492306057	
562.5	-0.01469961761	0.02942670386	
563.125	0.0902160872	0.09126998746	
563.75	0.101930202	-0.0279991028	
564.375	0.1291826432	-0.04496086768	
565.0	0.08691185486	-0.1862567432	
565.625	-0.04182089262	-0.09481888064	
566.25	-0.08074508774	-0.1410091624	
566.875	-0.2070805988	-0.04321881316	
567.5	-0.07073344613	-0.08208273944	
568.125	-0.1663197256	-0.2448401945	
568.75	-0.2136264678	0.007198562684	
569.375	-0.1885326821	0.02312567446	
570.0	-0.1457875846	0.2399412929	
570.625	0.04374395558	0.1225132093	
571.25	-0.06909422118	0.0838716697	
571.875	0.1318024057	0.06725691932	
572.5	0.034205084	0.01654208669	
573.125	0.187492777	-0.1353515777	
573.75	-0.03561501905	-0.1500229547	
574.375	0.04992848152	0.02356620587	
575.0	0.02615264503	-0.1213698292	
575.625	0.01276825191	0.01623218583	
576.25	0.1034513551	-0.1402101608	
576.875	-0.09008564132	-0.1449562097	
577.5	0.0109909328	-0.05334944814	
578.125	0.0198736894	-0.2227108436	
578.75	-0.1878125206	-0.1051473249	
579.375	0.02516312436	0.03225278858	
580.0	-0.07848364065	-0.113493336	
580.625	0.0302260505	0.1148824271	
581.25	-0.1631092809	-0.03197692807	
581.875	0.06142023781	0.2182745869	
582.5	0.06884042481	0.03239260453	
583.125	0.0004328313303	0.1638467114	
583.75	0.1349435543	-0.01892222557	
584.375	-0.06660777622	0.06862773808	
585.0	0.2061548246	0.06029549367	
585.625	0.06453634546	-0.06288647642	
586.25	0.1295923864	0.03207964565	
586.875	0.09646999294	-0.2028203094	
587.5	-0.04786577026	-0.05354702477	
588.125	0.06047055265	-0.1543057354	
588.75	-0.03932913479	-0.186918046	
589.375	0.05019659004	-0.0474726075	
590.0	-0.02574557108	-0.2768830077	
590.625	-0.1829625709	0.07043433577	
591.25	-0.08266645181	0.01510402963	
591.875	-0.1072336709	0.1645092924	
592.5	0.1430278196	-0.03756089851	
593.125	-0.116934209	0.1403998698	
593.75	0.1248822432	0.05130522284	
594.375	0.05304932276	0.08924635122	
595.0	0.2154738422	0.1385378264	
595.625	0.1445407337	-0.0380850885	
596.25	0.09028371985	0.1003729808	
596.875	0.221404188	0.01868706763	
597.5	0.07798818343	0.02735385955	
598.125	0.1134191927	0.1641440828	
598.75	0.2387848749	0.0567747557	
599.375	0.1132075678	-0.04218641783	
600.0	0.2030868793	-0.08698173104	
600.625	0.1395549167	-0.2312714117	
601.25	-0.01251943473	-0.1111694393	
601.875	-0.007750218223	-0.1840428217	
602.5	-0.1764206361	0.07802119805	
603.125	-0.0198007217	-0.02996109603	
603.75	-0.2361674892	0.1159429539	
604.375	-0.001436414856	0.1462555776	
605.0	-0.1065316065	-0.01396851989	
605.625	-0.113759384	0.1387025026	
606.25	-0.1045529744	-0.04858908774	
606.875	-0.2336890914	0.03520922828	
607.5	-0.1088548303	0.2761116106	
608.125	-0.01295272254	0.1253023147	
608.75	0.1632477944	0.1756654984	
609.375	0.2601559946	-0.1019227897	
610.0	0.0899268024	-0.07892928316	
610.625	0.1790417005	-0.1726246678	
611.25	-0.04184897474	-0.2162936735	
611.875	0.01529079807	-0.09353692784	
612.5	-0.2516399632	-0.1005335258	
613.125	-0.09100329333	0.143004692	
613.75	-0.1474835168	0.03174071939	
614.375	0.1121431466	0.1861998835	
615.0	0.02653255567	-0.07983055153	
615.625	0.0169775913	0.1981214227	
616.25	0.0868192143	0.1406917234	
616.875	-0.1208121353	0.202189237	
617.5	-0.1302840995	0.2779152396	
618.125	-0.01023135226	0.1836367055	
618.75	-0.05394407441	0.1319268132	
619.375	0.03657404748	0.1698753312	
620.0	0.1378338985	-0.03832688514	
620.625	0.1044205693	-0.0759195686	
621.25	-0.04989717791	-0.2620046222	
621.875	-0.1677312365	0.031112918	
622.5	-0.1928013594	-0.03921120691	
623.125	-0.07669240004	0.2518101843	
623.75	0.1113783445	-0.03942748555	
624.375	0.08246007915	0.0355969227	
625.0	-0.02349444458	-0.09011663203	
625.625	0.08818170491	-0.01668766934	
626.25	-0.07185557794	-0.1967363881	
626.875	-0.1319245238	-0.01792518983	
627.5	-0.0761751028	-0.1017530128	
628.125	-0.1829938372	-0.07925098689	
628.75	-0.07018370928	-0.05506679304	
629.375	-0.05249294072	-0.1201925706	
630.0	-0.2405443648	-0.07433510268	
630.625	-0.1216526933	0.0447103067	
631.25	-0.2027024922	0.1612495802	
631.875	-0.04766625942	0.3441197657	
632.5	0.1256189145	0.1142954516	
633.125	0.1924430593	0.1443221712	
633.75	0.2385070705	-0.1586208329	
634.375	0.008352102951	-0.03163799761	
635.0	0.05308698687	-0.2279572423	
635.625	-0.1820636315	-0.02810260772	
636.25	-0.07501169059	-0.005392566594	
636.875	-0.1342432348	0.1776986602	
637.5	0.06871602492	0.09363952743	
638.125	-0.1392438067	0.03433174396	
638.75	-0.02723859865	0.2391274296	
639.375	0.02765304308	0.1326530496	
640.0	0.04599730125	0.2696336264	
640.625	0.3089110414	0.1252139622	
641.25	0.1717234636	-0.03871011566	
641.875	0.2307110651	-0.06102000131	
642.5	-0.0183984249	-0.4050566153	
643.125	-0.05801228482	-0.02149752078	
643.75	-0.1656957124	-0.1846383498	
644.375	-0.1699512261	0.1386313604	
645.0	-0.04492369982	-0.08611312112	
645.625	0.03006457124	0.3457888111	
646.25	0.1863196207	-0.05067833577	
646.875	-0.03065380047	0.1319578851	
647.5	0.1899647287	-0.01948033411	
648.125	-0.02607082387	0.0750865997	
648.75	0.3955297493	-0.006958426265	
649.375	0.0894446667	-0.3451359499	
650.0	0.1297835075	-0.1299771445	
650.625	0.3407088392	-0.3050288881	
651.25	0.05212252652	-0.3269706267	
651.875	0.1704691626	0.006370469129	
652.5	0.3956696381	-0.08494830526	
653.125	0.2297047726	-0.2456186788	
653.75	0.1749112755	-0.04444600229	
654.375	0.02693898195	-0.4684187601	
655.0	-0.3030605854	0.06155948126	
655.625	-0.1365630473	-0.04131474178	
656.25	-0.03916256242	0.3211991387	
656.875	0.1105962622	-0.1392097878	
657.5	-0.02027557195	0.2191114774	
658.125	0.2721123252	0.03501300184	
658.75	0.1156232638	0.06897916053	
659.375	0.4276277528	-0.04550552638	
660.0	0.08720240879	-0.4122166048	
660.625	0.126626383	-0.1367037513	
661.25	0.2579457791	-0.2960203288	
661.875	0.1345525055	-0.3336067167	
662.5	0.1694005056	-0.03652669365	
663.125	0.3951494293	-0.231317299	
663.75	0.05312152233	-0.2863005827	
664.375	0.06001986456	-0.2345669026	
665.0	-0.2871419502	-0.2963289155	
665.625	-0.2439804922	0.1756044595	
666.25	-0.1437768225	0.1396588262	
666.875	0.1191508703	0.333327348	
667.5	0.1674893039	-0.01590232217	
668.125	0.1722433252	0.1803131712	
668.75	0.23575712	-0.2398665596	
669.375	-0.00351065174	-0.1175541521	
670.0	0.1126736189	-0.1915261965	
670.625	-0.1558692149	-0.280641757	
671.25	0.02954592256	-0.01061002708	
671.875	0.2291563125	-0.1917876816	
672.5	0.1235613926	-0.1966842857	
673.125	0.1592450725	-0.05269197666	
673.75	0.2790968167	-0.2009891934	
674.375	-0.09076235406	-0.2451831835	
675.0	0.03054375256	-0.1577494439	
675.625	-0.2164602593	-0.21486885	
676.25	-0.2008289399	0.06677433213	
676.875	-0.02925498142	-0.08671120084	
677.5	-0.2680390337	0.04972637534	
678.125	0.01719202184	0.1251226652	
678.75	-0.1297340432	0.1710226472	
679.375	0.3244985344	0.1184952016	
680.0	-0.009916073125	-0.1311820155	
680.625	0.2535922193	0.08128818496	
681.25	0.09861186348	-0.1671618952	
681.875	-0.03965978378	0.06322120341	
682.5	0.4194991176	0.2265444488	
683.125	0.2660082252	-0.114863148	
683.75	0.2427127815	0.2664396274	
684.375	0.3613593146	0.1306714673	
685.0	0.2849613603	-0.1448970241	
685.625	0.113204888	0.188730272	
686.25	0.3677655631	-0.1240351975	
686.875	0.1391049422	-0.1551931964	
687.5	0.3227084741	-0.09669600816	
688.125	0.00657914756	-0.5899033736	
688.75	-0.3077107797	-0.0541992143	
689.375	-0.3772797526	0.09181216209	
690.0	0.1427441672	0.4742921403	
690.625	0.1483997807	-0.01098796771	
691.25	0.2321454432	0.5369638778	
691.875	0.5425763741	0.02040111403	
692.5	0.3334247414	0.1903218184	
693.125	0.7655109715	0.1280460683	
693.75	0.5779678752	-0.4182693769	
694.375	0.5523087752	-0.07786444933	
695.0	0.6040474116	-0.2548517509	
695.625	0.4502555365	-0.2091640438	
696.25	0.4080971217	0.199565874	
696.875	0.3516128434	0.5772787516	
697.5	0.2350075086	0.5155786616	
698.125	0.3371134188	0.3071867234	
698.75	0.5077941942	-0.2364812762	
699.375	-0.414061237	-0.4027256886	
700.0	-0.1900068931	0.08745181704	
700.625	0.09471745115	0.4789569015	
701.25	0.2537052501	0.004258645982	
701.875	0.08527506831	0.2770648867	
702.5	0.4502393993	0.3021661316	
703.125	0.3044511086	-0.06290122628	
703.75	0.3754691067	0.06039545883	
704.375	0.3551452898	-0.2636526645	
705.0	0.1606569239	-0.001978271226	
705.625	0.2567786745	0.1615873978	
706.25	0.3835707499	0.1071302505	
706.875	0.1234082695	0.1982690455	
707.5	0.1951284963	0.2967569559	
708.125	0.5120512673	0.1212617136	
708.75	0.1482698803	-0.1675446697	
709.375	-0.09194540881	-0.3191790171	
710.0	-0.271607177	0.26694757	
710.625	0.1283543857	-0.08107076488	
711.25	0.09789899859	0.2649607978	
711.875	0.1681556154	-0.04687033953	
712.5	0.1829115795	0.1195829194	
713.125	0.3347321655	-0.1916399935	
713.75	0.0249888675	-0.2503863519	
714.375	0.08488673307	-0.1462897753	
715.0	-0.04765388098	-0.2977303435	
715.625	-0.05179188826	-0.1634017077	
716.25	0.2564376026	-0.1581863086	
716.875	0.3384339736	-0.3251607711	
717.5	0.2966475998	-0.02978066421	
718.125	0.554339167	0.1960535412	
718.75	0.8662389787	-0.1719897304	
719.375	0.4096771184	-0.2791619611	
720.0	0.832386844	-0.4705401976	
720.625	-0.1353239728	-0.9621942846	
721.25	0.08683749632	-0.3428270939	
721.875	-0.01997619127	-1.152031734	
722.5	-0.7899004232	-0.5940090145	
723.125	-0.1954757684	-0.1509350965	
723.75	-0.596489064	0.4400470686	
724.375	0.1877630879	0.3763297757	
725.0	-0.0290288513	0.2493282241	
725.625	0.2027583526	0.5913177721	
726.25	0.3163460511	0.533159457	
726.875	-0.2917941793	0.6172880993	
727.5	-0.2030276041	1.49843298	
728.125	0.4579989051	1.510981306	
728.75	-0.649429964	1.415803641	
729.375	-0.9627985615	3.989021884	
730.0	0.7253027696	2.581567791	
730.625	-1.374833089	2.237811851	
731.25	-0.743147614	4.216207118	
731.875	0.6808737916	3.282909067	
732.5	-2.709649832	-0.7882448799	
733.125	-2.684246106	0.5793387572	
733.75	-0.3204172925	0.9679291908	
734.375	0.1956795449	0.9200914537	
735.0	-0.0614959203	-0.8666683655	
735.625	0.01993188566	0.04257556505	
736.25	-0.3244915102	0.5189056324	
736.875	0.6609727859	0.4776375285	
737.5	0.3837328794	-0.004008715376	
738.125	1.68698932	0.2802582769	
738.75	1.484726203	-1.754424404	
739.375	0.3207659649	-1.155790243	
740.0	3.314341599	0.8588173592	
740.625	3.784163988	-2.68084385	
741.25	-1.948549632	-1.296136301	
741.875	-4.718471638	0.2115309458	
742.5	-2.950197465	-0.0370241024	
743.125	1.171198986	-0.96846312	
743.75	0.2641397323	-1.537926455	
744.375	-0.483512988	0.2679085327	
745.0	-0.088039628	0.02102782419	
745.625	0.07344896398	-0.07430415399	
746.25	0.09749305932	-0.005686099475	
746.875	-0.2941549691	-0.03061381343	
747.5	0.01092231607	0.2887065873	
748.125	0.03911972763	0.3268930261	
748.75	0.2289421384	0.5107512021	
749.375	0.2261373669	0.3533050893	
750.0	-0.3392009539	0.04189014289	
