!Created with skrf (http://scikit-rf.org).
# GHz S RI R (50+0j) 
!freq	ReS11	ImS11	
500.0	0.08482679173	-0.8017608886	
500.625	0.1291593737	-0.7677286831	
501.25	-0.2563174992	-0.5833997629	
501.875	-0.2522209828	-0.3836446092	
502.5	-0.04341593613	-0.1158348883	
503.125	-0.06001026181	0.00599343044	
503.75	0.01233462633	0.06643212552	
504.375	0.02435717227	-0.005108328659	
505.0	0.01751083949	-0.01668532516	
505.625	-0.001809389599	-0.04297874359	
506.25	-0.04831663155	-0.04539553506	
506.875	-0.09578328134	0.01398004644	
507.5	-0.08951393002	-0.2820864312	
508.125	0.1096326452	-0.5425706453	
508.75	0.4001554331	-0.7668836285	
509.375	-0.1077581598	-0.8596499267	
510.0	-0.3590692123	-0.322715336	
510.625	-0.1568641273	-0.1330004212	
511.25	-0.06397608344	-0.02666537375	
511.875	-0.09984801768	-0.04131101757	
512.5	-0.03978348003	0.04339118529	
513.125	-0.005548320166	-0.05590064379	
513.75	-0.05087423894	-0.046847257	
514.375	-0.03577950086	-0.0004125752329	
515.0	0.007120967452	-0.03770892149	
515.625	0.02676092829	-0.2774106181	
516.25	-0.1760843357	-0.4700938317	
516.875	-0.1761247328	-0.3569992213	
517.5	-0.03156644163	-0.1228758955	
518.125	-0.02137496722	-0.02135831981	
518.75	-0.0434425003	-0.1072534332	
519.375	-0.04549825562	0.03100948873	
520.0	0.08558946758	0.04273772726	
520.625	0.1317711466	-0.04591856626	
521.25	-0.01814399852	-0.2158311824	
521.875	-0.1207691184	-0.0194660827	
522.5	-0.0407581958	0.0229812841	
523.125	-0.0480844608	0.02110749598	
523.75	-0.09199461586	-0.007218105642	
524.375	-0.1328619633	0.02823601983	
525.0	-0.03520907007	0.1164207377	
525.625	0.02952155215	0.04030334722	
526.25	-0.01170076382	-0.01075734395	
526.875	-0.0419330789	0.04551113725	
527.5	-0.03050377451	0.1556327296	
528.125	0.05620861673	0.2062981618	
528.75	0.02169180873	0.1792478771	
529.375	0.03381500269	0.05564926732	
530.0	0.02038626695	0.1282615679	
530.625	0.08217786294	0.2346554543	
531.25	0.3373447053	0.1014732873	
531.875	0.1966332726	-0.1431604872	
532.5	-0.04363091276	-0.08952724069	
533.125	0.04500357416	-0.04705960411	
533.75	0.09339341697	-0.1440272632	
534.375	-0.06162939404	-0.2383690469	
535.0	-0.197427558	-0.09226757947	
535.625	-0.1408179405	0.08790582397	
536.25	0.0008990884875	0.08374609477	
536.875	0.08067213575	0.01235723877	
537.5	0.05714284487	-0.03936008305	
538.125	0.09639107415	-0.05669113837	
538.75	0.10751272	-0.1077573487	
539.375	-0.07066309442	-0.1424866781	
540.0	-0.14622344	-0.1271346557	
540.625	-0.1436268646	-0.02170704009	
541.25	-0.07497030808	0.004579705708	
541.875	-0.03966448165	-0.02004416653	
542.5	-0.03843679757	-0.04688442713	
543.125	-0.069568314	-0.04143470114	
543.75	-0.074282913	-0.005289107803	
544.375	-0.04253986493	0.03625834762	
545.0	-0.003638341206	0.05184937077	
545.625	0.04458867364	0.05688449378	
546.25	0.08646904275	0.03407889143	
546.875	0.1037135144	-0.02343920179	
547.5	0.05966791479	-0.110306262	
548.125	-0.04137479556	-0.1423456656	
548.75	-0.1081930162	-0.1002773243	
549.375	-0.1003543162	-0.05991938492	
550.0	-0.06646939938	0.007577016654	
550.625	-0.04911965101	0.00682357472	
551.25	-0.06709508528	0.0248487801	
551.875	-0.0669314167	0.05744437711	
552.5	-0.03816652773	0.06864889964	
553.125	-0.01345021128	0.05332913673	
553.75	0.04178896907	0.04468973534	
554.375	0.08373915283	-0.0006882365556	
555.0	0.09123101127	-0.06261649231	
555.625	0.07894122686	-0.09874504869	
556.25	0.06022523624	-0.1241945532	
556.875	-0.03010495671	-0.1455189124	
557.5	-0.09186989091	-0.09435705275	
558.125	-0.105146387	-0.03641397417	
558.75	-0.1035586006	-0.001068685919	
559.375	-0.09998076848	0.02039551034	
560.0	-0.09087053311	0.06907938075	
560.625	-0.04743189382	0.1049790823	
561.25	0.008372848997	0.0873628594	
561.875	0.02607854691	0.04412328457	
562.5	0.01128304409	0.04669100637	
563.125	0.06119095509	0.06957601298	
563.75	0.1320041907	0.002356211534	
564.375	0.1147344637	-0.08781633188	
565.0	0.0707552369	-0.1307187997	
565.625	-0.02984916775	-0.1468120329	
566.25	-0.1055597636	-0.09445749526	
566.875	-0.1229466038	-0.07305736076	
567.5	-0.1296878299	-0.09730689653	
568.125	-0.1301067769	-0.1317176776	
568.75	-0.1999653561	-0.07184555435	
569.375	-0.2124731602	0.0882726842	
570.0	-0.1016816061	0.1810400591	
570.625	-0.04585722004	0.1525274427	
571.25	0.003953614931	0.1070810437	
571.875	0.05482602235	0.06295183949	
572.5	0.1102723633	0.001920752805	
573.125	0.08321562241	-0.1017921209	
573.75	0.03455150363	-0.1024431978	
574.375	0.009111162548	-0.05820342609	
575.0	0.02824495076	-0.03648125976	
575.625	0.03141380645	-0.06599647603	
576.25	0.040349003	-0.09605948015	
576.875	-0.001917335445	-0.1299978305	
577.5	-0.006618388207	-0.1450270737	
578.125	-0.04346172413	-0.139118384	
578.75	-0.07501913129	-0.1102358966	
579.375	-0.08043431823	-0.05932996832	
580.0	-0.04609122428	-0.02528084715	
580.625	-0.06406200466	-0.02836588451	
581.25	-0.09352195731	0.0693902716	
581.875	0.00572244407	0.139153365	
582.5	0.05002582074	0.1257064129	
583.125	0.07143996714	0.06872275904	
583.75	0.03468031842	0.01742022306	
584.375	0.03195030029	0.05540343299	
585.0	0.09829814236	0.05239405949	
585.625	0.139755183	0.002894690571	
586.25	0.137094068	-0.05615107019	
586.875	0.06697389504	-0.1195387125	
587.5	-0.007203534663	-0.1268496753	
588.125	-0.01576299297	-0.1261527662	
588.75	0.02561362415	-0.1291856615	
589.375	0.05382919918	-0.1400216135	
590.0	-0.05199388333	-0.1561526733	
590.625	-0.1628516809	-0.04279905413	
591.25	-0.1194855441	0.09829911821	
591.875	-0.02688182247	0.1072042546	
592.5	0.008023590852	0.04305211389	
593.125	-0.02525062239	0.04605700275	
593.75	0.04834329506	0.1051886144	
594.375	0.1357174279	0.08641614145	
595.0	0.1547310027	0.08179156159	
595.625	0.1539350542	0.06188315382	
596.25	0.1425526624	0.03344090061	
596.875	0.1432972559	0.02799886732	
597.5	0.132803356	0.06835953026	
598.125	0.1328023408	0.09937540188	
598.75	0.1584861862	0.07647311412	
599.375	0.1911036205	-0.0312449219	
600.0	0.145507795	-0.131570885	
600.625	0.1175682477	-0.1609737131	
601.25	0.05263759603	-0.1720873592	
601.875	-0.07317020678	-0.1269793106	
602.5	-0.1153380106	-0.01366632851	
603.125	-0.0974653721	0.03924261177	
603.75	-0.09739333832	0.06359892833	
604.375	-0.08731522435	0.07083956748	
605.0	-0.05873431048	0.07005748317	
605.625	-0.0654105766	0.05416417451	
606.25	-0.1039044218	0.05903950906	
606.875	-0.1501985018	0.08371170004	
607.5	-0.141331478	0.1588332732	
608.125	-0.03106612744	0.2203692173	
608.75	0.1599344272	0.1603251626	
609.375	0.2172302395	-0.02782083648	
610.0	0.1471765205	-0.1111044306	
610.625	0.07666949727	-0.1410173744	
611.25	0.00758779622	-0.1484114587	
611.875	-0.08325816619	-0.1098483123	
612.5	-0.1429939137	-0.05568385486	
613.125	-0.1750763507	0.02912853866	
613.75	-0.08130838306	0.1376316039	
614.375	0.04623882212	0.09393764106	
615.0	0.03099970905	0.04120863569	
615.625	0.004209254416	0.08038781856	
616.25	-0.0330789477	0.1249932998	
616.875	-0.07495807084	0.1695989698	
617.5	-0.05972156773	0.2069905011	
618.125	-0.006536350485	0.1918428623	
618.75	0.01668807627	0.1685795519	
619.375	0.08454080637	0.1546422025	
620.0	0.1723046985	0.03907504418	
620.625	0.1050843346	-0.133197292	
621.25	-0.07567943964	-0.1755501295	
621.875	-0.1880596001	-0.07543082883	
622.5	-0.1916277247	0.05198854335	
623.125	-0.0437326455	0.1693619861	
623.75	0.1239856209	0.0422098222	
624.375	0.03163016037	-0.04779327394	
625.0	0.04315534805	-0.02254701772	
625.625	0.0440216394	-0.08525773394	
626.25	-0.042231687	-0.1205132593	
626.875	-0.1228177963	-0.08021095532	
627.5	-0.138765836	-0.0386408508	
628.125	-0.1054802264	-0.05494996632	
628.75	-0.06442300566	-0.1058990284	
629.375	-0.08174789587	-0.1425723094	
630.0	-0.176240601	-0.09338481643	
630.625	-0.2025189638	0.06144198879	
631.25	-0.1295835713	0.1743729382	
631.875	-0.02804751467	0.2212409821	
632.5	0.1288507676	0.1871146158	
633.125	0.1966600534	0.0509957951	
633.75	0.1521960323	-0.06083562951	
634.375	0.06342764895	-0.1170677141	
635.0	-0.002755793549	-0.1411779392	
635.625	-0.1357606954	-0.08800331888	
636.25	-0.1424019953	0.06481854697	
636.875	-0.06167126091	0.1085326104	
637.5	-0.04071176034	0.08147477984	
638.125	-0.06056560473	0.08452850374	
638.75	-0.06370144114	0.1478800268	
639.375	-0.008829145244	0.2230738789	
640.0	0.1199086394	0.2301150879	
640.625	0.221210514	0.1417043026	
641.25	0.2508266656	0.0009095400067	
641.875	0.1609143489	-0.1563234957	
642.5	0.008841540788	-0.1956750308	
643.125	-0.1105873834	-0.1198456729	
643.75	-0.1175338797	-0.06615221529	
644.375	-0.1610103343	-0.0137152182	
645.0	-0.1431835348	0.1430473396	
645.625	0.05034674299	0.1940220422	
646.25	0.1428964358	0.07390325532	
646.875	0.09669212175	-0.01103936444	
647.5	0.04629728013	0.02630485361	
648.125	0.1438753558	0.0579126895	
648.75	0.2440787798	-0.06405530436	
649.375	0.1986351435	-0.2155149106	
650.0	0.1538095547	-0.2665984068	
650.625	0.1414690136	-0.2617243151	
651.25	0.1730936357	-0.2107421728	
651.875	0.2340387264	-0.1400242423	
652.5	0.2581662495	-0.08492436154	
653.125	0.243448954	-0.08694259256	
653.75	0.2011302775	-0.1919457164	
654.375	-0.03198015382	-0.2873575784	
655.0	-0.2501776775	-0.1042342716	
655.625	-0.1794565312	0.149523292	
656.25	0.02133885831	0.1645142089	
656.875	0.04182738537	0.06042531178	
657.5	0.02628076189	0.1021483767	
658.125	0.1269235933	0.1479854969	
658.75	0.2596533113	0.08299746881	
659.375	0.3051517017	-0.1146165332	
660.0	0.2119670117	-0.2676264772	
660.625	0.1259561372	-0.290977472	
661.25	0.152309372	-0.261183796	
661.875	0.2004361272	-0.2268265151	
662.5	0.2365590878	-0.1787536575	
663.125	0.2419807839	-0.1622050246	
663.75	0.1646305125	-0.2499309001	
664.375	-0.02192878487	-0.3034544558	
665.0	-0.2283442123	-0.2014495638	
665.625	-0.2927262163	0.05901511671	
666.25	-0.1091973645	0.2430026132	
666.875	0.09600734418	0.1946593198	
667.5	0.1595100371	0.09583141536	
668.125	0.202216382	0.001042453312	
668.75	0.1804287798	-0.1221298126	
669.375	0.09409084667	-0.1955521842	
670.0	0.01562174611	-0.2008420343	
670.625	0.00833268567	-0.1751664442	
671.25	0.05398363059	-0.1569934183	
671.875	0.1274284386	-0.1493665991	
672.5	0.1881503452	-0.1317192794	
673.125	0.1933629139	-0.1484339888	
673.75	0.1558243456	-0.1880258185	
674.375	0.06425913174	-0.2363323175	
675.0	-0.06653002345	-0.2234388066	
675.625	-0.1573580641	-0.1313310833	
676.25	-0.1657518327	-0.03734461274	
676.875	-0.1323270984	-0.002196592371	
677.5	-0.1435212101	0.007447400116	
678.125	-0.1399693859	0.1177615136	
678.75	0.009865647735	0.2045798919	
679.375	0.1815927941	0.08819990279	
680.0	0.1411235518	-0.0760824363	
680.625	0.06379756296	-0.06520283048	
681.25	0.08408133011	-0.01171539808	
681.875	0.1335375772	0.04363789063	
682.5	0.1829148882	0.08668867984	
683.125	0.2204192533	0.0699761344	
683.75	0.2338166975	0.07206459859	
684.375	0.253576515	0.04716590676	
685.0	0.2487929595	0.04515478643	
685.625	0.2663760118	0.017747967	
686.25	0.270044146	-0.02151102914	
686.875	0.2849729018	-0.1042171777	
687.5	0.2546698338	-0.2485070268	
688.125	0.0214569166	-0.3925309386	
688.75	-0.3562490946	-0.2177054041	
689.375	-0.286755469	0.2550148082	
690.0	0.05671267377	0.3294298811	
690.625	0.2026389633	0.2349479208	
691.25	0.2737522165	0.2570076518	
691.875	0.4084215188	0.2843428595	
692.5	0.5359104613	0.1983457171	
693.125	0.6023281744	-0.007889559993	
693.75	0.5298123461	-0.2144465391	
694.375	0.4007613167	-0.3417001963	
695.0	0.4079473392	-0.2569515916	
695.625	0.4520842479	-0.06234096384	
696.25	0.4437798443	0.1676065484	
696.875	0.3310349046	0.3619530289	
697.5	0.307913383	0.4327928399	
698.125	0.4809998719	0.2593331607	
698.75	0.4418150006	-0.2928751944	
699.375	-0.286712668	-0.3979205948	
700.0	-0.2853453377	0.2607509897	
700.625	0.09374706615	0.2787034221	
701.25	0.197123247	0.165590444	
701.875	0.2258455462	0.2167733553	
702.5	0.3101010151	0.2159330223	
703.125	0.3701317601	0.10653794	
703.75	0.352156452	-0.08330652566	
704.375	0.2456332327	-0.1742157915	
705.0	0.2101041221	-0.1182421677	
705.625	0.2404545405	-0.002619947012	
706.25	0.2209554548	0.1528282878	
706.875	0.1985214063	0.2703760388	
707.5	0.2194330663	0.3150712384	
708.125	0.3737083163	0.1648509716	
708.75	0.3043332348	-0.2659645908	
709.375	-0.185453509	-0.2835844383	
710.0	-0.2022275954	0.1566413347	
710.625	0.04374091393	0.1359312054	
711.25	0.07103200386	0.1173601643	
711.875	0.1741080954	0.1115775565	
712.5	0.2792077972	-0.002156647671	
713.125	0.2362185035	-0.1510284071	
713.75	0.1279331879	-0.21403276	
714.375	0.01436320843	-0.2163785381	
715.0	-0.02083642166	-0.1751144824	
715.625	0.01558220039	-0.1973899798	
716.25	0.1277167323	-0.2056474065	
716.875	0.2956227383	-0.1551155027	
717.5	0.4325784599	-0.02210495873	
718.125	0.5613777138	0.08774515781	
718.75	0.6525922608	-0.04897073659	
719.375	0.675343971	-0.2714197159	
720.0	0.4769459908	-0.6562175834	
720.625	0.2791220751	-0.7396842111	
721.25	0.02010045707	-0.8585616896	
721.875	-0.1028326494	-0.8664878708	
722.5	-0.4837666885	-0.6952635957	
723.125	-0.6484658345	-0.188095129	
723.75	-0.3926462055	0.3563775783	
724.375	0.005650265616	0.3894696575	
725.0	0.1497848513	0.3309936949	
725.625	0.1550270833	0.377830897	
726.25	0.03871696167	0.5814315338	
726.875	-0.05694569437	0.7924166172	
727.5	-0.1566921665	1.136793393	
728.125	-0.04564575757	1.592906703	
728.75	-0.1551151101	2.242037697	
729.375	-0.8488211303	2.925214099	
730.0	-0.36693598	3.063120314	
730.625	-0.12938537	3.53083033	
731.25	-1.281119173	2.998964434	
731.875	-2.425937442	2.014998247	
732.5	-2.836552202	0.5537310401	
733.125	-2.007317205	0.1404372781	
733.75	-0.8779881709	1.067222946	
734.375	0.6179000476	0.4829993655	
735.0	0.09128641124	-0.5445348904	
735.625	-0.4052872531	0.06026196534	
736.25	-0.1106562471	0.452660314	
736.875	0.3534958796	0.4843316128	
737.5	0.8248621105	0.1987527362	
738.125	1.252028055	-0.2774215198	
738.75	1.36574279	-0.9609889672	
739.375	1.821375448	-1.111798861	
740.0	2.727496064	-1.127729326	
740.625	2.001136286	-0.22512789	
741.25	0.7005339186	1.78568878	
741.875	-2.10678997	0.2438918652	
742.5	-0.4166285801	-2.071352586	
743.125	0.1699711123	-1.451624612	
743.75	0.01846624119	-0.7881803457	
744.375	-0.3717854665	-0.159770822	
745.0	0.07215987931	0.08523474248	
745.625	0.0601648755	0.002676058808	
746.25	0.00105984938	-0.1202434011	
746.875	-0.1977073703	-0.01391896078	
747.5	-0.104238687	0.2920937606	
748.125	0.07210034644	0.4088093925	
748.75	0.2233491162	0.3908166584	
749.375	0.1246270865	0.3946258609	
750.0	-0.3086739889	0.2117348417	
