!Created with skrf (http://scikit-rf.org).
# GHz S RI R (50+0j) 
!freq	ReS11	ImS11	
500.0	0.1233688694	-0.421468141	
500.625	0.5431697125	-1.019556665	
501.25	-0.6046643378	-0.3035384812	
501.875	0.03699740071	-0.3165676746	
502.5	-0.08957783424	-0.1751563663	
503.125	-0.01656825975	0.02461675339	
503.75	-0.03412071532	0.08674163639	
504.375	0.02707089229	-0.03244171767	
505.0	0.04008118411	0.01952644826	
505.625	-0.03850880067	-0.08056332346	
506.25	0.03756107693	0.02954424121	
506.875	-0.3162536106	-0.08182028126	
507.5	-0.142398347	0.05940443351	
508.125	0.4730602249	-0.5894834275	
508.75	0.428026143	-1.182771154	
509.375	-0.3512718598	-0.6580120588	
510.0	-0.2843450425	-0.4788386466	
510.625	-0.09426651988	-0.08437311096	
511.25	-0.01046178548	-0.01813533617	
511.875	-0.1301805699	-0.06613562672	
512.5	0.008286394414	0.03410938013	
513.125	0.009163513499	-0.02476591885	
513.75	-0.07948001351	-0.06796039108	
514.375	0.01038544133	0.09153539412	
515.0	0.03175384323	-0.2468988406	
515.625	-0.0120376312	0.3123006693	
516.25	0.1542034955	-0.8186004417	
516.875	-0.470104577	-0.4402385112	
517.5	-0.0146677541	-0.00276931946	
518.125	-0.1034439137	-0.05616821501	
518.75	-0.04490982159	-0.006138012689	
519.375	-0.06651302114	0.02872675811	
520.0	0.1080555343	0.03464643719	
520.625	0.1113185134	-0.02437341368	
521.25	0.01676703451	-0.1745687654	
521.875	-0.1739400867	-0.05901550713	
522.5	0.006838299438	0.06929608227	
523.125	0.003834580167	-0.04597095086	
523.75	-0.1329333617	0.06658760257	
524.375	-0.01082384804	-0.01779111375	
525.0	-0.1397736689	0.1734905784	
525.625	0.1214623262	0.006575173574	
526.25	-0.07069069525	0.03004189679	
526.875	0.01010423473	0.01003958389	
527.5	-0.1209037915	0.1218293318	
528.125	0.1338969828	0.2362444346	
528.75	0.03698743131	0.06871577667	
529.375	0.08249375287	0.05589696621	
530.0	-0.0249637003	0.1001395171	
530.625	0.07918403931	0.2126237046	
531.25	0.4549171747	0.08417716333	
531.875	0.2300724681	-0.2829400352	
532.5	-0.02167193717	0.02555458265	
533.125	-0.01524327093	-0.204319894	
533.75	0.08246200052	-0.0716247893	
534.375	-0.09008604195	-0.388272699	
535.0	-0.1818644976	0.006921552931	
535.625	-0.1261834506	0.04186538551	
536.25	0.01057152832	0.1114733324	
536.875	0.05294950663	-0.02408339794	
537.5	0.08428160108	-0.01287495339	
538.125	0.08389778638	-0.1047070338	
538.75	0.08712527091	-0.05372909076	
539.375	-0.06740762286	-0.1703451922	
540.0	-0.1760385408	-0.07967347498	
540.625	-0.09740932545	-0.0284827551	
541.25	-0.1181717443	-0.003903741313	
541.875	-0.04206022082	0.02848844639	
542.5	0.02051749906	-0.06109805719	
543.125	-0.1124907532	-0.002992265469	
543.75	-0.01789567798	-0.01019537967	
544.375	-0.1320147701	0.04711426249	
545.0	0.03251495826	0.01973027613	
545.625	-0.01543597025	0.1273729179	
546.25	0.1459592488	-0.01502563075	
546.875	0.04915109378	-0.004298046154	
547.5	0.1026116549	-0.1320961327	
548.125	-0.1017335634	-0.122449177	
548.75	-0.05963004057	-0.08479801736	
549.375	-0.1320974852	-0.1040245976	
550.0	-0.04752882246	0.05065531174	
550.625	-0.0622255433	-0.0292500499	
551.25	-0.05562456654	0.06735940519	
551.875	-0.04598076611	0.03973294239	
552.5	-0.05006946016	0.08644738263	
553.125	0.008747632616	0.04662153452	
553.75	0.03845312013	0.04217143538	
554.375	0.09118781589	-0.0199790065	
555.0	0.0740685529	-0.06493621465	
555.625	0.07485816253	-0.1009851801	
556.25	0.04425202353	-0.133334564	
556.875	-0.04186884883	-0.1360686714	
557.5	-0.09198949169	-0.08845792091	
558.125	-0.1131849312	-0.02738596541	
558.75	-0.09679577962	0.01239832904	
559.375	-0.09252520299	0.01880282885	
560.0	-0.09326277978	0.08021410295	
560.625	-0.0180764866	0.1014138318	
561.25	-0.01398982947	0.07911777144	
561.875	0.06140348767	0.05121646958	
562.5	-0.01344208601	0.02835067451	
563.125	0.1054421376	0.07849379978	
563.75	0.0920064462	-0.03822697362	
564.375	0.1260271843	-0.05312281209	
565.0	0.05693558711	-0.1853241528	
565.625	-0.0688744235	-0.08264059015	
566.25	-0.07009626219	-0.1318265703	
566.875	-0.1846598593	-0.02996897937	
567.5	-0.05529783461	-0.05868778906	
568.125	-0.1636395512	-0.222552523	
568.75	-0.2046348134	0.02563205706	
569.375	-0.1699127591	0.0208932526	
570.0	-0.1329286565	0.2905389878	
570.625	0.06567152375	0.1054746029	
571.25	-0.09078372487	0.08673737638	
571.875	0.1407767484	0.05502401497	
572.5	0.01455681088	0.02896424157	
573.125	0.1684246049	-0.153452488	
573.75	-0.05792054155	-0.1340129564	
574.375	0.05258845357	0.01759510253	
575.0	0.008880224026	-0.1329325954	
575.625	0.0389515279	0.02917396979	
576.25	0.1061041505	-0.1461295339	
576.875	-0.09907506393	-0.137941903	
577.5	0.008324997186	-0.05757451087	
578.125	0.03180879569	-0.2268016119	
578.75	-0.2040901928	-0.07475408381	
579.375	0.01084389508	-0.002206327557	
580.0	-0.1217904064	-0.1272231844	
580.625	0.03238100258	0.1040320632	
581.25	-0.1987097511	-0.02138559012	
581.875	0.113738119	0.2208152903	
582.5	0.04744349104	-0.0277710654	
583.125	-0.01690218465	0.1590407283	
583.75	0.1413032947	-0.04422517877	
584.375	-0.07945670487	0.09280514256	
585.0	0.2111739106	0.03131314564	
585.625	0.04182260604	-0.05985356798	
586.25	0.1620802537	0.01931081459	
586.875	0.03086628095	-0.2211025921	
587.5	-0.01071567167	-0.0324800362	
588.125	0.03007160282	-0.1771891179	
588.75	-0.05021885888	-0.1704593672	
589.375	0.03169689056	-0.03997551724	
590.0	-0.03928875	-0.2591164875	
590.625	-0.1744500442	0.08594243284	
591.25	-0.07201457593	-0.005250253121	
591.875	-0.1022682491	0.1961189371	
592.5	0.1229326817	-0.03644630798	
593.125	-0.09755791405	0.1425924815	
593.75	0.08027074859	-0.01346314961	
594.375	0.03239499342	0.1378056532	
595.0	0.2804930207	0.09636760938	
595.625	0.1473249974	-0.05270804131	
596.25	0.13863171	0.1308419252	
596.875	0.2132701159	-0.01828601968	
597.5	0.07946600515	0.007016205382	
598.125	0.1317148111	0.1565696747	
598.75	0.2093677479	-0.002603388059	
599.375	0.1145251697	-0.02667154862	
600.0	0.1706818719	-0.152314025	
600.625	0.09433150544	-0.2062317811	
601.25	-0.007663779161	-0.120580701	
601.875	-0.02222287634	-0.1846435077	
602.5	-0.167689558	0.08170947584	
603.125	-0.02391638226	-0.01212056914	
603.75	-0.2416987357	0.1184852201	
604.375	0.0333714373	0.1253103523	
605.0	-0.1007841415	-0.01665499648	
605.625	-0.01332679844	0.187595157	
606.25	-0.05841282279	-0.06447928663	
606.875	-0.2476074741	0.08416492229	
607.5	-0.031606964	0.2005361773	
608.125	-0.05539175041	0.1818050386	
608.75	0.2351372047	0.06748764012	
609.375	0.187723827	-0.1038264449	
610.0	0.08653672461	-0.05299159222	
610.625	0.07287871294	-0.1502310809	
611.25	-0.03225539052	-0.1772475682	
611.875	-0.0149422192	-0.09569316282	
612.5	-0.223377577	-0.07110252923	
613.125	-0.1222380282	0.1565372574	
613.75	-0.1245368719	0.05400836392	
614.375	0.1243216377	0.194336901	
615.0	0.005435464959	-0.06979986545	
615.625	-0.01619644862	0.193688523	
616.25	0.06917704894	0.09083601562	
616.875	-0.1442713476	0.1956335021	
617.5	-0.02575267373	0.2816485256	
618.125	-0.01665993553	0.1373068121	
618.75	-0.03138819614	0.158889409	
619.375	0.01406993873	0.0699535584	
620.0	0.1836577459	0.002781248695	
620.625	-0.01571604715	-0.107822578	
621.25	-0.0910532221	-0.212570398	
621.875	-0.296847203	0.09225570364	
622.5	-0.1450020934	0.01524316203	
623.125	-0.006717695534	0.2370489702	
623.75	0.09816873261	-0.04290410941	
624.375	0.1013336051	0.06042924806	
625.0	-0.02283671723	-0.09461205707	
625.625	0.07891636397	-0.02967646161	
626.25	-0.07350425958	-0.1833745545	
626.875	-0.145806568	0.005986744806	
627.5	-0.07936529672	-0.08375078666	
628.125	-0.1631703887	-0.05777633728	
628.75	-0.07483230108	-0.07763962998	
629.375	-0.068859512	-0.1445124226	
630.0	-0.2132579371	-0.08628528413	
630.625	-0.1463914568	0.08269312272	
631.25	-0.1376064378	0.1704293066	
631.875	0.007707709414	0.302531355	
632.5	0.1676506838	0.08818829555	
633.125	0.1393453414	0.08836379471	
633.75	0.2253545957	-0.2039277938	
634.375	-0.002919999957	-0.05508258618	
635.0	0.04764659122	-0.2581627361	
635.625	-0.2024342408	0.02786225067	
636.25	-0.08522019514	0.004107013229	
636.875	-0.1189843667	0.2112968079	
637.5	0.0813921221	0.05731847124	
638.125	-0.1327282544	0.05669830726	
638.75	0.004416202393	0.240595092	
639.375	0.05787349608	0.09692797087	
640.0	0.09200207617	0.2694486781	
640.625	0.3265050934	0.08166413132	
641.25	0.1629438541	-0.0886278969	
641.875	0.1866004134	-0.08986187856	
642.5	-0.1169654207	-0.2907966501	
643.125	-0.05388860659	-0.001526717191	
643.75	-0.145928377	-0.1694119768	
644.375	-0.1989962952	0.2436265962	
645.0	-0.057079298	-0.06550058116	
645.625	0.07704480391	0.4339808981	
646.25	0.2222620858	-0.1368923507	
646.875	-0.01218895226	0.1200003151	
647.5	0.2068464864	-0.05164002745	
648.125	-0.08579938537	0.1319425137	
648.75	0.4357151632	-0.07691320543	
649.375	0.04333424516	-0.3350037611	
650.0	0.1026128187	-0.126118406	
650.625	0.2909649756	-0.3455670628	
651.25	-0.02436716526	-0.3363028785	
651.875	0.1690019321	-0.01795784963	
652.5	0.3888717297	-0.1868148138	
653.125	0.09767766893	-0.2348026132	
653.75	0.1797972449	-0.07816035613	
654.375	-0.1634577009	-0.4089788449	
655.0	-0.2398651764	0.1240394558	
655.625	-0.1086404496	-0.02526778813	
656.25	0.03071372432	0.3525213824	
656.875	0.08526545389	-0.1235112911	
657.5	-0.005683398507	0.2937120272	
658.125	0.2766835541	-0.01383658599	
658.75	0.07640604981	0.05520029201	
659.375	0.4844974024	-0.1249236167	
660.0	-0.05767389949	-0.3934539778	
660.625	0.1146686609	-0.1404086894	
661.25	0.198440971	-0.3805506878	
661.875	0.03007055756	-0.3402784334	
662.5	0.1665296385	-0.02090348128	
663.125	0.327218404	-0.3047968055	
663.75	-0.03638836029	-0.2729345858	
664.375	0.01492100075	-0.2290113706	
665.0	-0.3615048362	-0.2114242318	
665.625	-0.1556916552	0.1914721317	
666.25	-0.1268427771	0.1708133312	
666.875	0.2016433961	0.2534714055	
667.5	0.1407805465	-0.06146167847	
668.125	0.1955448577	0.1493185727	
668.75	0.1739091389	-0.3073700179	
669.375	-0.02471484696	-0.1232900896	
670.0	0.1169407892	-0.2119207631	
670.625	-0.1923003317	-0.280671033	
671.25	0.04022346541	0.0120091259	
671.875	0.2061832068	-0.2551777077	
672.5	0.02178492216	-0.174587036	
673.125	0.1755259356	-0.05519556173	
673.75	0.204514004	-0.324704728	
674.375	-0.1450777827	-0.1917644463	
675.0	0.004393045658	-0.1603507775	
675.625	-0.2723801541	-0.1425327243	
676.25	-0.138652498	0.1309570874	
676.875	-0.06832746554	-0.08991900494	
677.5	-0.2141595286	0.1597407285	
678.125	-0.001292341613	0.08975343324	
678.75	-0.0510673929	0.2222591496	
679.375	0.3606143093	-0.003823691793	
680.0	-0.09565715385	-0.1074942638	
680.625	0.2228369605	0.02665618069	
681.25	0.03347149906	-0.3007833814	
681.875	-0.09242917098	0.1535899573	
682.5	0.4030167123	0.1994875786	
683.125	0.1041982585	-0.2098367028	
683.75	0.2012615258	0.2791941781	
684.375	0.4094272496	0.01963656742	
685.0	0.09196877043	-0.1846615431	
685.625	0.332846631	0.1819981035	
686.25	0.2723200179	-0.257962336	
686.875	0.1174100941	-0.1442199567	
687.5	0.2706951599	-0.2383408477	
688.125	-0.2710289387	-0.4147282795	
688.75	-0.2571917368	0.01753265706	
689.375	-0.2662406496	0.2795084499	
690.0	0.2777121876	0.356024451	
690.625	0.1714264956	0.02115480288	
691.25	0.3397559853	0.4183891717	
691.875	0.6124027495	-0.02367589555	
692.5	0.3231903868	0.1695750397	
693.125	0.7330098834	0.0303176831	
693.75	0.2976245616	-0.5321616331	
694.375	0.4074242534	-0.06439664487	
695.0	0.5308352656	-0.477711839	
695.625	0.2573660726	-0.2390338202	
696.25	0.4606155989	0.2409139398	
696.875	0.5846120166	0.3616181245	
697.5	0.2980541897	0.3116669832	
698.125	0.5366834044	0.09099632917	
698.75	0.2722017285	-0.4771150478	
699.375	-0.4882791754	-0.1674955073	
700.0	-0.09090603136	0.2397695507	
700.625	0.2018184535	0.340514124	
701.25	0.3047160292	-0.02869426325	
701.875	0.1505430592	0.2467723715	
702.5	0.5081384713	0.2578794728	
703.125	0.288963034	-0.0692293927	
703.75	0.360667727	0.0134381926	
704.375	0.2797845496	-0.3194661973	
705.0	0.06782076554	-0.07654435486	
705.625	0.3156676084	0.04698535799	
706.25	0.2766031056	0.01199273898	
706.875	0.2347053245	0.2999672113	
707.5	0.335800643	0.2993045877	
708.125	0.3719360309	0.09607762615	
708.75	0.1219099046	-0.3801995863	
709.375	-0.1440491657	-0.07299373287	
710.0	-0.06301431601	0.285545142	
710.625	0.1856100983	-0.1078280329	
711.25	0.07732583832	0.2079723895	
711.875	0.239897393	-0.1667081585	
712.5	0.1916382928	0.06245695172	
713.125	0.3014489713	-0.2851433133	
713.75	-0.0195924332	-0.2640961404	
714.375	0.06821618662	-0.1464977621	
715.0	-0.07808106028	-0.2762842096	
715.625	-0.06126688601	-0.1161806146	
716.25	0.2264179115	-0.1789539518	
716.875	0.2739673995	-0.3236642431	
717.5	0.3012842926	-0.1273516367	
718.125	0.6558761937	0.04156860968	
718.75	0.7452404917	-0.2577582816	
719.375	0.3078563657	-0.5432104804	
720.0	0.4630008821	-0.8312865532	
720.625	-0.2787100314	-1.068055129	
721.25	-0.2022982307	0.003430898602	
721.875	-0.2055772118	-1.017368669	
722.5	-1.219387275	-0.3127864905	
723.125	-0.2047196909	0.009803424522	
723.75	-0.6207751894	0.6832779139	
724.375	0.3588942822	0.3387758101	
725.0	0.005610090141	0.2312975174	
725.625	0.2402905428	0.5853237199	
726.25	0.3209370062	0.3569875086	
726.875	-0.2402578057	0.6627289968	
727.5	0.09969764762	1.48006272	
728.125	0.8975343364	1.30981596	
728.75	-0.267577342	1.608372771	
729.375	-0.05225452665	4.298488986	
730.0	2.035910269	2.198309707	
730.625	-0.4619196346	2.684820894	
731.25	0.2360078594	4.299547549	
731.875	0.7078954797	2.439796322	
732.5	-2.74882287	0.4185561291	
733.125	-2.449424861	1.577081252	
733.75	0.4697137579	0.9997158302	
734.375	0.3731601379	0.9001619015	
735.0	-0.6141235377	-0.8795872718	
735.625	0.02535008367	0.06945828015	
736.25	-0.2360553772	0.5649301582	
736.875	0.885884604	0.2191392109	
737.5	0.1299033117	-0.05354420381	
738.125	1.755342326	-0.05891933301	
738.75	0.9997219059	-2.140724253	
739.375	0.3639211431	-0.6975485622	
740.0	3.929827815	0.4018816123	
740.625	3.484295306	-3.36589192	
741.25	-2.768838562	-0.5952238558	
741.875	-4.262300279	2.318477026	
742.5	-1.578578666	0.8225335918	
743.125	0.9610999144	-1.114071778	
743.75	-0.5690755875	-1.382320415	
744.375	-0.2498587543	0.341036507	
745.0	-0.123132558	0.05938419927	
745.625	0.06374921515	-0.1557623883	
746.25	0.091680348	-0.06205274551	
746.875	-0.2763507496	0.08245570414	
747.5	0.1252859256	0.2724316651	
748.125	0.02178279642	0.2978296107	
748.75	0.2884443319	0.4770653619	
749.375	0.2799929054	0.2795880868	
750.0	-0.3058960984	0.1363066903	
