!Created with skrf (http://scikit-rf.org).
# GHz S MA R 50.0 
!freq magS11 angS11
500.0 0.0153884182471 175.104715353
500.625 0.0088944627096 138.805683464
501.25 0.0123274676583 -48.3075788401
501.875 0.0592417541455 -178.189600805
502.5 0.0237323138827 146.582482755
503.125 0.0142754824182 58.7928356572
503.75 0.0099679784316 114.093993703
504.375 0.00208074156771 -46.3086571184
505.0 0.0217759887013 -62.7502768748
505.625 0.0345530857481 -75.3494097805
506.25 0.0514899597373 -102.291100119
506.875 0.0610290701215 -100.792525275
507.5 0.0403909848299 -137.873692183
508.125 0.071262627211 -81.9789469132
508.75 0.0548032912692 -164.23983471
509.375 0.0442020910778 -164.799762498
510.0 0.0309774558112 -135.911119626
510.625 0.0544250906628 -157.573195345
511.25 0.0438827167344 168.004761711
511.875 0.0519181928682 145.89322957
512.5 0.0448209290778 106.066195387
513.125 0.0585184782297 52.4570294135
513.75 0.0490569945401 7.360019199
514.375 0.0373488194056 25.15958178
515.0 0.0520078620126 7.24241764452
515.625 0.107909692621 53.4484076429
516.25 0.0732184577181 25.6734444922
516.875 0.0956263457946 68.6672158201
517.5 0.108197461584 16.7645643779
518.125 0.216084921037 74.8614719675
518.75 0.0841395285643 11.6801735855
519.375 0.0784588546174 24.1914956574
520.0 0.101855821109 -0.53710328912
520.625 0.114315088585 -1.02481081509
521.25 0.0832093574027 -24.8443377894
521.875 0.0603364880166 -0.681716984135
522.5 0.0966461760011 -32.2507995992
523.125 0.192154932121 -31.9445859474
523.75 0.195245198709 -68.425761067
524.375 0.192392782116 -59.3482715828
525.0 0.0692023702481 -44.2207107195
525.625 0.0356466249123 -45.9068470932
526.25 0.0402468263394 -10.1914055298
526.875 0.0548920088441 -24.3108200676
527.5 0.0497096638444 -27.0375170139
528.125 0.0430313031731 -58.2360103378
528.75 0.0613348293372 -74.2275296901
529.375 0.0980575920052 -107.614305657
530.0 0.0608680851604 -127.471703935
530.625 0.0189522217798 -120.137969508
531.25 0.1037613869 -131.189343744
531.875 0.169829929454 -150.600838051
532.5 0.155763771271 -170.53194905
533.125 0.102249633188 175.474765253
533.75 0.11628064723 166.615435357
534.375 0.120424092352 179.501667243
535.0 0.0877293257306 163.508638167
535.625 0.0733719688034 178.075383251
536.25 0.0562510120873 163.576492284
536.875 0.0698545238646 -161.767152209
537.5 0.108527946525 -146.620291108
538.125 0.0825011573192 -173.723836353
538.75 0.0999547911929 179.357438021
539.375 0.0741290356579 -167.280895695
540.0 0.0977372308605 -155.689556547
540.625 0.100167200968 -152.828117069
541.25 0.115709562161 -141.957247222
541.875 0.0885742206537 -142.405794762
542.5 0.118817738018 -146.071663933
543.125 0.123102148479 -166.379974927
543.75 0.126263177273 159.51862829
544.375 0.101189168307 136.043838762
545.0 0.0887515533503 91.8268711894
545.625 0.110230810142 82.7272770687
546.25 0.0817684846296 66.4794883332
546.875 0.0826292247465 54.6931199018
547.5 0.114760503513 58.8272458082
548.125 0.0934275381421 76.2272223514
548.75 0.0844392541087 90.8933259196
549.375 0.0993052081446 85.1343816211
550.0 0.0875934018522 126.328000686
550.625 0.0557808771294 153.375732546
551.25 0.0368339808064 -135.563895119
551.875 0.0700530384722 -167.634956098
552.5 0.115716997019 -166.182927567
553.125 0.0885490319581 -167.392517212
553.75 0.0899693951127 -168.35782121
554.375 0.113029193239 166.239008756
555.0 0.126154084137 164.615953194
555.625 0.103098809018 156.645274075
556.25 0.0877134857445 167.590708117
556.875 0.111484149223 168.159507585
557.5 0.108755005916 166.086933661
558.125 0.105293957843 162.9631367
558.75 0.075611130246 179.51251803
559.375 0.0715360258081 -173.52433532
560.0 0.0472942833803 -148.747194578
560.625 0.0611417620458 -144.464407044
561.25 0.0869623176133 -149.85932946
561.875 0.106270466212 -162.712092706
562.5 0.0939104483796 173.799905582
563.125 0.10881726856 144.243853622
563.75 0.130166400165 131.285432013
564.375 0.109774528847 120.27483025
565.0 0.0897776731831 119.337959961
565.625 0.088389142246 114.992122051
566.25 0.0928530943664 154.0407833
566.875 0.0715239433596 -177.638588134
567.5 0.0667912507829 -175.976182035
568.125 0.0886508429381 -175.347018608
568.75 0.057852912021 -140.950605874
569.375 0.0503117689359 -108.288788566
570.0 0.0597303963993 -105.893975481
570.625 0.0948577363481 -121.671223823
571.25 0.0868267420559 -114.874535827
571.875 0.0879372068607 -123.730426022
572.5 0.10772766289 -153.37377961
573.125 0.148167923165 -178.433057305
573.75 0.0948183069142 165.476749405
574.375 0.0790653928393 153.697476836
575.0 0.107746480723 154.263170313
575.625 0.114394994266 151.71187804
576.25 0.0881520739397 146.543795219
576.875 0.0867637958335 125.793349546
577.5 0.0835464045818 135.687648445
578.125 0.0638112756821 155.641273374
578.75 0.0447992715071 173.244234253
579.375 0.053943138309 169.725126175
580.0 0.064335909461 -169.950704674
580.625 0.0786644032837 -158.149773976
581.25 0.0919887756984 -154.705536234
581.875 0.116562478335 -175.463451453
582.5 0.112812864899 -174.181560117
583.125 0.0952210456494 -171.265897531
583.75 0.0819694930816 -166.076513171
584.375 0.102222532455 -158.32950688
585.0 0.0966945026741 -144.195278024
585.625 0.0740254393083 -152.204311034
586.25 0.0679723648351 -126.740622929
586.875 0.0821591602819 -132.84052295
587.5 0.069611324791 -140.467228253
588.125 0.0607266421012 -177.971241748
588.75 0.0660872267365 -159.170774779
589.375 0.0832592850783 -151.664718906
590.0 0.0929148907291 -169.809161785
590.625 0.104920455634 164.78624669
591.25 0.121860775694 151.798940185
591.875 0.0942018866306 158.611625393
592.5 0.0647808614771 147.83160641
593.125 0.0631966565254 152.098028972
593.75 0.0675141098964 171.441512743
594.375 0.0587318148031 -151.998643125
595.0 0.0408559016828 -122.80450987
595.625 0.060128880024 -101.73775206
596.25 0.0719686468296 -93.9966670046
596.875 0.0719181071558 -66.1100223331
597.5 0.0610579672625 -60.2409332364
598.125 0.0620567023264 -63.6914162291
598.75 0.0919866713763 -50.0219229624
599.375 0.0910053753578 -62.973355687
600.0 0.0987973398941 -62.277460067
600.625 0.0975472120354 -74.6762463813
601.25 0.0853456052069 -74.3448199587
601.875 0.0670121347465 -87.6458889703
602.5 0.0630594812023 -88.1908183192
603.125 0.0448654092137 -57.0698747759
603.75 0.0275761473682 -55.7498498758
604.375 0.055532315107 -8.02471648821
605.0 0.0708178917237 -9.23295032947
605.625 0.0500507515942 -1.22964372301
606.25 0.0189667159566 -20.7645974159
606.875 0.0568274085423 55.1841843259
607.5 0.0604376741519 43.4384477169
608.125 0.079048463552 35.6352041305
608.75 0.0525320931891 13.7528884127
609.375 0.0847985472814 39.4389616703
610.0 0.0840081839994 49.2455430613
610.625 0.0660260730898 41.2604460531
611.25 0.0423368318668 13.3838457903
611.875 0.0534778993385 77.2775620232
612.5 0.0242348581301 93.5806966018
613.125 0.0186812154825 126.37317306
613.75 0.0447116443564 123.939399763
614.375 0.0312276548988 115.604719051
615.0 0.0371576295256 121.025179229
615.625 0.0356344159876 130.035538335
616.25 0.0531951248284 135.847804376
616.875 0.030354434441 126.023855864
617.5 0.0351639113344 123.912508473
618.125 0.0182279487817 120.418758077
618.75 0.0284713534813 137.420798473
619.375 0.00623338634023 114.857502765
620.0 0.0014130680965 138.678561783
620.625 0.0238895632887 -74.2228977825
621.25 0.044035977837 -87.5445555004
621.875 0.0626102039658 -95.8499120047
622.5 0.0727834753001 -166.97371306
623.125 0.079971830642 163.024685354
623.75 0.0587814275082 165.44346943
624.375 0.0317077132839 -161.449108893
625.0 0.0696454607335 -158.371795487
625.625 0.0550714373448 -162.459668391
626.25 0.0286977599652 -172.648314379
626.875 0.0242802572953 -8.17468272337
627.5 0.0266851290603 -103.540730637
628.125 0.034404259961 -26.3566314024
628.75 0.0408307581431 -16.2620296731
629.375 0.0586440514262 0.230530962891
630.0 0.0706980853655 3.82941337962
630.625 0.0702983263409 4.12975697741
631.25 0.0668869642541 -1.83129288058
631.875 0.0767561776726 10.7408676683
632.5 0.0734136254782 -30.9495225947
633.125 0.0475638866198 2.57876823051
633.75 0.0420719023811 17.2313099371
634.375 0.0437583427002 13.2015066872
635.0 0.044339884994 40.7495467181
635.625 0.0257924586617 -8.70991262622
636.25 0.0409747052669 29.0794528136
636.875 0.0625963163389 29.5846619619
637.5 0.0496103385738 49.0406841768
638.125 0.0354530268753 59.5959849213
638.75 0.0710722597218 74.412382379
639.375 0.10154714154 98.9891742851
640.0 0.0711604428404 108.015409479
640.625 0.0582196117443 103.409361834
641.25 0.0641210564224 118.212208663
641.875 0.0709883021186 153.923342782
642.5 0.0692145982006 163.885745306
643.125 0.043582610643 136.416572756
643.75 0.063154219818 172.534256535
644.375 0.076669723568 -179.342046794
645.0 0.0898480662875 -178.25593009
645.625 0.0926797698389 167.108396287
646.25 0.0912896712065 165.600275504
646.875 0.0684375802661 -178.154752143
647.5 0.0666998386508 -175.240202252
648.125 0.0971249213053 -172.854029464
648.75 0.0672015016462 -170.136204052
649.375 0.0404980553708 -152.277441705
650.0 0.0486789972524 -115.165945537
650.625 0.0822904672873 -88.6965180835
651.25 0.0482572087984 -69.2910846461
651.875 0.0554870267774 -40.0427895795
652.5 0.0836910267725 -24.4527811408
653.125 0.137108624138 -1.52551582502
653.75 0.100536722713 5.3623309256
654.375 0.116349247129 8.22777498126
655.0 0.11712792445 13.4616391451
655.625 0.106074163309 29.9577593356
656.25 0.0462766520282 10.9669386335
656.875 0.057503803852 5.18757895761
657.5 0.073442220586 18.2961601956
658.125 0.0769135508648 49.5490688847
658.75 0.0507440209236 67.702054456
659.375 0.0803130365042 41.8978806346
660.0 0.125954898433 25.5549238657
660.625 0.115829531479 19.0007241392
661.25 0.110261525331 4.55236508
661.875 0.11855915426 -12.5788495332
662.5 0.129510736277 -20.5858359779
663.125 0.118488363501 -15.7972987045
663.75 0.0869257487123 3.08824853377
664.375 0.0921627968951 56.0094448111
665.0 0.0690243441814 92.4346556839
665.625 0.072711013283 111.297910376
666.25 0.0799864105805 133.110666764
666.875 0.120889390976 170.955429707
667.5 0.101259701786 -169.793626545
668.125 0.110643563523 179.111830871
668.75 0.125151450848 168.825087172
669.375 0.115727163626 178.703123651
670.0 0.083359750136 -169.593172968
670.625 0.0973143508322 -173.804535819
671.25 0.0877768559297 176.04523623
671.875 0.094033905184 169.105037875
672.5 0.0755529920878 154.390263219
673.125 0.0932594042348 149.584788619
673.75 0.109657076626 158.867478498
674.375 0.11711725521 169.265919621
675.0 0.116566059936 -173.902101325
675.625 0.139985412697 -152.114595558
676.25 0.122143304601 -124.666726531
676.875 0.111713267304 -118.432329128
677.5 0.127281357146 -127.757638104
678.125 0.143795720262 -118.209087424
678.75 0.0517326635196 -91.3030043781
679.375 0.0488766339292 -73.2567694358
680.0 0.0713384151167 -75.9775715583
680.625 0.126421343433 -78.9357242403
681.25 0.112383293972 -75.2454702891
681.875 0.100628155659 -91.5957661935
682.5 0.134860544268 -117.568416493
683.125 0.158155281324 -120.888511274
683.75 0.149914989803 -107.32054343
684.375 0.100607765857 -73.6247209145
685.0 0.132479105537 -39.3250138049
685.625 0.120082893472 -0.532133272608
686.25 0.118314599727 20.2019782638
686.875 0.0757482551942 50.2649338419
687.5 0.0750480293657 82.8223255526
688.125 0.076752177895 113.628587665
688.75 0.107711578323 110.555741537
689.375 0.135807285066 123.929297921
690.0 0.133474318427 133.674118776
690.625 0.124632335258 124.309740039
691.25 0.14312556659 97.8828594501
691.875 0.199811374058 65.4943120247
692.5 0.139126592729 40.727628493
693.125 0.0824308553592 -10.2100161555
693.75 0.0861575120894 -37.0368869617
694.375 0.147557790647 -36.6420137555
695.0 0.119395583176 14.9008369245
695.625 0.0996929153256 54.7161236104
696.25 0.120786310206 108.602452647
696.875 0.14072769832 172.230816828
697.5 0.15065271082 -150.034735762
698.125 0.128315568445 -124.185223737
698.75 0.135505716877 -132.110209269
699.375 0.113180848105 -127.984305677
700.0 0.0919716583015 -106.004026641
700.625 0.110291395053 -87.7770921269
701.25 0.10674688544 -69.5791733174
701.875 0.0830676668774 -61.9512018618
702.5 0.0986793252386 -83.6065453661
703.125 0.168223386935 -120.117250693
703.75 0.17805369525 -149.6867857
704.375 0.13084230242 171.880732585
705.0 0.115113352394 152.039497897
705.625 0.13314650949 -164.269203236
706.25 0.139876319832 -109.602105746
706.875 0.088440262854 -60.9213067672
707.5 0.0779465100229 -38.9840277097
708.125 0.0894075738113 18.3213146996
708.75 0.115118504133 64.101023588
709.375 0.104439086272 102.235032924
710.0 0.103956545881 130.929876164
710.625 0.108238105733 147.919986525
711.25 0.120958556002 172.177484085
711.875 0.138158356849 170.505735407
712.5 0.157883121199 140.743753347
713.125 0.118816761333 104.818920525
713.75 0.0992140190323 46.9634194214
714.375 0.113275846868 26.5675227138
715.0 0.11445321447 27.9438979464
715.625 0.0848436888204 37.9788352569
716.25 0.091329771603 92.1998548274
716.875 0.122286614458 108.295915643
717.5 0.134595358349 142.65294976
718.125 0.119213545248 167.300484686
718.75 0.0992906537707 166.32590602
719.375 0.119291126417 -166.38314775
720.0 0.138345423916 -119.862066763
720.625 0.113737549952 -71.8550772096
721.25 0.0973988249897 -31.4330264927
721.875 0.0852603977365 36.1717559008
722.5 0.0681130270814 71.2544036141
723.125 0.0718295618683 57.5247635294
723.75 0.103936575481 40.8694046252
724.375 0.107459379223 1.55132612046
725.0 0.0963069116102 -40.4601574761
725.625 0.104704929569 -64.2986182687
726.25 0.100155122089 -82.3932145391
726.875 0.111632644441 -31.3799146963
727.5 0.0861241563865 -25.3800036315
728.125 0.065269810662 0.657814578023
728.75 0.0894871368515 18.2379693962
729.375 0.0806100787949 14.3262866244
730.0 0.0709021257614 6.86539135137
730.625 0.0804644789435 31.9202582906
731.25 0.0743013625643 66.0451682813
731.875 0.0529946374542 99.8308904439
732.5 0.10141551728 163.609298069
733.125 0.0883129823989 178.960458933
733.75 0.0782369909464 177.825381539
734.375 0.0480131548131 148.396672513
735.0 0.058969029076 150.340420119
735.625 0.0452900769632 130.039733703
736.25 0.0374384726009 143.514828181
736.875 0.0314893611389 -176.883388674
737.5 0.0809311916782 -178.746106644
738.125 0.114572874927 -173.334663073
738.75 0.083438281606 -173.960762811
739.375 0.0223587857539 155.760081973
740.0 0.0991733036915 -137.40467752
740.625 0.0570288913744 -150.246830652
741.25 0.0437508648086 -132.020850193
741.875 0.0389450885951 -109.224519173
742.5 0.0153863464463 28.1428519846
743.125 0.0290252545648 61.3018013819
743.75 0.0333076740107 132.808073541
744.375 0.0328129652904 163.627188075
745.0 0.0642272277333 115.235886378
745.625 0.066769537005 112.395838498
746.25 0.0669533318894 94.9455510255
746.875 0.064677802229 40.4671986647
747.5 0.0252823781474 29.254304686
748.125 0.04080957997 -13.8735653071
748.75 0.0283690612894 -19.3036529826
749.375 0.0377223647778 -20.5643234102
750.0 0.0354389607391 -51.491794371
