!Created with skrf (http://scikit-rf.org).
# GHz S RI R (50+0j) 
!freq	ReS11	ImS11	
500.0	-2.564620277	-3.727470353	
500.625	1.295501569	-1.746721321	
501.25	-1.613200838	-2.452377868	
501.875	-2.123234498	-0.5337337151	
502.5	-0.1404742724	-0.0408318338	
503.125	-0.3505963724	-0.1019097305	
503.75	0.3791199882	0.1854203554	
504.375	0.06127228906	0.1205900995	
505.0	-0.02765359892	-0.2379614572	
505.625	0.250700675	0.02806502853	
506.25	-0.7142226341	-0.3119530549	
506.875	0.6547073904	-0.4528737833	
507.5	-0.2724656038	-2.193319222	
508.125	-1.504437753	-2.130252357	
508.75	1.936933752	-0.7934318233	
509.375	-1.502022605	-5.393111562	
510.0	-1.143169729	0.3400168852	
510.625	-0.2525018507	-0.8510233946	
511.25	-0.437395127	0.2488794715	
511.875	-0.2386118246	-0.3751598445	
512.5	-0.09345789367	0.1777654999	
513.125	-0.08042048948	-0.2789248016	
513.75	-0.1424593408	0.08982381453	
514.375	-0.2361848691	-0.4697035541	
515.0	-0.5873776561	1.37298939	
515.625	0.610886139	-3.747861864	
516.25	-2.394629759	0.09802836482	
516.875	0.9419547237	-1.452179836	
517.5	-0.8511218755	-1.0860782	
518.125	0.378872771	0.0366810606	
518.75	-0.7061820684	-0.8294006043	
519.375	-0.00383617663	0.1531477547	
520.0	0.2957741773	0.3699667661	
520.625	0.6442143304	-0.3450118845	
521.25	-0.1943060707	-0.4489981741	
521.875	-0.4293734427	-0.3753752528	
522.5	0.0007064458084	0.2282056109	
523.125	-0.3908687234	-0.03039581477	
523.75	-0.1034045238	0.1482007107	
524.375	-0.6891317816	-0.1321629149	
525.0	0.3580976609	0.2809158493	
525.625	-0.1708038085	0.1521090531	
526.25	0.219286246	-0.1336904875	
526.875	-0.3791584253	0.2751899067	
527.5	0.268642213	0.4995864397	
528.125	-0.2778841138	0.5683670173	
528.75	0.2185941878	1.196879035	
529.375	-0.02811824627	-0.09833625002	
530.0	0.4210499777	0.7289664078	
530.625	-0.1270631158	0.5796493287	
531.25	2.00892795	0.3157020752	
531.875	-0.01732546291	-0.2968285338	
532.5	0.2071189695	-0.7810899281	
533.125	-0.2959419142	0.5535235527	
533.75	0.5236578857	-1.123771429	
534.375	-0.4732883274	-0.1984869083	
535.0	-0.5416285201	-0.7940555822	
535.625	-0.3267359957	0.7248126997	
536.25	-0.07223107176	0.1081870685	
536.875	0.3293311884	0.1453427712	
537.5	0.1113604463	-0.2123226851	
538.125	0.3070018074	0.06786513288	
538.75	0.3429346937	-0.5268836418	
539.375	-0.1051142451	-0.2383809556	
540.0	-0.3684627461	-0.5878313999	
540.625	-0.4796720416	0.1548105815	
541.25	-0.09680022741	-0.05768417321	
541.875	-0.142032393	-0.1140522245	
542.5	-0.2159268494	-0.07221002483	
543.125	0.01803576037	-0.1056233568	
543.75	-0.446059179	-0.09483538005	
544.375	0.1548671031	0.0959893686	
545.0	-0.2052764241	0.2820467599	
545.625	0.2796305623	-0.06604912422	
546.25	0.03130880293	0.3497661079	
546.875	0.4563529569	-0.3575363826	
547.5	0.0708186529	-0.04049570127	
548.125	0.08992569008	-0.5406429454	
548.75	-0.4984751948	-0.2868399564	
549.375	-0.1225022343	-0.02462527737	
550.0	-0.3178936449	-0.1235081523	
550.625	-0.004449696946	0.1113461169	
551.25	-0.3126939867	-0.0307148981	
551.875	-0.06893920357	0.2744455265	
552.5	-0.1819960721	0.08327430406	
553.125	-0.02841940939	0.2277770587	
553.75	0.1090912236	0.09216991541	
554.375	0.2266153056	0.03610597809	
555.0	0.2742164162	-0.1812174	
555.625	0.194752881	-0.2632096771	
556.25	0.1802435792	-0.3375153898	
556.875	-0.08012042624	-0.4200468411	
557.5	-0.2443754694	-0.2480257566	
558.125	-0.2692702654	-0.1094545918	
558.75	-0.2849100367	-0.01749935832	
559.375	-0.2424099864	0.07528439724	
560.0	-0.2375638262	0.1248675112	
560.625	-0.1702176814	0.3143690187	
561.25	0.1024312232	0.2309800791	
561.875	-0.03920728867	0.1051145865	
562.5	0.1499887727	0.1226129991	
563.125	0.0352492124	0.2309850641	
563.75	0.4654295011	-0.06390220443	
564.375	0.1400415901	-0.1453180125	
565.0	0.3771155481	-0.3774129826	
565.625	-0.2337654324	-0.3894416654	
566.25	-0.1618956739	-0.1687995024	
566.875	-0.3023443791	-0.3371513065	
567.5	-0.5311951928	-0.2190053734	
568.125	-0.150646859	-0.2027240399	
568.75	-0.683869231	-0.4453233654	
569.375	-0.4612561395	0.4639227134	
570.0	-0.3805465336	0.1815887436	
570.625	-0.219124102	0.767996459	
571.25	0.1617292604	-0.02438214492	
571.875	0.03581982325	0.5526758192	
572.5	0.262681079	-0.4024269358	
573.125	0.2386941408	0.1071106548	
573.75	0.3265859677	-0.5483905514	
574.375	-0.2716664778	-0.09185721883	
575.0	0.4044423173	-0.03145231001	
575.625	-0.217179849	-0.3102949431	
576.25	0.3028157628	0.05938660334	
576.875	0.001804884055	-0.6468573401	
577.5	-0.2719255621	-0.2775023966	
578.125	0.120174999	-0.2486287633	
578.75	-0.1954632955	-0.5407925505	
579.375	-0.3812742153	0.03303291966	
580.0	0.1278035762	-0.1435110021	
580.625	-0.4296356581	0.01611310207	
581.25	-0.00489691217	-0.009214080196	
581.875	-0.3127418659	0.5259148921	
582.5	0.4724599091	0.4518464336	
583.125	-0.0110598213	-0.2102598256	
583.75	0.09995601921	0.5663443217	
584.375	0.06242844714	-0.3564893569	
585.0	0.1497126777	0.5586143972	
585.625	0.5490851721	-0.2809324169	
586.25	0.05258589972	0.06216358667	
586.875	0.4760744256	-0.5218577383	
587.5	-0.2916625613	-0.1288966325	
588.125	0.2662239929	-0.3013413359	
588.75	0.07192868819	-0.6454998611	
589.375	-0.1226766933	-0.2240548571	
590.0	0.1674304523	-0.4457194721	
590.625	-0.599327723	-0.2144093055	
591.25	-0.1998987258	0.3794598052	
591.875	-0.1309549437	0.05942353974	
592.5	0.01604224834	0.3533805577	
593.125	-0.2365280106	-0.06329346155	
593.75	0.2867901688	0.3375954707	
594.375	0.2361638519	0.09459950749	
595.0	0.2206860692	0.5203306254	
595.625	0.8928420089	0.1714246038	
596.25	-0.08420810987	-0.1176156191	
596.875	0.5490301332	0.5029633138	
597.5	0.55356931	-0.04444883879	
598.125	0.03475412125	0.3616915651	
598.75	0.7160790147	0.2491357813	
599.375	0.2361505831	-0.08043158801	
600.0	0.6666444208	-0.1985624987	
600.625	0.236201271	-0.6537677718	
601.25	0.0825438435	-0.2136413377	
601.875	-0.02509960878	-0.493658386	
602.5	-0.368530525	0.02931064864	
603.125	-0.2828454471	0.1356979059	
603.75	-0.1698305718	0.05334686918	
604.375	-0.461993916	0.1735580118	
605.0	0.1116441209	0.2467410074	
605.625	-0.4497437122	-0.02840661596	
606.25	-0.1064537804	0.4011694412	
606.875	-0.3376935876	-0.1681300118	
607.5	-0.6702658481	0.8330386994	
608.125	0.1343078212	0.1900179108	
608.75	0.1348592442	0.8010160657	
609.375	0.7331667454	-0.4855137302	
610.0	0.2642313107	0.1180984787	
610.625	0.3886913016	-0.635665722	
611.25	-0.1533526901	-0.1477226942	
611.875	-0.03694948093	-0.6268627496	
612.5	-0.3817331327	0.1619341899	
613.125	-0.42669126	-0.2083346814	
613.75	-0.2534204981	0.6185427543	
614.375	-0.01907475423	-0.07987860832	
615.0	0.332717335	0.3810137283	
615.625	-0.1625676868	-0.1332502683	
616.25	-0.2739932425	0.6518874229	
616.875	0.2107106347	0.3168981635	
617.5	-0.574127953	0.4202295677	
618.125	0.1682854115	0.770026045	
618.75	0.01581077963	0.1640565103	
619.375	0.167227888	0.6740608145	
620.0	0.3928220363	-0.03625635295	
620.625	0.4341314128	-0.2678959799	
621.25	-0.3123010714	-0.3494668815	
621.875	-0.3162300842	-0.3749649589	
622.5	-0.6394193669	0.2944889313	
623.125	-0.1104997422	0.2058310167	
623.75	0.4117207019	0.3167132294	
624.375	-0.1570423624	-0.2257773018	
625.0	0.4983865991	-0.01892041122	
625.625	-0.3541157211	-0.1239709171	
626.25	0.3086480193	-0.3708379542	
626.875	-0.6396442152	-0.2874600209	
627.5	-0.1711187399	0.1199231415	
628.125	-0.1349211319	-0.4223972593	
628.75	-0.3938755393	-0.1759569181	
629.375	0.007512410054	-0.3419552556	
630.0	-0.6017579472	-0.3672965991	
630.625	-0.3052725824	0.2684777124	
631.25	-0.5463661297	0.2382356645	
631.875	-0.06797543634	0.7731965367	
632.5	0.3485928974	0.4017976647	
633.125	0.4189553545	0.08064037726	
633.75	0.4310768969	0.1040080821	
634.375	0.02238404164	-0.6141487988	
635.0	0.1610427731	-0.08942902902	
635.625	-0.5223341579	-0.4599071037	
636.25	-0.1009540962	0.3596796182	
636.875	-0.5631161864	0.0574949584	
637.5	0.1904586983	0.5075229624	
638.125	-0.2373532455	-0.2229123162	
638.75	-0.4268948288	0.8255419307	
639.375	0.4491224212	0.3465587361	
640.0	-0.1506751369	0.5031090744	
640.625	0.732653652	0.6664915321	
641.25	0.6353525054	-0.3216036374	
641.875	0.395604883	0.003090943041	
642.5	-0.1506365776	-0.9968460223	
643.125	-0.07703832824	0.0410289951	
643.75	-0.3172365689	-0.6179327871	
644.375	-0.5119503666	0.3800411747	
645.0	-0.1203644184	-0.002425967879	
645.625	-0.2104366366	0.7396857316	
646.25	0.7186707084	0.1605751303	
646.875	-0.09583353331	-0.2227218728	
647.5	0.4522103947	0.4923664739	
648.125	-0.04841886852	-0.3758831817	
648.75	0.9732978883	0.4295681736	
649.375	0.472682452	-1.153126511	
650.0	-0.05719510485	-0.1800567213	
650.625	1.230837703	-0.5375465118	
651.25	0.0776759153	-1.385563354	
651.875	0.1029845524	0.1781383071	
652.5	1.25327981	0.04642564173	
653.125	0.5238422248	-0.7382092175	
653.75	0.3846012681	0.08777688245	
654.375	-0.169683015	-1.233732633	
655.0	-0.6004318344	0.1761302487	
655.625	-0.4620208839	-0.1444993296	
656.25	-0.03912345219	0.9739558963	
656.875	0.2845504175	-0.3572893203	
657.5	-0.1480848191	0.584805377	
658.125	0.5883067131	0.3793057641	
658.75	0.5094665533	-0.07782894033	
659.375	0.8664361749	0.2577134098	
660.0	0.5493294651	-1.252816246	
660.625	0.1731572769	-0.3386379659	
661.25	0.8214504351	-0.6731864393	
661.875	0.2397840591	-1.12507459	
662.5	0.3129943327	0.1680146804	
663.125	1.280904269	-0.5250917271	
663.75	-0.0778073861	-0.8726465095	
664.375	0.2722662482	-0.3998338646	
665.0	-0.7899754999	-0.9043757586	
665.625	-0.4161120154	0.4462037302	
666.25	-0.6114599502	0.4309056559	
666.875	0.5146723979	0.6924215461	
667.5	0.1684668963	-0.03953532683	
668.125	0.7384785901	0.3788605136	
668.75	0.4381419446	-0.6432120686	
669.375	0.0977416949	-0.3151753595	
670.0	0.2627753376	-0.4534224988	
670.625	-0.01669328548	-0.7247764225	
671.25	-0.05215678803	-0.1170649793	
671.875	0.5922118643	-0.4377392813	
672.5	0.3791625345	-0.5815356905	
673.125	0.3189090481	-0.06433736758	
673.75	0.8575959216	-0.729987867	
674.375	-0.3813909205	-0.6188976363	
675.0	0.3457206665	-0.2737578031	
675.625	-0.6885073398	-0.7988842609	
676.25	-0.4459593201	0.5130607522	
676.875	-0.1739029425	-0.6007501076	
677.5	-0.5933829016	0.5784954505	
678.125	-0.1576629951	-0.0984589467	
678.75	-0.2637290044	0.9706479453	
679.375	0.6832835323	-0.2737473968	
680.0	0.1384133788	0.1618517114	
680.625	0.5263505361	-0.2151995617	
681.25	0.04638823798	-0.3768036826	
681.875	0.06863138759	0.4184155617	
682.5	0.7668884934	0.3557895562	
683.125	0.5640523454	-0.0329146446	
683.75	0.3431532433	0.1400291742	
684.375	0.9844411163	0.4897400069	
685.0	0.5000970735	-0.507005566	
685.625	0.6295058483	0.6389367128	
686.25	1.210151571	-0.4923939967	
686.875	-0.1140467208	-0.1831491544	
687.5	1.680959805	-0.281414802	
688.125	-1.005539631	-1.570140767	
688.75	0.0357167642	-0.4728868388	
689.375	-1.497930967	0.9140802733	
690.0	0.645933351	0.5858761646	
690.625	-0.0662714806	1.047934248	
691.25	1.222755078	0.2517452789	
691.875	0.5842320812	0.793497884	
692.5	1.615229552	0.8107859055	
693.125	1.546603171	-0.3693804658	
693.75	1.304879013	-0.3040114776	
694.375	0.9936994382	-1.04233656	
695.0	1.112155441	-0.3120058134	
695.625	1.568307812	-0.6442590516	
696.25	0.4900936052	0.2496391303	
696.875	1.289723979	1.863726536	
697.5	1.231927489	0.2985313424	
698.125	0.8958550578	1.472944004	
698.75	1.541294385	-1.703518126	
699.375	-0.2768925674	-0.2148411507	
700.0	-1.754051287	0.7275729109	
700.625	0.8468930021	0.4879574525	
701.25	-0.1160113622	0.7745432426	
701.875	1.250953697	0.3380600373	
702.5	0.2580674095	0.5739678595	
703.125	1.350489676	0.549222805	
703.75	0.4822709951	-0.6189436983	
704.375	1.067848018	0.01649244121	
705.0	0.438012754	-0.8477120923	
705.625	0.1732182225	0.4152125834	
706.25	1.407673035	0.6378384117	
706.875	0.1894331313	0.07173359824	
707.5	0.4128447516	1.473898821	
708.125	1.523712426	-0.05028859591	
708.75	0.6508840035	-0.310243896	
709.375	-0.6971907765	-1.272552313	
710.0	-0.2401118619	0.658217819	
710.625	-0.1776592042	0.4461099521	
711.25	0.3819851826	0.2711841141	
711.875	0.3712680483	0.329000746	
712.5	0.8031803209	-0.0002847832675	
713.125	0.6355601992	-0.1996365508	
713.75	0.444734506	-0.8800803834	
714.375	-0.2042584915	-0.1440275581	
715.0	0.3480652253	-0.9584422794	
715.625	-0.5133237399	-0.3375116733	
716.25	0.8965037677	-0.02019931856	
716.875	1.306201116	-1.447650723	
717.5	-0.2377329784	0.1189479394	
718.125	2.978641968	1.239248698	
718.75	2.281864867	-1.839477467	
719.375	0.6146499234	0.7676964912	
720.0	3.219757051	-3.436297907	
720.625	-0.8603266242	-2.255427932	
721.25	0.9941811726	-2.312216529	
721.875	-0.5427611853	-3.551968961	
722.5	-1.526361889	-0.9748740798	
723.125	-1.87474995	-1.498009919	
723.75	-1.022787552	1.535728772	
724.375	0.1864021658	0.7330775774	
725.0	0.1067755102	0.8265194941	
725.625	0.3966544792	1.776576389	
726.25	1.210181826	1.139580752	
726.875	-1.492653389	1.456256018	
727.5	-0.8348510868	5.510059053	
728.125	3.026765894	3.14257499	
728.75	-6.118837843	4.805530912	
729.375	6.128938092	15.91213921	
730.0	0.1956913504	0.8818514911	
730.625	-15.20373796	18.20983502	
731.25	9.474009109	11.8538912	
731.875	-7.750466	-3.243847154	
732.5	-13.87900457	2.811083437	
733.125	-7.329726522	3.312313622	
733.75	-0.548816198	1.59566365	
734.375	2.329075652	3.253099604	
735.0	-0.7373979802	-1.084246156	
735.625	-0.8351291796	-0.4432699081	
736.25	-0.229220852	2.494445043	
736.875	0.7810895317	-0.06071362947	
737.5	2.422171735	2.330495723	
738.125	5.542936277	-1.506385955	
738.75	3.00144428	-6.370077798	
739.375	-1.583645341	0.6190685119	
740.0	22.47491143	6.691004141	
740.625	-0.8362586587	-20.52385033	
741.25	-10.87438074	8.458025508	
741.875	-2.35401915	19.48238347	
742.5	13.2392364	2.880140148	
743.125	-1.037002742	-12.67060443	
743.75	-3.19602402	-2.089621688	
744.375	0.4116132349	-0.5125595215	
745.0	-0.199603853	1.134092889	
745.625	-0.2070461752	-0.195841278	
746.25	0.09915552211	-0.5176243398	
746.875	-0.6233205947	0.02092582451	
747.5	0.07352847943	0.6381884854	
748.125	-0.2773799663	2.016350362	
748.75	0.9876919828	1.103306518	
749.375	0.4258330653	0.645474261	
750.0	-0.4918129381	-0.580869581	
