!Created with skrf (http://scikit-rf.org).
# GHz S RI R (50+0j) 
!freq	ReS11	ImS11	
500.0	0.1643481347	-0.3620231136	
500.625	0.6739547044	-1.15303245	
501.25	-0.569572155	-0.4426002045	
501.875	0.008702135746	-0.2731371449	
502.5	-0.05757626238	-0.1716116765	
503.125	-0.03379983562	0.02102748798	
503.75	-0.03382829526	0.07539430023	
504.375	0.02700136524	-0.03264003636	
505.0	0.02558819214	0.01222553185	
505.625	-0.02079405992	-0.0796429868	
506.25	-0.01804439041	0.03519630384	
506.875	-0.3131768798	-0.06320883384	
507.5	-0.1087766505	0.0788027072	
508.125	0.3966350608	-0.390984127	
508.75	0.5338522816	-1.134300988	
509.375	-0.579801341	-0.7382427009	
510.0	-0.2783078146	-0.3899795884	
510.625	-0.1858154597	-0.1119185768	
511.25	-0.01995992378	-0.01227161138	
511.875	-0.1258927385	-0.06315215176	
512.5	-0.006004130195	0.05736366227	
513.125	0.01029244511	-0.03122350934	
513.75	-0.06940033924	-0.07429943627	
514.375	-0.03052907633	0.07873098225	
515.0	-0.009091822851	-0.365034864	
515.625	-0.2270334252	0.05146664518	
516.25	0.267127522	-0.7326082295	
516.875	-0.4239751318	-0.5445243975	
517.5	0.01717945882	-0.01462654144	
518.125	-0.02182675466	-0.09126761272	
518.75	-0.002116011143	-0.02464369951	
519.375	-0.05293379409	0.007571594041	
520.0	0.1174551859	0.06216910109	
520.625	0.1027376499	-0.09399865217	
521.25	-0.01235580059	-0.1831654632	
521.875	-0.1757385735	-0.1021099723	
522.5	-0.0737962368	0.05306090999	
523.125	-0.09199212254	-0.06044789256	
523.75	-0.1417573242	0.08911524605	
524.375	0.001159223353	-0.01708619002	
525.0	-0.1707116472	0.1700843515	
525.625	0.1254769405	0.01973950405	
526.25	-0.0772131866	0.03057462021	
526.875	0.0159015781	0.01548054852	
527.5	-0.1177214097	0.1209693796	
528.125	0.09317301793	0.3244412679	
528.75	0.02693784041	0.09274951922	
529.375	0.02346552483	0.07348433101	
530.0	0.1163470634	0.08242404452	
530.625	-0.04757602987	0.166512432	
531.25	0.4797075331	0.1585098189	
531.875	0.2146681513	-0.2520076257	
532.5	0.05310546122	-0.05498629454	
533.125	-0.05304098017	-0.1340764409	
533.75	0.06007038468	-0.0004828414009	
534.375	-0.1042837223	-0.3428384556	
535.0	-0.1921179368	0.01872629484	
535.625	-0.1455546163	0.03873775473	
536.25	0.002902259422	0.115804356	
536.875	0.05454670298	-0.02509809385	
537.5	0.08551517693	-0.01048078133	
538.125	0.08305115483	-0.113871893	
538.75	0.08731397327	-0.05224984247	
539.375	-0.06520162865	-0.1741377302	
540.0	-0.1866214207	-0.0779528239	
540.625	-0.07665215158	-0.05346654515	
541.25	-0.1268460902	-0.008087824921	
541.875	-0.07336154169	0.02806405445	
542.5	-0.02100639055	-0.08026623254	
543.125	-0.1083158988	0.01270830892	
543.75	0.002275858342	-0.005202632987	
544.375	-0.1021424492	0.04965526892	
545.0	0.06500543291	0.01048402959	
545.625	0.01079105752	0.09984109025	
546.25	0.1316231872	-0.01383819489	
546.875	0.05915000362	0.008295893773	
547.5	0.1038459353	-0.1401082949	
548.125	-0.09388070414	-0.1130559802	
548.75	-0.05096101785	-0.08550360368	
549.375	-0.1258769066	-0.09982606705	
550.0	-0.05160808071	0.05328603439	
550.625	-0.05908051222	-0.03037407596	
551.25	-0.05974000138	0.06076968039	
551.875	-0.05019962015	0.0340289816	
552.5	-0.04901884775	0.08911650989	
553.125	0.002697103591	0.04361250365	
553.75	0.03464201436	0.04712507982	
554.375	0.08770492478	-0.01391907616	
555.0	0.07714860542	-0.06022485919	
555.625	0.07717694524	-0.0971018535	
556.25	0.05206656825	-0.129256273	
556.875	-0.03684492867	-0.1366982616	
557.5	-0.08890063833	-0.09140948377	
558.125	-0.1107709419	-0.0321167108	
558.75	-0.0974663094	0.008657073048	
559.375	-0.09602671268	0.01569448901	
560.0	-0.09328195742	0.07845204842	
560.625	-0.02392737616	0.09887770255	
561.25	-0.01625460261	0.07906437959	
561.875	0.05390561853	0.05149405449	
562.5	-0.01864909176	0.02403330634	
563.125	0.09353554052	0.08357073409	
563.75	0.10167435	-0.03550099957	
564.375	0.1282657908	-0.04984885325	
565.0	0.05665436165	-0.1793182579	
565.625	-0.05035007798	-0.09746391408	
566.25	-0.06082439828	-0.1354848435	
566.875	-0.1695533404	-0.0340211507	
567.5	-0.04384631949	-0.05006879574	
568.125	-0.1498212822	-0.1999990565	
568.75	-0.2029082524	0.01019655452	
569.375	-0.1740202461	0.009491930527	
570.0	-0.143478438	0.2813256369	
570.625	0.04441206992	0.1322379041	
571.25	-0.07048366507	0.09116070084	
571.875	0.130421137	0.05324935466	
572.5	0.007296914083	0.02800014078	
573.125	0.1622782754	-0.1247465136	
573.75	-0.04152306719	-0.1375372414	
574.375	0.04281567979	0.01599658577	
575.0	0.001025075064	-0.1332098565	
575.625	0.01310954584	0.01486007226	
576.25	0.1070331157	-0.1371495239	
576.875	-0.08796032242	-0.1420828602	
577.5	0.007719960917	-0.04613929224	
578.125	0.01498617559	-0.2065689055	
578.75	-0.1775006036	-0.08189937617	
579.375	-0.006417645724	-0.004017598085	
580.0	-0.1154084224	-0.1526149928	
580.625	-0.0122143344	0.08533440334	
581.25	-0.1517870918	-0.006195051908	
581.875	0.1049892219	0.2281663151	
582.5	0.05203053681	-0.01694172605	
583.125	-0.001113029634	0.1390723235	
583.75	0.1324848307	-0.02168088615	
584.375	-0.08021217341	0.09409438071	
585.0	0.1907456158	0.05900728294	
585.625	0.07278678216	-0.07109774613	
586.25	0.1387302024	0.02063283983	
586.875	0.05538769358	-0.2113480181	
587.5	-0.02308140613	-0.04270365286	
588.125	0.04574592299	-0.162549255	
588.75	-0.04457837426	-0.1759373755	
589.375	0.02460953509	-0.04443015524	
590.0	-0.03780959841	-0.2486330859	
590.625	-0.1791835841	0.07573746169	
591.25	-0.06855922556	0.01811629988	
591.875	-0.1083381546	0.1926744085	
592.5	0.1068150398	0.009703290506	
593.125	-0.1277377137	0.1546896297	
593.75	0.1132570802	0.03012397805	
594.375	0.03770469263	0.1645352513	
595.0	0.2344798826	0.1256162556	
595.625	0.1089559512	-0.03789651647	
596.25	0.08805396303	0.09829997172	
596.875	0.2136437235	0.003455867888	
597.5	0.1027589773	-0.006511234324	
598.125	0.1039914586	0.1584327778	
598.75	0.2366621445	0.03044548551	
599.375	0.1219912377	-0.03188841953	
600.0	0.180534083	-0.1289825202	
600.625	0.09732337164	-0.2329553461	
601.25	-0.01299239038	-0.1103007484	
601.875	0.001822045927	-0.1857115743	
602.5	-0.1762301612	0.05839665263	
603.125	-0.005234788547	-0.02433376024	
603.75	-0.1986165534	0.06334781857	
604.375	-0.0171169307	0.1526242225	
605.0	-0.07488914446	-0.02613723944	
605.625	-0.03819659799	0.175325455	
606.25	-0.009515583974	0.009074450961	
606.875	-0.2359333112	0.02808665467	
607.5	-0.05290295571	0.1563571881	
608.125	-0.05938759682	0.2012342579	
608.75	0.1667264613	0.2038395807	
609.375	0.2456625789	-0.125236982	
610.0	0.05572500375	-0.06190823774	
610.625	0.09704847664	-0.135557407	
611.25	-0.09601911081	-0.1482778161	
611.875	0.01688122069	-0.09185809494	
612.5	-0.2165593505	-0.1191886293	
613.125	-0.09009559698	0.1299357044	
613.75	-0.1443507062	0.03265600764	
614.375	0.0898384087	0.1969591721	
615.0	0.005682036888	-0.0750551579	
615.625	-0.0702655198	0.1835846138	
616.25	0.01354256874	0.02983470846	
616.875	-0.1189992718	0.07989747306	
617.5	-0.01827614627	0.2555378705	
618.125	0.08300132559	0.1586407899	
618.75	0.1236614272	0.2089462192	
619.375	0.1428691518	0.1791218552	
620.0	0.2439970928	0.03438027463	
620.625	0.08105002366	-0.09630746319	
621.25	-0.1157400302	-0.239234421	
621.875	-0.1721252794	0.01434141465	
622.5	-0.1223740705	-0.02219030683	
623.125	-0.02297841897	0.2481504088	
623.75	0.133176419	-0.09372688837	
624.375	0.07553945654	0.02698834387	
625.0	-0.03648997079	-0.08545863368	
625.625	0.08607991216	-0.01950158696	
626.25	-0.06536638202	-0.188080748	
626.875	-0.1382603801	0.01271998048	
627.5	-0.0634154414	-0.09696583795	
628.125	-0.1526042122	-0.06008887573	
628.75	-0.07131868999	-0.06550547336	
629.375	-0.04719436128	-0.1824106714	
630.0	-0.2224285878	-0.05601355952	
630.625	-0.1550345529	0.09194739801	
631.25	-0.1249196256	0.06991047746	
631.875	0.02040921229	0.2651747767	
632.5	0.1165833733	0.1020162242	
633.125	0.1113121598	0.1379270423	
633.75	0.1888220387	-0.1553473227	
634.375	0.0008911312382	-0.01442986757	
635.0	0.03644294248	-0.2004573013	
635.625	-0.1750443368	0.001378690123	
636.25	-0.09270582201	-0.01148347145	
636.875	-0.1445395817	0.1830775594	
637.5	0.06518264779	0.06365309644	
638.125	-0.1370590281	0.04694444456	
638.75	-0.01892186194	0.2467263938	
639.375	0.03535183345	0.1170999902	
640.0	0.06166403023	0.278060151	
640.625	0.3101691311	0.09824244788	
641.25	0.1808498125	-0.0686697148	
641.875	0.2149656241	-0.09135575975	
642.5	-0.09046858463	-0.2534347763	
643.125	-0.0241443101	-0.03956930479	
643.75	-0.1141285554	-0.2154626334	
644.375	-0.2124039371	0.1803690236	
645.0	-0.1108292594	0.003024170219	
645.625	0.0297911532	0.3506567821	
646.25	0.2357824789	-0.1475047367	
646.875	-0.004626802038	0.07771633381	
647.5	0.2093473646	-0.06583633618	
648.125	-0.03014884138	0.06232366088	
648.75	0.3928186747	-0.04333424242	
649.375	0.0723499121	-0.3170367303	
650.0	0.1099238758	-0.1086120476	
650.625	0.2732881358	-0.3207980291	
651.25	0.01959606006	-0.3035248083	
651.875	0.1784562509	-0.007152841935	
652.5	0.3984226944	-0.1087940343	
653.125	0.1527777595	-0.2170568883	
653.75	0.1844051433	-0.06934535097	
654.375	-0.07873843682	-0.4146461498	
655.0	-0.2746550397	0.09158628498	
655.625	-0.1268360364	0.02544157508	
656.25	0.04118659589	0.2915355722	
656.875	0.06878901734	-0.08400466014	
657.5	-0.03272274697	0.2978158434	
658.125	0.2454252952	0.03905397922	
658.75	0.1128961275	0.05251469221	
659.375	0.4828627057	-0.06307337449	
660.0	0.07404113793	-0.4120896126	
660.625	0.1204412343	-0.1348245877	
661.25	0.2334476357	-0.315231907	
661.875	0.09289905726	-0.3384793046	
662.5	0.163482801	-0.03829010946	
663.125	0.3472969862	-0.2341846849	
663.75	0.01586336468	-0.2762695159	
664.375	0.04815254165	-0.2366522633	
665.0	-0.3122000307	-0.2645935121	
665.625	-0.2205100055	0.1909110879	
666.25	-0.1178057907	0.1362681301	
666.875	0.1504244397	0.2708001868	
667.5	0.1731856424	-0.08652590792	
668.125	0.1655453102	0.1141953314	
668.75	0.2121241538	-0.2626567826	
669.375	-0.003511557945	-0.1373187062	
670.0	0.1585328238	-0.2199628525	
670.625	-0.1022445675	-0.2836979124	
671.25	0.01972707492	-0.03047558657	
671.875	0.2273257653	-0.2326314963	
672.5	0.08204178117	-0.1991228477	
673.125	0.1397115635	-0.07051360278	
673.75	0.2439805714	-0.252818559	
674.375	-0.0920130633	-0.2566689873	
675.0	0.03890370641	-0.1797585968	
675.625	-0.2215941355	-0.1944332536	
676.25	-0.1581469174	0.09607538212	
676.875	-0.04522021697	-0.07652327634	
677.5	-0.2163931279	0.1041496011	
678.125	0.004116532973	0.1109341361	
678.75	-0.07802663289	0.1947892668	
679.375	0.3543288692	0.07886894941	
680.0	-0.09016295239	-0.1322317855	
680.625	0.186832202	0.04466657052	
681.25	0.1085911881	-0.2006004189	
681.875	-0.108311958	0.1530639719	
682.5	0.3073319769	0.2450223003	
683.125	0.06625568689	-0.205258982	
683.75	0.1044525317	0.1863147901	
684.375	0.3660739415	0.1055005986	
685.0	0.1148452571	-0.1195037908	
685.625	0.2889692492	0.2113983811	
686.25	0.4105170565	-0.157725322	
686.875	0.117244852	-0.1574175185	
687.5	0.2985333554	-0.1754023616	
688.125	-0.1379127799	-0.499490759	
688.75	-0.3099116491	0.01108954803	
689.375	-0.3436378882	0.1622779824	
690.0	0.1768486591	0.4446732492	
690.625	0.1804800764	0.02867912424	
691.25	0.2453474332	0.4910362269	
691.875	0.5960159508	0.08886713843	
692.5	0.3107483124	0.1766080403	
693.125	0.6958153614	0.1007307482	
693.75	0.3551683301	-0.5039888216	
694.375	0.2486808671	-0.1274585129	
695.0	0.5886821161	-0.2960726873	
695.625	0.278795193	-0.1608709335	
696.25	0.2960156172	0.1314220712	
696.875	0.4467809877	0.153265059	
697.5	0.4390787393	0.2018117868	
698.125	0.3503304788	0.2371679746	
698.75	0.4743929396	-0.4195196915	
699.375	-0.497589677	-0.2526780487	
700.0	-0.1696021026	0.1183675182	
700.625	0.07534578208	0.3868127686	
701.25	0.2339555936	-0.003495559503	
701.875	0.08087163778	0.2553750324	
702.5	0.4540408687	0.2766015112	
703.125	0.2849342082	-0.0841234008	
703.75	0.3134186332	0.05503929809	
704.375	0.2357537372	-0.3123549257	
705.0	0.04954242601	-0.1618551675	
705.625	0.2625048235	0.1590670742	
706.25	0.2322374194	0.05173019843	
706.875	0.1569888245	0.2629613952	
707.5	0.248049062	0.254908095	
708.125	0.458436258	0.009831350844	
708.75	0.2047998838	-0.4361753988	
709.375	-0.1594526543	-0.2581466828	
710.0	-0.3852170745	0.3018583869	
710.625	0.07518510631	0.02442898402	
711.25	0.0161673511	0.271979227	
711.875	0.2655012698	-0.1056383136	
712.5	0.221101804	0.1096185615	
713.125	0.3137127322	-0.2237909138	
713.75	-0.009930102191	-0.2550617045	
714.375	0.09038756914	-0.1260836681	
715.0	-0.02703179564	-0.2444556611	
715.625	-0.06393267902	-0.0960796974	
716.25	0.2485526032	-0.1503140506	
716.875	0.306705517	-0.3161688191	
717.5	0.278152318	-0.06878922529	
718.125	0.5085538747	0.1137500608	
718.75	0.6886793937	-0.3169447428	
719.375	0.3096348548	-0.3242097589	
720.0	0.7271608953	-0.6857145251	
720.625	-0.05931689297	-1.550005106	
721.25	-0.08138063712	-0.5037291443	
721.875	0.09941402832	-1.116397886	
722.5	-0.9780520708	-0.5146152487	
723.125	-0.3771014169	-0.1578385041	
723.75	-0.5664051046	0.4668537893	
724.375	0.2702355324	0.3356708103	
725.0	-0.001396767908	0.2467375528	
725.625	0.2402705373	0.6034528352	
726.25	0.2762553046	0.3966927949	
726.875	-0.278449626	0.6554201606	
727.5	-0.09629021105	1.4810768	
728.125	0.681686326	1.475123444	
728.75	-0.5498504704	1.482065983	
729.375	-0.4778274957	4.001789159	
730.0	1.353162107	2.440925541	
730.625	-1.418320918	2.66430161	
731.25	-1.625756092	4.631508495	
731.875	-0.5410709388	2.23626324	
732.5	-3.18284389	0.19370155	
733.125	-3.035371199	0.9920500145	
733.75	0.2563987672	1.180113413	
734.375	0.2886424938	0.6092192669	
735.0	-0.2907341532	-1.047749648	
735.625	-0.107382673	0.1181908718	
736.25	-0.3824584032	0.6616566383	
736.875	0.7376534668	0.4068594177	
737.5	0.2932071859	0.02920171397	
738.125	1.732238489	-0.01656519992	
738.75	1.148825019	-2.112593005	
739.375	0.463582135	-0.9432522149	
740.0	3.815163718	0.4094262438	
740.625	4.173565477	-3.596439268	
741.25	-1.902118086	-1.047611481	
741.875	-5.768729084	0.5953579314	
742.5	-1.613548135	-0.3057820465	
743.125	1.037634671	-0.7190243519	
743.75	-0.123231648	-1.379735989	
744.375	-0.3206092731	0.2053471727	
745.0	-0.07598825217	0.06310279933	
745.625	0.1145226225	-0.1543829667	
746.25	0.07193863004	-0.04468043511	
746.875	-0.3203407528	0.02039498973	
747.5	0.0393906841	0.3229733596	
748.125	0.0662335061	0.3366271549	
748.75	0.2619597646	0.4888309044	
749.375	0.2288393621	0.3130384188	
750.0	-0.2836689828	0.09265446405	
