!Created with skrf (http://scikit-rf.org).
# GHz S RI R (50+0j) 
!freq	ReS11	ImS11	
500.0	-0.1256717893	-1.250069392	
500.625	2.351419225	-2.599081653	
501.25	-1.708994766	-1.928034389	
501.875	-1.566615827	0.08969192504	
502.5	0.08469909183	-0.4270242134	
503.125	-0.3385171897	0.216661795	
503.75	-0.049296714	0.01282016221	
504.375	0.1594671469	-0.04348427238	
505.0	-0.0479178994	0.04422455777	
505.625	0.1031524164	-0.3998279647	
506.25	-0.2661910957	0.3101169134	
506.875	-0.317674785	-0.8612353377	
507.5	-1.497329224	-1.447135842	
508.125	-0.04723777194	-0.2162372794	
508.75	2.77581483	-3.765979993	
509.375	-2.832683747	-3.145291469	
510.0	-0.5348205811	-0.9571965408	
510.625	-1.249753637	-0.5974017574	
511.25	0.1205174941	-0.1993735715	
511.875	-0.5332779902	-0.1891190956	
512.5	-0.1535605486	0.1739101424	
513.125	-0.1225457406	-0.156107731	
513.75	-0.03157011232	-0.2745943811	
514.375	-0.5968006398	-0.02784111504	
515.0	1.337657542	0.1043845673	
515.625	-2.345284832	-1.528154885	
516.25	1.36100672	-0.271043736	
516.875	-1.131116262	-2.795083833	
517.5	-0.7247560658	0.2534378449	
518.125	0.02772049933	-0.4322359559	
518.75	-0.6040082389	0.09834818809	
519.375	-0.204147086	-0.0210233551	
520.0	0.5299974531	0.2097637106	
520.625	0.3043071735	-0.293282061	
521.25	0.3317477616	-0.5981834256	
521.875	-0.5954853363	0.03739646044	
522.5	-0.02993305661	0.01698450739	
523.125	-0.1538212811	0.1696888265	
523.75	-0.1553164806	-0.2461382009	
524.375	-0.4231720321	0.4252585432	
525.0	-0.1358248647	0.0292675903	
525.625	0.09923446918	0.3258220035	
526.25	-0.1512190545	-0.2331227875	
526.875	-0.02030014541	0.3130240211	
527.5	-0.1192098714	0.1617507637	
528.125	-0.0367059714	1.142370918	
528.75	0.5283714258	0.4034857866	
529.375	0.0006795161715	0.3734489377	
530.0	0.2450510022	0.08334522522	
530.625	0.05952937523	1.399490637	
531.25	1.088845736	-0.3055822238	
531.875	0.641173404	-0.1397730748	
532.5	-0.5251201222	-0.4570018049	
533.125	0.4771888333	0.01233805642	
533.75	-0.2156180787	-0.6734860719	
534.375	0.2640221089	-0.6133466554	
535.0	-1.114194337	-0.1776418362	
535.625	-0.1244484173	0.2443664196	
536.25	-0.1056987413	0.242194103	
536.875	0.3524242992	-0.01941563102	
537.5	0.06598703258	-0.002481341266	
538.125	0.4340875514	-0.2675497833	
538.75	0.1136416645	-0.2201654537	
539.375	-0.02992762073	-0.516359142	
540.0	-0.6467673853	-0.2637978961	
540.625	-0.1610603924	-0.02078342775	
541.25	-0.2324212428	-0.05237366459	
541.875	-0.1746792983	-0.05390259098	
542.5	-0.05547583141	0.03071849174	
543.125	-0.1897533713	-0.2860098386	
543.75	-0.2281955619	0.2090821996	
544.375	-0.1740462999	-0.08809289648	
545.0	0.1190639851	0.2313641742	
545.625	-0.07301353098	0.08196292844	
546.25	0.5052492425	0.1498341816	
546.875	0.0007701737071	-0.1366104248	
547.5	0.3896165326	-0.1803144846	
548.125	-0.2521527347	-0.5475987531	
548.75	-0.23135917	-0.06517984057	
549.375	-0.1741914251	-0.3237896919	
550.0	-0.2638738759	0.1465023651	
550.625	-0.0577652242	-0.1230402881	
551.25	-0.2375100715	0.2170004993	
551.875	-0.09953989788	0.04320073517	
552.5	-0.1886902288	0.2599213755	
553.125	0.01817848105	0.1371974168	
553.75	0.08288748545	0.1213247552	
554.375	0.2527529673	-0.001719564158	
555.0	0.2100157641	-0.174055573	
555.625	0.2069200936	-0.2398459417	
556.25	0.1570077072	-0.3507755739	
556.875	-0.09706034501	-0.3783172704	
557.5	-0.2208738066	-0.2389551353	
558.125	-0.2805183605	-0.1058707196	
558.75	-0.2566430496	0.0185807543	
559.375	-0.2260186277	0.02581501409	
560.0	-0.2681336347	0.1790602251	
560.625	-0.05763337618	0.284620095	
561.25	-0.03267437063	0.164064406	
561.875	0.1355164261	0.1739370598	
562.5	-0.04595772295	0.03237329739	
563.125	0.2505581642	0.2527742484	
563.75	0.2072861712	-0.109757811	
564.375	0.376237202	-0.07892721269	
565.0	0.1491132564	-0.493557401	
565.625	-0.1211118904	-0.2189071738	
566.25	-0.1583024457	-0.324519727	
566.875	-0.4750651309	-0.1664900727	
567.5	-0.1899165868	-0.1246066126	
568.125	-0.3224615211	-0.567825766	
568.75	-0.6079784013	-0.003332065668	
569.375	-0.4159967248	0.01937954817	
570.0	-0.4829993403	0.6587272074	
570.625	0.1565879725	0.409571984	
571.25	-0.3052540318	0.0774841167	
571.875	0.494822729	0.2590314196	
572.5	-0.05959321701	0.08908839554	
573.125	0.5260641584	-0.371906421	
573.75	-0.1973662424	-0.3635771714	
574.375	0.2653224316	0.08594554964	
575.0	-0.06194771439	-0.4114666751	
575.625	0.1406635149	0.1416211895	
576.25	0.3268402756	-0.454805384	
576.875	-0.2925858591	-0.3350507696	
577.5	0.1253885257	-0.1165227767	
578.125	0.0142987836	-0.596893901	
578.75	-0.3923629593	-0.1807281994	
579.375	0.01301111298	-0.07872013332	
580.0	-0.2888071015	-0.24550056	
580.625	0.05817588302	0.08178724183	
581.25	-0.4945095041	0.05084959865	
581.875	0.2087619705	0.5332081778	
582.5	0.2022178093	-0.03524391448	
583.125	-0.2404314354	0.3829652188	
583.75	0.5686868336	-0.08632757698	
584.375	-0.3493105305	0.2705007925	
585.0	0.6122237406	0.09110433148	
585.625	-0.05506060697	-0.04396311906	
586.25	0.7129190104	0.009245992736	
586.875	-0.1686841093	-0.4237187984	
587.5	0.2118812868	-0.1368296854	
588.125	-0.02979867618	-0.6071643543	
588.75	-0.220424288	-0.3115439488	
589.375	0.3164652066	-0.05440034092	
590.0	-0.1292981524	-0.6165392825	
590.625	-0.4271445233	0.03656090525	
591.25	-0.2481388308	0.08220675021	
591.875	-0.2029577364	0.4059346607	
592.5	0.07708154288	-0.06980035823	
593.125	-0.06305129924	0.24646501	
593.75	0.1021307661	0.1253298778	
594.375	0.1433664562	0.411887878	
595.0	0.7375005884	0.4189206089	
595.625	0.2410649829	-0.2620394812	
596.25	0.2262431761	0.5061911975	
596.875	0.6900923723	-0.1318222342	
597.5	-0.002626977526	0.1347455707	
598.125	0.5907087521	0.5222511542	
598.75	0.2356756364	-0.07084905304	
599.375	0.5460978094	0.2613164244	
600.0	0.3759836719	-0.6233135756	
600.625	0.133050394	-0.232723503	
601.25	0.33791011	-0.3471581454	
601.875	-0.258269211	-0.4330911156	
602.5	-0.2364028256	-0.01203423983	
603.125	-0.1944001134	0.07010348055	
603.75	-0.3609465905	0.1218598732	
604.375	-0.141045191	0.3256201343	
605.0	-0.2217671103	-0.009251710683	
605.625	-0.1935221098	0.3347377765	
606.25	-0.09707376065	-0.04910898383	
606.875	-0.7369571464	0.2648449554	
607.5	0.02318493983	0.4136819588	
608.125	-0.427761238	0.3848363386	
608.75	0.8326139977	0.5213171104	
609.375	0.1034611496	0.02213071925	
610.0	0.6888716334	-0.2141149554	
610.625	-0.05394071446	-0.4761674854	
611.25	0.3865262336	-0.2391073859	
611.875	-0.4924696128	-0.2393093344	
612.5	-0.1398281051	-0.2050327362	
613.125	-0.6656075788	0.0800062302	
613.75	0.04704168846	0.2205930481	
614.375	-0.01974313781	0.4204664643	
615.0	0.2402284056	-0.1933858327	
615.625	-0.2491598809	0.4052042502	
616.25	0.1964883532	0.3130478919	
616.875	-0.4112728765	0.1991180614	
617.5	-0.1425855722	0.8375347681	
618.125	0.1788163365	0.2516392919	
618.75	-0.2257417532	0.5474630352	
619.375	0.4266232659	0.3240698703	
620.0	0.2834110658	0.2139530845	
620.625	0.2744537191	-0.4879044464	
621.25	-0.112156073	-0.3105756042	
621.875	-0.5151226978	-0.2773980983	
622.5	-0.3753537254	0.1584988435	
623.125	-0.2177873238	0.3955919209	
623.75	0.4061179411	-0.03110023049	
624.375	0.07239051972	0.1627586175	
625.0	-0.1258752834	-0.4508809991	
625.625	0.2389201126	0.09612152318	
626.25	-0.1756470887	-0.6173970168	
626.875	-0.2985274879	0.148083444	
627.5	-0.207052116	-0.4356035628	
628.125	-0.4665843771	-0.02377578937	
628.75	0.09762318197	-0.171098948	
629.375	-0.3675340731	-0.5826933716	
630.0	-0.3071338399	0.04933904623	
630.625	-0.527940489	-0.08977966506	
631.25	-0.4306800309	0.5607025192	
631.875	0.07277732727	0.5387695853	
632.5	0.315153457	0.3535763334	
633.125	0.3905970714	0.2589813335	
633.75	0.4917184229	-0.3308581775	
634.375	0.08752458881	-0.1445878081	
635.0	0.04899742686	-0.4945059516	
635.625	-0.3163502095	0.09139718114	
636.25	-0.4779855119	-0.05344284107	
636.875	-0.08654994117	0.5296662494	
637.5	0.08078545731	-0.07387520014	
638.125	-0.5902850344	0.3437025735	
638.75	0.3442040261	0.4457666945	
639.375	-0.3320123957	0.2619687447	
640.0	0.3393122483	0.9004103969	
640.625	0.6777686146	0.04307334845	
641.25	0.2821509176	0.1912111634	
641.875	0.5679418729	-0.8068181852	
642.5	-0.172203708	-0.1259770217	
643.125	-0.07936933615	-0.5953132908	
643.75	-0.6961388792	0.07016188442	
644.375	0.1009881677	-0.1373802168	
645.0	-0.6841386456	0.367894504	
645.625	0.3335092498	0.5959261015	
646.25	0.3041274496	-0.1370068008	
646.875	0.1549370374	0.4327067452	
647.5	0.161936104	-0.4812229001	
648.125	0.3268534797	0.580356415	
648.75	0.8402134744	-0.5672964154	
649.375	-0.03452729936	-0.2727781424	
650.0	1.117904245	-0.5442901405	
650.625	-0.09908436192	-1.307383787	
651.25	0.01678727134	0.1078340332	
651.875	1.259854875	-0.2411300373	
652.5	0.4609560327	-0.8528547497	
653.125	0.2553741134	0.2164324608	
653.75	0.7854965847	-0.8269414642	
654.375	-0.5706696171	-0.4412973815	
655.0	-0.1888931142	-0.4219156321	
655.625	-0.9001695414	0.683918458	
656.25	0.4980871569	0.1054433808	
656.875	-0.247342345	0.23492574	
657.5	0.4137278545	0.2896728695	
658.125	0.0779170124	0.0888960264	
658.75	0.7997690571	0.5877553397	
659.375	0.6868807201	-0.6909266558	
660.0	0.2801931028	-0.4344894935	
660.625	0.7136460134	-0.6433096523	
661.25	0.09253296589	-1.2334609	
661.875	0.1581102829	0.01464568857	
662.5	1.171375453	-0.454497496	
663.125	0.3101466569	-0.8931420331	
663.75	0.3010268672	-0.1092553877	
664.375	-0.08390840187	-1.294626232	
665.0	-0.521567751	0.03584680034	
665.625	-0.7924835928	-0.2276578707	
666.25	-0.1589664059	0.9924369625	
666.875	0.3081212989	0.07127184703	
667.5	0.2909875346	0.5429540047	
668.125	0.717285259	-0.2173437545	
668.75	0.1554830546	-0.3155336586	
669.375	0.430105792	-0.3345423049	
670.0	-0.142268449	-0.7645171797	
670.625	0.06798079474	-0.168660702	
671.25	0.2373287537	-0.5387996438	
671.875	0.06539319616	-0.4894654804	
672.5	0.461765118	-0.03895766021	
673.125	0.7234881066	-0.6178042714	
673.75	-0.04475560107	-0.6970853191	
674.375	0.2227482457	-0.1337329818	
675.0	-0.04075109972	-0.9711075331	
675.625	-0.8501165286	0.1596795251	
676.25	-0.002956877173	-0.5995521535	
676.875	-0.734550534	0.4095457733	
677.5	0.1660988909	-0.1163431999	
678.125	-0.8867125555	0.618018108	
678.75	0.623720902	0.1532988318	
679.375	0.1149313454	0.359115027	
680.0	0.6438567917	-0.09082412959	
680.625	0.02374000869	-0.5942511065	
681.25	-0.1021429359	0.3153603777	
681.875	0.6464971019	0.1310490285	
682.5	0.4597174249	-0.0003665546155	
683.125	0.293358276	0.1424435668	
683.75	0.9011306276	0.323285701	
684.375	0.400785997	-0.1706945935	
685.0	0.5617221963	0.3200886291	
685.625	1.030494328	-0.1615016381	
686.25	-0.02381587551	-0.3557605172	
686.875	1.448102343	0.2852053572	
687.5	0.06856015342	-1.616221129	
688.125	0.279554588	-0.148675639	
688.75	-1.355201315	-1.046503761	
689.375	-0.1608535544	1.206966121	
690.0	-0.5279503844	0.6436614834	
690.625	1.226772081	0.5017211171	
691.25	0.2454055709	0.4050879311	
691.875	1.231952549	1.156938599	
692.5	1.358529442	-0.05973851845	
693.125	1.300619931	0.09045685121	
693.75	1.372201647	-0.5918780612	
694.375	0.8921762387	-0.8272538389	
695.0	1.063473799	-0.9312669063	
695.625	0.7005494428	-0.3083555596	
696.25	1.51454421	0.8127320909	
696.875	1.207960758	0.2647744855	
697.5	0.3331049157	1.276836774	
698.125	2.262388102	0.2422267985	
698.75	0.2322940388	-0.5874235903	
699.375	-0.8023070851	-1.723193812	
700.0	-0.2920861763	1.383748061	
700.625	-0.2802775601	0.2542468806	
701.25	1.172046158	0.55558635	
701.875	0.2090971508	0.2449453614	
702.5	0.8666427872	0.936174179	
703.125	0.8509767587	-0.3622251747	
703.75	0.8868355651	0.1783461674	
704.375	0.6841172144	-0.7850896058	
705.0	0.1109190032	0.01154496525	
705.625	1.206439712	0.01057015995	
706.25	0.3081046575	-0.09644034781	
706.875	0.282471686	1.117013294	
707.5	1.351473001	0.6362847871	
708.125	0.5031679652	0.2871797383	
708.75	1.049868289	-1.24096751	
709.375	-0.9365095348	-0.2497802383	
710.0	-0.5296532717	0.1682787141	
710.625	0.4071774054	0.6217149032	
711.25	0.04337556668	0.1348469666	
711.875	0.6120879396	0.3630392011	
712.5	0.5837948001	-0.01614791158	
713.125	0.7378502286	-0.5636440449	
713.75	0.02545176783	-0.3844141146	
714.375	0.315313125	-0.6970087013	
715.0	-0.366720278	-0.4461184314	
715.625	0.4417313061	-0.1900441388	
716.25	0.357780515	-1.321073245	
716.875	0.02955374902	-0.07037602425	
717.5	2.055658518	0.5570451859	
718.125	2.285146084	-1.365317796	
718.75	0.1150475636	0.6209552396	
719.375	3.897128768	-1.94197292	
720.0	-0.4694157039	-2.027980452	
720.625	1.342172243	-1.685549742	
721.25	-1.203028174	-3.82582116	
721.875	-0.4763009776	-0.9481353652	
722.5	-1.580019623	-2.725903332	
723.125	-2.35101202	0.1440208377	
723.75	-0.3767941923	0.9754089651	
724.375	-0.2774709113	0.9165917057	
725.0	0.6335331997	1.240533999	
725.625	0.7392731641	0.5887972285	
726.25	-0.4714238768	1.322739732	
726.875	-0.2734027718	3.356480663	
727.5	1.491871329	1.953206269	
728.125	-2.843562589	5.868099391	
728.75	5.833013587	8.93823269	
729.375	0.5103789249	2.094994847	
730.0	-10.81305685	23.02641855	
730.625	9.354454487	10.33746371	
731.25	-5.702137806	3.609339567	
731.875	-10.82035308	9.776282304	
732.5	-7.252975941	8.142577653	
733.125	-2.51790648	-0.7396835144	
733.75	-2.97427263	5.500563614	
734.375	1.820921968	0.134209033	
735.0	0.7627479995	-0.8753358309	
735.625	-2.056580407	1.170109452	
736.25	0.09199629207	0.08045659521	
736.875	0.6163959088	2.149095009	
737.5	3.409142639	0.4569012595	
738.125	3.561202544	-3.465389037	
738.75	0.4302123567	0.4731215114	
739.375	14.56934156	-6.83777533	
740.0	-2.551685289	-13.33370977	
740.625	-1.942582477	12.16712552	
741.25	29.63862744	7.955432196	
741.875	-1.408532434	-13.41223178	
742.5	-13.27300298	-17.29408475	
743.125	-6.005917957	-0.9336284013	
743.75	2.458080996	0.04583370063	
744.375	-2.051462448	-1.548092246	
745.0	0.6724813132	-0.004511338099	
745.625	0.1905131477	0.2240591188	
746.25	-0.3072572283	-0.4120318704	
746.875	4.317894258e-05	0.1255682767	
747.5	-0.1856768664	1.087525235	
748.125	0.5967118539	1.28545642	
748.75	0.4941656207	0.8945868887	
749.375	0.5190551584	1.544986754	
750.0	-0.3436807157	0.871068625	
