!Created with skrf (http://scikit-rf.org).
# GHz S RI R (50+0j) 
!freq	ReS11	ImS11	
500.0	0.1525419159	-0.3893127314	
500.625	0.7297446202	-1.2985048	
501.25	-0.6425674216	-0.4122873603	
501.875	0.004721848016	-0.4682128062	
502.5	-0.1363832387	-0.2106674454	
503.125	-0.03427932035	0.0225287613	
503.75	-0.0495549666	0.1257157152	
504.375	0.03173524296	-0.03530832134	
505.0	0.05626507874	0.01834739815	
505.625	-0.01742259324	-0.1036079563	
506.25	-0.03542467925	0.03550236371	
506.875	-0.3034623951	-0.1513745451	
507.5	-0.2338641457	0.01029234902	
508.125	0.5332499017	-0.5172101577	
508.75	0.4322692531	-1.396392134	
509.375	-0.4077494171	-0.780706074	
510.0	-0.2695687903	-0.5890022283	
510.625	-0.2592164718	-0.2162043967	
511.25	-0.04189970513	-0.01223576411	
511.875	-0.1939326294	-0.08212911864	
512.5	-0.002524088033	0.04994794142	
513.125	0.05198477338	-0.03155314106	
513.75	-0.1080387129	-0.109722013	
514.375	0.03499630393	0.09713245967	
515.0	0.09522825655	-0.3184623859	
515.625	-0.2214252327	-0.04092955054	
516.25	0.2108465528	-0.9906177044	
516.875	-0.5741871815	-0.343517111	
517.5	-0.06748870737	-0.01298058594	
518.125	-0.007456035338	-0.1194386726	
518.75	-0.1405671021	-0.002865651381	
519.375	-0.07613505634	0.05156725739	
520.0	0.1497608291	0.0795911898	
520.625	0.1214826357	-0.1140432743	
521.25	0.05399734125	-0.1358532363	
521.875	-0.168228772	-0.07232828628	
522.5	0.01206086179	0.08824364513	
523.125	-0.1537376102	-0.07273493474	
523.75	-0.173578322	0.08997053299	
524.375	-0.009745211085	-0.0324980219	
525.0	-0.1853869746	0.2135724702	
525.625	0.142610446	-0.01164274144	
526.25	-0.08926177289	0.03166755725	
526.875	0.001318156049	-0.001709421986	
527.5	-0.154999242	0.1270511919	
528.125	0.1364421658	0.3767213696	
528.75	0.1374832232	0.08377528052	
529.375	0.1214219009	0.03632952756	
530.0	0.1567135582	0.09041553612	
530.625	0.1366552871	0.2524658597	
531.25	0.4553259377	0.2101358774	
531.875	0.275191225	-0.362596041	
532.5	0.07486430399	-0.105318929	
533.125	-0.06653277542	-0.1518271411	
533.75	0.2268617236	-0.07070017608	
534.375	-0.08767472254	-0.4906246508	
535.0	-0.2043088247	-0.02131624174	
535.625	-0.1972945373	0.03660097011	
536.25	0.01172247784	0.1322947048	
536.875	0.05392070934	-0.01188973405	
537.5	0.1067814782	-0.02159051425	
538.125	0.09214997259	-0.1154821261	
538.75	0.1134244423	-0.04970032056	
539.375	-0.0727031618	-0.2030133811	
540.0	-0.2070326074	-0.07662354004	
540.625	-0.1345066558	-0.01748060714	
541.25	-0.1159295843	-0.02819743483	
541.875	-0.01916409958	0.03982626403	
542.5	-0.0421113924	-0.1215099434	
543.125	-0.1675058908	-0.03255603463	
543.75	-0.02264554927	-0.03975821373	
544.375	-0.1702373712	0.0688519674	
545.0	0.02719396251	0.01803546895	
545.625	0.03626670455	0.1259809992	
546.25	0.1445282668	-0.01505990315	
546.875	0.05149022904	0.0102147627	
547.5	0.1211264706	-0.1570669755	
548.125	-0.1206806663	-0.1480565605	
548.75	-0.06072273874	-0.114900059	
549.375	-0.1524145289	-0.1278671595	
550.0	-0.05294812398	0.05266823028	
550.625	-0.07820137039	-0.03465743123	
551.25	-0.06629658022	0.06893972141	
551.875	-0.05264962106	0.04221832453	
552.5	-0.05920999403	0.1025437572	
553.125	0.004023266792	0.05531090667	
553.75	0.04687627109	0.06241234166	
554.375	0.1105603519	-0.014016218	
555.0	0.09877371641	-0.06825231205	
555.625	0.096150053	-0.1153045861	
556.25	0.06379106837	-0.1513969948	
556.875	-0.03898653836	-0.1620695242	
557.5	-0.09980776679	-0.1134539604	
558.125	-0.1268942334	-0.04413915464	
558.75	-0.1120769721	0.002250590147	
559.375	-0.1118853537	0.01026278541	
560.0	-0.1127687965	0.08846813687	
560.625	-0.03840791967	0.1080179023	
561.25	-0.01823679442	0.100169718	
561.875	0.06761178097	0.0567602147	
562.5	-0.02333604586	0.04086542335	
563.125	0.1092422778	0.09587626858	
563.75	0.1084120858	-0.02253477116	
564.375	0.148383142	-0.04085429669	
565.0	0.0774112699	-0.2008721675	
565.625	-0.03357805558	-0.1113621847	
566.25	-0.1038050712	-0.1663706148	
566.875	-0.2273520658	-0.04038924858	
567.5	-0.07361348515	-0.1061031825	
568.125	-0.1817498551	-0.2230738536	
568.75	-0.2242469739	0.030698184	
569.375	-0.2294405793	0.008000860551	
570.0	-0.1609427444	0.3119990632	
570.625	0.01440556485	0.150143865	
571.25	-0.09301660674	0.1100219606	
571.875	0.1587252282	0.06817095033	
572.5	0.03896866873	0.04485115937	
573.125	0.182209224	-0.1523645035	
573.75	-0.07021904273	-0.1511277044	
574.375	0.08761505651	0.0208723535	
575.0	0.01007033389	-0.1431137011	
575.625	0.03813453448	0.0216252326	
576.25	0.1181313605	-0.1685792426	
576.875	-0.1149765839	-0.1665163366	
577.5	0.02568782116	-0.07544394291	
578.125	-0.0121277794	-0.2548303251	
578.75	-0.2076914121	-0.08192827277	
579.375	0.04655201426	-0.0009083267654	
580.0	-0.1309222242	-0.1288560544	
580.625	-0.006162350774	0.06598581137	
581.25	-0.2652262272	-0.02770982147	
581.875	0.08991347841	0.2426381631	
582.5	0.03233444107	-0.003393391208	
583.125	-0.01284960474	0.1685935756	
583.75	0.1529248743	-0.04016764404	
584.375	-0.07416223874	0.08944598496	
585.0	0.2437549676	0.03360841316	
585.625	0.0710312185	-0.06471947675	
586.25	0.2117206842	0.03364029052	
586.875	0.06408060966	-0.2465559167	
587.5	-0.00859380879	-0.0526026359	
588.125	0.06018687512	-0.1990516051	
588.75	-0.05150874612	-0.2008281442	
589.375	0.06548246641	-0.05160822021	
590.0	-0.03430352692	-0.3335619538	
590.625	-0.2006524591	0.06146939897	
591.25	-0.1108450675	0.01351293842	
591.875	-0.1103080092	0.2087223502	
592.5	0.1452866392	-0.07419400734	
593.125	-0.1259895587	0.1498668695	
593.75	0.1334400469	0.02760651251	
594.375	0.05690814483	0.120640962	
595.0	0.306702564	0.101068122	
595.625	0.1715490168	-0.04821416864	
596.25	0.09850906479	0.1231217814	
596.875	0.2521382743	0.005146784659	
597.5	0.08346350278	0.04244093313	
598.125	0.1206102721	0.2091413999	
598.75	0.2236099007	0.02164414677	
599.375	0.1309229062	-0.01758822916	
600.0	0.2078429264	-0.1408719893	
600.625	0.1130112856	-0.2694924939	
601.25	0.003304982452	-0.1154734511	
601.875	-0.02120253326	-0.2179777693	
602.5	-0.1929731831	0.09233437914	
603.125	-0.03356868287	-0.02087656356	
603.75	-0.2125682653	0.08256917363	
604.375	0.06120932765	0.09753086813	
605.0	-0.1480898059	-0.009657797271	
605.625	-0.004011279669	0.1848961058	
606.25	-0.01976727885	-0.01288108359	
606.875	-0.260693788	0.1490667798	
607.5	-0.09432900154	0.3067979092	
608.125	-0.0541694462	0.1858971787	
608.75	0.1733961003	0.2875214503	
609.375	0.2533256716	-0.07019019026	
610.0	0.1247091304	-0.07272368809	
610.625	0.1401702993	-0.1537234932	
611.25	-0.1012720261	-0.1443554024	
611.875	-0.01734993135	-0.09529728881	
612.5	-0.2943497652	-0.0834948185	
613.125	-0.09814411992	0.1584035633	
613.75	-0.1688534784	0.05730833077	
614.375	0.1120926645	0.2167658095	
615.0	-0.002019303054	-0.07961935879	
615.625	0.02950583986	0.235809211	
616.25	0.08968571147	0.1242483837	
616.875	-0.1341332037	0.08419350946	
617.5	-0.1396004365	0.3410680144	
618.125	-0.07451108142	0.1844343681	
618.75	-0.08693442425	0.1674011825	
619.375	0.1863935207	0.2555325609	
620.0	0.1334667298	-0.0367602086	
620.625	-0.003111238106	-0.06387848574	
621.25	-0.1458539352	-0.2472814401	
621.875	-0.1378902982	-0.001873004198	
622.5	-0.2583506469	-0.0299448069	
623.125	-0.07429934361	0.2947858399	
623.75	0.1035007396	-0.03442015813	
624.375	0.1204326879	0.01576105739	
625.0	-0.03340634049	-0.09671717563	
625.625	0.105478001	-0.02731764198	
626.25	-0.08478659678	-0.2116371237	
626.875	-0.1422086914	0.008391167402	
627.5	-0.1134657519	-0.1089160086	
628.125	-0.2080867329	-0.07074590451	
628.75	-0.0992652444	-0.1083030407	
629.375	-0.06526288552	-0.2218359703	
630.0	-0.2699883949	-0.05643436265	
630.625	-0.153124946	0.0333634446	
631.25	-0.2225673381	0.2034373635	
631.875	0.01246330049	0.2965206773	
632.5	0.1871771754	0.09571997191	
633.125	0.2421940739	0.1498387922	
633.75	0.2660453622	-0.218741808	
634.375	0.04011819791	-0.06401443764	
635.0	0.00708191488	-0.23476617	
635.625	-0.203419859	0.01157967936	
636.25	-0.1036563984	-0.02889031544	
636.875	-0.1495316462	0.2259287333	
637.5	0.0624491306	0.07140098306	
638.125	-0.1667764258	0.0545222576	
638.75	-0.01216319879	0.2637195594	
639.375	0.02474373373	0.133257407	
640.0	0.08130941016	0.3487540849	
640.625	0.349315339	0.114709331	
641.25	0.1750335576	-0.02639418642	
641.875	0.2520761171	-0.03389669034	
642.5	-0.110243338	-0.2806424717	
643.125	-0.06719354673	0.03301844972	
643.75	-0.2117559747	-0.1818469658	
644.375	-0.2129063325	0.2568744905	
645.0	-0.1303192573	-0.009259414395	
645.625	0.07334412988	0.3833931679	
646.25	0.1852638115	-0.04969028592	
646.875	-0.01998190619	0.1822317705	
647.5	0.2206883348	-0.05703081503	
648.125	0.01495697938	0.1363220637	
648.75	0.4713589087	-0.06926586797	
649.375	0.06052544118	-0.3577376769	
650.0	0.175901222	-0.1430069425	
650.625	0.3213833665	-0.3946699963	
651.25	-0.005655355698	-0.3554664195	
651.875	0.2360051526	0.02561214032	
652.5	0.4608105709	-0.1464744751	
653.125	0.167243487	-0.2178942862	
653.75	0.2495751777	-0.05132450679	
654.375	-0.04460718161	-0.5383115019	
655.0	-0.2852442888	0.04311779628	
655.625	-0.238631652	0.03746778954	
656.25	-0.009320118406	0.4364838057	
656.875	0.09573547875	-0.1660319448	
657.5	0.001819428897	0.3245873043	
658.125	0.2864199281	0.0665137213	
658.75	0.0955847225	0.1281149554	
659.375	0.5083075085	-0.0869288747	
660.0	0.009351101309	-0.4231104828	
660.625	0.1625983215	-0.1589686945	
661.25	0.2873526122	-0.3646773738	
661.875	0.112261032	-0.369312651	
662.5	0.2523472218	0.02718516951	
663.125	0.4078255599	-0.2720601743	
663.75	0.03017566769	-0.2936224248	
664.375	0.07691913425	-0.2846778744	
665.0	-0.3690140626	-0.3103331509	
665.625	-0.2386563513	0.1641321448	
666.25	-0.1899851549	0.1889187602	
666.875	0.1672477186	0.3675166389	
667.5	0.166179211	-0.0135118824	
668.125	0.246683573	0.1180004101	
668.75	0.2424687086	-0.2820525237	
669.375	0.01464884405	-0.1007520671	
670.0	0.1378173142	-0.2492669514	
670.625	-0.1053546478	-0.2869236749	
671.25	0.1404461873	0.0352797263	
671.875	0.2541768841	-0.2721298348	
672.5	0.08088159323	-0.1734759577	
673.125	0.1772589096	-0.0582871476	
673.75	0.3044453615	-0.287397047	
674.375	-0.09736925733	-0.2236844773	
675.0	0.04688071943	-0.1979888413	
675.625	-0.2544697595	-0.2449983481	
676.25	-0.1953058257	0.09680172072	
676.875	-0.09754610492	-0.1429293	
677.5	-0.2792144496	0.1155960745	
678.125	-0.02181479297	0.08931378271	
678.75	-0.1526299812	0.2360436794	
679.375	0.3946933156	0.093600954	
680.0	-0.08839266039	-0.09327829441	
680.625	0.2328171925	0.04613954479	
681.25	0.1138371716	-0.1700261695	
681.875	-0.04022502675	0.1064448325	
682.5	0.548383195	0.1845759517	
683.125	0.1699783294	-0.1447844263	
683.75	0.1260618527	0.2036773494	
684.375	0.4739602046	0.03379196069	
685.0	0.2516508024	-0.1932956724	
685.625	0.3163284586	0.2240518605	
686.25	0.467303369	-0.1883134911	
686.875	0.180186196	-0.1251749844	
687.5	0.4128545496	-0.1406281517	
688.125	-0.1101993139	-0.55449114	
688.75	-0.2651764719	-0.05002756423	
689.375	-0.4573994681	0.188692026	
690.0	0.2127647329	0.4936220408	
690.625	0.1387116853	0.02767738031	
691.25	0.3157266115	0.5548147332	
691.875	0.6010577456	0.1513688691	
692.5	0.3845965667	0.2742896711	
693.125	0.9141178144	0.1286069501	
693.75	0.3660526893	-0.4630111499	
694.375	0.3688787201	-0.1073009935	
695.0	0.6607561686	-0.397422512	
695.625	0.4908861617	-0.2735901794	
696.25	0.5657598512	0.3397965003	
696.875	0.5484863419	0.6484505466	
697.5	0.4591750174	0.2275527	
698.125	0.577458368	0.2724968364	
698.75	0.5749599004	-0.3135465497	
699.375	-0.5127902377	-0.3115187142	
700.0	-0.2607101601	0.1632368829	
700.625	0.2017464165	0.5217000115	
701.25	0.2990631299	0.004975915073	
701.875	0.1386655451	0.3437593862	
702.5	0.5308379862	0.3108384672	
703.125	0.3054589991	-0.02907835692	
703.75	0.4484533051	0.07674254648	
704.375	0.380342106	-0.3133760818	
705.0	0.07142128716	-0.1421840948	
705.625	0.3678969588	0.1113079219	
706.25	0.4196218162	0.07705933139	
706.875	0.2665735568	0.416432371	
707.5	0.2832298854	0.5029693378	
708.125	0.5684577054	0.02950975996	
708.75	0.2138442475	-0.1430415426	
709.375	0.04045757854	-0.1852655078	
710.0	-0.1924519092	0.2842461017	
710.625	-0.009359387325	0.03791906753	
711.25	0.1760573216	0.2804790701	
711.875	0.1816165173	-0.15736935	
712.5	0.2885925926	0.1216607732	
713.125	0.3876521336	-0.2393136892	
713.75	0.03246990943	-0.2515810041	
714.375	0.1366186718	-0.1798819008	
715.0	-0.08395557489	-0.3305283062	
715.625	-0.03471596894	-0.09852447954	
716.25	0.2903276899	-0.1915860025	
716.875	0.3617247069	-0.3717933455	
717.5	0.4480360035	-0.0885841567	
718.125	0.8374018917	0.2692031491	
718.75	0.9094208892	-0.4205326616	
719.375	0.5076030529	-0.3041969566	
720.0	0.9852284214	-0.6304529605	
720.625	-0.1805306539	-1.071504152	
721.25	0.356398943	-0.7749978484	
721.875	-0.1656600756	-1.341817917	
722.5	-1.293728194	-0.6747754881	
723.125	-0.4639240929	-0.2548029675	
723.75	-0.6315750194	0.5490540638	
724.375	0.2112362549	0.3925998603	
725.0	-0.09887042847	0.3136488193	
725.625	0.2826100571	0.6864563822	
726.25	0.2482314448	0.4461199799	
726.875	-0.4399894813	0.7829013735	
727.5	-0.1662406257	1.833874633	
728.125	0.664344577	1.735169158	
728.75	-1.153089558	1.946282392	
729.375	-0.6198395373	4.720648846	
730.0	1.185330185	3.092894346	
730.625	-2.159000407	3.276391666	
731.25	0.1797164638	5.808889999	
731.875	-1.112626528	1.496835795	
732.5	-3.498745616	-1.304488879	
733.125	-2.932419891	0.9978569679	
733.75	-0.2244139491	1.014391546	
734.375	0.6413553576	0.9699136201	
735.0	-0.2302009877	-0.8841325252	
735.625	0.04368431006	-0.02799942625	
736.25	-0.3924029139	0.6293540865	
736.875	0.7612943287	0.5297530199	
737.5	0.3146985944	0.2418820896	
738.125	2.33372536	0.2211902724	
738.75	1.533511829	-2.099081135	
739.375	0.7120097647	-0.5859857459	
740.0	5.100873196	1.068860363	
740.625	4.058013404	-3.746086584	
741.25	-3.448596061	-0.867063513	
741.875	-4.769632529	1.023685624	
742.5	-1.212213034	0.1171688966	
743.125	1.450659372	-2.061086978	
743.75	-0.1836811645	-2.08853005	
744.375	-0.4295707599	0.1515313344	
745.0	-0.1878839653	0.05083492399	
745.625	0.06408331192	-0.1002959536	
746.25	0.1727955273	-0.07016074523	
746.875	-0.340392455	-0.02533836232	
747.5	-0.0447141827	0.3599341673	
748.125	-0.06162523735	0.3911464268	
748.75	0.268753737	0.6452444676	
749.375	0.2379924492	0.3365029868	
750.0	-0.4323365339	0.04399278572	
