!Created with skrf (http://scikit-rf.org).
# GHz S RI R (50+0j) 
!freq	ReS11	ImS11	
500.0	-1.907457306	-1.550436249	
500.625	1.651447331	-1.638369845	
501.25	-2.370107628	-2.587839952	
501.875	-0.7530534143	-0.0958931279	
502.5	-0.2083048425	-0.7584163353	
503.125	-0.1068829025	0.123568689	
503.75	-0.0647767018	0.3041073468	
504.375	0.1008042607	-0.1130386199	
505.0	0.06749935237	0.1214779066	
505.625	-0.04525810489	-0.4293644351	
506.25	-0.1682623146	0.2231944474	
506.875	-0.5113427968	-0.8631648689	
507.5	-1.801342922	-0.3430528953	
508.125	1.570277647	-1.165155611	
508.75	0.993046874	-4.859592129	
509.375	-1.699439464	-1.169976844	
510.0	-1.596935356	-2.131015251	
510.625	-0.8255998674	0.1989435538	
511.25	-0.4974642474	-0.4078198431	
511.875	-0.6061919028	-0.1184188735	
512.5	-0.0001945379301	0.2081761333	
513.125	-0.04030819951	-0.2182773792	
513.75	-0.1402775475	-0.3849855215	
514.375	-0.4150608988	0.2880226932	
515.0	0.8042776198	-1.111004411	
515.625	-1.496070719	0.3725915005	
516.25	1.731780049	-2.635434082	
516.875	-2.485617545	-1.698052248	
517.5	0.09421729586	0.3849049217	
518.125	-0.3970038107	-0.4191198494	
518.75	0.03749766139	0.195858754	
519.375	-0.3350163422	0.08778913999	
520.0	0.5238397083	0.0506146806	
520.625	0.2499855087	-0.1149856151	
521.25	0.2372903975	-1.000981288	
521.875	-0.4537532545	0.1633434741	
522.5	-0.1439530143	-0.06224254013	
523.125	0.06935097924	0.1695583212	
523.75	-0.3999571052	-0.202351877	
524.375	-0.1562149292	0.3868313566	
525.0	-0.2736152361	0.1411026068	
525.625	0.2282410922	0.2882262934	
526.25	-0.3023993187	-0.04784655023	
526.875	0.07531104	0.1663241646	
527.5	-0.433942276	0.2744297306	
528.125	0.487199523	1.168886768	
528.75	0.06314066427	0.1552254032	
529.375	0.2390831641	0.4340222352	
530.0	-0.06307411469	0.01988836511	
530.625	0.3308215594	1.46903728	
531.25	0.7731406851	-0.06126274835	
531.875	0.8292411259	-0.2400861221	
532.5	-0.5141114455	-0.2445695364	
533.125	0.623645142	-0.3666967589	
533.75	-0.3437255835	-0.1502092782	
534.375	0.2887989589	-1.214208474	
535.0	-0.9907858302	0.0825302706	
535.625	-0.2623942309	0.08559464187	
536.25	-0.06534972141	0.3530286467	
536.875	0.1858369147	-0.1275620619	
537.5	0.3065134595	0.01268040573	
538.125	0.2046145542	-0.3590227927	
538.75	0.2756348249	-0.06868124582	
539.375	-0.1797280825	-0.6241248058	
540.0	-0.5180492954	-0.1463006854	
540.625	-0.3095369019	-0.09307535009	
541.25	-0.1734160855	-0.04984174488	
541.875	-0.2104073789	-0.01527476327	
542.5	0.01601946712	-0.1191351255	
543.125	-0.3135012132	-0.1293504459	
543.75	-0.05809535487	0.03669696401	
544.375	-0.2472708254	0.110982531	
545.0	0.1441642914	0.08293453534	
545.625	-0.1018853941	0.3148603446	
546.25	0.494358915	-0.07613341878	
546.875	0.02292317466	0.04880149313	
547.5	0.4313221071	-0.3494241663	
548.125	-0.343168668	-0.3342675382	
548.75	-0.07444861621	-0.3015818057	
549.375	-0.4064633351	-0.2868255789	
550.0	-0.06336992655	0.1378657092	
550.625	-0.2477838074	-0.1158432372	
551.25	-0.0856347621	0.1896101616	
551.875	-0.2124861518	0.03915620494	
552.5	-0.1465839539	0.271920453	
553.125	-0.005813645515	0.1258515558	
553.75	0.1000357504	0.1551315351	
554.375	0.2424375149	-0.01653249851	
555.0	0.237731919	-0.1476957268	
555.625	0.2295241717	-0.2635424007	
556.25	0.1566145841	-0.3469633012	
556.875	-0.07626425967	-0.3866135819	
557.5	-0.2225239474	-0.2634726345	
558.125	-0.2957941087	-0.1044367167	
558.75	-0.2489389308	0.007535004238	
559.375	-0.2621208544	0.007682564777	
560.0	-0.2584935668	0.2209935912	
560.625	-0.07256890522	0.2154236411	
561.25	-0.06193252211	0.2843802933	
561.875	0.1623168482	0.05032944019	
562.5	-0.09820344216	0.1696175715	
563.125	0.2971007084	0.1425542881	
563.75	0.1604480101	0.01860847334	
564.375	0.4537736111	-0.1740751573	
565.0	0.09085063582	-0.4511296975	
565.625	-0.01965054741	-0.2452263571	
566.25	-0.273664501	-0.4012126685	
566.875	-0.3561789738	-0.03310226112	
567.5	-0.1922901949	-0.355345761	
568.125	-0.5098826145	-0.4542144601	
568.75	-0.3983829338	-0.06023369185	
569.375	-0.6989761571	-0.03685086275	
570.0	-0.2898285974	0.772183418	
570.625	0.09128286575	0.1685387426	
571.25	-0.3981905572	0.4174621563	
571.875	0.3749727703	-0.1137469385	
572.5	0.2298445826	0.3915656841	
573.125	0.2662771585	-0.610501647	
573.75	-0.1612925796	0.007045016703	
574.375	0.4032544847	-0.2609260167	
575.0	-0.2779070003	-0.167991137	
575.625	0.3593377904	0.008617248316	
576.25	0.1264408582	-0.561795723	
576.875	-0.1708616089	-0.06884889674	
577.5	0.3005158996	-0.4010959384	
578.125	-0.3286365585	-0.5184371574	
578.75	-0.1560191114	-0.06643684892	
579.375	-0.06183006198	-0.3562819232	
580.0	-0.3657186758	-0.006551539473	
580.625	0.1287698498	-0.1337301545	
581.25	-0.5517436948	0.2050345778	
581.875	0.3446730148	0.4257241193	
582.5	-0.09624702902	-0.03243114875	
583.125	0.1396195642	0.6871869831	
583.75	0.09998443221	-0.4689971912	
584.375	0.1011760518	0.5913686321	
585.0	0.3306046821	-0.317608425	
585.625	0.1704685782	0.4438696527	
586.25	0.6887798953	-0.3910269595	
586.875	-0.1101838436	-0.2141744821	
587.5	0.2528360597	-0.2263288492	
588.125	-0.1137473572	-0.6182412967	
588.75	-0.1444034169	-0.1149690028	
589.375	0.4807689707	-0.3508382085	
590.0	-0.319714844	-0.4396366834	
590.625	-0.2045275069	-0.2089853683	
591.25	-0.5263933268	0.3242057841	
591.875	0.1257687162	0.2233099838	
592.5	-0.157331356	0.08267830802	
593.125	0.01637068496	0.2394633703	
593.75	0.04966608943	0.01889120108	
594.375	0.1849935611	0.6395812017	
595.0	0.8861111989	0.1076308641	
595.625	-0.07008571092	0.07778739737	
596.25	0.704587223	0.4613453833	
596.875	0.1677677172	-0.3469143071	
597.5	0.2126689435	0.6624250026	
598.125	0.6889953956	0.06356705692	
598.75	0.04627876293	0.1777112706	
599.375	0.8213503292	0.07061699245	
600.0	0.3083387611	-0.518502988	
600.625	0.2254766456	-0.2303241511	
601.25	0.3456032163	-0.4555038422	
601.875	-0.2591291291	-0.3124055062	
602.5	-0.2237025756	-0.1033817716	
603.125	-0.3050745501	0.1300366809	
603.75	-0.264478684	0.1262980904	
604.375	-0.2235417557	0.1537562824	
605.0	-0.2467919203	0.1254835533	
605.625	-0.05282059781	0.2422116205	
606.25	-0.3640448111	-0.1396093111	
606.875	-0.5304656697	0.5750260668	
607.5	-0.1248327649	0.0470687305	
608.125	-0.5539360825	0.8466803615	
608.75	0.6435260647	-0.005701821592	
609.375	0.3413142805	0.3391648737	
610.0	0.6292709195	-0.5513335897	
610.625	-0.1101824583	-0.08450308912	
611.25	0.3418980589	-0.6612532611	
611.875	-0.3158437044	-0.03526693059	
612.5	-0.2779354226	-0.4272118824	
613.125	-0.571582353	0.3076619356	
613.75	-0.2390821589	0.02988570552	
614.375	0.2322685905	0.5306639695	
615.0	-0.07876615084	-0.177023567	
615.625	0.06985858707	0.559365179	
616.25	0.05529284196	0.005502917681	
616.875	-0.5362915881	0.5178953453	
617.5	0.1066043147	0.7361540961	
618.125	-0.1487672478	0.1079187174	
618.75	0.054508487	0.7428446872	
619.375	0.2081560574	0.1717428076	
620.0	0.4537453968	0.3427072919	
620.625	0.1515345928	-0.4680496332	
621.25	-0.009271697035	-0.3911390043	
621.875	-0.5644280913	-0.1658324793	
622.5	-0.3834781403	0.01061086412	
623.125	-0.2267976321	0.6459794637	
623.75	0.2133278666	-0.2313569982	
624.375	0.5225332925	0.1615121783	
625.0	-0.3023541375	-0.1131707087	
625.625	0.5117947731	-0.1407162365	
626.25	-0.5139551075	-0.3798898063	
626.875	0.155207149	-0.2015973748	
627.5	-0.7036276525	-0.2533755295	
628.125	-0.1224489225	0.1550138561	
628.75	0.09774807857	-0.5511821138	
629.375	-0.5200639639	-0.3819761366	
630.0	-0.195663743	-0.1187720517	
630.625	-0.5877833065	-0.04503120539	
631.25	-0.3721128617	0.5349304133	
631.875	-0.02996643088	0.5365724644	
632.5	0.2097426248	0.5183675826	
633.125	0.5588167977	0.1105095825	
633.75	0.3350472057	-0.09316547248	
634.375	0.2416357813	-0.3321035286	
635.0	-0.1696315785	-0.3556269471	
635.625	-0.1166054592	-0.2336818036	
636.25	-0.6592887723	0.07409132185	
636.875	0.07476787683	0.5329431348	
637.5	-0.08074581949	-0.2635084684	
638.125	-0.3812705569	0.6479736341	
638.75	0.1376675697	0.05444148589	
639.375	-0.4349318949	0.67870872	
640.0	0.7113195577	0.5717143217	
640.625	0.1038008952	0.2182130173	
641.25	1.101972244	0.2205090756	
641.875	0.04291260914	-0.6268734887	
642.5	0.2305751498	-0.1665269052	
643.125	-0.2814766239	-0.7231857463	
643.75	-0.5019221793	0.2460510081	
644.375	-0.1646358549	-0.3344476809	
645.0	-0.5750530611	0.4647730264	
645.625	0.359839444	0.4683733395	
646.25	-0.02531033128	0.1732587078	
646.875	0.6842046049	-0.05629544085	
647.5	-0.2593879817	0.1113276343	
648.125	0.71672885	0.2895540145	
648.75	0.3546534406	-0.5849049471	
649.375	0.5375626496	0.2275731641	
650.0	0.9460874486	-1.357849365	
650.625	-0.4196965052	-0.7123955761	
651.25	0.7425156104	0.1807572455	
651.875	1.058215687	-0.9497655046	
652.5	-0.01195319017	-0.3602990832	
653.125	0.9972526354	0.2191137297	
653.75	0.3605417213	-1.010527984	
654.375	-0.06402476678	-0.1931266193	
655.0	-0.5972635527	-0.8673473496	
655.625	-0.356117386	0.929387545	
656.25	0.06123501786	-0.02251611264	
656.875	-0.03796578547	0.5581922227	
657.5	0.2832782072	-0.1041465036	
658.125	-0.0623705215	0.6609810026	
658.75	1.03344141	0.1339268504	
659.375	0.5200366697	-0.4346348577	
660.0	0.5277684593	-0.2732173263	
660.625	0.8107449976	-1.163569923	
661.25	-0.3193657391	-0.7430532463	
661.875	0.8183861488	-0.003092129401	
662.5	0.8962151203	-0.9190743856	
663.125	0.04437924897	-0.4095888929	
663.75	1.070060325	-0.5467091571	
664.375	-0.6503624392	-0.7672550883	
665.0	-0.08633388623	-0.4172892657	
665.625	-1.135692461	-0.01340655126	
666.25	-0.03462199379	0.8980417638	
666.875	0.06456687637	0.1406689974	
667.5	0.5052524432	0.5581248651	
668.125	0.5295074766	-0.3148286281	
668.75	0.3545793716	0.016397079	
669.375	0.3829369499	-0.8689737647	
670.0	-0.09170949042	-0.2133586338	
670.625	0.2563301332	-0.5133280202	
671.25	-0.02341191924	-0.6073932406	
671.875	0.09077794534	-0.1766216674	
672.5	0.756377069	-0.126917073	
673.125	0.6613262401	-0.8026603946	
673.75	-0.08528297123	-0.3927296421	
674.375	0.5800982485	-0.3889607533	
675.0	-0.6387497741	-1.006981589	
675.625	0.1693404419	0.09715128558	
676.25	-0.9300583967	-0.4122026045	
676.875	-0.1290216725	0.5349700197	
677.5	-0.404564724	-0.7002773807	
678.125	-0.3724719741	0.9798628536	
678.75	0.1142689646	0.03890620177	
679.375	0.2186397691	0.4448265426	
680.0	0.7651105781	-0.2434866424	
680.625	-0.2604666404	-0.3543862498	
681.25	0.5061365371	0.2855539436	
681.875	0.3816619782	-0.1330565439	
682.5	0.226048529	0.2245472245	
683.125	0.817981208	0.4122636671	
683.75	0.4812869465	-0.1339043557	
684.375	0.5479816161	0.2639126055	
685.0	0.8383396573	0.4114215366	
685.625	0.9694836389	-0.6141025754	
686.25	-0.1207495719	0.4544541786	
686.875	1.878399717	-0.6013214196	
687.5	-0.4558559314	-0.5638388257	
688.125	0.8711549971	-1.039536011	
688.75	-1.87578849	-0.5148711462	
689.375	-0.005386843924	-0.009754859392	
690.0	-0.06786654301	1.73276294	
690.625	0.774730812	-0.01260738103	
691.25	0.2065208093	0.9934912375	
691.875	1.547439066	0.7772610779	
692.5	1.146356299	0.2880100911	
693.125	1.613291222	0.1454333955	
693.75	1.385325258	-0.6059963513	
694.375	1.086757227	-0.8514370758	
695.0	1.000263315	-0.8119507875	
695.625	1.038705031	0.1103541273	
696.25	1.651563158	0.3757611836	
696.875	0.5703950248	0.509232764	
697.5	0.8387325128	1.981717666	
698.125	1.697156521	-0.2356770158	
698.75	1.141871693	0.08412194558	
699.375	-1.310323208	-1.651556092	
700.0	0.0949575867	0.824359348	
700.625	-0.2914132014	1.424478378	
701.25	0.9028797666	-0.05134196743	
701.875	0.04556406839	0.8227951275	
702.5	1.454903779	0.5770350344	
703.125	0.4109401056	0.2520220995	
703.75	1.389515102	-0.08929848907	
704.375	0.2699134204	-0.7584702296	
705.0	0.7843629187	0.2992370417	
705.625	0.8945493665	-0.6193740166	
706.25	0.02943865135	0.4572762545	
706.875	0.9509475538	1.319872449	
707.5	0.6699739803	0.03336066259	
708.125	1.104253847	1.083628415	
708.75	0.7064203022	-1.404100221	
709.375	-0.2365978492	-0.2860859995	
710.0	-0.9729037172	0.4207297052	
710.625	0.4472254101	0.2914340728	
711.25	0.08410721598	0.4093190778	
711.875	0.5258534764	0.1512133217	
712.5	0.860352764	0.1857974355	
713.125	0.5461030198	-0.5348942314	
713.75	0.4240754006	-0.3760875355	
714.375	0.01355002468	-0.8205460937	
715.0	-0.1690733124	-0.1072035225	
715.625	0.5112047769	-0.9169474264	
716.25	-0.355428971	-0.8031098978	
716.875	0.9057502141	0.5045099603	
717.5	2.502990253	-0.2346077116	
718.125	0.4174629961	-1.315811986	
718.75	2.709621026	1.811638355	
719.375	1.869637183	-2.750104538	
720.0	0.8482933398	-0.927644593	
720.625	2.156746348	-3.924671957	
721.25	-1.500439546	-1.615953548	
721.875	0.8162158842	-2.575405607	
722.5	-1.96161489	-2.539035778	
723.125	-2.125010117	0.1237230099	
723.75	-0.8023900037	0.6101195633	
724.375	-0.3100209018	1.436459131	
725.0	0.7462051175	0.7425592947	
725.625	0.1793612741	0.773819123	
726.25	-0.2745458602	2.147455022	
726.875	1.233239704	2.268676228	
727.5	-2.007327493	2.170517002	
728.125	-1.135884976	7.436916759	
728.75	1.885252112	7.832666458	
729.375	-10.53703035	1.663634532	
730.0	-1.979746137	21.12087179	
730.625	4.662003013	0.9575605934	
731.25	-12.43326492	9.701262695	
731.875	-7.688756708	13.68070943	
732.5	-1.674860053	-0.6971103638	
733.125	-10.30927049	-0.504901294	
733.75	-1.165770062	3.841149608	
734.375	0.9279927023	0.6184293346	
735.0	1.318480454	-2.246008495	
735.625	-1.096002115	1.347402316	
736.25	-0.7121416046	0.4290275556	
736.875	0.9971192646	2.003252034	
737.5	3.891421035	0.03980747341	
738.125	0.7013483287	-1.209260869	
738.75	8.356727669	-2.073636798	
739.375	3.264728416	-9.381489301	
740.0	-1.208464356	2.896185777	
740.625	18.94453211	8.492894844	
741.25	7.641044702	-18.0009974	
741.875	-20.0530094	-21.58323857	
742.5	-14.5690873	-4.848550542	
743.125	-1.223426977	1.791886229	
743.75	4.311142577	-3.465442846	
744.375	-2.41496096	0.6610171474	
745.0	-0.1448113142	-0.1788076801	
745.625	0.4005841213	-0.08580016923	
746.25	0.08391240015	-0.01460371226	
746.875	-0.801426333	-0.238216391	
747.5	-0.189922075	0.9191706384	
748.125	0.2142415887	0.9505439913	
748.75	0.5388791854	1.833445641	
749.375	0.9303928501	1.472712314	
750.0	-0.2741386517	0.788254803	
