!Created with skrf (http://scikit-rf.org).
# GHz S RI R (50+0j) 
!freq	ReS11	ImS11	
500.0	-0.0592177803	-1.253047769	
500.625	-0.1025313759	-0.3604716555	
501.25	-0.2237652743	-0.9815369635	
501.875	-0.3599820247	-0.2041548307	
502.5	0.02118276691	-0.08671991135	
503.125	-0.09446862792	0.01803906699	
503.75	0.03269439568	0.02493834302	
504.375	0.03108093036	0.01696867034	
505.0	-0.01242108402	-0.03991962281	
505.625	0.03154072368	-0.01030370472	
506.25	-0.1490236337	-0.0721520017	
506.875	0.1025652711	0.02478560337	
507.5	-0.1615887305	-0.5902938902	
508.125	-0.1269160891	-0.2151545241	
508.75	0.7147069869	-0.4597039761	
509.375	-0.02568728123	-1.289526091	
510.0	-0.3742823252	-0.01604532009	
510.625	-0.001361869719	-0.1526479062	
511.25	-0.1323572111	-0.04287826108	
511.875	-0.04702541707	0.01507730282	
512.5	-0.05119943162	0.04363444969	
513.125	-0.04227267717	-0.05227618775	
513.75	-0.003294538181	-0.02599135415	
514.375	-0.1131102707	-0.05452092113	
515.0	0.09095551783	0.1635064659	
515.625	-0.423394018	-0.7726312268	
516.25	-0.4709876337	-0.1660352453	
516.875	0.1123893151	-0.2262574063	
517.5	-0.06309439507	-0.2308934607	
518.125	0.03815421027	-0.01261412018	
518.75	-0.03393590615	-0.2005715744	
519.375	-0.02227871774	0.03051035126	
520.0	0.05344925118	0.06024572119	
520.625	0.1185022481	-0.08348016091	
521.25	-0.1181781954	-0.2215997957	
521.875	-0.0298372175	0.001360862637	
522.5	-0.1046634164	-0.01529367735	
523.125	-0.03085689671	0.1160748308	
523.75	-0.07851178326	-0.1247097407	
524.375	-0.2043371055	0.1504941367	
525.0	0.02548170351	0.01199100266	
525.625	-0.02404418423	0.1031843303	
526.25	0.03239442353	-0.07838225014	
526.875	-0.06982687561	0.1090529552	
527.5	0.07273391685	0.1381502622	
528.125	-0.03100706245	0.2109793969	
528.75	-0.0004286096612	0.2915148141	
529.375	0.009186148102	0.02631046839	
530.0	0.03676886556	0.1306052837	
530.625	0.2206350111	0.1665280046	
531.25	0.1511630251	0.1240601705	
531.875	0.1929852763	-0.08054338492	
532.5	-0.1227690472	-0.1126957073	
533.125	0.1514638005	0.09704220241	
533.75	-0.01165303739	-0.2081058266	
534.375	-0.04818416505	-0.1174597768	
535.0	-0.2581593196	-0.1490583635	
535.625	-0.1003647561	0.1657209653	
536.25	-0.02648018091	0.06892626462	
536.875	0.1164612686	0.01136117486	
537.5	0.01476123548	-0.04595957133	
538.125	0.1398384987	-0.01255312329	
538.75	0.08238889357	-0.17453567	
539.375	-0.06050941431	-0.1110603289	
540.0	-0.1136584041	-0.1760168199	
540.625	-0.194849848	0.01456338599	
541.25	-0.00779459789	0.004299752526	
541.875	-0.07698235476	-0.04082148114	
542.5	-0.05617575143	-0.001708413974	
543.125	-0.08851961449	-0.09375691478	
543.75	-0.07727646106	0.05610724476	
544.375	0.01991439838	-0.01401241497	
545.0	-0.0009095751898	0.09763909363	
545.625	0.09448422211	-0.01706381627	
546.25	0.04362738944	0.06887196085	
546.875	0.1445212767	-0.06392531044	
547.5	0.01859425257	-0.07227839574	
548.125	-0.01380615972	-0.1785088856	
548.75	-0.1464572753	-0.05765907307	
549.375	-0.03718156237	-0.04281164875	
550.0	-0.1079066207	0.006660027001	
550.625	-0.004971520035	0.02902595383	
551.25	-0.09121071702	0.000190052415	
551.875	-0.07125835745	0.08608027174	
552.5	-0.01630342689	0.05093747087	
553.125	-0.02735280574	0.06192605981	
553.75	0.04392038007	0.030133622	
554.375	0.07998033035	0.007956020193	
555.0	0.08505562652	-0.07276045352	
555.625	0.06776814832	-0.09584025845	
556.25	0.05672166417	-0.124943171	
556.875	-0.03626093431	-0.1434793034	
557.5	-0.09595138978	-0.08705526533	
558.125	-0.101814385	-0.03257429787	
558.75	-0.1006558077	-0.003339508422	
559.375	-0.102229926	0.03232075455	
560.0	-0.07766627448	0.06243055219	
560.625	-0.06286489306	0.1122722951	
561.25	0.0327137086	0.08539174586	
561.875	-0.002847925502	0.04571558247	
562.5	0.04200182956	0.04379081715	
563.125	0.02450696581	0.06253383018	
563.75	0.1596896346	0.01472075836	
564.375	0.0918895024	-0.1271255509	
565.0	0.06530021483	-0.08867674664	
565.625	-0.00924783625	-0.207924572	
566.25	-0.1171792749	-0.04765183497	
566.875	-0.1037387894	-0.1075806394	
567.5	-0.1872732304	-0.08879680317	
568.125	-0.06994411738	-0.04724591588	
568.75	-0.2343558594	-0.1176560194	
569.375	-0.1924575129	0.1593439026	
570.0	-0.0681431372	0.08789721985	
570.625	-0.1243439188	0.2091714397	
571.25	0.09582416444	0.09590453758	
571.875	-0.007188035524	0.09448251973	
572.5	0.1689259588	-0.06740827131	
573.125	-0.0007220739947	-0.02253070227	
573.75	0.1234365601	-0.1096273076	
574.375	-0.05948665397	-0.1092198447	
575.0	0.04699143383	0.0422121025	
575.625	0.03886746563	-0.1523469262	
576.25	-0.03337055822	-0.06035932221	
576.875	0.08535141494	-0.1176428383	
577.5	-0.06044203553	-0.1940504587	
578.125	-0.05706544711	-0.02845195443	
578.75	-0.01373472509	-0.1656811329	
579.375	-0.1664837807	-0.03811404977	
580.0	0.05770283461	0.02316719621	
580.625	-0.1878963145	-0.1003155108	
581.25	-0.01223758419	0.1428544241	
581.875	-0.03497258693	0.05039576079	
582.5	0.02789661971	0.2458209554	
583.125	0.1543116828	-0.001001057605	
583.75	-0.05256620141	0.08813062777	
584.375	0.117781787	-0.00669581067	
585.0	0.00857049696	0.1041069257	
585.625	0.2359275184	-0.03048296226	
586.25	0.06213162408	-0.1137593276	
586.875	0.08715008729	-0.0403249549	
587.5	-0.003391918772	-0.2023083612	
588.125	-0.1019689003	-0.09706603441	
588.75	0.08351097532	-0.05355678833	
589.375	0.06962456511	-0.2251948477	
590.0	-0.08584726802	-0.05382276953	
590.625	-0.1638916966	-0.1184327756	
591.25	-0.07213325118	0.2222115598	
591.875	-0.01725232682	0.01200727484	
592.5	-0.02554222271	0.1313471442	
593.125	0.02679696325	-0.02628491232	
593.75	0.02994427958	0.2194058316	
594.375	0.2438946916	0.06400119698	
595.0	0.05867164206	0.03751526565	
595.625	0.1227250474	0.1436013592	
596.25	0.152601538	-0.05229421244	
596.875	0.04949785743	0.0505782494	
597.5	0.2030978818	0.09975455031	
598.125	0.1115672111	0.01835277911	
598.75	0.1138053594	0.1238399842	
599.375	0.257093575	-0.06252068944	
600.0	0.08781250261	-0.1549363785	
600.625	0.114108408	-0.09075143076	
601.25	0.1016330271	-0.2279824257	
601.875	-0.1397931251	-0.07343265642	
602.5	-0.04407916363	-0.08863019583	
603.125	-0.1443938204	0.119531292	
603.75	0.007392073399	-0.01989350568	
604.375	-0.1717744134	0.03704310798	
605.0	-0.0154437816	0.1519317365	
605.625	-0.1338548912	-0.06005812599	
606.25	-0.1239492817	0.1493969973	
606.875	-0.05651751174	0.1256989416	
607.5	-0.1880896899	0.07963442157	
608.125	0.002390420799	0.284172123	
608.75	0.1263520099	0.1737852703	
609.375	0.2193180521	0.05153914145	
610.0	0.18153808	-0.2001582501	
610.625	0.0276431212	-0.130390481	
611.25	0.05968850628	-0.1315857321	
611.875	-0.1829915564	-0.09506199132	
612.5	-0.05314773525	-0.02789229621	
613.125	-0.2311141236	-0.04653702745	
613.75	-0.02586194374	0.2274154553	
614.375	-0.04920130348	-0.02033687731	
615.0	0.08394065578	0.1417482309	
615.625	0.01501217356	-0.03053661321	
616.25	-0.1342568179	0.1622549868	
616.875	0.0260165259	0.1802411084	
617.5	-0.02647782616	0.07451278734	
618.125	-0.03275101435	0.227522452	
618.75	0.1051842096	0.2294867404	
619.375	0.1849107396	0.1876737356	
620.0	0.2098267309	0.09942336463	
620.625	0.1303926646	-0.1777074338	
621.25	-0.03643899242	-0.1328404751	
621.875	-0.109093165	-0.1965478891	
622.5	-0.1737362443	0.1260768364	
623.125	-0.06337382969	0.08277865509	
623.75	0.1678629897	0.10422299	
624.375	-0.001893463445	-0.1400462905	
625.0	0.07315042601	0.04046014089	
625.625	0.01688062569	-0.1570807641	
626.25	-0.0338672448	-0.04451909704	
626.875	-0.1270048215	-0.1437125661	
627.5	-0.1693787822	0.03170073705	
628.125	-0.02356887399	-0.05951187729	
628.75	-0.1051800674	-0.1556051966	
629.375	-0.09821545205	-0.07529694009	
630.0	-0.1365975652	-0.05325931865	
630.625	-0.2526409532	0.07315404826	
631.25	-0.0836576734	0.2226412166	
631.875	0.01722208537	0.1353690787	
632.5	0.1646571354	0.2390954898	
633.125	0.1938000478	-0.01482649114	
633.75	0.09938150889	0.01645907829	
634.375	0.05306165313	-0.2035001575	
635.0	-0.09422377729	0.02622398404	
635.625	-0.1197226804	-0.1603246495	
636.25	-0.148430856	0.1425157249	
636.875	0.01492006472	0.06165487004	
637.5	-0.1220283276	0.06210053256	
638.125	0.02044577283	0.1634098681	
638.75	-0.08753769403	0.05667234384	
639.375	-0.03059591888	0.3150849092	
640.0	0.2029980355	0.1436255388	
640.625	0.1147681546	0.1452687266	
641.25	0.3468406458	-0.01710776448	
641.875	0.06917664997	-0.2193080553	
642.5	0.0379202644	-0.09007775617	
643.125	-0.1769058627	-0.1975553906	
643.75	-0.1162068266	0.05771344423	
644.375	-0.06853309559	-0.1933011814	
645.0	-0.1926156033	0.2809640101	
645.625	0.1295025547	-0.02067194392	
646.25	0.06594762492	0.1986407281	
646.875	0.1561604592	-0.17308614	
647.5	-0.02621759105	0.1266261166	
648.125	0.3277018963	-0.09260358206	
648.75	0.08537070107	-0.1174427663	
649.375	0.2866411221	-0.09992404759	
650.0	0.1698742479	-0.4259307975	
650.625	-0.066436427	-0.2160819319	
651.25	0.259989349	-0.0949586001	
651.875	0.2799349928	-0.2906420492	
652.5	0.06806020689	-0.08747672582	
653.125	0.358920546	-0.009044405592	
653.75	0.1051204061	-0.3302698004	
654.375	-0.04910063678	-0.1230709766	
655.0	-0.2698043709	-0.2221613905	
655.625	-0.2185833446	0.4211581896	
656.25	0.08434574266	0.03064594412	
656.875	-0.00941457189	0.1604122152	
657.5	0.1967408179	-0.04569663661	
658.125	-0.03014725766	0.223469585	
658.75	0.4507386545	-0.009594340872	
659.375	0.145578898	-0.1704646098	
660.0	0.3126123033	-0.1513592847	
660.625	0.1410474012	-0.436496335	
661.25	-0.04428588783	-0.1659018865	
661.875	0.2847354913	-0.1153461034	
662.5	0.2819077497	-0.3076997212	
663.125	0.09942291461	-0.1842564601	
663.75	0.2491554518	-0.1940052713	
664.375	-0.1405701609	-0.3710114081	
665.0	-0.1490311073	-0.1132344526	
665.625	-0.36325454	0.01577364126	
666.25	-0.04045004246	0.3376991392	
666.875	0.08736640271	0.06542121738	
667.5	0.17437947	0.1747778544	
668.125	0.2564443883	-0.1666487477	
668.75	0.07086700879	-0.05502082045	
669.375	0.1773542524	-0.2370981648	
670.0	-0.1414676433	-0.1859043718	
670.625	0.1577284158	-0.09051215933	
671.25	0.0616771703	-0.2553527175	
671.875	0.002175315896	-0.1374210739	
672.5	0.3216754098	-0.01568857163	
673.125	0.189665893	-0.3107804244	
673.75	0.02634815755	-0.1598804143	
674.375	0.1217306314	-0.188161469	
675.0	-0.126027932	-0.3087285787	
675.625	-0.09948840488	0.01850334252	
676.25	-0.1759090003	-0.1552612267	
676.875	-0.1875159383	0.1067086302	
677.5	-0.02976177744	-0.0189526241	
678.125	-0.249328093	0.1382640403	
678.75	0.1702281678	0.2098653281	
679.375	0.0578059624	0.02144267578	
680.0	0.2764024922	0.04371008993	
680.625	0.01322007515	-0.2472292999	
681.25	0.01146692788	0.3243806677	
681.875	0.3513620686	-0.01361439412	
682.5	0.0958190873	-0.04318143493	
683.125	0.1883459057	0.267675181	
683.75	0.4385697582	-0.1685645694	
684.375	0.02880405796	-0.01894351228	
685.0	0.3627610972	0.214232857	
685.625	0.2981617553	-0.1203932481	
686.25	0.1098319376	-0.06567011863	
686.875	0.4045910892	-0.03629412053	
687.5	0.1332143886	-0.4633583119	
688.125	0.05114418512	-0.290596787	
688.75	-0.4108092408	-0.2991079034	
689.375	-0.1921405072	0.3835746322	
690.0	-0.0465723351	0.1708516472	
690.625	0.3007354677	0.3683967188	
691.25	0.3171593578	0.06306805859	
691.875	0.1414021762	0.3923094947	
692.5	0.7423551855	0.3027669303	
693.125	0.5353114379	-0.2470273544	
693.75	0.5720015571	0.01478725956	
694.375	0.461147536	-0.538396091	
695.0	0.2015124847	-0.2104809977	
695.625	0.4426060876	0.1708481291	
696.25	0.5483367741	-0.02994257636	
696.875	0.255969006	0.165272406	
697.5	0.4146385703	0.4063660592	
698.125	0.6706076977	0.1635849691	
698.75	0.1986991903	-0.3778577777	
699.375	-0.1905981907	-0.3896479234	
700.0	-0.3756931444	0.3409852141	
700.625	0.1891068847	0.1446701749	
701.25	0.07625945273	0.243790248	
701.875	0.41311247	0.1240286966	
702.5	0.1317823398	0.0983372576	
703.125	0.4200562551	0.2072411623	
703.75	0.3825094199	-0.2330046084	
704.375	0.09545225711	-0.08873610463	
705.0	0.3535703968	-0.1472632668	
705.625	0.1972464559	-0.09274185967	
706.25	0.08888460122	0.1450925176	
706.875	0.2657377162	0.2021177773	
707.5	0.3666836791	0.14843012	
708.125	0.4422600507	-0.006982044897	
708.75	0.300752953	-0.3661023627	
709.375	-0.3206568263	-0.3251134659	
710.0	-0.144909484	0.01804476046	
710.625	-0.1004135818	0.2472547503	
711.25	0.07318312822	0.009340222349	
711.875	0.08357184554	0.2156056852	
712.5	0.3674105491	-0.08898398088	
713.125	0.06678399323	-0.1454117961	
713.75	0.2087758938	-0.168016048	
714.375	-0.06590400216	-0.287852997	
715.0	-0.02970843109	-0.07176209638	
715.625	0.09854746697	-0.2494390487	
716.25	0.0204662558	-0.2992569776	
716.875	0.1982585209	-0.02615332396	
717.5	0.5147847318	0.03355390905	
718.125	0.5891406125	-0.2541988772	
718.75	0.4595103828	-0.3040938927	
719.375	0.8512622286	-0.4495411623	
720.0	0.04547910536	-0.6964244101	
720.625	0.2449874858	-0.5043325389	
721.25	0.4950485995	-1.300951	
721.875	-0.4270023168	-0.6054594805	
722.5	0.03294452124	-0.5649234657	
723.125	-0.9203972955	-0.1407708692	
723.75	-0.05273877444	0.5159408387	
724.375	-0.1087957545	0.2474609438	
725.0	0.3127733826	0.4610142444	
725.625	0.157488292	0.1610786165	
726.25	-0.1477809526	0.6400407916	
726.875	0.1490121134	0.986007094	
727.5	0.09482894913	0.7367148145	
728.125	-0.6395279992	1.533969061	
728.75	0.6513604104	2.72184651	
729.375	0.633716982	2.026364472	
730.0	-1.235268597	3.056749726	
730.625	1.979601282	4.649710099	
731.25	0.2215681049	1.698061123	
731.875	-2.937384904	0.8818299033	
732.5	-2.998835654	2.072289858	
733.125	-1.061203402	0.4725369371	
733.75	-1.38868094	1.220433821	
734.375	1.246406996	-0.08809607294	
735.0	-0.07190602004	-0.2334932331	
735.625	-0.6310916582	-0.1316211913	
736.25	0.2650206012	0.518044603	
736.875	-0.1756669037	0.3082701136	
737.5	1.244625447	0.4479913874	
738.125	1.113333192	-0.9001729201	
738.75	0.6819180593	-0.3048077818	
739.375	3.797584593	-1.07605019	
740.0	0.9738063332	-3.12118005	
740.625	0.1380024803	1.897108814	
741.25	1.897561558	5.029506964	
741.875	1.116200764	0.8154577771	
742.5	0.2438085697	-3.866235617	
743.125	-0.3683212145	-2.296767897	
743.75	-0.5929548667	-0.4835982681	
744.375	-0.2079612593	-0.2871429626	
745.0	0.1958187526	0.2009357036	
745.625	-0.009161928169	0.07531291985	
746.25	-0.04895686449	-0.19684347	
746.875	-0.1273827727	0.07525305066	
747.5	-0.241049358	0.2153176506	
748.125	0.1814469687	0.5529472583	
748.75	0.2745355842	0.2471721734	
749.375	-0.01665745903	0.3827828985	
750.0	-0.2885260743	0.3046987575	
