!Created with skrf (http://scikit-rf.org).
# GHz S RI R (50+0j) 
!freq	ReS11	ImS11	
500.0	0.1061272527	-1.478428431	
500.625	-0.06664389684	-0.4940844862	
501.25	-0.2202106569	-1.089438503	
501.875	-0.5277496913	-0.348266484	
502.5	0.02544359205	-0.08768566129	
503.125	-0.1423669674	0.02151884997	
503.75	0.05405427272	0.03798113065	
504.375	0.0380865616	0.02385963935	
505.0	0.006806365957	-0.0515182996	
505.625	0.05593914569	-0.02415006661	
506.25	-0.1291854267	-0.137518587	
506.875	0.1039809658	0.06519406101	
507.5	-0.00981225547	-0.7066193226	
508.125	-0.2290902058	-0.434606901	
508.75	0.7070867854	-0.4439652332	
509.375	0.09010624488	-1.683270871	
510.0	-0.6251846519	0.007731153351	
510.625	-0.04294825331	-0.1713779333	
511.25	-0.1593712776	-0.05740274747	
511.875	-0.07155057249	0.02166860754	
512.5	-0.05750277854	0.04908844277	
513.125	-0.07406115246	-0.07768586711	
513.75	-0.002218318862	-0.02544957024	
514.375	-0.1226293654	-0.1163281843	
515.0	0.1789578856	0.3535914262	
515.625	0.06478540185	-0.9736776924	
516.25	-0.6762641396	-0.3487835873	
516.875	0.1209085596	-0.5274943875	
517.5	-0.04557283598	-0.3111428222	
518.125	-0.01101273621	0.05339237234	
518.75	-0.002399466211	-0.2743473895	
519.375	-0.04386883443	0.06980193771	
520.0	0.09952655293	0.07512600242	
520.625	0.2163444774	-0.003460728313	
521.25	-0.1140900585	-0.3443139947	
521.875	-0.1121757645	0.023940933	
522.5	-0.08961222005	-0.03338873012	
523.125	0.04558922901	0.1263597703	
523.75	-0.0757717479	-0.1575646975	
524.375	-0.2868367517	0.1621665029	
525.0	0.0440069415	0.006560709588	
525.625	-0.054391646	0.09187878027	
526.25	0.062421427	-0.07156965129	
526.875	-0.1330459691	0.08523811469	
527.5	0.02264941106	0.1217199831	
528.125	-0.04140753695	0.1584396197	
528.75	-0.06342451335	0.339794127	
529.375	0.1088949999	-0.01006769443	
530.0	0.04287963186	0.0583656986	
530.625	0.2532236218	0.3142007332	
531.25	0.3780908865	-0.01037337565	
531.875	0.400520833	-0.09992851956	
532.5	-0.1631447795	-0.3327923942	
533.125	0.1937754901	0.01701808396	
533.75	-0.01408633197	-0.2625925462	
534.375	0.02190565027	-0.1756889086	
535.0	-0.251754176	-0.2309352682	
535.625	-0.126106846	0.1682236872	
536.25	-0.02843455348	0.06388124441	
536.875	0.1337455203	0.03806514679	
537.5	0.03544054847	-0.05843327813	
538.125	0.1475367779	0.006469586964	
538.75	0.1310756734	-0.1910918187	
539.375	-0.05554305712	-0.09913668619	
540.0	-0.1303945261	-0.1604568248	
540.625	-0.2165028312	0.006713842502	
541.25	-0.06796914178	0.04155486935	
541.875	-0.08467222276	-0.0822298283	
542.5	-0.1073674263	0.02864488689	
543.125	-0.04102644441	-0.1000603496	
543.75	-0.1706853922	0.02651513266	
544.375	-0.009082711152	-0.01005821914	
545.0	-0.05740188072	0.1174519604	
545.625	0.07792557591	0.007469058601	
546.25	0.05687267055	0.09692213287	
546.875	0.1880285329	-0.06568167785	
547.5	0.01117793806	-0.08184915462	
548.125	0.01768627074	-0.1983491266	
548.75	-0.1916492791	-0.1237922532	
549.375	-0.06639423056	-0.03638460057	
550.0	-0.106722499	-0.03809205338	
550.625	-0.03019455431	0.04312856414	
551.25	-0.09433471928	-0.0139933093	
551.875	-0.08125095342	0.1064941965	
552.5	-0.007124034427	0.06833979477	
553.125	-0.03311782503	0.07540055091	
553.75	0.04959886494	0.03652031006	
554.375	0.09508788546	0.0148954673	
555.0	0.1137107783	-0.08190073406	
555.625	0.0881903164	-0.1077037359	
556.25	0.07725354817	-0.1435680655	
556.875	-0.03162517859	-0.17334999	
557.5	-0.1061068117	-0.1084160929	
558.125	-0.1178313973	-0.0419757662	
558.75	-0.1182092525	-0.01155858501	
559.375	-0.1198775675	0.02873682582	
560.0	-0.09161788617	0.06611861067	
560.625	-0.0752377426	0.1194519162	
561.25	0.02855251096	0.1099822646	
561.875	-0.003307717913	0.03888001215	
562.5	0.04389269192	0.07422222316	
563.125	0.03564735122	0.0598696872	
563.75	0.1829922776	0.03237329272	
564.375	0.1106476854	-0.1361239609	
565.0	0.0591639391	-0.08622620798	
565.625	-0.01736469555	-0.2221645968	
566.25	-0.1291527661	-0.06258915024	
566.875	-0.0635858736	-0.1289862419	
567.5	-0.208042055	-0.1360488642	
568.125	-0.09541295955	-0.05718469036	
568.75	-0.2320682295	-0.1821570711	
569.375	-0.2578411067	0.182532118	
570.0	-0.09174172749	0.1344128451	
570.625	-0.1515965807	0.2059805292	
571.25	0.09088644569	0.1353047153	
571.875	-0.04801505978	0.09800178115	
572.5	0.2182801591	-0.03023479278	
573.125	-0.01459545732	-0.06273971902	
573.75	0.144488043	-0.06681392074	
574.375	-0.04838068019	-0.1658970882	
575.0	0.03676994936	0.05965282518	
575.625	0.06454177388	-0.1647166797	
576.25	-0.03115020754	-0.0710409725	
576.875	0.1005710464	-0.1400314731	
577.5	-0.02647681725	-0.2859384394	
578.125	-0.09212657639	-0.07876681214	
578.75	0.02167925002	-0.1507545653	
579.375	-0.2319791312	-0.1769306709	
580.0	0.006330672205	0.0743254521	
580.625	-0.1975636351	-0.1498563127	
581.25	-0.0286298014	0.1687035993	
581.875	-0.06598868845	0.06408984318	
582.5	0.01700019093	0.2569908593	
583.125	0.1646215435	-0.04223638207	
583.75	-0.06897712707	0.06807514022	
584.375	0.1413018427	0.04551443429	
585.0	-0.002229779468	0.04805725093	
585.625	0.2847554573	0.05325802089	
586.25	0.1339918487	-0.1604422659	
586.875	0.07359549955	-0.04434684776	
587.5	0.03724259268	-0.2273416393	
588.125	-0.1170913741	-0.1252728891	
588.75	0.1158057629	-0.06954789451	
589.375	0.08301927802	-0.2606827493	
590.0	-0.09139158533	-0.07639818957	
590.625	-0.1366304109	-0.1981612968	
591.25	-0.1954654261	0.2270666763	
591.875	0.03799369005	0.0405140167	
592.5	-0.1065118035	0.1250752092	
593.125	0.05939422035	-0.0590464746	
593.75	-0.04794331856	0.1906321944	
594.375	0.2689042169	0.1052431145	
595.0	0.1052543413	0.02235110784	
595.625	0.1962321366	0.1740307841	
596.25	0.2420664798	-0.009949999242	
596.875	0.0604829098	0.02510907426	
597.5	0.2114726486	0.1549873072	
598.125	0.1454020615	0.05430233491	
598.75	0.1013875957	0.1151624483	
599.375	0.2987629422	-0.01082901407	
600.0	0.1059878426	-0.205552306	
600.625	0.1286685146	-0.08228564127	
601.25	0.1365582058	-0.2626060985	
601.875	-0.1527385199	-0.1006773859	
602.5	-0.03723218727	-0.1071845066	
603.125	-0.2057595758	0.1684830948	
603.75	-0.005553932616	0.05609204522	
604.375	-0.1767814344	-0.007837965073	
605.0	0.007149657979	0.180057598	
605.625	0.00206854086	-0.03284106479	
606.25	-0.09157655197	0.1815416063	
606.875	-0.0913868939	0.1379258322	
607.5	-0.190329465	0.06481404969	
608.125	-0.07839776185	0.3601222357	
608.75	0.2168520462	0.07616147782	
609.375	0.2047221635	0.07055313401	
610.0	0.2301917219	-0.1206825661	
610.625	-0.01540272831	-0.1550876961	
611.25	0.05978226118	-0.0629001138	
611.875	-0.1944622481	-0.1746906645	
612.5	-0.06257631116	-0.006658824149	
613.125	-0.2642935102	-0.07918632851	
613.75	-0.04582458173	0.2849422865	
614.375	0.01441694154	-0.01894348031	
615.0	0.05675558993	0.1789077411	
615.625	0.01479482891	-0.02029740856	
616.25	-0.1504654855	0.1495405037	
616.875	-0.05209819358	0.2758691376	
617.5	0.04087735048	0.1316080045	
618.125	-0.09353243408	0.2252715731	
618.75	0.03492512595	0.2241626224	
619.375	0.0792932769	0.07429928769	
620.0	0.2080589467	0.1798557309	
620.625	0.07520220373	-0.2520624205	
621.25	-0.1278200508	-0.08210845682	
621.875	-0.2238473548	-0.1826662354	
622.5	-0.2514451648	0.1503147972	
623.125	0.01933104249	0.09272689937	
623.75	0.1312296339	0.1540048591	
624.375	0.003556414233	-0.1382907565	
625.0	0.08076977996	0.05749574111	
625.625	0.04144624185	-0.1792668345	
626.25	-0.03592180033	-0.04462136023	
626.875	-0.1308734155	-0.1308979735	
627.5	-0.2173098534	0.003265596478	
628.125	-0.04162027161	-0.02570104224	
628.75	-0.05929882752	-0.226816169	
629.375	-0.1378566593	-0.2394617409	
630.0	-0.1316235643	-0.1200854582	
630.625	-0.297540848	0.02962713578	
631.25	-0.119528753	0.2595381875	
631.875	0.0490674884	0.09216773398	
632.5	0.1349083747	0.2983344682	
633.125	0.2284375444	-0.01281856957	
633.75	0.1082925822	0.007263869392	
634.375	0.1769613645	-0.2198543001	
635.0	-0.09111291784	-0.08963757271	
635.625	-0.06661259754	-0.1741390584	
636.25	-0.2569658503	0.1330798789	
636.875	0.01139160603	0.09847341054	
637.5	-0.1338721966	0.02920636583	
638.125	0.006337847092	0.1759119827	
638.75	-0.1122348929	0.06293599844	
639.375	-0.05570154735	0.3572799574	
640.0	0.2228189986	0.2447140664	
640.625	0.1400600901	0.1396940439	
641.25	0.3932935272	0.08317078569	
641.875	0.1180964857	-0.2776210251	
642.5	-0.03259245367	-0.00362054408	
643.125	-0.1152486379	-0.2713991815	
643.75	-0.1491836632	0.0699594611	
644.375	-0.1689787067	-0.1527903655	
645.0	-0.2871899838	0.4077957496	
645.625	0.1373571713	0.09238836076	
646.25	0.07096020421	0.210019327	
646.875	0.2899330532	-0.1373835773	
647.5	-0.152864971	0.1013047338	
648.125	0.3194960644	0.08076286483	
648.75	0.161549209	-0.1675201482	
649.375	0.2395402206	-0.02052947315	
650.0	0.3000235938	-0.4919517513	
650.625	-0.05208849719	-0.2661908321	
651.25	0.2956384245	-0.08841853289	
651.875	0.3934699254	-0.2703561455	
652.5	0.1208036758	-0.1401850179	
653.125	0.293013549	0.1191463675	
653.75	0.2525544567	-0.3818427842	
654.375	-0.1193426358	-0.1631220118	
655.0	-0.1114384648	-0.3285666891	
655.625	-0.2645842974	0.3524461394	
656.25	0.11816249	0.03376760368	
656.875	-0.1298901944	0.2371458532	
657.5	0.1628495557	0.02486244248	
658.125	-0.1429337851	0.2449564248	
658.75	0.5065927942	0.1512607967	
659.375	0.2281253178	-0.2215996922	
660.0	0.282347904	-0.1511469661	
660.625	0.2816895933	-0.4673108045	
661.25	-0.006608708182	-0.3344664509	
661.875	0.2995991693	-0.10400309	
662.5	0.365456293	-0.2985979263	
663.125	0.1424018806	-0.2029460422	
663.75	0.2617725102	-0.1740579086	
664.375	-0.07773424655	-0.4725354414	
665.0	-0.2352392367	-0.1089595185	
665.625	-0.3475429771	-0.04831724441	
666.25	-0.1319901646	0.3884418618	
666.875	0.1411291463	0.07042238729	
667.5	0.1341015447	0.2805681438	
668.125	0.2845968526	-0.1152738492	
668.75	0.1057309344	-0.06890729558	
669.375	0.3148833008	-0.2689502564	
670.0	-0.1401122594	-0.2810188552	
670.625	0.1333424561	-0.104424308	
671.25	0.1284753873	-0.2846157109	
671.875	0.02938241055	-0.1997453942	
672.5	0.2023015616	-0.009665604884	
673.125	0.3144327311	-0.3185576162	
673.75	0.05346882811	-0.2141753619	
674.375	0.162512759	-0.2052728341	
675.0	-0.1092616913	-0.3878014237	
675.625	-0.1929126652	0.0003518583505	
676.25	-0.1064839997	-0.1676055684	
676.875	-0.2699079156	0.0480397985	
677.5	-0.03188927548	0.06066896609	
678.125	-0.3056694463	0.007356339472	
678.75	0.15402177	0.3680982695	
679.375	0.05490036807	-0.02323908467	
680.0	0.2567393273	0.04835000523	
680.625	-0.04008580185	-0.3700020119	
681.25	-0.05403735324	0.1735639663	
681.875	0.3629758312	0.07587106258	
682.5	0.008771101304	-0.03775365753	
683.125	0.1323263585	0.2126382419	
683.75	0.4880187922	0.0224590179	
684.375	0.1285587266	-0.1524883611	
685.0	0.2202555665	0.287307844	
685.625	0.4616465551	-0.05350539792	
686.25	0.1692549063	-0.05584090439	
686.875	0.4309214068	0.09452312162	
687.5	0.2576596601	-0.5225279131	
688.125	0.01340063691	-0.2409776179	
688.75	-0.3515492276	-0.3763070302	
689.375	-0.374754376	0.4847294918	
690.0	0.07300731356	0.1461981667	
690.625	0.2029485496	0.5538661654	
691.25	0.4586866766	0.03574088439	
691.875	0.2289079675	0.3490791484	
692.5	0.7757758998	0.4413068995	
693.125	0.4465393582	-0.2474652778	
693.75	0.5073182101	-0.02659111056	
694.375	0.4334087475	-0.6715635783	
695.0	0.3451146435	-0.4198303418	
695.625	0.3381696359	0.1270505754	
696.25	0.6884575461	0.206034153	
696.875	0.3759197404	0.3331941046	
697.5	0.3894362326	0.4321694102	
698.125	0.7093034817	0.4285546035	
698.75	0.3837374878	-0.5001716444	
699.375	-0.2196721563	-0.3306857817	
700.0	-0.4713271967	0.42507922	
700.625	0.2311431362	0.2095733209	
701.25	0.03438200313	0.2869378523	
701.875	0.5042799951	0.2859820053	
702.5	0.2205397496	0.1006713104	
703.125	0.3986732723	0.3107821198	
703.75	0.4559697133	-0.244633792	
704.375	0.1334255894	-0.1403731034	
705.0	0.3148915305	-0.2562038416	
705.625	0.3092933406	-0.1316544725	
706.25	0.1188537444	0.1350656294	
706.875	0.1978181922	0.4935039296	
707.5	0.2593688832	0.4667457456	
708.125	0.3151727421	0.1899421098	
708.75	0.4957010666	-0.3251422435	
709.375	-0.3739112767	-0.3362109532	
710.0	-0.02076509983	0.1921576607	
710.625	-0.1182343039	0.345843346	
711.25	0.09962150036	-0.03927700752	
711.875	0.13084001	0.2563930857	
712.5	0.4908293986	-0.04044168654	
713.125	0.152559178	-0.2032811244	
713.75	0.2631165688	-0.140762855	
714.375	0.02044079466	-0.3493925724	
715.0	-0.07015499273	-0.1149705042	
715.625	0.1217897949	-0.21816427	
716.25	0.09159947541	-0.3716320134	
716.875	0.2205829328	-0.09046076196	
717.5	0.6588045828	0.161855481	
718.125	0.8105310366	0.08813525635	
718.75	0.4600746449	0.0298095896	
719.375	1.158212629	-0.2231390082	
720.0	0.4997090539	-1.435703449	
720.625	0.3397000369	-0.4578247447	
721.25	0.2762795974	-1.420680006	
721.875	-0.5407640675	-0.8080306707	
722.5	-0.1641800658	-0.8678772578	
723.125	-1.238540111	-0.4625775473	
723.75	-0.2985672245	0.5366840504	
724.375	-0.1534838345	0.2908258009	
725.0	0.2235443547	0.6375439593	
725.625	0.2376047464	0.2281906058	
726.25	-0.2431897854	0.6105964572	
726.875	-0.06895447121	1.23796676	
727.5	0.2133379452	1.152473515	
728.125	-0.8316993862	1.706430954	
728.75	-0.2529290475	3.986554492	
729.375	0.1418777726	3.066831475	
730.0	-2.02157988	3.172229729	
730.625	-1.201529768	6.41719331	
731.25	0.5061158218	2.370641706	
731.875	-4.061854365	0.5361444867	
732.5	-5.021106962	1.327925708	
733.125	-1.381023159	0.4733293814	
733.75	-1.724669653	0.8131841077	
734.375	1.224201382	0.5069115652	
735.0	-0.02432488321	-0.3422782571	
735.625	-0.6407080022	-0.2759239637	
736.25	0.2360423095	0.8031823728	
736.875	-0.02974149334	0.3281664408	
737.5	1.352404781	0.725462372	
738.125	1.581722787	-0.9304386282	
738.75	0.7750430814	-0.6126834447	
739.375	4.35859307	0.2419549412	
740.0	3.272520317	-4.679796262	
740.625	-0.5169039657	0.9035071558	
741.25	1.088696336	6.257243249	
741.875	0.3792870247	3.367319734	
742.5	1.436257372	-3.394519527	
743.125	-0.1956162335	-2.973984899	
743.75	-0.5384999151	-0.7008902718	
744.375	0.2317201005	-0.4406208236	
745.0	0.1175103877	0.3763804956	
745.625	-0.03910737014	0.06361305571	
746.25	0.01137313431	-0.2608559382	
746.875	-0.1907946502	0.1139033829	
747.5	-0.2035752171	0.2145986979	
748.125	0.08502294959	0.7311249603	
748.75	0.3622249619	0.3704200197	
749.375	-0.01592395351	0.3992251712	
750.0	-0.5387404629	0.3622342642	
