!Created with skrf (http://scikit-rf.org).
# GHz S RI R (50+0j) 
!freq	ReS11	ImS11	
500.0	-0.2178276294	-0.8615247096	
500.625	0.438091702	-0.3109041261	
501.25	-0.4581218905	-0.9432490527	
501.875	-0.2436735921	-0.1538833727	
502.5	0.0213442293	-0.1046113915	
503.125	-0.08931259124	0.006579259378	
503.75	0.00161001158	-0.002356552845	
504.375	0.04098910984	0.01320931453	
505.0	-0.009036647429	-0.02820476454	
505.625	0.04445776876	-0.04273952304	
506.25	-0.1235716247	0.003700394032	
506.875	0.03831517155	-0.1521674479	
507.5	-0.3485781659	-0.472191765	
508.125	-0.1293654864	-0.3181668951	
508.75	0.7005369338	-0.5649913939	
509.375	-0.01144900516	-1.294157774	
510.0	-0.3420161697	-0.1268398667	
510.625	0.01466762851	-0.1894844909	
511.25	-0.1176612829	-0.04157589883	
511.875	-0.08343308416	-0.03026459563	
512.5	-0.02382819318	0.04020543131	
513.125	-0.03589974446	-0.03401572483	
513.75	0.01162864878	-0.06317374563	
514.375	-0.114515987	-0.04106306042	
515.0	0.1825279752	0.1785298936	
515.625	-0.3017238109	-0.5236390272	
516.25	-0.3496098711	-0.1615569707	
516.875	0.1016592188	-0.3981234571	
517.5	-0.1734054882	-0.1236424743	
518.125	0.03323615311	-0.03995395696	
518.75	-0.1031372586	-0.169443013	
519.375	-0.01368002902	0.03995479898	
520.0	0.04934201084	0.06821126482	
520.625	0.1448141892	-0.05119561103	
521.25	-0.1076150774	-0.2217224318	
521.875	-0.03254009273	-0.0151161605	
522.5	-0.0898476231	-0.002018920231	
523.125	0.04941371853	0.04514795553	
523.75	-0.1501714074	-0.1151518073	
524.375	-0.1029839036	0.1462300387	
525.0	-0.05931823333	-0.0103248604	
525.625	0.04045423643	0.1443248123	
526.25	-0.000815486302	-0.09421599326	
526.875	-0.05844731951	0.1047722357	
527.5	0.0489379287	0.114058186	
528.125	-0.003686822007	0.2647690928	
528.75	0.05927392505	0.2892167066	
529.375	0.02800645659	-0.02795747026	
530.0	0.01794316458	0.2525820049	
530.625	0.09910111153	0.3417579306	
531.25	0.2355270856	0.1689631874	
531.875	0.3058243335	-0.1534042696	
532.5	-0.1301408119	-0.002732206557	
533.125	0.1991709499	0.008209670692	
533.75	-0.008842298707	-0.147731338	
534.375	0.04852729147	-0.2286277552	
535.0	-0.2876078131	-0.1120388727	
535.625	-0.07082277749	0.1075337648	
536.25	-0.03202984671	0.07717731817	
536.875	0.1138516651	0.008327777937	
537.5	0.02056919769	-0.03016161344	
538.125	0.1295791804	-0.03576646539	
538.75	0.07221612428	-0.1443980578	
539.375	-0.03133648521	-0.1182550657	
540.0	-0.1645830815	-0.1933747332	
540.625	-0.1763859923	-0.01726628299	
541.25	-0.04938695052	-0.03267604912	
541.875	-0.06664667725	-0.06248597613	
542.5	-0.002284900212	-0.002142751871	
543.125	0.0004383982892	-0.1405356626	
543.75	-0.1050879935	0.04329313371	
544.375	-0.03633478744	-0.01864371655	
545.0	-0.007189612606	0.1025899164	
545.625	0.0375860418	-0.01812135191	
546.25	0.0983949336	0.08991665945	
546.875	0.08937638126	-0.07329434688	
547.5	0.07799565033	-0.06126312682	
548.125	-0.0189113948	-0.2078925001	
548.75	-0.1419762479	-0.0620892028	
549.375	-0.04841218978	-0.06240876827	
550.0	-0.1038980282	-0.01012147999	
550.625	-0.02659150145	0.03002053002	
551.25	-0.09371419392	0.001419958949	
551.875	-0.04279549174	0.08389891127	
552.5	-0.05174973306	0.04258632885	
553.125	-0.01989912393	0.07530746137	
553.75	0.03334845526	0.03393818584	
554.375	0.0918603071	0.003648356166	
555.0	0.08527093458	-0.06849569811	
555.625	0.07233206919	-0.08972412687	
556.25	0.06435084422	-0.1246117155	
556.875	-0.03146096517	-0.1448010458	
557.5	-0.09045746599	-0.09070981623	
558.125	-0.101393579	-0.03862713988	
558.75	-0.1042809578	-0.003951698955	
559.375	-0.09395871695	0.02385448466	
560.0	-0.09135313205	0.05763016594	
560.625	-0.05475385604	0.1180561779	
561.25	0.02305431559	0.07238064186	
561.875	0.004033808084	0.05229517602	
562.5	0.04299869997	0.04386134518	
563.125	0.02865329044	0.06390059767	
563.75	0.1622829224	0.008158901459	
564.375	0.07598589676	-0.09293538649	
565.0	0.1063166648	-0.1117756143	
565.625	-0.06604704717	-0.1877526173	
566.25	-0.07468889038	-0.05669867106	
566.875	-0.125162723	-0.1210826625	
567.5	-0.2043573479	-0.05416928412	
568.125	-0.05396057902	-0.1094344624	
568.75	-0.2891166079	-0.1374358645	
569.375	-0.1724756466	0.1572689148	
570.0	-0.1261933005	0.09208898755	
570.625	-0.08464296702	0.2346291074	
571.25	0.0511389904	0.04369585127	
571.875	0.01092524005	0.1400071685	
572.5	0.1272618095	-0.09986605721	
573.125	0.04152858353	-0.0134181525	
573.75	0.1320275687	-0.1668538996	
574.375	-0.07351797458	-0.08869714382	
575.0	0.08941755547	0.03013870945	
575.625	-0.005174976039	-0.1353597569	
576.25	0.02251653479	-0.01275261247	
576.875	0.04120490944	-0.1920785072	
577.5	-0.09091615241	-0.1619090119	
578.125	0.002333831654	-0.04017480786	
578.75	-0.032843285	-0.1975867211	
579.375	-0.1834430987	-0.03354339964	
580.0	0.1025355577	-0.005500353168	
580.625	-0.1626601269	-0.055276191	
581.25	0.03550346583	0.04866816205	
581.875	-0.1143777851	0.1111075516	
582.5	0.1398749522	0.2048086052	
583.125	0.06163430059	-0.03129559445	
583.75	0.05300222603	0.1390826268	
584.375	0.06554777317	-0.05342852479	
585.0	0.02589772155	0.1178893419	
585.625	0.230410242	-0.007880401825	
586.25	0.04384895191	-0.07720455153	
586.875	0.1128250022	-0.04424308211	
587.5	-0.03607056565	-0.1988910985	
588.125	-0.04293048898	-0.03692428006	
588.75	0.1149700347	-0.1488841397	
589.375	-0.01576191093	-0.1911258057	
590.0	0.01071669728	-0.09202794827	
590.625	-0.2327801017	-0.1183122181	
591.25	-0.01889237809	0.200408921	
591.875	-0.03559682686	0.01239823137	
592.5	-0.03459135807	0.1224473475	
593.125	0.01570385596	-0.06090639549	
593.75	0.07512315454	0.252754271	
594.375	0.166861262	-0.01686455259	
595.0	0.06153928889	0.09571757388	
595.625	0.2244093444	0.108213739	
596.25	0.08915134577	-0.03492491758	
596.875	0.09687789654	0.1106619594	
597.5	0.2114683014	0.07937101909	
598.125	0.112274125	0.02143135228	
598.75	0.1446203301	0.1121146967	
599.375	0.2479765544	-0.07691640199	
600.0	0.07533930733	-0.1097656653	
600.625	0.1871505882	-0.1177958372	
601.25	0.04992784097	-0.2409860609	
601.875	-0.06183794102	-0.03667723332	
602.5	-0.1357528985	-0.1049711183	
603.125	-0.07902718256	0.1390287462	
603.75	-0.04798538766	-0.03900695054	
604.375	-0.2006626192	0.12514598	
605.0	0.02712519331	0.1298476323	
605.625	-0.1238127311	-0.02580648183	
606.25	-0.1399224518	0.1452224225	
606.875	-0.1990212429	-0.02937893079	
607.5	-0.2375186872	0.1585013528	
608.125	0.01844218642	0.2106716906	
608.75	0.1245744002	0.1353840224	
609.375	0.2102818331	-0.006067556067	
610.0	0.1484666368	-0.1866173061	
610.625	0.02218275939	-0.1003579813	
611.25	0.0968909645	-0.2013423248	
611.875	-0.1945484506	-0.1103530658	
612.5	-0.05908958539	-0.09234288289	
613.125	-0.2799825335	0.03364518341	
613.75	0.03424714263	0.1498738374	
614.375	-0.08065123912	0.09930778955	
615.0	0.135116663	0.07642546325	
615.625	-0.04386995476	-0.02573576179	
616.25	-0.02683064963	0.2271707249	
616.875	-0.0008046720804	0.1720327013	
617.5	-0.08168372883	0.1022731272	
618.125	-0.08789681563	0.2592692917	
618.75	0.008981591574	0.1875046966	
619.375	0.08461570371	0.1204824464	
620.0	0.2279347246	0.04911211286	
620.625	0.01760301776	-0.1234750421	
621.25	-0.00299616928	-0.1776362087	
621.875	-0.2242086734	-0.1669580831	
622.5	-0.1496467374	0.1180247092	
623.125	-0.08354987042	0.09985746183	
623.75	0.1757937199	0.1034358348	
624.375	-0.03587498867	-0.08294568989	
625.0	0.1126782682	-0.005126146699	
625.625	-0.02656744859	-0.1042518928	
626.25	0.02773026342	-0.09831126298	
626.875	-0.1804567154	-0.1243607275	
627.5	-0.1332138587	0.004944588782	
628.125	-0.04154711596	-0.09687053789	
628.75	-0.1255303323	-0.1543886153	
629.375	-0.07599538118	-0.06546373042	
630.0	-0.1078147574	-0.07614620578	
630.625	-0.2371218667	0.07012324156	
631.25	-0.06514946239	0.2393372374	
631.875	-0.09457984905	0.2259899965	
632.5	0.2170483747	0.299013545	
633.125	0.1655779002	-0.008116267766	
633.75	0.1835083919	0.00637204844	
634.375	0.04074741102	-0.2156178338	
635.0	-0.004352636529	-0.02133207547	
635.625	-0.1526250357	-0.1824203373	
636.25	-0.1409854015	0.1387394011	
636.875	-0.02447657368	0.04085527007	
637.5	-0.1039286104	0.1435181119	
638.125	0.05972961652	0.06628732607	
638.75	-0.1523148298	0.1183982884	
639.375	0.0511539078	0.295719685	
640.0	0.1370707774	0.121549796	
640.625	0.130238153	0.1655779293	
641.25	0.3395409457	-0.02919736215	
641.875	0.05130698682	-0.1518500992	
642.5	0.09674891503	-0.1761378784	
643.125	-0.2670944693	-0.2521798218	
643.75	-0.02655378762	0.02079637477	
644.375	-0.2559270019	-0.08357781684	
645.0	-0.06024493498	0.2190244338	
645.625	-0.04492493822	-0.00897574498	
646.25	0.175196522	0.2503682318	
646.875	0.08492893364	-0.1521302064	
647.5	-0.01270521915	0.1776172847	
648.125	0.2414862848	-0.05695368202	
648.75	0.08461872047	-0.04738549445	
649.375	0.3656972608	-0.1637907947	
650.0	0.02024235217	-0.4312312208	
650.625	0.08817484657	-0.1096018231	
651.25	0.3361585471	-0.2321019919	
651.875	0.161979427	-0.3091291606	
652.5	0.1311415133	0.02286569343	
653.125	0.3784954878	-0.07244123254	
653.75	0.08068985385	-0.3297649869	
654.375	0.02625285688	-0.1581279858	
655.0	-0.3366949341	-0.251825034	
655.625	-0.05423672219	0.323560695	
656.25	-0.07228293999	-0.0002868318075	
656.875	0.08496316164	0.2220192754	
657.5	-0.03381500741	-0.1134726058	
658.125	0.1158010711	0.2909403209	
658.75	0.3431162664	-0.1371396243	
659.375	0.1437669076	-0.08788764373	
660.0	0.305681428	-0.1891715225	
660.625	0.09625771744	-0.4526147454	
661.25	0.02199125721	-0.1112873282	
661.875	0.3153983837	-0.198154729	
662.5	0.2070512034	-0.2835738899	
663.125	0.1465427253	-0.08989802688	
663.75	0.2723952118	-0.3414130563	
664.375	-0.1588718798	-0.2716099359	
665.0	-0.1226132305	-0.1746499909	
665.625	-0.3743681401	0.0122609305	
666.25	-0.01328404125	0.3196198256	
666.875	0.02018258595	0.1188711614	
667.5	0.2598404834	0.2104717812	
668.125	0.1433754444	-0.1382178364	
668.75	0.1811802512	-0.009319388856	
669.375	0.1298840878	-0.3515554291	
670.0	-0.07187180906	-0.02970791929	
670.625	0.1210957529	-0.182404949	
671.25	-0.06105760715	-0.2681666181	
671.875	0.01618993167	-0.0464826273	
672.5	0.3004263987	-0.08403591926	
673.125	0.1482363187	-0.2655565879	
673.75	0.09035161138	-0.1164626433	
674.375	0.147507581	-0.2461488526	
675.0	-0.2156649204	-0.2374192461	
675.625	-0.04111723013	-0.06620638843	
676.25	-0.2338526665	-0.1225771455	
676.875	-0.1379663164	0.1185005906	
677.5	-0.04843083931	-0.06924553405	
678.125	-0.2427190181	0.2108965634	
678.75	0.1971983231	0.1097364005	
679.375	0.04010681324	0.14017549	
680.0	0.3160903035	-0.1233693713	
680.625	-0.09889599684	-0.1367433071	
681.25	0.2789656155	0.1955609819	
681.875	0.2151595045	-0.122013547	
682.5	0.02293839031	0.0282850038	
683.125	0.3600934785	0.2392562041	
683.75	0.3684366995	-0.1215245316	
684.375	0.1755586986	0.2681251112	
685.0	0.3921080563	0.1084125228	
685.625	0.252807593	-0.1219072225	
686.25	0.09920642468	0.08769926534	
686.875	0.34592061	-0.2861465876	
687.5	0.04722261861	-0.2378359671	
688.125	0.09875762993	-0.3319720182	
688.75	-0.4810255484	-0.2856672435	
689.375	-0.1399921021	0.4036965543	
690.0	-0.1078638921	0.2217991038	
690.625	0.3633631158	0.3323530083	
691.25	0.2141196485	0.0436043842	
691.875	0.3126924834	0.5300676893	
692.5	0.7452389299	0.08266001043	
693.125	0.3530891524	-0.01665069148	
693.75	0.6894929363	-0.117620579	
694.375	0.4236790073	-0.5372347215	
695.0	0.4232004134	0.01917712513	
695.625	0.612009435	0.06940492259	
696.25	0.5724104903	-0.01741952219	
696.875	0.3444189213	0.3655443359	
697.5	0.2618022066	0.5095591581	
698.125	0.5554972334	0.1987069987	
698.75	0.2458761196	-0.1824401483	
699.375	-0.3211351899	-0.5255104576	
700.0	-0.342363228	0.4329159865	
700.625	0.05731482941	0.1366011092	
701.25	0.2562488491	0.3442582655	
701.875	0.3041541788	0.03468770127	
702.5	0.1430726851	0.2640863209	
703.125	0.470241035	0.1943052569	
703.75	0.3021877089	-0.2370959376	
704.375	0.3079960158	-0.03754169615	
705.0	0.3485607159	-0.1657896712	
705.625	0.1631070791	0.07794809109	
706.25	0.172416541	0.2673425333	
706.875	0.3341151701	0.2937912247	
707.5	0.179604572	0.2148258531	
708.125	0.3254552601	0.04021124145	
708.75	0.2820257372	-0.3513900504	
709.375	-0.2521047021	-0.101708516	
710.0	-0.1471070077	0.05957160143	
710.625	0.1110619922	0.2710973575	
711.25	0.01324473441	0.02636110528	
711.875	0.2006903254	0.2245113799	
712.5	0.2812509371	-0.145203864	
713.125	0.1455817181	-0.0415986796	
713.75	0.214155123	-0.2598102148	
714.375	-0.08517415124	-0.2285276897	
715.0	0.03105526943	-0.1039945658	
715.625	0.04015559572	-0.3003127913	
716.25	0.07525044785	-0.243345741	
716.875	0.3077663267	-0.04184572299	
717.5	0.6232882485	-0.0868497123	
718.125	0.4874458769	-0.08334650438	
718.75	0.4374897954	-0.04559310338	
719.375	0.8448676276	-0.4881756081	
720.0	0.177295252	-0.7068260362	
720.625	0.448528068	-0.2796957619	
721.25	-0.09253699892	-1.433432015	
721.875	-0.3222301909	-0.4688435001	
722.5	-0.4427397202	-0.9030314686	
723.125	-0.8081043119	0.007586610932	
723.75	-0.0622549312	0.2580126133	
724.375	-0.1635613281	0.4884576869	
725.0	0.3445055972	0.2869108046	
725.625	0.0007724569678	0.2341945543	
726.25	-0.05173660066	0.7255430816	
726.875	0.1562895589	0.9690685932	
727.5	-0.08047045816	0.7028192987	
728.125	-0.3783515546	1.956825492	
728.75	0.5767042937	2.507410595	
729.375	-0.2834702737	1.723583662	
730.0	-1.301370145	4.465717141	
730.625	1.290124298	3.357239324	
731.25	-0.3686136747	1.113568354	
731.875	-3.431468005	2.510957269	
732.5	-2.383913141	3.39219709	
733.125	-1.049202334	-0.3558119922	
733.75	-1.503099108	1.681041342	
734.375	0.8780760374	-0.1047707744	
735.0	0.1470651067	-0.258617008	
735.625	-0.6987217207	0.09061734515	
736.25	0.3188626989	0.07641644971	
736.875	0.06784292054	0.7427075871	
737.5	1.217735516	0.031851658	
738.125	0.6703189787	-0.7335225877	
738.75	1.346495463	0.3700920652	
739.375	2.988180255	-2.338310098	
740.0	-0.1907329007	-2.438687669	
740.625	0.9875273704	2.533206448	
741.25	3.253723046	3.967966326	
741.875	1.375897091	-1.557408177	
742.5	-0.4600094327	-3.939736497	
743.125	-0.8480208485	-1.809097059	
743.75	0.1369296771	-0.3367706292	
744.375	-0.4948502471	-0.3864201649	
745.0	0.3332110088	0.06120835602	
745.625	0.03709157003	0.1100039008	
746.25	-0.06720491737	-0.1521329604	
746.875	-0.06158595642	0.03080368055	
747.5	-0.2172687634	0.3003259113	
748.125	0.2195184577	0.4335344033	
748.75	0.195443923	0.2476352935	
749.375	0.01063965197	0.4316611156	
750.0	-0.3078945868	0.2994156325	
