!Created with skrf (http://scikit-rf.org).
# GHz S RI R (50+0j) 
!freq	ReS11	ImS11	
500.0	0.02808045416	-1.066906798	
500.625	0.2018392577	-0.8287618498	
501.25	-0.3018669052	-0.5370174824	
501.875	-0.1844613894	-0.351973666	
502.5	-0.03957877029	-0.09785825833	
503.125	-0.06007790926	0.002615684091	
503.75	0.009759844742	0.06819855578	
504.375	0.02294830994	-0.005337875468	
505.0	0.01750592892	-0.01721982684	
505.625	-0.0004567791786	-0.04062232808	
506.25	-0.04895868715	-0.04708667084	
506.875	-0.09746176201	0.009383130412	
507.5	-0.0797244481	-0.2712567064	
508.125	0.1258689946	-0.5582486187	
508.75	0.471263277	-0.8154896061	
509.375	-0.07626693871	-0.8686794273	
510.0	-0.3744718701	-0.2154879489	
510.625	-0.0847014794	-0.1073607034	
511.25	-0.07266320766	-0.02732138658	
511.875	-0.05766536507	-0.04211483183	
512.5	-0.01528742884	0.03967868194	
513.125	0.00350026313	-0.05718693692	
513.75	-0.0383894838	-0.0254551788	
514.375	-0.04103757212	-0.01784304695	
515.0	0.006438274323	-0.0167943205	
515.625	0.04252086358	-0.3287917218	
516.25	-0.2520545053	-0.5656152025	
516.875	-0.18643575	-0.3454640129	
517.5	-0.03966146551	-0.1320614411	
518.125	-0.02209619034	-0.0275588492	
518.75	-0.04986158165	-0.09886781612	
519.375	-0.04799975471	0.02973786725	
520.0	0.08959343156	0.04256974437	
520.625	0.1313383606	-0.04856574647	
521.25	-0.01620477141	-0.2116604518	
521.875	-0.1230046047	-0.01825558406	
522.5	-0.03972608008	0.02165626142	
523.125	-0.05028690441	0.02463517857	
523.75	-0.08923760464	-0.008167289706	
524.375	-0.1332396154	0.02965509605	
525.0	-0.03183178854	0.1177226204	
525.625	0.02872929908	0.03791558833	
526.25	-0.01107641589	-0.01077811693	
526.875	-0.04135944467	0.04456505001	
527.5	-0.03317949802	0.1524262319	
528.125	0.05469940544	0.2060388005	
528.75	0.02813350891	0.1690364696	
529.375	0.03393850725	0.05309472428	
530.0	0.01906246202	0.1236798262	
530.625	0.0913099005	0.2375631269	
531.25	0.3381372596	0.08499393518	
531.875	0.1897539043	-0.1512206113	
532.5	-0.04183175889	-0.09061785696	
533.125	0.04921204793	-0.04773004819	
533.75	0.08756066595	-0.1472171394	
534.375	-0.0646271683	-0.2327522645	
535.0	-0.1972583371	-0.09158355366	
535.625	-0.1397298329	0.09019993854	
536.25	-0.00103410654	0.08200235092	
536.875	0.08030300228	0.01111354942	
537.5	0.05536203433	-0.03870753723	
538.125	0.09527748233	-0.05470573264	
538.75	0.1068679097	-0.1064272394	
539.375	-0.06652128382	-0.1421452491	
540.0	-0.1428929718	-0.1277832875	
540.625	-0.1434676475	-0.02322403214	
541.25	-0.07543111357	0.003192233374	
541.875	-0.03858772326	-0.01889206794	
542.5	-0.03992748856	-0.04674955671	
543.125	-0.06965514814	-0.03980327481	
543.75	-0.07422158781	-0.004807179258	
544.375	-0.04139342944	0.0365824899	
545.0	-0.003640617661	0.05113754185	
545.625	0.04484008481	0.0558748789	
546.25	0.08502221367	0.03247244999	
546.875	0.1034152405	-0.02375961625	
547.5	0.0579322501	-0.1095097829	
548.125	-0.0400187015	-0.1407029248	
548.75	-0.1095663561	-0.1002866366	
549.375	-0.09721540302	-0.05892190004	
550.0	-0.06708377692	0.006869073835	
550.625	-0.04657110005	0.007029626707	
551.25	-0.06803746763	0.02513809161	
551.875	-0.06493174933	0.05910430423	
552.5	-0.03792393223	0.06689946859	
553.125	-0.01220932115	0.05671871237	
553.75	0.04104417397	0.04131497603	
554.375	0.08443870826	-0.001137774813	
555.0	0.08872076715	-0.06480154871	
555.625	0.07699952332	-0.09693460973	
556.25	0.05651798322	-0.1276473389	
556.875	-0.0320191327	-0.1426061427	
557.5	-0.09213684427	-0.09428170531	
558.125	-0.108167007	-0.03509875587	
558.75	-0.09980940835	-0.0007811569494	
559.375	-0.1014254573	0.02143990224	
560.0	-0.08601160578	0.07144388163	
560.625	-0.04561704428	0.1023364967	
561.25	0.007859008305	0.0896649925	
561.875	0.02706592378	0.04118386021	
562.5	0.009473921236	0.04867803169	
563.125	0.06450383912	0.0664644828	
563.75	0.1276193884	0.001771335332	
564.375	0.1151489474	-0.08770872919	
565.0	0.06495020669	-0.1334399023	
565.625	-0.02964176975	-0.1415978417	
566.25	-0.1048046489	-0.09735207323	
566.875	-0.1253094556	-0.06808692404	
567.5	-0.1259545049	-0.09322759651	
568.125	-0.1306505806	-0.1340522853	
568.75	-0.2010176607	-0.0649137462	
569.375	-0.2059634077	0.09026382642	
570.0	-0.1036556056	0.1805330239	
570.625	-0.04357768627	0.1551840345	
571.25	0.006638381413	0.1030468956	
571.875	0.05271332975	0.06480387489	
572.5	0.1117099829	-0.002526815687	
573.125	0.07687285699	-0.1000370237	
573.75	0.03681766785	-0.1003203531	
574.375	0.009473903149	-0.06233080708	
575.0	0.0243839803	-0.03424505635	
575.625	0.03360201598	-0.06595144109	
576.25	0.03916842194	-0.09886412127	
576.875	-0.004629749279	-0.1274024364	
577.5	-0.004290700926	-0.1418370758	
578.125	-0.04188419468	-0.1407914216	
578.75	-0.07756444439	-0.1078949718	
579.375	-0.07743719492	-0.05773396031	
580.0	-0.04816270548	-0.02690710309	
580.625	-0.06276800498	-0.02488393777	
581.25	-0.09141946332	0.06774157887	
581.875	0.006656073831	0.1394701599	
582.5	0.05202508597	0.1237312799	
583.125	0.06945818696	0.06719253952	
583.75	0.0360854542	0.01868511154	
584.375	0.03125875973	0.0512185428	
585.0	0.09838101339	0.05443635479	
585.625	0.1390266562	-0.0002020011763	
586.25	0.1348453883	-0.05660249062	
586.875	0.06694960682	-0.1197516511	
587.5	-0.009906090447	-0.1260474531	
588.125	-0.01567002705	-0.1239122779	
588.75	0.02621180345	-0.1289791054	
589.375	0.05345755186	-0.1375473424	
590.0	-0.05117230754	-0.1549004029	
590.625	-0.163303181	-0.03964788119	
591.25	-0.1159013061	0.0992014006	
591.875	-0.02732497532	0.1058743042	
592.5	0.008485617819	0.043224969	
593.125	-0.02540177211	0.04531941996	
593.75	0.04851566606	0.1057327057	
594.375	0.1338966081	0.08629030253	
595.0	0.151887474	0.08311896158	
595.625	0.1522936636	0.06535372977	
596.25	0.1416687042	0.0338444399	
596.875	0.139202671	0.02856621475	
597.5	0.1316529363	0.06922293845	
598.125	0.1338110031	0.09751129178	
598.75	0.1587100162	0.0723989564	
599.375	0.1880273886	-0.03294614479	
600.0	0.1450428564	-0.1298780013	
600.625	0.1171597919	-0.1605446305	
601.25	0.04997346824	-0.1712056891	
601.875	-0.07199005097	-0.1249587086	
602.5	-0.1150955534	-0.01365152151	
603.125	-0.0971894173	0.04325746663	
603.75	-0.09345050258	0.06452206537	
604.375	-0.08643849488	0.06764225069	
605.0	-0.06014051542	0.06905287437	
605.625	-0.062872433	0.0556994547	
606.25	-0.1005245345	0.05755805699	
606.875	-0.1493128055	0.08010263453	
607.5	-0.1442404532	0.1618725024	
608.125	-0.0251434813	0.2185064793	
608.75	0.1615062443	0.1520482282	
609.375	0.2119149597	-0.02854439141	
610.0	0.1487480508	-0.1093407397	
610.625	0.0752406619	-0.1443177342	
611.25	0.00294042984	-0.1435692145	
611.875	-0.07760225205	-0.1108197339	
612.5	-0.1471560315	-0.05747762836	
613.125	-0.1705814527	0.03354756694	
613.75	-0.08012697336	0.1316614824	
614.375	0.04167636206	0.09777814935	
615.0	0.03607796396	0.03858250156	
615.625	-0.001889081575	0.07631010181	
616.25	-0.03554759314	0.129102055	
616.875	-0.07030151632	0.1692078672	
617.5	-0.0581960212	0.1979839971	
618.125	-0.01474275818	0.1948266874	
618.75	0.0226107758	0.1717887495	
619.375	0.08469321283	0.1479349691	
620.0	0.1710300983	0.0433208221	
620.625	0.1019664863	-0.1394539824	
621.25	-0.07812937546	-0.1675986895	
621.875	-0.184163796	-0.07806008164	
622.5	-0.1953774462	0.05390174608	
623.125	-0.03635020555	0.1685784885	
623.75	0.1178120539	0.03983833181	
624.375	0.03659377641	-0.04736109958	
625.0	0.03634229716	-0.02448207074	
625.625	0.0459115459	-0.08065541605	
626.25	-0.04389290629	-0.1248832184	
626.875	-0.1254623014	-0.07701171211	
627.5	-0.13179516	-0.03816300583	
628.125	-0.1010828414	-0.0613640442	
628.75	-0.06778931189	-0.1096413756	
629.375	-0.08425996832	-0.1354871932	
630.0	-0.1692111397	-0.08898109008	
630.625	-0.2010099269	0.05864419662	
631.25	-0.1296532187	0.17622392	
631.875	-0.02141213493	0.2243198002	
632.5	0.1300888785	0.1786054131	
633.125	0.1898011318	0.04895217561	
633.75	0.1532464652	-0.05959929041	
634.375	0.05944183504	-0.1244360518	
635.0	-0.01048033752	-0.136270695	
635.625	-0.1303914968	-0.08469225529	
636.25	-0.1439901906	0.06279815213	
636.875	-0.06092373332	0.1142522743	
637.5	-0.03402794212	0.08060383482	
638.125	-0.06052079692	0.07926804982	
638.75	-0.0662699186	0.1501760171	
639.375	-0.002312645948	0.2253173022	
640.0	0.1231756853	0.2210943607	
640.625	0.2142969904	0.1364105051	
641.25	0.2505950006	0.001317413043	
641.875	0.159672837	-0.1653938834	
642.5	-0.003699841432	-0.1934264562	
643.125	-0.1072491468	-0.1126708735	
643.75	-0.1204131331	-0.069738799	
644.375	-0.1615998401	-0.002965663237	
645.0	-0.1358982458	0.1389093337	
645.625	0.04824827155	0.1956295738	
646.25	0.1498953222	0.07022699492	
646.875	0.09001166509	-0.01559471578	
647.5	0.04968984355	0.03038085942	
648.125	0.1434262919	0.04930234185	
648.75	0.237878369	-0.06074400637	
649.375	0.2016571817	-0.2175531536	
650.0	0.1444811001	-0.2710449804	
650.625	0.1356431814	-0.2541772547	
651.25	0.1759707131	-0.2114580984	
651.875	0.2256858227	-0.1495104583	
652.5	0.2478088489	-0.08426185349	
653.125	0.2448664222	-0.09298828976	
653.75	0.1846393655	-0.1999745835	
654.375	-0.03886853514	-0.2789525872	
655.0	-0.2558721269	-0.09601502886	
655.625	-0.1678196135	0.1591643273	
656.25	0.02442657998	0.1580218548	
656.875	0.04552757555	0.06332309373	
657.5	0.03046869465	0.09487722902	
658.125	0.1260196284	0.1479443032	
658.75	0.2640501896	0.07621747208	
659.375	0.2954107457	-0.1234020974	
660.0	0.2051055211	-0.2617226302	
660.625	0.126712916	-0.2937408817	
661.25	0.1430270504	-0.2637769321	
661.875	0.1912553613	-0.224439609	
662.5	0.2334787434	-0.1785909665	
663.125	0.237083359	-0.1727996246	
663.75	0.1501743393	-0.2504219492	
664.375	-0.02774435981	-0.2986423844	
665.0	-0.2370891275	-0.1951679025	
665.625	-0.2866394178	0.06952388726	
666.25	-0.09865446957	0.240617906	
666.875	0.09969569234	0.1910991151	
667.5	0.1648016015	0.08968131237	
668.125	0.1983092317	-0.008009083861	
668.75	0.1754373766	-0.124039074	
669.375	0.09053161267	-0.1985559913	
670.0	0.008724679633	-0.1998473737	
670.625	0.006283660307	-0.171894885	
671.25	0.05236326259	-0.1585992401	
671.875	0.1220705725	-0.1517500054	
672.5	0.1821720823	-0.1317818868	
673.125	0.1898299447	-0.1518101697	
673.75	0.1470737026	-0.1941711438	
674.375	0.05348226381	-0.2327808324	
675.0	-0.07110654735	-0.2183842904	
675.625	-0.1636132523	-0.1231354404	
676.25	-0.1619852082	-0.02949405694	
676.875	-0.1319057456	0.001900993	
677.5	-0.1386640029	0.01818655882	
678.125	-0.1336422009	0.122180651	
678.75	0.01931456349	0.2030766255	
679.375	0.1853153825	0.07652473256	
680.0	0.1362024239	-0.07713419487	
680.625	0.06291130214	-0.07271420455	
681.25	0.0813929181	-0.01002265672	
681.875	0.1353347394	0.04351066317	
682.5	0.1817234448	0.07986267418	
683.125	0.2172912827	0.07235019298	
683.75	0.2347766817	0.06437821243	
684.375	0.2474411604	0.04132277376	
685.0	0.2527249202	0.04109727998	
685.625	0.2600623251	0.01164545532	
686.25	0.2663861334	-0.03043205955	
686.875	0.2784588336	-0.1201841442	
687.5	0.2403780462	-0.2526860727	
688.125	-0.002510492502	-0.3929729672	
688.75	-0.3602683115	-0.1931270533	
689.375	-0.2743958133	0.2676147345	
690.0	0.07644915061	0.319914866	
690.625	0.2059437941	0.2306981151	
691.25	0.2809873342	0.2460713353	
691.875	0.4039756574	0.2775763263	
692.5	0.5386542935	0.1885155698	
693.125	0.5926750985	-0.01937260733	
693.75	0.5266382822	-0.216473	
694.375	0.3889631095	-0.3482130956	
695.0	0.3992887373	-0.2563791774	
695.625	0.4498485065	-0.07754538179	
696.25	0.4388725034	0.1506511523	
696.875	0.3416874312	0.3468155098	
697.5	0.330445988	0.4060800608	
698.125	0.4894024975	0.2287969205	
698.75	0.4168822127	-0.3330492795	
699.375	-0.3115442834	-0.3708091052	
700.0	-0.2722474669	0.2842891332	
700.625	0.1109512456	0.2694148609	
701.25	0.1975908801	0.1657093401	
701.875	0.2310183393	0.2038709332	
702.5	0.3065736284	0.2082390597	
703.125	0.3701968618	0.1042269726	
703.75	0.3450086483	-0.09055637606	
704.375	0.24612184	-0.1719765939	
705.0	0.2104044605	-0.1224717704	
705.625	0.2326137018	-0.003408512474	
706.25	0.222723493	0.1547786756	
706.875	0.2040002694	0.2571235082	
707.5	0.2297894389	0.3123773461	
708.125	0.3798918201	0.1361800525	
708.75	0.2807156054	-0.2822214627	
709.375	-0.2113132599	-0.2693630919	
710.0	-0.1783130588	0.1693731635	
710.625	0.04810773324	0.1369560022	
711.25	0.0758307219	0.1076660399	
711.875	0.1809893577	0.1072194316	
712.5	0.2722374418	-0.01531316323	
713.125	0.2341306802	-0.1485245812	
713.75	0.1230901227	-0.2186287402	
714.375	0.0125276296	-0.2118386786	
715.0	-0.02313183467	-0.1788327996	
715.625	0.01359814338	-0.1894840979	
716.25	0.1316928471	-0.2079619536	
716.875	0.2851738911	-0.1584554367	
717.5	0.434672723	-0.0293670267	
718.125	0.5556319405	0.05083781867	
718.75	0.6459305849	-0.06543411929	
719.375	0.6507315467	-0.3281050796	
720.0	0.4404268962	-0.6658538278	
720.625	0.2229717806	-0.766677968	
721.25	-0.008577608378	-0.8346270496	
721.875	-0.1732817193	-0.8426261504	
722.5	-0.5020894999	-0.6718437876	
723.125	-0.6609186961	-0.140657776	
723.75	-0.3632730814	0.3688756255	
724.375	0.01881033671	0.4009228772	
725.0	0.1502850448	0.3193564653	
725.625	0.1563268079	0.3875351803	
726.25	0.04715128239	0.5680635882	
726.875	-0.05318869116	0.7934458223	
727.5	-0.1054000273	1.12509476	
728.125	-0.04555719502	1.5887962	
728.75	-0.1597682532	2.171102781	
729.375	-0.5260025179	2.835444523	
730.0	0.01251621793	3.045225772	
730.625	-0.08551521685	3.135740628	
731.25	-0.8426205181	3.035552246	
731.875	-2.120542678	2.011856806	
732.5	-2.673434351	0.7070293661	
733.125	-2.026935946	0.3048267647	
733.75	-0.7748000523	1.058403253	
734.375	0.6758314418	0.4335454577	
735.0	0.03203315235	-0.5273878744	
735.625	-0.4076052619	0.07563658788	
736.25	-0.06553559933	0.4432453321	
736.875	0.3495919355	0.4766520154	
737.5	0.8637092194	0.1580736466	
738.125	1.1924404	-0.3191266592	
738.75	1.423620702	-0.9506290302	
739.375	1.764342464	-1.298308155	
740.0	2.302782246	-1.013812207	
740.625	2.332334827	0.2546657725	
741.25	0.370926614	1.694573524	
741.875	-2.382615879	0.2604850123	
742.5	-1.248695945	-1.8196566	
743.125	0.05222517795	-1.489265898	
743.75	0.02215312683	-0.8368105497	
744.375	-0.3263493448	-0.1044221716	
745.0	0.01377058106	0.1072723631	
745.625	0.05085969625	0.009086852879	
746.25	-0.003954233121	-0.1170512201	
746.875	-0.2058663283	0.01135968725	
747.5	-0.09110651393	0.2840904353	
748.125	0.07485165484	0.4230895847	
748.75	0.219197063	0.3641349148	
749.375	0.1207025832	0.3893657219	
750.0	-0.2926301936	0.274477989	
