!Created with skrf (http://scikit-rf.org).
# GHz S RI R (50+0j) 
!freq	ReS11	ImS11	
500.0	-0.3124868219	-0.6864534879	
500.625	0.5636843543	-0.5308363975	
501.25	-0.6256443467	-0.7363682323	
501.875	-0.2249050421	-0.1614737003	
502.5	0.03404710595	-0.1229021701	
503.125	-0.09203258719	0.03027036067	
503.75	0.01399000569	0.02027892493	
504.375	0.04194305477	0.007805758665	
505.0	-0.02119496719	-0.005405784073	
505.625	0.04058194017	-0.0703140533	
506.25	-0.1159097196	0.01804860832	
506.875	0.03530486214	-0.138710533	
507.5	-0.2864483623	-0.5010213376	
508.125	0.08777696027	-0.1259123536	
508.75	0.8180757374	-0.6340961742	
509.375	-0.3346321199	-1.29727532	
510.0	-0.2047622864	-0.06551053054	
510.625	-0.05555697932	-0.2416775914	
511.25	-0.09855644615	0.009209543932	
511.875	-0.02571685549	-0.0502125469	
512.5	-0.01934034987	0.04793369525	
513.125	-0.04538790204	-0.01750244816	
513.75	0.00197101503	-0.05758735544	
514.375	-0.1722341694	0.005310488093	
515.0	0.1974748609	0.09914456669	
515.625	-0.5431178184	-0.4753620427	
516.25	-0.03234393267	-0.06560303182	
516.875	0.02644285904	-0.6864686948	
517.5	-0.1404261021	-0.1958784979	
518.125	0.01915576338	-0.07748982826	
518.75	-0.1050134607	-0.1922913269	
519.375	-0.0306606927	0.02129155232	
520.0	0.07079527823	0.06330134149	
520.625	0.1326292049	-0.06306114112	
521.25	-0.0912889809	-0.1613019169	
521.875	-0.06594782351	-0.05967382056	
522.5	-0.1060835512	0.07054167346	
523.125	0.02001633931	0.06833615326	
523.75	-0.178957642	-0.05693359185	
524.375	-0.1101047724	0.1556256059	
525.0	-0.02106898411	-0.007239405329	
525.625	-0.008911795722	0.1167287982	
526.25	-0.0006281140566	-0.09144709278	
526.875	-0.0321622288	0.106774426	
527.5	-0.003208480442	0.06258880695	
528.125	-0.02682775372	0.2637524089	
528.75	0.1354042547	0.2349801843	
529.375	-0.006702540545	0.05832313254	
530.0	0.02564943299	0.1085396775	
530.625	0.1713871495	0.1649766077	
531.25	0.1616298554	0.1590646261	
531.875	0.2965881081	-0.1214212658	
532.5	-0.1602539196	-0.09728540256	
533.125	0.173412578	-0.08611461399	
533.75	-0.006369234453	-0.08597438642	
534.375	0.05598456056	-0.2112262718	
535.0	-0.2684431749	-0.04452534308	
535.625	-0.06865056075	0.07432758311	
536.25	-0.03151744123	0.08805451715	
536.875	0.1134824542	0.002634957465	
537.5	0.02343410521	-0.02850190525	
538.125	0.1490280493	-0.02962744583	
538.75	0.05925086705	-0.1486986274	
539.375	-0.025831895	-0.1257833892	
540.0	-0.1682030862	-0.1676902474	
540.625	-0.1148966044	0.0355253031	
541.25	-0.05863432357	-0.05796040958	
541.875	-0.09541888446	0.007890462526	
542.5	-0.04154131538	0.0344896886	
543.125	-0.08900048558	-0.08902746321	
543.75	-0.07287213439	0.06026112517	
544.375	-0.01065668778	-0.04094898693	
545.0	0.01498708716	0.09360882553	
545.625	0.008633292491	-0.01596313113	
546.25	0.1038635153	0.08410203091	
546.875	0.07489187235	-0.07873166109	
547.5	0.07530432958	-0.05665281728	
548.125	-0.04101358347	-0.190974767	
548.75	-0.1283883023	-0.05250579661	
549.375	-0.04048544868	-0.06443389863	
550.0	-0.109139224	0.006092930047	
550.625	-0.009365673584	0.0131459549	
551.25	-0.09926471495	0.01553566654	
551.875	-0.04362819364	0.08029151934	
552.5	-0.04784524195	0.04607507984	
553.125	-0.001787701565	0.06990956413	
553.75	0.03167404685	0.03443395918	
554.375	0.08766497591	0.01079590322	
555.0	0.08482207244	-0.07134172457	
555.625	0.07020194655	-0.08857464629	
556.25	0.05966257104	-0.1253832973	
556.875	-0.03440044934	-0.1434288745	
557.5	-0.08809204621	-0.08793723277	
558.125	-0.1024624563	-0.03829640425	
558.75	-0.1052826928	-0.0008537962813	
559.375	-0.09285705346	0.02786335197	
560.0	-0.08946627422	0.05688627142	
560.625	-0.05553094757	0.1208471614	
561.25	0.02584342661	0.07664701208	
561.875	0.0009007803797	0.05833948443	
562.5	0.0362775887	0.0312868138	
563.125	0.03698764343	0.08959962156	
563.75	0.1586408205	-0.02063812921	
564.375	0.07084630976	-0.07846739133	
565.0	0.1103602615	-0.1149842071	
565.625	-0.07480109605	-0.1806277768	
566.25	-0.0807975001	-0.04939060921	
566.875	-0.1183475035	-0.125734824	
567.5	-0.1709186057	-0.06211794823	
568.125	-0.01604523686	-0.1019645549	
568.75	-0.2603256796	-0.09733615478	
569.375	-0.1510161403	0.1219089856	
570.0	-0.1619271342	0.1143826385	
570.625	-0.00330437175	0.2724065919	
571.25	0.03768344899	0.02030234676	
571.875	0.03751631102	0.1317190543	
572.5	0.1258169816	-0.0786928736	
573.125	0.04342489162	0.009174989031	
573.75	0.1209498402	-0.1368719186	
574.375	-0.07471842806	-0.0696462605	
575.0	0.09884840766	0.001323635054	
575.625	-0.05273963119	-0.09048227025	
576.25	0.07157174758	-0.01162413487	
576.875	0.02027769537	-0.2064530677	
577.5	-0.0826071784	-0.1319319638	
578.125	0.01295297438	-0.0449444184	
578.75	-0.02820552576	-0.196641242	
579.375	-0.1824065532	-0.01728217158	
580.0	0.05787297478	-0.0175465223	
580.625	-0.2100926905	-0.006846944699	
581.25	0.02545892997	0.03903076233	
581.875	-0.09003010084	0.1566373699	
582.5	0.1752410808	0.1558392513	
583.125	0.001476142933	-0.03084879374	
583.75	0.05434971524	0.1161013636	
584.375	0.05938464106	-0.04823470348	
585.0	0.03455782404	0.1534488639	
585.625	0.2326547197	-0.04391786336	
586.25	0.05261794437	-0.09266168893	
586.875	0.127259236	-0.06652832668	
587.5	-0.08071899008	-0.1796314095	
588.125	0.009902257808	-0.04060128534	
588.75	0.08465866988	-0.1856545994	
589.375	-0.03139596726	-0.1625619007	
590.0	0.02674780973	-0.0802184765	
590.625	-0.2449174938	-0.1083561568	
591.25	-0.03042525004	0.1861863549	
591.875	-0.04553551656	0.002234852723	
592.5	0.005359809695	0.1668505066	
593.125	-0.03246287919	-0.05204473114	
593.75	0.1040222512	0.1814291426	
594.375	0.1300392993	-0.01616056524	
595.0	0.09169768091	0.1858102229	
595.625	0.2361891978	0.1005559278	
596.25	0.07562640863	-0.03779031973	
596.875	0.1057351381	0.1164685237	
597.5	0.2092848728	0.05201326671	
598.125	0.09044369441	0.03902370926	
598.75	0.1495633945	0.1436078478	
599.375	0.2226753998	-0.1103819198	
600.0	0.1010801548	-0.07724427339	
600.625	0.1660446872	-0.1608339991	
601.25	0.009669131106	-0.2265948312	
601.875	-0.04765814415	-0.04140846524	
602.5	-0.1688670551	-0.1223969639	
603.125	-0.07998601967	0.1351508405	
603.75	-0.07664694859	-0.07984457461	
604.375	-0.1850295322	0.08532463374	
605.0	0.02294200025	0.1221631487	
605.625	-0.1620882149	-0.003469673649	
606.25	-0.0261893759	0.1343425971	
606.875	-0.08032363116	0.004071383202	
607.5	-0.2448188095	0.179301151	
608.125	0.07214336743	0.2461073666	
608.75	0.1730061577	0.2061396406	
609.375	0.2671608074	0.01819368651	
610.0	0.1342436779	-0.2023770344	
610.625	0.03839707437	-0.08090433498	
611.25	0.05613245839	-0.1636138259	
611.875	-0.122828937	-0.03136179954	
612.5	-0.08046160878	-0.1292250237	
613.125	-0.2668415728	0.04141551928	
613.75	0.03379939346	0.1226383974	
614.375	-0.09215631897	0.1427048482	
615.0	0.1390195463	0.06457904108	
615.625	-0.07251356898	0.006554403832	
616.25	-0.110670403	0.2084777713	
616.875	-0.04861457638	0.07091592482	
617.5	-0.1216053302	0.126272662	
618.125	0.03162876726	0.213848023	
618.75	0.1132876266	0.1154976035	
619.375	0.1790930838	0.07435163108	
620.0	0.2454789454	0.03279712343	
620.625	0.08258301549	-0.2237370788	
621.25	-0.03925448072	-0.1156077411	
621.875	-0.2475806855	-0.1849105432	
622.5	-0.1453241661	0.1131010807	
623.125	-0.09764036276	0.1088985199	
623.75	0.1951515793	0.03910701982	
624.375	-0.07957658749	-0.05233393875	
625.0	0.1080090027	-0.03862292629	
625.625	-0.0352954525	-0.06053827366	
626.25	0.02947925008	-0.1158899356	
626.875	-0.1768591211	-0.1129813502	
627.5	-0.1253705878	0.0356019491	
628.125	-0.03500825532	-0.094393902	
628.75	-0.08997567086	-0.1264173737	
629.375	-0.0863876857	-0.1009106864	
630.0	-0.1257320751	-0.1110091959	
630.625	-0.2176419973	0.1279530208	
631.25	-0.08521740199	0.1110340894	
631.875	-0.09244033018	0.1746971038	
632.5	0.1866611275	0.1841029912	
633.125	0.1457971979	0.008913973069	
633.75	0.1581636078	0.05091114324	
634.375	0.03309676432	-0.2141247952	
635.0	0.0005079698596	0.009308973144	
635.625	-0.1448084994	-0.1646100608	
636.25	-0.1098898426	0.1293917866	
636.875	-0.05287769574	0.02766647537	
637.5	-0.08519065056	0.1772973834	
638.125	0.00958690606	0.01087554413	
638.75	-0.1484872502	0.165458445	
639.375	0.07702803917	0.2950475361	
640.0	0.1198463151	0.1170411575	
640.625	0.1532340121	0.2021383421	
641.25	0.3304095548	-0.03013140659	
641.875	0.04070094588	-0.2246431836	
642.5	0.1117851939	-0.1242499716	
643.125	-0.2273076786	-0.1128221817	
643.75	-0.007070050868	-0.05670911398	
644.375	-0.2865576459	-0.0960296973	
645.0	-0.01082324405	0.2783019094	
645.625	-0.09291831735	0.06336816914	
646.25	0.2283669981	0.2153547282	
646.875	0.03569235898	-0.2038280962	
647.5	0.02343469082	0.1533638706	
648.125	0.2042474306	-0.09208633283	
648.75	0.06752649205	-0.01052614508	
649.375	0.3681429382	-0.2310734043	
650.0	0.01583199269	-0.3606779629	
650.625	0.1178509264	-0.07138581311	
651.25	0.3276134753	-0.2490541291	
651.875	0.1211442593	-0.2773174452	
652.5	0.1592515838	0.04804119367	
653.125	0.394540403	-0.09462272639	
653.75	0.06071938452	-0.2855164337	
654.375	0.05590500327	-0.1242590703	
655.0	-0.3859143239	-0.1887601251	
655.625	0.002007669639	0.3141816212	
656.25	-0.05709167661	0.02900971678	
656.875	0.1177250873	0.1724812592	
657.5	-0.04156831696	-0.09143528972	
658.125	0.1496516039	0.3704180694	
658.75	0.3226779986	-0.05597860273	
659.375	0.165951251	-0.07733557218	
660.0	0.3813530401	-0.2497973372	
660.625	-0.003375437572	-0.4186530155	
661.25	0.1345833252	-0.09662248934	
661.875	0.3209524815	-0.2726330241	
662.5	0.1539792536	-0.2908524526	
663.125	0.1579062282	-0.04562218463	
663.75	0.2537480227	-0.3159701164	
664.375	-0.1537090964	-0.2742082261	
665.0	-0.1331671555	-0.1786168847	
665.625	-0.3823568968	0.05011910712	
666.25	0.02483550783	0.2723166176	
666.875	-0.01969726847	0.1567724334	
667.5	0.2560601967	0.1131658828	
668.125	0.07809958804	-0.1265920626	
668.75	0.2189787263	0.007308845896	
669.375	0.08880823079	-0.3127574112	
670.0	-0.06585327379	-0.1098731571	
670.625	0.1500684698	-0.2269324064	
671.25	0.00197981801	-0.2650266507	
671.875	0.03543652599	-0.06409902837	
672.5	0.3361585603	-0.1863517652	
673.125	0.06437193945	-0.1939301376	
673.75	0.1407286353	-0.09049337178	
674.375	0.1276788199	-0.3072493631	
675.0	-0.2126453893	-0.2016990643	
675.625	-0.02344511243	-0.1436695225	
676.25	-0.2467444914	-0.1114446724	
676.875	-0.1304753039	0.1147152518	
677.5	-0.06250562402	-0.07695135335	
678.125	-0.2295859572	0.2254252634	
678.75	0.1168556307	0.099615005	
679.375	0.09587843782	0.163823021	
680.0	0.2759671486	-0.1876918645	
680.625	-0.1541127589	-0.03327536964	
681.25	0.3232169164	0.09997646303	
681.875	0.1668071084	-0.1506253789	
682.5	0.008876795715	0.095311466	
683.125	0.305381719	0.2530083163	
683.75	0.2055900817	-0.2207897087	
684.375	0.05786599435	0.124991733	
685.0	0.3997713012	0.1014346783	
685.625	0.2351648622	-0.1387842226	
686.25	0.1917162276	0.1393672808	
686.875	0.4377377788	-0.2735097623	
687.5	0.05177193488	-0.2050617771	
688.125	0.1112222948	-0.3842371514	
688.75	-0.4934504262	-0.2169054943	
689.375	-0.09001368872	0.3296481752	
690.0	-0.1117242742	0.315465509	
690.625	0.3979585157	0.2905310179	
691.25	0.1889306175	0.07774085629	
691.875	0.3913029478	0.6234705401	
692.5	0.7208868314	-0.0004027091498	
693.125	0.3938322307	-0.01985000161	
693.75	0.694574525	-0.1451954115	
694.375	0.1970317195	-0.538077296	
695.0	0.2505757257	-0.1099931501	
695.625	0.6766768277	-0.02403386598	
696.25	0.3337631547	0.0554016305	
696.875	0.2015338829	0.2699058869	
697.5	0.3551842156	0.3562678692	
698.125	0.5549942021	0.03581507473	
698.75	0.3331106258	-0.2950175651	
699.375	-0.2993956656	-0.4083743015	
700.0	-0.2079478084	0.4174264002	
700.625	0.03841316999	0.1269544266	
701.25	0.2235838063	0.3270203922	
701.875	0.269953892	0.02800565057	
702.5	0.166256099	0.2918125908	
703.125	0.4938148331	0.1422582125	
703.75	0.2518253501	-0.2219331719	
704.375	0.2540361959	-0.01447279335	
705.0	0.2307466459	-0.2395070973	
705.625	0.1189700184	-0.06754506719	
706.25	0.1575317865	0.2732054345	
706.875	0.2347217686	0.198632739	
707.5	0.1715257677	0.2067710427	
708.125	0.3528790496	0.08713162153	
708.75	0.2694583113	-0.3730485196	
709.375	-0.3884110701	-0.2283517802	
710.0	-0.2924247876	0.08902063501	
710.625	0.08868965024	0.3952568521	
711.25	0.008620824277	0.06312064724	
711.875	0.2568928786	0.2201340165	
712.5	0.264210318	-0.1681332974	
713.125	0.1910684993	-0.02456762105	
713.75	0.2035667878	-0.2675649299	
714.375	-0.08974678301	-0.2172890733	
715.0	0.04985391113	-0.1039719134	
715.625	0.02169806609	-0.2752591464	
716.25	0.001064930973	-0.1635122167	
716.875	0.3517514765	-0.02995741043	
717.5	0.542072421	-0.092925945	
718.125	0.3071047087	-0.06327375861	
718.75	0.5340692392	0.08414202072	
719.375	0.6589447607	-0.5273438197	
720.0	0.1663056036	-0.4164288402	
720.625	0.5493547454	-0.8334228328	
721.25	-0.2030158761	-1.662277797	
721.875	-0.1104337192	-0.5302602941	
722.5	-0.2719293455	-1.026029235	
723.125	-0.8783426723	0.05729383207	
723.75	-0.09564455883	0.159323553	
724.375	-0.1747877093	0.5257581286	
725.0	0.3630723121	0.1907022942	
725.625	0.003400717371	0.3180568593	
726.25	0.009833548311	0.7941820043	
726.875	0.2436258432	0.8016327049	
727.5	-0.2702496444	0.7572170857	
728.125	-0.358501871	2.013350058	
728.75	0.7009994805	2.154073915	
729.375	-0.7314046926	1.577142434	
730.0	-0.7801397327	4.37839287	
730.625	1.4906126	2.330747167	
731.25	-1.641080493	2.032578174	
731.875	-3.870030255	2.529837486	
732.5	-1.750626706	1.86191011	
733.125	-1.724085383	-0.4615101927	
733.75	-0.8947736435	1.534114031	
734.375	0.7111100146	-0.1806768205	
735.0	0.2289338633	-0.2257072226	
735.625	-0.8645705788	0.2793310078	
736.25	0.1065456227	0.1842398283	
736.875	0.1689749468	0.9340788438	
737.5	1.279674587	-0.04760440819	
738.125	0.617631437	-0.5722168985	
738.75	1.821955199	0.03325661184	
739.375	2.627241951	-3.130410414	
740.0	0.02167115943	-1.447612376	
740.625	2.455540956	2.561820681	
741.25	4.722923064	2.716010678	
741.875	0.1862849299	-1.873790093	
742.5	-1.606746038	-3.350259894	
743.125	-0.7281004746	-1.691364999	
743.75	0.1620697273	-0.06990418694	
744.375	-0.5757040149	-0.4144703252	
745.0	0.1924583821	0.04974347106	
745.625	0.06921885312	0.08826664972	
746.25	-0.1406021998	-0.1571142577	
746.875	-0.1097982228	0.0005675832256	
747.5	-0.2181657716	0.4077378906	
748.125	0.2420450755	0.4383409881	
748.75	0.1623304587	0.2919402129	
749.375	0.04171667729	0.5010577794	
750.0	-0.2552202901	0.2893681843	
