!Created with skrf (http://scikit-rf.org).
# GHz S RI R (50+0j) 
!freq	ReS11	ImS11	
500.0	0.1394834751	-0.9456207213	
500.625	0.2408236285	-0.9741263863	
501.25	-0.4356399023	-0.5869682249	
501.875	-0.2725898817	-0.398436987	
502.5	-0.05050137934	-0.1226501434	
503.125	-0.07239521837	0.009202183185	
503.75	0.01481559682	0.07851859636	
504.375	0.02637286867	-0.006507551367	
505.0	0.01927452263	-0.02204420724	
505.625	-0.002610007489	-0.0510074702	
506.25	-0.06078815329	-0.0570454463	
506.875	-0.1244535186	0.01448170299	
507.5	-0.092424574	-0.3286692156	
508.125	0.1253175105	-0.6236461997	
508.75	0.5353803197	-0.9374768472	
509.375	-0.1576675393	-1.059653022	
510.0	-0.5126249396	-0.3557883509	
510.625	-0.1281150632	-0.1801856333	
511.25	-0.1041412472	-0.02870649893	
511.875	-0.1244948125	-0.03374840549	
512.5	-0.02326545284	0.0261255519	
513.125	0.005780267598	-0.06356029649	
513.75	-0.05211981506	-0.03353783583	
514.375	-0.05641963604	-0.005796354467	
515.0	-0.007297997091	-0.04488499492	
515.625	0.05178847929	-0.3793396244	
516.25	-0.2234556207	-0.6644966062	
516.875	-0.2229919725	-0.3894060464	
517.5	-0.0366123581	-0.1507647822	
518.125	-0.0310405117	-0.03081164447	
518.75	-0.03501971273	-0.1259266129	
519.375	-0.05599626323	0.04306890966	
520.0	0.1094872736	0.05357050571	
520.625	0.1502545997	-0.06321077118	
521.25	-0.03440079365	-0.2509476134	
521.875	-0.1419241916	-0.01820369425	
522.5	-0.04656542144	0.02691755839	
523.125	-0.05727936537	0.02706063235	
523.75	-0.1058109381	-0.007766144616	
524.375	-0.1501943614	0.03928206843	
525.0	-0.03670820567	0.1343531401	
525.625	0.03515328048	0.04450416334	
526.25	-0.01276816252	-0.01296271012	
526.875	-0.05043000344	0.05220037984	
527.5	-0.04397450914	0.182296428	
528.125	0.06123405169	0.2493593556	
528.75	0.02733458688	0.2092929296	
529.375	0.04002707939	0.06431963499	
530.0	0.03133342665	0.1519776442	
530.625	0.1275140629	0.2829969041	
531.25	0.4058565794	0.08050909932	
531.875	0.206173492	-0.1859172202	
532.5	-0.05373956861	-0.1045231736	
533.125	0.04954571484	-0.05613765167	
533.75	0.08527223293	-0.1868897796	
534.375	-0.09924182637	-0.2698976708	
535.0	-0.2422571814	-0.08759779426	
535.625	-0.1593987163	0.1184511068	
536.25	3.477414309e-06	0.09640108861	
536.875	0.09433936774	0.01416346822	
537.5	0.06674399819	-0.04237930126	
538.125	0.1135497134	-0.06070838843	
538.75	0.1260402902	-0.1212791671	
539.375	-0.07447988356	-0.1659652559	
540.0	-0.1641532472	-0.144836859	
540.625	-0.1658581209	-0.01969687915	
541.25	-0.08709264181	0.007741866188	
541.875	-0.04477740382	-0.02061410808	
542.5	-0.04675292879	-0.050210529	
543.125	-0.08160762253	-0.04083736104	
543.75	-0.08491373104	0.001711847285	
544.375	-0.0441120153	0.04457943922	
545.0	-0.001575743988	0.05833507278	
545.625	0.05514238815	0.06090481378	
546.25	0.09808058536	0.03294396508	
546.875	0.1179655863	-0.03146897112	
547.5	0.06619375778	-0.1252553623	
548.125	-0.04606909554	-0.1627742612	
548.75	-0.1254366138	-0.1121235313	
549.375	-0.115015746	-0.06664245155	
550.0	-0.07684160476	0.009994260603	
550.625	-0.05373155351	0.009355823364	
551.25	-0.07699058992	0.03149880282	
551.875	-0.0693803104	0.07254158199	
552.5	-0.04098127516	0.07964670532	
553.125	-0.01150105141	0.06221818502	
553.75	0.05118367255	0.04562610194	
554.375	0.09686855276	-0.0074988123	
555.0	0.09833482746	-0.07855006647	
555.625	0.08232498642	-0.1156305735	
556.25	0.06152836505	-0.1492623229	
556.875	-0.04372081887	-0.1649218368	
557.5	-0.1067468157	-0.1054800573	
558.125	-0.1225100494	-0.03818089314	
558.75	-0.1158815008	-0.0004832804006	
559.375	-0.1145827602	0.02396003519	
560.0	-0.09969189135	0.07994655464	
560.625	-0.05229147611	0.1183505714	
561.25	0.008388047647	0.1027685159	
561.875	0.03094499471	0.04624909537	
562.5	0.01232652765	0.05381718583	
563.125	0.07520215399	0.07296983314	
563.75	0.1446801658	-0.002416099467	
564.375	0.1279779567	-0.1041815802	
565.0	0.06928222871	-0.1557160455	
565.625	-0.03745099951	-0.1605519228	
566.25	-0.1209031398	-0.1075446647	
566.875	-0.1447486007	-0.07603338485	
567.5	-0.144616294	-0.1082608604	
568.125	-0.1480638189	-0.1608072467	
568.75	-0.2317899638	-0.0772042145	
569.375	-0.2367858091	0.1043190613	
570.0	-0.1212173937	0.2047491723	
570.625	-0.0581237077	0.1765449794	
571.25	-0.0004101548399	0.1198289414	
571.875	0.05955017513	0.07607128986	
572.5	0.1285625569	-0.003253796742	
573.125	0.08788399198	-0.1161471389	
573.75	0.04231277588	-0.1151799354	
574.375	0.01110360656	-0.07038643962	
575.0	0.02775069583	-0.03995721255	
575.625	0.03814315017	-0.07568177307	
576.25	0.04667210624	-0.1136292158	
576.875	-0.007174896885	-0.1448224104	
577.5	-0.006023058317	-0.1628573956	
578.125	-0.04935572358	-0.1605897254	
578.75	-0.08995749298	-0.1224887146	
579.375	-0.08971785507	-0.06474100322	
580.0	-0.054588897	-0.03012443101	
580.625	-0.07253088225	-0.0274655836	
581.25	-0.1021623786	0.08048563928	
581.875	0.01228520013	0.1580550182	
582.5	0.06248068337	0.1397622282	
583.125	0.07966158524	0.07530893865	
583.75	0.04136038122	0.02060632011	
584.375	0.03763613064	0.05765522811	
585.0	0.1139839663	0.05412113956	
585.625	0.1578199298	-0.009220735464	
586.25	0.1495617401	-0.07327303751	
586.875	0.06715154696	-0.1401978989	
587.5	-0.01905474748	-0.1427300429	
588.125	-0.02297908571	-0.1414234925	
588.75	0.0305471293	-0.1478343389	
589.375	0.06355330521	-0.1577549124	
590.0	-0.06288707819	-0.1758347534	
590.625	-0.1878905547	-0.03554047652	
591.25	-0.1272702025	0.1183102483	
591.875	-0.0320054283	0.1209624508	
592.5	0.008582466134	0.04955204215	
593.125	-0.02994947454	0.05190238399	
593.75	0.05800159303	0.1195064806	
594.375	0.1560542348	0.09664615973	
595.0	0.1743463746	0.09660888934	
595.625	0.174357364	0.07705813881	
596.25	0.1627789384	0.04024533221	
596.875	0.1614696219	0.03253865279	
597.5	0.1521367097	0.07801828233	
598.125	0.1562784563	0.1078887899	
598.75	0.1848436011	0.07530485728	
599.375	0.2123526987	-0.04942133479	
600.0	0.1587078517	-0.156862206	
600.625	0.1295735356	-0.186747101	
601.25	0.05647630167	-0.1962594935	
601.875	-0.0865020212	-0.1402901556	
602.5	-0.1307239296	-0.009879801437	
603.125	-0.1081455774	0.05463555302	
603.75	-0.1038256246	0.07857354967	
604.375	-0.09629268454	0.07969705048	
605.0	-0.06745704202	0.08073767011	
605.625	-0.07059553047	0.06573214102	
606.25	-0.111067553	0.06809003119	
606.875	-0.1705908003	0.0956590244	
607.5	-0.155782481	0.1906858978	
608.125	-0.01462932367	0.2530985212	
608.75	0.1956121151	0.1600045233	
609.375	0.2367062709	-0.05071532201	
610.0	0.1609140457	-0.1332927348	
610.625	0.07899331105	-0.1671024797	
611.25	-0.001549237615	-0.1628864351	
611.875	-0.09511977602	-0.1223270086	
612.5	-0.1712204603	-0.05778666935	
613.125	-0.1923088985	0.04536117959	
613.75	-0.08694377834	0.1518630943	
614.375	0.05243241028	0.1101565388	
615.0	0.04200275187	0.04272733004	
615.625	0.002572611022	0.08678393969	
616.25	-0.03664394126	0.1481347209	
616.875	-0.07010156768	0.1962361495	
617.5	-0.05181320402	0.228631345	
618.125	-0.001275331147	0.2189995496	
618.75	0.04314818067	0.1914264183	
619.375	0.109689828	0.1581789699	
620.0	0.1990683332	0.03152319937	
620.625	0.09932638284	-0.1702288923	
621.25	-0.1062345059	-0.1810774595	
621.875	-0.214191692	-0.06972214484	
622.5	-0.2153887908	0.07799897287	
623.125	-0.02414272949	0.1932423494	
623.75	0.1376749808	0.03104721461	
624.375	0.03497250928	-0.05784255986	
625.0	0.03952078471	-0.03044582347	
625.625	0.0445837017	-0.09679008832	
626.25	-0.05931709185	-0.1380515911	
626.875	-0.1468291522	-0.07846330146	
627.5	-0.1518797282	-0.03500338953	
628.125	-0.1179210095	-0.06416418869	
628.75	-0.08209364436	-0.1207521419	
629.375	-0.103961244	-0.1502125451	
630.0	-0.2008401462	-0.08747717805	
630.625	-0.221823047	0.08509943779	
631.25	-0.130991893	0.2115204205	
631.875	-0.006257061222	0.255474912	
632.5	0.1661144982	0.1876967482	
633.125	0.2210804762	0.03447469345	
633.75	0.166240527	-0.0857587492	
634.375	0.05124126524	-0.1475043298	
635.0	-0.02867040307	-0.1521538101	
635.625	-0.157132717	-0.07852746461	
636.25	-0.15368028	0.08705622816	
636.875	-0.05547884963	0.1349959824	
637.5	-0.02986201605	0.09549278523	
638.125	-0.06023144642	0.09592085038	
638.75	-0.05973231126	0.1750094254	
639.375	0.02096079514	0.2545938831	
640.0	0.1638154516	0.2366490728	
640.625	0.2568306043	0.1298292808	
641.25	0.2818724483	-0.02827723545	
641.875	0.1583540799	-0.2044643998	
642.5	-0.02968159171	-0.2175888488	
643.125	-0.1354709206	-0.1124611872	
643.75	-0.1429990598	-0.06263540292	
644.375	-0.1820653021	0.01548319532	
645.0	-0.1370493904	0.1714603371	
645.625	0.07448454423	0.2149687573	
646.25	0.1761333048	0.0640292266	
646.875	0.10037113	-0.02572055368	
647.5	0.05898509603	0.02991393721	
648.125	0.1663407652	0.04476033686	
648.75	0.2645804892	-0.08769921353	
649.375	0.2138866481	-0.2597875137	
650.0	0.146584927	-0.3157036244	
650.625	0.1376571886	-0.2983318547	
651.25	0.1816997612	-0.2526068443	
651.875	0.2411088104	-0.1899678715	
652.5	0.2704671975	-0.1269220694	
653.125	0.2580073831	-0.145150208	
653.75	0.1657464495	-0.2571462025	
654.375	-0.1000979848	-0.3004650766	
655.0	-0.3036106663	-0.0597824151	
655.625	-0.159893537	0.2057306177	
656.25	0.0488280757	0.174463104	
656.875	0.05882328818	0.0663479118	
657.5	0.04506565345	0.1036022177	
658.125	0.158024866	0.1529496517	
658.75	0.3046221952	0.05836180679	
659.375	0.3217790202	-0.1676539676	
660.0	0.2064831127	-0.315277992	
660.625	0.1161689913	-0.3409550654	
661.25	0.1404345987	-0.3108444773	
661.875	0.1997254974	-0.2708133479	
662.5	0.2451072438	-0.2265997068	
663.125	0.2449356125	-0.222361389	
663.75	0.1335575744	-0.3021594621	
664.375	-0.07128658601	-0.3314627762	
665.0	-0.2910565109	-0.1869138457	
665.625	-0.3123480705	0.1154855453	
666.25	-0.08213897264	0.2833714425	
666.875	0.133977039	0.2038721494	
667.5	0.195706077	0.0825188797	
668.125	0.222927973	-0.02918110314	
668.75	0.186966166	-0.1583300198	
669.375	0.08358607208	-0.2335225359	
670.0	-0.006997643022	-0.2260749138	
670.625	-0.005854207455	-0.1951366084	
671.25	0.0476218762	-0.1834011381	
671.875	0.1247402268	-0.1831455001	
672.5	0.193108522	-0.1682985557	
673.125	0.1949393047	-0.1953157347	
673.75	0.1399749161	-0.2372378166	
674.375	0.02789619517	-0.2700799672	
675.0	-0.1108695818	-0.2364929594	
675.625	-0.2017605946	-0.115915747	
676.25	-0.1890224807	-0.01092747271	
676.875	-0.1494663857	0.02315904899	
677.5	-0.1514822597	0.04379860235	
678.125	-0.1274353178	0.158645137	
678.75	0.05858340622	0.2258839895	
679.375	0.220588965	0.05816695505	
680.0	0.1445245057	-0.1048933483	
680.625	0.06523209995	-0.08527368613	
681.25	0.09178189695	-0.01858232702	
681.875	0.1557234079	0.04231686366	
682.5	0.2102098868	0.08054352548	
683.125	0.2514843385	0.06421263156	
683.75	0.2703582649	0.05512499933	
684.375	0.2801863379	0.02992372521	
685.0	0.2878858911	0.02387761922	
685.625	0.2976471849	-0.01673425667	
686.25	0.3029528349	-0.06594887195	
686.875	0.2950499559	-0.178660091	
687.5	0.2286189032	-0.3286321226	
688.125	-0.07880393377	-0.4430679379	
688.75	-0.4450393669	-0.1448920265	
689.375	-0.2571276899	0.3504609425	
690.0	0.1339953125	0.3501961361	
690.625	0.258681894	0.2363813878	
691.25	0.3395500484	0.2537919623	
691.875	0.4766763239	0.2877046056	
692.5	0.6214131492	0.1829094083	
693.125	0.6691422407	-0.0555334473	
693.75	0.5829431067	-0.273099319	
694.375	0.4272605438	-0.4110325	
695.0	0.4435659453	-0.3082265375	
695.625	0.5065909701	-0.1134347765	
696.25	0.5113149531	0.1282785943	
696.875	0.4438864934	0.3422957376	
697.5	0.4532418187	0.3886020055	
698.125	0.6074057414	0.130182798	
698.75	0.3623326622	-0.4892353465	
699.375	-0.4509521941	-0.3209876365	
700.0	-0.2365796022	0.3824395753	
700.625	0.1678395748	0.2876961046	
701.25	0.2382313083	0.1679938771	
701.875	0.2761584628	0.2243098342	
702.5	0.3632383081	0.2260496934	
703.125	0.4318686661	0.09867834464	
703.75	0.3879870903	-0.1177473319	
704.375	0.2752795111	-0.2024364125	
705.0	0.2384922294	-0.1428165553	
705.625	0.2681649115	-0.00416964452	
706.25	0.2622803313	0.1619708284	
706.875	0.2644537867	0.2748507864	
707.5	0.314339812	0.310197126	
708.125	0.4650079202	0.05020295797	
708.75	0.2295583691	-0.3991125527	
709.375	-0.3196837788	-0.2365820677	
710.0	-0.1560033321	0.2422632921	
710.625	0.09002365335	0.1443782221	
711.25	0.1079580883	0.1073115919	
711.875	0.2222871162	0.09933179092	
712.5	0.3127152702	-0.0449409466	
713.125	0.2578167601	-0.190495378	
713.75	0.1246504523	-0.2594266144	
714.375	0.003063227992	-0.2427561956	
715.0	-0.03104210346	-0.2054100606	
715.625	0.01430044693	-0.2193398732	
716.25	0.1530323468	-0.2415178023	
716.875	0.3291087106	-0.1927609045	
717.5	0.508979098	-0.06680438967	
718.125	0.6667946409	-0.01248693595	
718.75	0.7462970852	-0.1878081364	
719.375	0.679063223	-0.5204510678	
720.0	0.3830072949	-0.8881572362	
720.625	0.115885283	-0.9621987386	
721.25	-0.1258994121	-0.9828055571	
721.875	-0.343600341	-0.9602065168	
722.5	-0.7094915456	-0.6807097921	
723.125	-0.7927547135	-0.04118480398	
723.75	-0.3624415551	0.476504566	
724.375	0.05776601687	0.4606195703	
725.0	0.1803227078	0.3636458633	
725.625	0.1704303017	0.4566672455	
726.25	0.05591291009	0.66688602	
726.875	-0.050492848	0.9329373884	
727.5	-0.05313880239	1.360173327	
728.125	0.1059696432	1.852629657	
728.75	0.1551553709	2.764810494	
729.375	-0.3307490421	3.580303721	
730.0	0.2552386192	3.869260821	
730.625	0.5969411424	3.669197263	
731.25	-0.541667146	3.465335184	
731.875	-2.212268549	2.897475286	
732.5	-2.944749401	1.455170666	
733.125	-2.23977311	0.9241245525	
733.75	-0.5165773242	1.430384258	
734.375	0.9058887848	0.2492476551	
735.0	-0.1163123276	-0.5979666168	
735.625	-0.4546726894	0.1506226092	
736.25	-0.03462489598	0.5285033897	
736.875	0.4402668027	0.5400449146	
737.5	1.058678308	0.1563087222	
738.125	1.452536969	-0.43375777	
738.75	1.687990302	-1.112451174	
739.375	2.203344966	-1.356770589	
740.0	2.854804923	-1.674975367	
740.625	2.617428714	0.02592497474	
741.25	0.7570760044	2.133263135	
741.875	-2.416560092	0.3849788542	
742.5	-1.898885461	-2.477336479	
743.125	-0.3313701799	-1.908377333	
743.75	-0.2912779379	-0.9517018723	
744.375	-0.4807523611	0.008118003901	
745.0	0.07486262639	0.07727219351	
745.625	0.05322863607	-0.004591341969	
746.25	-0.02137524715	-0.1361831718	
746.875	-0.2198561505	0.04202183984	
747.5	-0.09032943124	0.360086984	
748.125	0.1228411244	0.5111440133	
748.75	0.2641165016	0.4758220976	
749.375	0.1371045041	0.4686130425	
750.0	-0.3976775808	0.2809100747	
