!Created with skrf (http://scikit-rf.org).
# GHz S RI R (50+0j) 
!freq	ReS11	ImS11	
500.0	3.228800351	-2.55700534	
500.625	0.09831488967	-3.694278	
501.25	-1.199042506	-1.217634566	
501.875	-1.268467385	-2.20598139	
502.5	-0.4728225019	-0.2086232505	
503.125	-0.1300088921	-0.06971792634	
503.75	0.1307929954	0.4953054986	
504.375	-0.07711947598	-0.04445151497	
505.0	0.2572644521	-0.1169413856	
505.625	-0.2240224108	-0.02213257446	
506.25	0.2551758515	-0.4949288293	
506.875	-0.3913349104	1.002837416	
507.5	1.015473913	-1.007819864	
508.125	0.07576295882	-3.413827564	
508.75	-0.886098416	-2.399531242	
509.375	2.078061757	-4.278224439	
510.0	-2.395914701	-0.1233877613	
510.625	-0.1296950307	-0.3074768356	
511.25	-0.59040209	-0.3903441923	
511.875	-0.481006894	0.06138422053	
512.5	-0.04520330912	0.1186145533	
513.125	0.0655128103	-0.3795136889	
513.75	-0.4505297715	-0.1334783888	
514.375	0.1927534976	-0.09093342998	
515.0	-1.101514894	-0.8479690414	
515.625	2.313445225	0.1204083664	
516.25	-2.942796128	-4.650608285	
516.875	-0.5791269555	0.7122482341	
517.5	0.5380619984	-0.9722000714	
518.125	-0.3284675818	0.3092446257	
518.75	0.1821320219	-0.9846884925	
519.375	-0.172039803	0.2993239623	
520.0	0.2295149845	0.04861373742	
520.625	0.7087605083	0.01077955838	
521.25	-0.3619066864	-0.8220183933	
521.875	-0.1634952366	-0.08971712589	
522.5	-0.2688827384	0.1431499602	
523.125	-0.06704975819	-0.1993507793	
523.75	-0.4149848643	0.2030370078	
524.375	-0.1794597801	-0.1693555655	
525.0	-0.2485716428	0.7114011815	
525.625	0.1174302744	-0.1839660214	
526.25	0.04370485953	0.1882662544	
526.875	-0.1908349342	-0.09382797648	
527.5	-0.1882952265	0.9937782618	
528.125	0.3912994525	0.3615428294	
528.75	-0.3852937641	0.8284544582	
529.375	0.3838718393	0.07946076729	
530.0	-0.3468328465	0.7903876645	
530.625	0.683414962	0.5678860042	
531.25	0.8449653564	0.7842867554	
531.875	0.6529616113	-1.082398995	
532.5	0.2554636068	0.04604944827	
533.125	-0.3449857195	-0.708954569	
533.75	1.001429141	-0.01769400311	
534.375	-0.9779430973	-1.060604247	
535.0	-0.2381444573	-0.1248092524	
535.625	-0.7783891582	0.1892523949	
536.25	0.1682531832	0.2429216333	
536.875	0.1316363445	0.1808239922	
537.5	0.2698154608	-0.1894911436	
538.125	0.09195474564	-0.146565051	
538.75	0.5668582489	-0.1931887716	
539.375	-0.374680527	-0.3892026735	
540.0	-0.225403482	-0.3195607758	
540.625	-0.47065351	-0.1603203287	
541.25	-0.2249708693	0.09199623453	
541.875	-0.04633164672	-0.04290589587	
542.5	-0.1780990645	-0.2247081279	
543.125	-0.2079636536	0.04393445462	
543.75	-0.1432571462	-0.2109799079	
544.375	-0.1413004552	0.3232439969	
545.0	-0.09758035346	-0.09233790846	
545.625	0.3142211754	0.3831595575	
546.25	0.04835519721	-0.1593614002	
546.875	0.44698331	0.2399242376	
547.5	-0.02466891965	-0.50774471	
548.125	0.0769140328	-0.2161631252	
548.75	-0.3159080563	-0.4989693796	
549.375	-0.4027277627	-0.04381679714	
550.0	-0.03734466653	-0.1025943158	
550.625	-0.2708973437	0.1143398896	
551.25	-0.06396108369	-0.02455933651	
551.875	-0.3189235025	0.1939643487	
552.5	-0.01841801679	0.2121762395	
553.125	-0.0992011917	0.1345055582	
553.75	0.1462446731	0.1316588197	
554.375	0.2125100804	0.009731759124	
555.0	0.2714970835	-0.1528531232	
555.625	0.219082727	-0.2792212911	
556.25	0.1684670001	-0.337518152	
556.875	-0.06356535802	-0.4059792931	
557.5	-0.2347231602	-0.274654033	
558.125	-0.2847863169	-0.09427118527	
558.75	-0.2499736095	-0.03469326482	
559.375	-0.3098241299	0.04169599358	
560.0	-0.1916919092	0.1889286203	
560.625	-0.1859335509	0.2195036303	
561.25	0.04782419605	0.3213848434	
561.875	0.0440886975	0.005330468696	
562.5	0.01881748792	0.2581789686	
563.125	0.1499863547	0.0352523599	
563.75	0.3349445677	0.1783287845	
564.375	0.3627130492	-0.3786850793	
565.0	0.08271149142	-0.2188269005	
565.625	0.06169598774	-0.4710510593	
566.25	-0.3975954352	-0.2067092599	
566.875	-0.1789117796	-0.1635984724	
567.5	-0.3906205812	-0.4363445065	
568.125	-0.488651263	-0.2463312343	
568.75	-0.3036538499	-0.3387494631	
569.375	-0.8674113252	0.2828935317	
570.0	-0.02243676813	0.5055925277	
570.625	-0.4040881834	0.1365398232	
571.25	0.173286524	0.6846016396	
571.875	-0.204864338	-0.02946178311	
572.5	0.6604948887	0.126630588	
573.125	-0.1384371937	-0.3731408762	
573.75	0.3233178853	0.0430861552	
574.375	0.04828095673	-0.5326991136	
575.0	-0.07495698379	0.1962104291	
575.625	0.3398128277	-0.3871416544	
576.25	-0.2231618384	-0.2921351214	
576.875	0.3243021182	-0.1833617843	
577.5	-0.04610353228	-0.6809360859	
578.125	-0.2738329296	-0.2102325595	
578.75	0.04548975683	-0.2682410443	
579.375	-0.3133417052	-0.3931329869	
580.0	-0.1558933857	0.2079988125	
580.625	-0.1262226071	-0.3761642898	
581.25	-0.2981650608	0.4747966099	
581.875	0.06939074825	0.01243024715	
582.5	-0.2647811912	0.5657864543	
583.125	0.6878403684	0.1689973662	
583.75	-0.3705452194	-0.004386002593	
584.375	0.5726304152	0.2693886779	
585.0	-0.2102559651	-0.02023826249	
585.625	0.6640056529	0.3173321343	
586.25	0.2988469881	-0.4580900624	
586.875	0.1414066321	-0.001267646886	
587.5	0.1315224053	-0.6067451938	
588.125	-0.3427031831	-0.2216422711	
588.75	0.3907069915	-0.1598344587	
589.375	0.1934911707	-0.651650102	
590.0	-0.1033982329	-0.1490083432	
590.625	-0.4053548406	-0.3597068776	
591.25	-0.3955011115	0.4251975928	
591.875	0.02272694545	0.1707317076	
592.5	-0.1778919708	0.1032018597	
593.125	0.1514336878	0.1473384138	
593.75	-0.2237715008	0.3101329066	
594.375	0.7383440097	0.3786669136	
595.0	0.2254039074	-0.1157099663	
595.625	0.2156080752	0.6073766911	
596.25	0.8356335215	-0.1872661293	
596.875	-0.107881848	0.2460297944	
597.5	0.6939273093	0.4793836862	
598.125	0.3455145942	-0.05490073988	
598.75	0.2200842814	0.5261152973	
599.375	0.7171374666	-0.2034775827	
600.0	0.2057511827	-0.2601089016	
600.625	0.5221056052	-0.2614371706	
601.25	0.1612621083	-0.6570093401	
601.875	-0.07289722378	-0.1713695352	
602.5	-0.3720506017	-0.1692277938	
603.125	-0.2344192273	0.1162179647	
603.75	-0.2599328649	0.2097274606	
604.375	-0.2255218783	0.03880326404	
605.0	-0.3212315756	0.3199743667	
605.625	0.09973381774	-0.009129027553	
606.25	-0.681764609	0.1544048781	
606.875	-0.06564354084	0.4030224079	
607.5	-0.6407620682	-0.07145111392	
608.125	0.1073047635	1.108039957	
608.75	0.07001347308	0.08338213765	
609.375	0.8419672373	0.2837576963	
610.0	0.2225179151	-0.6122125998	
610.625	0.4508847796	0.001972185516	
611.25	-0.1289999077	-0.6473118519	
611.875	-0.004046260302	-0.1181413131	
612.5	-0.6209718776	-0.4136820491	
613.125	-0.1404791416	0.2202879125	
613.75	-0.5148975646	0.2543460358	
614.375	0.3952351639	0.289472125	
615.0	-0.3162152917	0.1558203896	
615.625	0.3910791993	0.2026960753	
616.25	-0.3717054111	0.08075943377	
616.875	-0.3176201829	0.7744935653	
617.5	0.163113524	0.3039926014	
618.125	-0.4347564222	0.570538386	
618.75	0.282398349	0.5449283553	
619.375	-0.002777473288	0.2778505759	
620.0	0.6304688431	0.2137562653	
620.625	0.1831226476	-0.2626158805	
621.25	-0.122563193	-0.5883216982	
621.875	-0.4343221199	-0.09986062341	
622.5	-0.5816246385	-0.1161692262	
623.125	0.05643620486	0.6324015255	
623.75	-0.05989521279	0.1106719631	
624.375	0.4063046858	-0.3802232711	
625.0	-0.0897193019	0.2581397352	
625.625	0.3974266277	-0.5355810297	
626.25	-0.2935253115	0.1282570565	
626.875	-0.1152389337	-0.60901315	
627.5	-0.6203748302	0.04757023177	
628.125	-0.0005709724431	-0.03532660902	
628.75	-0.09912224062	-0.5828846838	
629.375	-0.3975228929	-0.1854608206	
630.0	-0.2247459249	-0.3595352398	
630.625	-0.7248247597	0.06915845417	
631.25	-0.1949109199	0.521101754	
631.875	-0.248747933	0.4269092509	
632.5	0.3893680999	0.6214645697	
633.125	0.4933942386	0.1015709952	
633.75	0.3160287034	-0.08583639197	
634.375	0.3821403402	-0.3084712787	
635.0	-0.3072665467	-0.3198798879	
635.625	-0.008398883283	-0.3907110468	
636.25	-0.69444725	0.2631944688	
636.875	0.1971969746	0.2824926363	
637.5	-0.6164637923	-0.04555894218	
638.125	0.2902940247	0.5004477605	
638.75	-0.4741604773	-0.06243255772	
639.375	-0.05549372085	1.075891274	
640.0	0.5235239407	0.2405497294	
640.625	0.1124274859	0.5682238532	
641.25	1.04976921	0.05552767706	
641.875	0.08874203284	-0.5401815755	
642.5	0.3679589133	-0.2535197524	
643.125	-0.6479122249	-0.6371484878	
643.75	0.07580499166	0.1648804556	
644.375	-0.6514629629	-0.3291790303	
645.0	-0.2745516438	0.5916297209	
645.625	0.1159415855	0.2161352154	
646.25	0.2005861734	0.6130408149	
646.875	0.4773726711	-0.3895251518	
647.5	-0.2498664737	0.2945409447	
648.125	0.8614385606	0.1470212791	
648.75	0.0137655859	-0.4259530899	
649.375	1.176733567	0.05397767548	
650.0	0.2791629532	-1.492413068	
650.625	-0.1675911176	-0.0906724837	
651.25	1.290000461	-0.3387647453	
651.875	0.4210311274	-1.181765046	
652.5	0.1841624373	0.308792257	
653.125	1.243651776	-0.1337271312	
653.75	0.1255785727	-0.8368390244	
654.375	0.2895351699	-0.2712202476	
655.0	-1.076231051	-0.7648438459	
655.625	-0.1202363586	0.6875930949	
656.25	-0.2418787518	0.03723835936	
656.875	0.2604442328	0.5879511993	
657.5	-0.02728673418	-0.1970477079	
658.125	0.220713455	0.8556916736	
658.75	0.9079214406	0.02913981305	
659.375	0.4848648754	-0.331239733	
660.0	0.8845128291	-0.2265345792	
660.625	0.2919250602	-1.419218962	
661.25	0.01725784451	-0.1816499784	
661.875	1.106709174	-0.4753595792	
662.5	0.5771513999	-0.9916607921	
663.125	0.1829541929	0.06619250791	
663.75	1.011961092	-1.010349641	
664.375	-0.5279235062	-0.5650360251	
665.0	-0.1175801328	-0.6594709221	
665.625	-1.168364736	0.1348660224	
666.25	0.1138782938	0.6384699036	
666.875	-0.1317689492	0.5218188623	
667.5	0.7099991662	0.3777255169	
668.125	0.23967111	-0.2186996317	
668.75	0.7321592932	0.03833055179	
669.375	0.09481932354	-0.852976598	
670.0	0.03716772013	-0.2655583086	
670.625	0.2384124387	-0.4974792216	
671.25	0.05672887916	-0.6560956017	
671.875	0.07041218729	-0.1183770404	
672.5	0.8903184486	-0.2437245245	
673.125	0.3824528076	-0.7333576982	
673.75	0.202951969	-0.140287124	
674.375	0.702995245	-0.8151934312	
675.0	-0.8454982974	-0.4639134478	
675.625	0.2973456821	-0.4308307848	
676.25	-0.9857999265	-0.2324832364	
676.875	0.02013041929	0.4426321064	
677.5	-0.5847646158	-0.5493363617	
678.125	-0.2095564427	0.8410460447	
678.75	-0.05253826344	0.1800075234	
679.375	0.3866201423	0.6149065916	
680.0	0.6037651187	-0.6112099079	
680.625	-0.1947537979	0.2153639298	
681.25	0.6217291444	-0.09310665278	
681.875	0.2270846537	-0.1212206052	
682.5	0.2205606317	0.4068250064	
683.125	0.8526687392	0.3577609425	
683.75	0.5949570387	-0.09947832408	
684.375	0.3004991871	0.2221645822	
685.0	1.069735128	0.587233846	
685.625	0.5803123224	-0.8069243249	
686.25	0.4538115054	1.003903093	
686.875	1.321291532	-1.234928083	
687.5	-0.04382930327	0.05052413357	
688.125	0.8942934474	-1.511504857	
688.75	-1.753691404	0.05631548095	
689.375	-0.5000755607	-0.2652455418	
690.0	0.2653538126	1.670726851	
690.625	0.5232305805	0.1275300386	
691.25	0.4089220787	1.09068425	
691.875	1.471894581	0.633448962	
692.5	1.095456714	0.5213993232	
693.125	1.681960214	0.1339827573	
693.75	1.38849753	-0.6462314912	
694.375	1.168572705	-0.8214851817	
695.0	0.9637403054	-0.7757646932	
695.625	1.250117926	0.2588577991	
696.25	1.662243366	0.008192051553	
696.875	0.2429369122	0.7169040658	
697.5	1.320851647	2.157518679	
698.125	1.123586392	-0.2422552002	
698.75	1.830203241	-0.0697453365	
699.375	-1.524059525	-1.339533645	
700.0	-0.02880467314	0.2748031055	
700.625	0.1082400141	1.656873207	
701.25	0.5213045297	-0.09573146003	
701.875	0.2561066999	1.068081709	
702.5	1.333114297	0.2836908729	
703.125	0.482086385	0.5684360324	
703.75	1.385217647	-0.2601883235	
704.375	0.146955245	-0.5734252452	
705.0	1.180412632	0.1474578323	
705.625	0.5512194504	-0.6299838258	
706.25	0.02279893893	0.7347618111	
706.875	1.261230951	1.1321034	
707.5	0.2461018495	0.2118337155	
708.125	1.312432612	1.03169447	
708.75	0.6745421794	-1.290419337	
709.375	-0.194148735	-0.6180276005	
710.0	-0.9335772596	0.4738892946	
710.625	0.350279827	0.2406829243	
711.25	0.09477418128	0.4731524491	
711.875	0.4785731046	0.2152573857	
712.5	0.90051538	0.0763379593	
713.125	0.5397231772	-0.4468394537	
713.75	0.5451579003	-0.3761255511	
714.375	-0.06990042779	-0.8783583564	
715.0	-0.07417036564	0.01672982694	
715.625	0.4955575801	-1.152187159	
716.25	-0.4670976929	-0.5636469932	
716.875	1.193857431	0.471902993	
717.5	2.552669505	-0.6326407798	
718.125	-0.2230092566	-0.5427518943	
718.75	3.7227495	1.335115168	
719.375	1.341719323	-2.549238367	
720.0	1.133278061	-0.5572179288	
720.625	2.16386164	-3.704919375	
721.25	-1.309440067	-1.944080677	
721.875	0.7250327523	-2.526398787	
722.5	-1.615075878	-2.766214908	
723.125	-2.053073016	0.08980377266	
723.75	-1.036675111	0.4260531975	
724.375	-0.05476458649	1.65700239	
725.0	0.5397265297	0.6200755065	
725.625	0.07976504738	0.8949998351	
726.25	-0.2941602519	2.398876616	
726.875	1.359860042	2.27721298	
727.5	-2.561445211	1.898973097	
728.125	-1.433360782	9.461909876	
728.75	4.363438396	6.420434488	
729.375	-11.03998783	3.100534599	
730.0	10.06142292	30.70811202	
730.625	1.39282122	0.8157046574	
731.25	-12.403366	7.53721702	
731.875	-7.525742715	17.96670652	
732.5	-2.834113615	-2.992250806	
733.125	-10.46427339	-0.6531041232	
733.75	-1.902810146	4.070458514	
734.375	1.106171028	0.4161954107	
735.0	1.594213005	-2.07310266	
735.625	-0.9898076564	1.292708096	
736.25	-0.9668054078	0.6349508825	
736.875	1.245899722	2.152086497	
737.5	3.390471338	-0.5467251221	
738.125	1.288100996	0.3171808928	
738.75	9.213710611	-2.293773798	
739.375	5.141464205	-9.873016237	
740.0	-2.982436165	3.348989357	
740.625	18.54800997	10.60930553	
741.25	28.50658485	-40.83165528	
741.875	-6.481152445	-13.29029342	
742.5	-14.20669845	-8.324869011	
743.125	0.2727463508	2.134379862	
743.75	2.637006236	-4.258722695	
744.375	-1.780945069	0.5363080893	
745.0	-0.1948985578	-0.1419343512	
745.625	0.4244760243	0.02395084922	
746.25	-0.1317933621	0.07877496878	
746.875	-0.6878755428	-0.03680893169	
747.5	-0.02176378699	1.081098436	
748.125	0.1834658665	0.9922078612	
748.75	0.444386477	1.296817977	
749.375	2.100147541	0.9484424167	
750.0	-0.5449886494	-0.07102829578	
