!Created with skrf (http://scikit-rf.org).
# GHz S MA R 50.0 
!freq magS11 angS11
500.0 0.0160112149037 173.984209398
500.625 0.0039629486673 88.5526760103
501.25 0.0116968886832 -82.5140824041
501.875 0.053174753362 -178.210487587
502.5 0.0415907786153 167.427725853
503.125 0.0196586452032 102.413959224
503.75 0.0118550475607 -17.7380889308
504.375 0.00346175226699 -49.2110691221
505.0 0.00802361007125 -36.9780841713
505.625 0.0253887705986 -70.0868601776
506.25 0.0550791111816 -102.284934923
506.875 0.0566452191797 -109.41874893
507.5 0.0502106502559 -121.461135337
508.125 0.0594527661235 -86.8252657954
508.75 0.0563247746392 -145.952885343
509.375 0.0457069012847 -155.278342365
510.0 0.0378576956328 -134.66234642
510.625 0.0380845640097 -158.056780823
511.25 0.0567257193831 -173.366664231
511.875 0.0526250313621 141.556001051
512.5 0.0382013082555 104.074860468
513.125 0.0492039916201 42.695648418
513.75 0.0498714738061 19.4127619336
514.375 0.032553084174 1.57259143818
515.0 0.0440775740683 -2.31547107456
515.625 0.109995836154 51.9221589059
516.25 0.0635822380325 16.9077476276
516.875 0.0996268038547 67.6385256693
517.5 0.122288357997 19.7291010893
518.125 0.229190180172 74.4446232967
518.75 0.0808912143851 5.8140414612
519.375 0.0646268170581 20.390354627
520.0 0.0913173494211 -2.78488526065
520.625 0.116588415698 -1.89082277416
521.25 0.0740559820677 -34.8443607795
521.875 0.0595815768472 -3.30894748333
522.5 0.088106591043 -38.6581547399
523.125 0.197333099084 -32.5099726674
523.75 0.198258396553 -65.1452278967
524.375 0.197357326633 -56.2317565525
525.0 0.0686418884621 -50.6631333577
525.625 0.0448700779729 -25.6412300085
526.25 0.0432012146076 -14.0148798368
526.875 0.0573858447388 -18.8153905513
527.5 0.0471648344034 -28.2212969626
528.125 0.0495079032968 -57.0406256872
528.75 0.0446878066452 -83.6962997088
529.375 0.0851695623738 -110.535139691
530.0 0.0522760845249 -129.886147728
530.625 0.0293060408604 -138.161765654
531.25 0.111907963711 -134.96595546
531.875 0.182523464029 -147.137402202
532.5 0.137712018986 -170.963087543
533.125 0.112102062206 174.56479767
533.75 0.109569775745 165.614255199
534.375 0.110259897578 179.208844015
535.0 0.0828859612109 160.632734864
535.625 0.0746106963332 177.179720254
536.25 0.0579927852584 161.711710552
536.875 0.084176877736 -163.733453682
537.5 0.102435077811 -145.41516899
538.125 0.0947736759182 -175.444404099
538.75 0.102299789337 178.535448995
539.375 0.08523892779 -163.718666884
540.0 0.0934794762895 -155.321023819
540.625 0.126596921785 -155.985222066
541.25 0.123728992257 -143.053257112
541.875 0.0965684078196 -147.204216726
542.5 0.115384828303 -144.868707837
543.125 0.142982762216 -168.124182942
543.75 0.129438038062 158.680550836
544.375 0.0951798183183 136.044115829
545.0 0.0844531195191 89.2596923439
545.625 0.111669684142 81.5685962556
546.25 0.0720699057663 64.5570973044
546.875 0.0811674319601 54.4665281111
547.5 0.11204682709 58.5429480709
548.125 0.11653955068 75.8283654064
548.75 0.0902481399885 88.9690568213
549.375 0.0991724053529 87.363843792
550.0 0.0846433569833 124.33070145
550.625 0.0584346335128 151.265760635
551.25 0.0287628645074 -118.609984742
551.875 0.0620260545019 -158.568394975
552.5 0.107534541506 -163.806526629
553.125 0.0972700994038 -172.283948814
553.75 0.0881710837256 -169.715920455
554.375 0.102932549521 169.684162827
555.0 0.125276542031 163.110794156
555.625 0.104313391574 154.682371335
556.25 0.0882063786481 165.957257792
556.875 0.115144153306 165.565745082
557.5 0.120519127314 164.490496625
558.125 0.100156368477 162.992296749
558.75 0.0658480870379 178.494289173
559.375 0.0606169608584 -171.068979167
560.0 0.0452218871782 -147.968401625
560.625 0.0610473099857 -147.316536217
561.25 0.0787516785175 -141.875652879
561.875 0.0964112820777 -158.864010444
562.5 0.0871458658678 173.759126594
563.125 0.110036780465 141.507302399
563.75 0.125085421472 130.71266156
564.375 0.103740403691 120.80623831
565.0 0.0858143941502 119.592458331
565.625 0.0899631823635 113.300111511
566.25 0.0782165295083 158.563978833
566.875 0.0706184705685 -177.804913706
567.5 0.0724290559006 -178.871112563
568.125 0.0861986446081 -174.466674236
568.75 0.0722889129702 -151.201585119
569.375 0.048874863488 -112.420494924
570.0 0.0614678653961 -116.827781984
570.625 0.0946636697557 -123.587346451
571.25 0.0818311924369 -111.623376235
571.875 0.0882294714024 -127.336155534
572.5 0.11025453457 -157.531499123
573.125 0.145344528008 -177.394356201
573.75 0.10727390217 159.915784506
574.375 0.082591426954 150.509570542
575.0 0.0979705584191 155.464910345
575.625 0.115041399503 149.492552263
576.25 0.0785796111827 149.925636083
576.875 0.0820657152777 132.097424235
577.5 0.0790949163809 137.164280098
578.125 0.0650346021034 152.768089795
578.75 0.0418852803931 177.302376879
579.375 0.0523060332076 166.885352704
580.0 0.0661939940034 177.557578618
580.625 0.0777304533523 -155.562539788
581.25 0.0910742965382 -159.989223319
581.875 0.115483825628 -178.079091041
582.5 0.119832566752 -179.378013593
583.125 0.0934946843253 -169.181849362
583.75 0.0842407949941 -173.566075962
584.375 0.102388191451 -157.746480049
585.0 0.0908205163343 -137.733678639
585.625 0.0724555054264 -145.920776145
586.25 0.068281020541 -142.880188733
586.875 0.0826748476892 -136.924405739
587.5 0.0754558625964 -149.070229641
588.125 0.0589623912718 -173.914561511
588.75 0.0677940596899 -176.415296358
589.375 0.0808242934043 -153.364065552
590.0 0.095059983903 -163.507096662
590.625 0.105192306371 164.306178944
591.25 0.124229537075 146.871745065
591.875 0.0854727118788 168.753734303
592.5 0.0609667249685 155.826028336
593.125 0.0621189303133 150.637671843
593.75 0.0734368723132 159.830094515
594.375 0.0577265629499 -149.968264883
595.0 0.0442369566956 -120.256162873
595.625 0.0607868891593 -99.6557798827
596.25 0.0698967055937 -97.9975884146
596.875 0.0732139619563 -57.042515893
597.5 0.0654806360014 -52.9962777941
598.125 0.0678402895638 -59.4327244436
598.75 0.0843089606805 -56.50535529
599.375 0.0879938421161 -65.654486977
600.0 0.0971889162412 -72.6184772339
600.625 0.101660404966 -67.7181703428
601.25 0.0847892372964 -83.4646205078
601.875 0.0682062292246 -85.3074120208
602.5 0.0666794131644 -70.184578791
603.125 0.0463475654198 -53.618354354
603.75 0.0262021801363 -64.9641105769
604.375 0.0470877621339 -14.2596704928
605.0 0.0650457802174 -15.7075266753
605.625 0.0477888814227 -22.9513520558
606.25 0.0263259273813 7.05633866745
606.875 0.0347075935552 47.874727319
607.5 0.0659065674454 44.4284109099
608.125 0.0676825694401 25.6774533614
608.75 0.046891617117 9.65071371939
609.375 0.0787475391251 38.4448725737
610.0 0.0773757608935 44.2490255357
610.625 0.0571528016024 25.9189572945
611.25 0.0510182726982 27.2948346418
611.875 0.0367511993905 56.3948628506
612.5 0.0253416418247 94.0119043159
613.125 0.0406059891967 125.062756699
613.75 0.0464663774948 120.781806948
614.375 0.0242420251732 114.550093096
615.0 0.0599566130298 127.865209045
615.625 0.0508791234206 131.674715874
616.25 0.0567754462637 141.383865297
616.875 0.0258180771733 128.493605413
617.5 0.0549696720283 127.232555702
618.125 0.0453933036687 128.720747104
618.75 0.0482762635497 145.517017986
619.375 0.00178765699002 15.7751802947
620.0 0.00930632365916 133.383850807
620.625 0.0117544903379 -100.470685043
621.25 0.0399899582076 -107.937756396
621.875 0.0644040815381 -95.4086424947
622.5 0.0849789350568 -179.47449777
623.125 0.0872359336055 163.082736799
623.75 0.0762399894554 163.024811143
624.375 0.031493544086 -150.111178464
625.0 0.0638997028102 -155.242912081
625.625 0.0472729155966 -158.249322076
626.25 0.00889203237562 161.855366579
626.875 0.00734840529605 15.1433040693
627.5 0.0245286319746 -43.7529018816
628.125 0.0351466692407 -32.5807518654
628.75 0.0355551302658 -11.3690990527
629.375 0.0410300243427 -9.56521955237
630.0 0.0782406577067 6.34068936984
630.625 0.0708196328804 6.56145035444
631.25 0.0736635703069 -5.30085141791
631.875 0.067053531607 -1.41924627974
632.5 0.0638601781035 -11.7747696441
633.125 0.0480934210059 -2.09113115766
633.75 0.0405922957956 -17.2466020272
634.375 0.0396843801231 9.19939292612
635.0 0.050412517321 39.9578533975
635.625 0.0284885392587 0.473426720527
636.25 0.0444516262291 35.7029280484
636.875 0.0720633355391 46.1443199481
637.5 0.0393393513085 39.2921194804
638.125 0.0509715190885 70.4224853725
638.75 0.0722537908123 74.999086198
639.375 0.0814316072655 86.4692476327
640.0 0.0699976054265 102.021662711
640.625 0.0638504317008 109.876456347
641.25 0.0496578013866 92.61351711
641.875 0.0619711933107 149.895157268
642.5 0.0603063384279 162.118474988
643.125 0.0533947778925 149.763342314
643.75 0.0669182044646 168.033358668
644.375 0.0793853882052 -171.080250058
645.0 0.0753222390251 177.827260455
645.625 0.10287684232 169.016179144
646.25 0.087091993041 160.215849852
646.875 0.0562063017448 165.548716594
647.5 0.061530554815 179.040137611
648.125 0.0986207277441 -174.753553449
648.75 0.0624898734844 175.083945079
649.375 0.0407294033654 -160.725807667
650.0 0.0377625493978 -130.966040886
650.625 0.0769758719979 -89.7228750793
651.25 0.0536980085404 -71.7327527743
651.875 0.060340255146 -43.2036801123
652.5 0.0997760991014 -26.7718762273
653.125 0.124504617009 -1.90206774267
653.75 0.0902886802386 -0.507731498141
654.375 0.100734291148 4.81025438568
655.0 0.114487688403 11.3796501854
655.625 0.111097983389 27.8764159273
656.25 0.0477958512787 7.36320124923
656.875 0.0624067342386 5.33815884452
657.5 0.0895161491409 20.7477954201
658.125 0.0660482892039 48.3021103437
658.75 0.0664216211397 58.3509968768
659.375 0.0803915863944 39.687038714
660.0 0.104366165252 26.4994586727
660.625 0.112093383113 17.5673162314
661.25 0.118235675267 2.47925590609
661.875 0.0960248820106 -15.8090804315
662.5 0.124530340377 -20.5294388252
663.125 0.112365843667 -17.6663416153
663.75 0.110398302779 2.9375531859
664.375 0.0982474663597 50.8046990093
665.0 0.0690308953369 80.2013378971
665.625 0.0747044441071 107.469217981
666.25 0.0651959838443 132.511368865
666.875 0.100383393096 172.43112913
667.5 0.0880573236664 -169.956140591
668.125 0.111296568039 176.403624962
668.75 0.0998965769569 167.954163755
669.375 0.123461286777 177.202354583
670.0 0.0803805784111 -171.381991854
670.625 0.0969882884422 -176.015068599
671.25 0.106336242372 172.198717757
671.875 0.10276153833 166.159728132
672.5 0.084251579633 154.05604508
673.125 0.0907402161518 149.273466524
673.75 0.0882599608669 163.158399475
674.375 0.103346321804 170.580071288
675.0 0.111478530447 -175.254160201
675.625 0.140874514377 -155.123428803
676.25 0.110579492701 -125.559114286
676.875 0.106436374333 -120.069663579
677.5 0.11409571796 -127.930824491
678.125 0.143096089454 -120.08770626
678.75 0.0707340606914 -95.8392704234
679.375 0.0533513753085 -77.4699560949
680.0 0.0818883703451 -84.368825845
680.625 0.117575923894 -77.0543062007
681.25 0.112835370827 -78.3470312977
681.875 0.0937075789073 -89.1676889892
682.5 0.130455686964 -116.094474697
683.125 0.159984471656 -124.546044922
683.75 0.149555594564 -109.759561997
684.375 0.116653254977 -80.952996672
685.0 0.129362491672 -40.2527461672
685.625 0.130407661827 -5.56632733631
686.25 0.109133170002 20.3755735814
686.875 0.0985376249811 41.127921281
687.5 0.0757077445022 78.7048893813
688.125 0.0842865823505 102.568089779
688.75 0.101648380013 112.963354428
689.375 0.149696116159 113.407165191
690.0 0.12430604418 137.091644997
690.625 0.117194185161 128.365599577
691.25 0.142548552489 97.3225693826
691.875 0.203217594315 62.2642818837
692.5 0.116018928877 42.7593953781
693.125 0.0860297685911 -16.292762103
693.75 0.0998951289599 -46.0317830232
694.375 0.141131321626 -34.3200453455
695.0 0.138758377043 4.86168292717
695.625 0.0938579721023 59.0606434019
696.25 0.112563482453 115.409609207
696.875 0.127443574852 174.118561397
697.5 0.149066395256 -151.950515634
698.125 0.125539380705 -127.120255769
698.75 0.124132432624 -127.831533403
699.375 0.107122177773 -125.889174081
700.0 0.100441390874 -119.218762577
700.625 0.112681099192 -92.1993098221
701.25 0.0991110603669 -61.6039554227
701.875 0.0817157375124 -61.6483527396
702.5 0.0983692290859 -91.5568980384
703.125 0.161658347362 -112.065660802
703.75 0.178937878122 -153.630314012
704.375 0.122026783117 172.028430628
705.0 0.112406217042 154.224632354
705.625 0.150102539746 -178.19426836
706.25 0.14443090783 -114.057048198
706.875 0.0980763207518 -68.180339431
707.5 0.0782578911965 -38.1079423094
708.125 0.0937187822197 5.44546741481
708.75 0.111672288472 64.8349763119
709.375 0.106839710928 102.402098854
710.0 0.1014765992 131.353562895
710.625 0.106877530945 143.634737045
711.25 0.116820320512 174.869473675
711.875 0.144564948741 162.363290836
712.5 0.153114851607 144.490283193
713.125 0.132827293061 93.480399717
713.75 0.0970668614976 53.144464738
714.375 0.111080253712 31.6583722093
715.0 0.108111080832 35.3364437168
715.625 0.084786609645 36.0969310846
716.25 0.0783798171251 75.1219333914
716.875 0.113364248985 100.842643766
717.5 0.148193623448 143.465128293
718.125 0.119122730293 167.339884132
718.75 0.0980087559323 161.580878787
719.375 0.127327691355 -155.739472727
720.0 0.133916986862 -126.503703597
720.625 0.108344619603 -73.4549114237
721.25 0.0996488785512 -35.412030564
721.875 0.0825238707461 30.1044975087
722.5 0.0726975367135 62.1272278191
723.125 0.0853588508336 71.3691495748
723.75 0.0954955867914 29.4959242314
724.375 0.129102135085 12.2987189987
725.0 0.107000558805 -33.6692738667
725.625 0.106524200876 -61.6922745348
726.25 0.10954661151 -74.1987873251
726.875 0.107146225703 -45.9458425847
727.5 0.0842976061456 -33.688005045
728.125 0.0778355755854 -10.2809174535
728.75 0.0950580653824 18.5061025646
729.375 0.0735499384463 2.80251659531
730.0 0.0892114064612 19.3562466006
730.625 0.0730811748012 22.934775606
731.25 0.074282718778 75.4287504959
731.875 0.0477313499858 96.3313940301
732.5 0.0798516050348 155.720984166
733.125 0.0887649091504 173.167054175
733.75 0.0801646117191 179.1456081
734.375 0.0426319025369 144.052792482
735.0 0.0851756848749 163.157303753
735.625 0.075113094536 148.756605289
736.25 0.0615815129096 151.748984286
736.875 0.0254146599981 -161.29875807
737.5 0.120382738835 178.366357192
738.125 0.100347567707 -173.413954132
738.75 0.0836792897138 -169.770507959
739.375 0.0204058177639 158.458429067
740.0 0.0565827521094 -137.263833379
740.625 0.0558514405135 -149.951025619
741.25 0.0393724151967 -162.188771962
741.875 0.0407240196227 -115.077456864
742.5 0.0173464847641 53.4994648371
743.125 0.0394113107734 49.4092519844
743.75 0.0300008839175 82.1038361657
744.375 0.0376245358081 108.305330209
745.0 0.0462983136813 156.794397007
745.625 0.0654000672312 117.347906477
746.25 0.0763661829559 73.8296192324
746.875 0.0783832177214 34.1881536845
747.5 0.0263162460535 38.9656697197
748.125 0.05195924603 -14.7386452698
748.75 0.0217961659812 6.31197331693
749.375 0.0257695412245 -27.7061113773
750.0 0.0301120159657 -92.9734391149
