!Created with skrf (http://scikit-rf.org).
# GHz S RI R (50+0j) 
!freq	ReS11	ImS11	
500.0	0.6064053794	-1.276267803	
500.625	-0.2131996319	-1.29498123	
501.25	-0.005411650488	-0.5529345757	
501.875	-0.4907058784	-0.6766375973	
502.5	-0.06397676933	-0.0732966179	
503.125	-0.07622940289	-0.02793623944	
503.75	0.1042718876	0.1153993777	
504.375	-0.002517505442	0.008564671519	
505.0	0.04732987504	-0.04043708396	
505.625	-0.03894647169	-0.0110127886	
506.25	-0.02168679729	-0.1730608895	
506.875	-0.1221580957	0.248395678	
507.5	0.2337449276	-0.4644352228	
508.125	0.1029611688	-1.013953285	
508.75	0.1592631083	-0.4879639057	
509.375	0.657055946	-1.505126206	
510.0	-0.6831510464	-0.1736886408	
510.625	-0.06383161167	-0.03642105193	
511.25	-0.05769605473	-0.1011366456	
511.875	-0.1558993028	0.04738918477	
512.5	0.003084090051	-0.001363783502	
513.125	0.0004896415774	-0.1032774264	
513.75	-0.08943940473	0.03924162348	
514.375	0.008264834629	-0.07290134343	
515.0	-0.3406999977	0.006099133765	
515.625	0.6609991396	-0.5863841003	
516.25	-0.9890283872	-1.257702068	
516.875	-0.2393993346	-0.04352999299	
517.5	0.08273153933	-0.2562160666	
518.125	-0.08231414555	0.01876866029	
518.75	0.08757023819	-0.1358258156	
519.375	-0.0846393247	0.06130181035	
520.0	0.1283615482	0.002752031254	
520.625	0.1536884595	-0.02473185359	
521.25	0.05532325954	-0.3799352424	
521.875	-0.178628387	0.08384207991	
522.5	-0.010197249	-0.002030611399	
523.125	-0.1336892949	0.09990230216	
523.75	0.01903507552	0.03233982391	
524.375	-0.300786141	-0.06908500386	
525.0	0.09422996046	0.2165672515	
525.625	-0.05178821203	-0.01821121849	
526.25	0.04645942999	0.04943453117	
526.875	-0.09261820663	-0.02029502115	
527.5	-0.05491315187	0.3141884797	
528.125	0.05000762951	0.1443578615	
528.75	-0.1000922031	0.1507848365	
529.375	0.1212899696	0.1231533263	
530.0	-0.08098374036	0.01046595377	
530.625	0.01627253508	0.2275316487	
531.25	0.3863997701	-0.06404889666	
531.875	0.1783631161	-0.02316293987	
532.5	-0.08642801427	-0.2627772105	
533.125	-0.1310358077	0.05112567416	
533.75	0.1740752574	-0.3037204911	
534.375	-0.1579314718	-0.1584721266	
535.0	-0.1551694626	-0.1561088997	
535.625	-0.2477707447	0.133344479	
536.25	0.02751594972	0.07061222691	
536.875	0.07878255863	0.0600472968	
537.5	0.07978780239	-0.08256302762	
538.125	0.06286553696	-0.02926985008	
538.75	0.2121462428	-0.1221506224	
539.375	-0.1383713202	-0.1400353006	
540.0	-0.09001027881	-0.1295814691	
540.625	-0.1322007446	-0.06049271959	
541.25	-0.08714783576	0.06313252875	
541.875	0.007283097282	-0.0222761627	
542.5	-0.1166727717	-0.04019420831	
543.125	-0.04499740595	0.09000127612	
543.75	-0.128713019	-0.05200886746	
544.375	0.01294828646	0.06938079619	
545.0	-0.05942784737	0.02593360389	
545.625	0.1290990101	0.1027162853	
546.25	0.02694225501	0.004958786698	
546.875	0.1761480547	0.01216063042	
547.5	0.02051335882	-0.1633820047	
548.125	-0.007183210977	-0.08801405311	
548.75	-0.1311492902	-0.1795532416	
549.375	-0.1463417646	-0.02317782897	
550.0	-0.03592550878	-0.03133245784	
550.625	-0.09507620708	0.03234000694	
551.25	-0.03943675977	0.006734162041	
551.875	-0.1151732665	0.07572611529	
552.5	-0.01342296843	0.08950399274	
553.125	-0.02201536873	0.03858322706	
553.75	0.0593899379	0.05070818217	
554.375	0.08688250242	0.001191192788	
555.0	0.1130412604	-0.06938984227	
555.625	0.08880821411	-0.1204430728	
556.25	0.06416820028	-0.1426394861	
556.875	-0.03143181225	-0.169074314	
557.5	-0.1041755592	-0.1123947753	
558.125	-0.1224679191	-0.03838042737	
558.75	-0.1094698796	-0.007610278137	
559.375	-0.1240112692	0.02217492438	
560.0	-0.09083541432	0.08638662607	
560.625	-0.06202446587	0.09405298275	
561.25	0.007704971669	0.1281718293	
561.875	0.03532069485	0.01701959593	
562.5	-0.008217358653	0.09770324761	
563.125	0.09368851715	0.03530695551	
563.75	0.1214136349	0.04328476274	
564.375	0.1702679719	-0.1319441496	
565.0	0.02771098754	-0.1414675947	
565.625	0.02766121792	-0.1388089315	
566.25	-0.1757697887	-0.1259308144	
566.875	-0.09833342115	-0.04206070061	
567.5	-0.1201774511	-0.2011889809	
568.125	-0.2094098462	-0.1282184375	
568.75	-0.08206140303	-0.09537568382	
569.375	-0.3358858281	0.08085845628	
570.0	-0.04144517522	0.2423862013	
570.625	-0.09548073288	0.08180404956	
571.25	-0.005875020202	0.2151936483	
571.875	0.04616834038	-0.01868600407	
572.5	0.1839381848	0.09786743866	
573.125	0.05929501153	-0.2022626774	
573.75	0.01136742582	0.02620307359	
574.375	0.1087211089	-0.1291891796	
575.0	-0.08085297882	-0.002019789358	
575.625	0.1369391581	-0.06764637678	
576.25	-0.003858738891	-0.1910076758	
576.875	-0.006186840481	-0.05505292541	
577.5	0.1052278291	-0.1942174073	
578.125	-0.1511842683	-0.232757333	
578.75	-0.05088779548	-0.01212927892	
579.375	-0.03374308202	-0.1607972788	
580.0	-0.1891283206	0.03884082342	
580.625	0.02351974223	-0.09781477046	
581.25	-0.1974972184	0.2250105547	
581.875	0.1092939073	0.08681400364	
582.5	-0.06414174063	0.132237285	
583.125	0.1584706042	0.171451708	
583.75	-0.05904947755	-0.09223623269	
584.375	0.05948406619	0.1733093309	
585.0	0.1328700995	-0.03967905541	
585.625	0.0857396656	0.06732319198	
586.25	0.2661090836	-0.1379892101	
586.875	-0.02895991355	-0.1417054634	
587.5	0.07552159594	-0.1204060681	
588.125	-0.05877294648	-0.2283616383	
588.75	-0.03308178899	-0.07319700968	
589.375	0.1802287307	-0.1537670935	
590.0	-0.1518785116	-0.1931638145	
590.625	-0.08648515208	-0.01766972056	
591.25	-0.2645553722	0.05042889276	
591.875	0.03563342566	0.2103204316	
592.5	-0.04331926935	-0.05129716497	
593.125	0.03453916678	0.1616557243	
593.75	-0.07817723057	0.01553419095	
594.375	0.1656911033	0.221730655	
595.0	0.2662310177	0.0329225738	
595.625	0.06489585806	0.09257516438	
596.25	0.2550449567	0.07551566803	
596.875	0.155716803	-0.04689387857	
597.5	0.06049370803	0.1188976946	
598.125	0.2406417869	0.1703164115	
598.75	0.129204501	0.05019491112	
599.375	0.2113781766	0.04855876806	
600.0	0.2150035087	-0.2138434762	
600.625	0.04068605864	-0.1857298038	
601.25	0.1229608245	-0.1263735952	
601.875	-0.1408311236	-0.2182417311	
602.5	-0.07059156707	0.05201535089	
603.125	-0.1732629611	-0.05378803977	
603.75	-0.09403677738	0.2096372087	
604.375	-0.04983587442	-0.0761125602	
605.0	-0.1843757957	0.09045065094	
605.625	0.02994291822	0.1196006939	
606.25	-0.127786973	-0.05551503478	
606.875	-0.07320993995	0.1816010625	
607.5	-0.05943629263	0.1400660385	
608.125	-0.07748035596	0.2742270432	
608.75	0.2499175956	0.1985950784	
609.375	0.236446008	-0.03467734427	
610.0	0.2381252011	-0.04430390334	
610.625	0.07520273648	-0.2503892374	
611.25	-0.02115080682	-0.04767747969	
611.875	0.01084191748	-0.1529166308	
612.5	-0.2305608448	0.03828945103	
613.125	-0.09610088233	-0.03887505032	
613.75	-0.2116295931	0.1825422044	
614.375	0.1758038011	0.09371234564	
615.0	-0.09517293811	0.04432105559	
615.625	0.1133493937	0.1669475539	
616.25	-0.08461139242	0.04439350902	
616.875	-0.1714916742	0.2270130788	
617.5	0.02518540547	0.3349402255	
618.125	0.004015298823	0.07647443039	
618.75	0.05167872826	0.206684704	
619.375	0.134137947	0.1389435901	
620.0	0.114713189	0.06453191539	
620.625	0.2192537556	-0.2042039581	
621.25	-0.1844995739	-0.136949363	
621.875	-0.1251091292	-0.02629948025	
622.5	-0.3091968391	0.04701033397	
623.125	0.04299945934	0.2261619861	
623.75	0.02086090042	-0.002414285955	
624.375	0.1420268505	-0.08427545916	
625.0	-0.04496530358	0.01645485261	
625.625	0.1306036705	-0.1143807018	
626.25	-0.1400148157	-0.1408641194	
626.875	-0.04905191991	-0.05435981078	
627.5	-0.1828750345	-0.0956057911	
628.125	-0.1555602745	0.002869865637	
628.75	0.008775090094	-0.1066300898	
629.375	-0.1428399693	-0.244688087	
630.0	-0.2307961165	-0.08124734834	
630.625	-0.2289334175	0.006470430965	
631.25	-0.2179338643	0.1988615451	
631.875	0.0495926227	0.2247900988	
632.5	0.03753054346	0.06145755344	
633.125	0.2918006552	0.08755341881	
633.75	0.09524278829	-0.1030578511	
634.375	0.1321628326	-0.06650964637	
635.0	-0.06557808207	-0.256283759	
635.625	-0.07669432978	0.01457448146	
636.25	-0.2267169964	-0.01289216383	
636.875	-0.03025547281	0.2336267373	
637.5	-0.01389229106	0.00270317162	
638.125	-0.1709474279	0.1392756475	
638.75	0.04534560323	0.1684990043	
639.375	-0.1077767985	0.2088810413	
640.0	0.1985065468	0.3575886083	
640.625	0.2833110384	0.06053626238	
641.25	0.204738501	0.09986961759	
641.875	0.2820589646	-0.293960924	
642.5	-0.1166338946	-0.1509303877	
643.125	0.07586519474	-0.04744909377	
643.75	-0.2581823673	-0.1282055252	
644.375	-0.03137185477	0.03998658154	
645.0	-0.2972259215	0.1273007038	
645.625	0.2492516161	0.376495775	
646.25	0.08139936103	-0.04413274353	
646.875	0.1662395403	0.1314906943	
647.5	0.03409553634	-0.1941175147	
648.125	0.128203116	0.2859333357	
648.75	0.367799033	-0.2321996903	
649.375	0.0750943772	-0.2084871444	
650.0	0.3030289445	-0.1524221622	
650.625	0.1605210082	-0.4839533367	
651.25	-0.01291499062	-0.1434779387	
651.875	0.3902080689	-0.03732055602	
652.5	0.3507215025	-0.2626170595	
653.125	0.1082106013	-0.06156695531	
653.75	0.3872694161	-0.1876713047	
654.375	-0.2091620438	-0.3568894338	
655.0	-0.1583215489	-0.01266772663	
655.625	-0.3371658739	0.04983361824	
656.25	0.2388422332	0.3539636965	
656.875	-0.05887832044	-0.05191252503	
657.5	0.127213942	0.2510243636	
658.125	0.1433636969	0.02333784887	
658.75	0.1757723922	0.3428724697	
659.375	0.5155792629	-0.2718216433	
660.0	0.08698233237	-0.2750814058	
660.625	0.2721202947	-0.24953212	
661.25	0.2122807492	-0.4581874316	
661.875	0.05359879002	-0.2344747071	
662.5	0.3706866199	-0.0951359643	
663.125	0.2997789799	-0.326332075	
663.75	0.06765807607	-0.1793922031	
664.375	0.09568187506	-0.3828448986	
665.0	-0.4161827907	-0.200004219	
665.625	-0.1969072714	0.0852345025	
666.25	-0.223875338	0.2663109267	
666.875	0.2236598008	0.2426865816	
667.5	0.04773976356	-0.01660523809	
668.125	0.3552931864	0.1102737702	
668.75	0.1224115694	-0.2404420496	
669.375	0.09515754208	-0.09583903521	
670.0	0.1234398493	-0.3930342847	
670.625	-0.1576422098	-0.1731592267	
671.25	0.3065514494	-0.1245270468	
671.875	0.1681749299	-0.3099391148	
672.5	0.1018933427	-0.1712518496	
673.125	0.2605632538	-0.05367495874	
673.75	0.2075150083	-0.3673031155	
674.375	-0.03719209647	-0.1728729963	
675.0	0.02763584878	-0.297210068	
675.625	-0.3100370995	-0.1779373866	
676.25	-0.09447060461	0.07895141289	
676.875	-0.1989610385	-0.148144296	
677.5	-0.1702514628	0.1479708667	
678.125	-0.08010878342	0.02506491578	
678.75	-0.1203569204	0.3420137708	
679.375	0.3613947613	-0.02891398457	
680.0	-0.002188345246	0.01918909145	
680.625	0.233985842	-0.075455465	
681.25	-0.09151370323	-0.2113905251	
681.875	0.0452099593	0.2557915107	
682.5	0.4607270285	0.0618176437	
683.125	-0.008378577232	0.003752252623	
683.75	0.2056151912	0.2485827033	
684.375	0.4251974186	-0.1830864442	
685.0	0.05064744923	-0.09406733353	
685.625	0.432367038	0.1901584124	
686.25	0.3773072759	-0.2262548842	
686.875	0.2362966101	-0.05953877927	
687.5	0.486408547	-0.2437786972	
688.125	-0.2177723289	-0.5293735559	
688.75	-0.2108537983	-0.1552176626	
689.375	-0.4344968963	0.281353082	
690.0	0.2702911583	0.4021589143	
690.625	0.0353774508	0.1690042651	
691.25	0.4891940694	0.4912214897	
691.875	0.4733450249	0.06122513654	
692.5	0.4496321181	0.3665525766	
693.125	0.9318973877	0.03784930725	
693.75	0.3964724736	-0.4269135202	
694.375	0.482023403	-0.1476578808	
695.0	0.4703260404	-0.5403536622	
695.625	0.38918288	-0.2334863711	
696.25	0.3061817166	0.3397120026	
696.875	0.4785163194	0.287609005	
697.5	0.3291283357	0.218017433	
698.125	0.5585512108	0.158878268	
698.75	0.5880167091	-0.5326776017	
699.375	-0.4622677202	-0.1942743441	
700.0	-0.2470350027	0.2051564984	
700.625	0.2698964657	0.4244283771	
701.25	0.1358457361	0.04886618456	
701.875	0.1709181676	0.3942581975	
702.5	0.5739000844	0.2119135433	
703.125	0.2470973987	0.05471903644	
703.75	0.4887355256	0.0440050631	
704.375	0.2632419382	-0.3505733775	
705.0	0.07644395767	-0.08553481009	
705.625	0.4029877675	-0.03571946374	
706.25	0.3112256845	0.01341125064	
706.875	0.08611705977	0.2610540439	
707.5	0.3146821899	0.4482602688	
708.125	0.5002104824	0.1934019909	
708.75	0.3243227982	-0.1806893481	
709.375	-0.3227459734	-0.4651855431	
710.0	-0.2503851257	0.3361133449	
710.625	-0.01953745699	0.0221687459	
711.25	0.2231203203	0.2215567522	
711.875	0.1228997118	-0.01067412495	
712.5	0.3697267289	0.1301807621	
713.125	0.3820096585	-0.2937253666	
713.75	0.02664576638	-0.2106975584	
714.375	0.1609301758	-0.2226400901	
715.0	-0.09831595196	-0.2864412702	
715.625	0.01177851372	-0.08453452301	
716.25	0.2835362173	-0.2238288138	
716.875	0.2739083062	-0.3676867995	
717.5	0.2941862735	0.1061138438	
718.125	0.8187544117	0.1927795702	
718.75	0.8707514044	-0.2289150532	
719.375	0.4781852532	-0.2291318725	
720.0	0.8087653363	-1.027208503	
720.625	-0.2238351159	-1.318799155	
721.25	0.1994713362	-0.5095917109	
721.875	-0.1417047549	-1.334955228	
722.5	-0.7237765005	-0.4105689913	
723.125	-0.6108343242	-0.4494709942	
723.75	-0.7407219236	0.6726764911	
724.375	0.167432771	0.3303153417	
725.0	-0.04661824599	0.3792941529	
725.625	0.3604574804	0.6820617332	
726.25	0.1246609494	0.3894485678	
726.875	-0.4586328287	0.8506995128	
727.5	-0.05390377556	1.770562411	
728.125	0.4246293354	1.413515674	
728.75	-1.137334158	2.36258697	
729.375	-0.6688049388	4.967878585	
730.0	0.6366492509	2.406592027	
730.625	-1.905459081	4.443973385	
731.25	-0.5606152812	5.186183536	
731.875	-1.321766701	1.295997776	
732.5	-4.077982919	-1.350593448	
733.125	-3.025645096	0.9818805892	
733.75	0.09280854012	0.9674190619	
734.375	0.4173603987	1.154084706	
735.0	-0.3075370829	-0.8214216658	
735.625	-0.2295302986	-0.01456992594	
736.25	-0.4453261017	0.8135399915	
736.875	0.8358510962	0.4052550726	
737.5	0.3656974179	0.4339102808	
738.125	2.351789493	-0.01239828641	
738.75	1.191121952	-2.072909154	
739.375	0.9271227837	-0.2975973483	
740.0	5.812579911	1.380652198	
740.625	4.119325999	-3.328770123	
741.25	-3.145684929	0.4402681111	
741.875	-5.522521374	2.294251979	
742.5	-1.852717025	-0.06217055166	
743.125	1.564692469	-1.520974781	
743.75	-0.4544211178	-1.505578536	
744.375	-0.3078687931	0.1051687015	
745.0	-0.2495832987	0.03792913826	
745.625	0.06042430209	-0.1241112353	
746.25	0.07033504742	-0.1152808822	
746.875	-0.379722497	0.02577145004	
747.5	0.02191885575	0.3080822659	
748.125	-0.086500011	0.4260812327	
748.75	0.280416851	0.6396982618	
749.375	0.2140717442	0.4107063963	
750.0	-0.4027653884	0.09163660305	
