!Created with skrf (http://scikit-rf.org).
# GHz S RI R (50+0j) 
!freq	ReS11	ImS11	
500.0	0.2887629319	-0.4537036025	
500.625	0.6096035594	-1.372003556	
501.25	-0.6194752873	-0.4638094387	
501.875	0.04425871104	-0.4940892236	
502.5	-0.1255322982	-0.1999418993	
503.125	-0.03657291545	0.01409350248	
503.75	-0.05049068993	0.129987386	
504.375	0.02662382401	-0.0375458964	
505.0	0.05582962453	0.0183654241	
505.625	-0.01997696229	-0.09948475123	
506.25	-0.0105133413	0.02914310447	
506.875	-0.3308433474	-0.1068475855	
507.5	-0.1523466411	0.008276904827	
508.125	0.5453574632	-0.6066724253	
508.75	0.5314581187	-1.411993984	
509.375	-0.0931779078	-0.5979011767	
510.0	-0.1864041521	-0.6493907381	
510.625	-0.2841413183	-0.2018519115	
511.25	-0.01115641018	-0.04133947716	
511.875	-0.1774488275	-0.08603869606	
512.5	-0.04057281421	0.05037603177	
513.125	0.0325003083	-0.03456909025	
513.75	-0.1103359618	-0.08698023548	
514.375	0.0199021615	0.1260517548	
515.0	0.09057691613	-0.3252529755	
515.625	-0.1303786407	0.03121281923	
516.25	0.1793705128	-0.9725542608	
516.875	-0.5737799011	-0.3140268423	
517.5	-0.06005457345	0.01148482137	
518.125	-0.02120525142	-0.1180979128	
518.75	-0.09693536277	-0.0005404939391	
519.375	-0.08628905163	0.04180092359	
520.0	0.155304996	0.07841451733	
520.625	0.1158161443	-0.1014336186	
521.25	0.07969691025	-0.1444908521	
521.875	-0.1641304309	-0.06178177721	
522.5	0.01446391941	0.08049995395	
523.125	-0.1661382057	-0.06237669559	
523.75	-0.1511653454	0.09693822903	
524.375	-0.01854232829	-0.03916602094	
525.0	-0.1764059273	0.2296905368	
525.625	0.1389933002	-0.008893545617	
526.25	-0.08194387726	0.0400548529	
526.875	0.006546465493	0.006096430827	
527.5	-0.1712477646	0.1333782013	
528.125	0.1476646284	0.3458832883	
528.75	0.1172218461	0.08219102099	
529.375	0.09577669439	0.06720868173	
530.0	0.1879640461	0.0733924637	
530.625	0.04293393746	0.2845807697	
531.25	0.4580882918	0.1798108396	
531.875	0.2096188407	-0.2736228392	
532.5	0.08702598984	-0.1127587644	
533.125	-0.01286651762	-0.1689204069	
533.75	0.2389477015	-0.0724172895	
534.375	-0.1219939931	-0.472647066	
535.0	-0.1818209977	-0.03477845868	
535.625	-0.2071601578	0.03911515174	
536.25	0.0128467433	0.1311241943	
536.875	0.04871725847	0.003976267448	
537.5	0.1132074359	-0.0233951034	
538.125	0.08935375096	-0.1131499419	
538.75	0.1265357114	-0.04483260511	
539.375	-0.07370459966	-0.226362152	
540.0	-0.197851027	-0.07617831938	
540.625	-0.1309854062	-0.03582849917	
541.25	-0.1231298765	-0.01568771613	
541.875	0.01038372247	0.02666341762	
542.5	-0.06405137721	-0.1300412517	
543.125	-0.1603856479	-0.03001743759	
543.75	-0.0152406014	-0.03666410681	
544.375	-0.1527576713	0.07898040723	
545.0	0.02130321464	0.01274930777	
545.625	0.03085678502	0.1320122338	
546.25	0.1302136516	-0.02117873831	
546.875	0.05273323478	0.02254143595	
547.5	0.1201307569	-0.1638437134	
548.125	-0.1082110599	-0.1328661522	
548.75	-0.04902911728	-0.1280430321	
549.375	-0.1603571067	-0.1211408899	
550.0	-0.04696859747	0.04588247763	
550.625	-0.08474833569	-0.03496533215	
551.25	-0.0566283152	0.06623454483	
551.875	-0.06406365118	0.03428203345	
552.5	-0.06011775039	0.1050745783	
553.125	-0.0003415696249	0.0520723247	
553.75	0.04606707649	0.06366823258	
554.375	0.1074478737	-0.01204664173	
555.0	0.1028889567	-0.06468345935	
555.625	0.09629831399	-0.1149139434	
556.25	0.06763114616	-0.1491779926	
556.875	-0.03373008841	-0.1636547349	
557.5	-0.09536445017	-0.1145240137	
558.125	-0.1264352973	-0.04623362043	
558.75	-0.1121884558	-0.00392282272	
559.375	-0.1145960254	0.004754321394	
560.0	-0.1147493503	0.08466409816	
560.625	-0.04363333473	0.1026254587	
561.25	-0.02232192892	0.105711394	
561.875	0.07179023418	0.05316424254	
562.5	-0.02642604118	0.0435253776	
563.125	0.1119074461	0.09284711954	
563.75	0.1040091785	-0.01367874428	
564.375	0.1657691982	-0.05077380298	
565.0	0.06902554465	-0.1986202731	
565.625	-0.02151415818	-0.1126095426	
566.25	-0.1131648643	-0.1741834055	
566.875	-0.2104207693	-0.02769610602	
567.5	-0.07561789813	-0.125909819	
568.125	-0.187577919	-0.2190580097	
568.75	-0.2151189963	0.02563400857	
569.375	-0.240817959	-0.02098663011	
570.0	-0.1662638964	0.2939175596	
570.625	-0.0001886086401	0.1356388525	
571.25	-0.09973472812	0.1243426745	
571.875	0.1526484771	0.0488025932	
572.5	0.05489307014	0.06665140898	
573.125	0.1710051667	-0.1672917907	
573.75	-0.07700147477	-0.1284326715	
574.375	0.1116878963	0.01580846832	
575.0	-0.001065588506	-0.1443332358	
575.625	0.05299283667	0.01999257504	
576.25	0.1154205618	-0.1758638149	
576.875	-0.1017822704	-0.1376974165	
577.5	0.04963503548	-0.08364259479	
578.125	-0.02281268365	-0.2646490168	
578.75	-0.1768939667	-0.06912088116	
579.375	0.05604410251	-0.02541408731	
580.0	-0.1305349132	-0.1052978626	
580.625	0.009704122206	0.0429718495	
581.25	-0.2520931472	-0.009529772425	
581.875	0.1133098139	0.234093882	
582.5	0.02015802411	0.01573108189	
583.125	-0.0003069648837	0.1861136802	
583.75	0.137044318	-0.07959475392	
584.375	-0.06608518751	0.1179001463	
585.0	0.2349348469	0.005646923762	
585.625	0.06422426679	-0.0432256425	
586.25	0.2354397176	0.03159683469	
586.875	0.04420073279	-0.2407336959	
587.5	-0.0004037927066	-0.05162135554	
588.125	0.05433703505	-0.2115180202	
588.75	-0.04684052308	-0.1831007185	
589.375	0.09303129535	-0.04681713636	
590.0	-0.05427567074	-0.3142613286	
590.625	-0.1756498438	0.04925964983	
591.25	-0.1315770702	-0.004333549878	
591.875	-0.09609932189	0.203913001	
592.5	0.1305853917	-0.1046702144	
593.125	-0.1154469768	0.1509907479	
593.75	0.1201597007	-0.005520409809	
594.375	0.05482340534	0.1440639247	
595.0	0.3095583289	0.102466503	
595.625	0.1397177643	-0.03406323971	
596.25	0.1316540102	0.1474497035	
596.875	0.2409479222	0.002641783545	
597.5	0.06413188092	0.07530567084	
598.125	0.1273187846	0.2206494344	
598.75	0.2297139741	0.02411083615	
599.375	0.1413482933	0.004053553472	
600.0	0.2309402416	-0.1392007737	
600.625	0.112819808	-0.2591289928	
601.25	0.027708614	-0.112363975	
601.875	-0.03196421266	-0.233681002	
602.5	-0.1727040149	0.0864301681	
603.125	-0.05508784156	-0.03687945688	
603.75	-0.2116531204	0.1046832706	
604.375	0.03759331473	0.09471438112	
605.0	-0.1823482072	-0.0007125393517	
605.625	-0.0399736513	0.1828035986	
606.25	-0.02601606888	-0.01438841643	
606.875	-0.25737251	0.17007113	
607.5	-0.08790236536	0.281151976	
608.125	-0.07479649563	0.1579137204	
608.75	0.1980609321	0.2932262978	
609.375	0.2396687833	-0.09832387952	
610.0	0.1590704676	-0.08557300049	
610.625	0.1580124411	-0.1965821918	
611.25	-0.09648090893	-0.126027579	
611.875	-0.01029174889	-0.1052467455	
612.5	-0.2902732806	-0.07845831137	
613.125	-0.09981289755	0.171348478	
613.75	-0.1840537596	0.06362033788	
614.375	0.1260241023	0.2060623336	
615.0	-0.01649557725	-0.06974669023	
615.625	0.04130006639	0.2280289582	
616.25	0.07356974603	0.0908048897	
616.875	-0.1587772323	0.09673118114	
617.5	-0.1202894448	0.3533130258	
618.125	-0.1226251007	0.1904574263	
618.75	-0.09459148088	0.1971997155	
619.375	0.192040374	0.2375614595	
620.0	0.1198631754	-0.02086751978	
620.625	0.02904836453	-0.07290093451	
621.25	-0.1523307742	-0.2369228782	
621.875	-0.1341226186	-0.02560777417	
622.5	-0.2744469492	-0.03131057423	
623.125	-0.0694110058	0.3069105217	
623.75	0.09048466145	-0.02813371094	
624.375	0.1392094779	-0.0002943678871	
625.0	-0.04823033465	-0.07150133781	
625.625	0.1184934338	-0.03119550788	
626.25	-0.1027254463	-0.2101790268	
626.875	-0.1180706433	0.0009183344916	
627.5	-0.1167455165	-0.1242134014	
628.125	-0.2016994525	-0.05800964163	
628.75	-0.06554568423	-0.08582097405	
629.375	-0.06205141952	-0.2378959457	
630.0	-0.2444932961	-0.06370783932	
630.625	-0.1684069913	0.03346969764	
631.25	-0.2205035427	0.2131792183	
631.875	0.02787691663	0.28689446	
632.5	0.1645890328	0.09840254869	
633.125	0.2585790952	0.1471086568	
633.75	0.2525900494	-0.2521774792	
634.375	0.06131075908	-0.06135945471	
635.0	-0.00376253508	-0.2407392026	
635.625	-0.1848186422	0.01199155391	
636.25	-0.1117407787	-0.05059248739	
636.875	-0.1238105486	0.2338779704	
637.5	0.05605084749	0.05089614476	
638.125	-0.1739666462	0.06658363864	
638.75	0.006594250381	0.2467039043	
639.375	-0.02111839175	0.1061637889	
640.0	0.1036233037	0.3708438057	
640.625	0.3392481327	0.09178818738	
641.25	0.1579663369	0.01867338736	
641.875	0.290882177	-0.08141281376	
642.5	-0.128648573	-0.2557145867	
643.125	-0.0445203576	0.004569426894	
643.75	-0.2092686863	-0.1851920505	
644.375	-0.1484195471	0.2156558548	
645.0	-0.1987202268	0.008094073061	
645.625	0.1009519106	0.4062807326	
646.25	0.1427090276	-0.04922636173	
646.875	0.006662945556	0.2280173336	
647.5	0.1958189108	-0.1057201389	
648.125	0.02889010868	0.1737372147	
648.75	0.4578574045	-0.1057857024	
649.375	0.04275838743	-0.3194784102	
650.0	0.201663848	-0.1411299686	
650.625	0.2921547473	-0.4257495384	
651.25	-0.003745541562	-0.3051660498	
651.875	0.2869273977	0.05050367184	
652.5	0.4402572766	-0.2008824311	
653.125	0.1227627398	-0.1736794556	
653.75	0.3287075887	-0.09346219226	
654.375	-0.1005568576	-0.5121163218	
655.0	-0.2402529197	0.02751418848	
655.625	-0.2745662668	0.04830220725	
656.25	0.06015658268	0.3897573103	
656.875	0.04377060465	-0.185272048	
657.5	0.02982453607	0.2828560362	
658.125	0.2605084179	0.04520615844	
658.75	0.0673643001	0.1893722087	
659.375	0.5336763494	-0.1362364841	
660.0	-0.04135084682	-0.3562467716	
660.625	0.2056792617	-0.1693257338	
661.25	0.2692921572	-0.4051349609	
661.875	0.08847329997	-0.3218152625	
662.5	0.3126079604	0.01367630728	
663.125	0.375643268	-0.2945811467	
663.75	0.02913100058	-0.2529031709	
664.375	0.09600144251	-0.3101571007	
665.0	-0.3866746744	-0.2882761599	
665.625	-0.21892559	0.1378526906	
666.25	-0.2118538144	0.2112662609	
666.875	0.1960703752	0.3335599263	
667.5	0.1351904564	-0.006501633373	
668.125	0.2882045222	0.1016271053	
668.75	0.184421718	-0.2591240606	
669.375	0.03298287254	-0.08031698368	
670.0	0.1315947355	-0.2744466449	
670.625	-0.1144763767	-0.2535711538	
671.25	0.1878320547	0.02116143512	
671.875	0.2292601153	-0.318591261	
672.5	0.08417418668	-0.1668019568	
673.125	0.2025906648	-0.04996777402	
673.75	0.2745436801	-0.3193070948	
674.375	-0.06001529746	-0.1541535951	
675.0	0.04825779361	-0.2414350361	
675.625	-0.2780456613	-0.218521098	
676.25	-0.1593077376	0.09897836231	
676.875	-0.1524876644	-0.15718598	
677.5	-0.249575304	0.1394162639	
678.125	-0.03810853232	0.06662626701	
678.75	-0.1357569227	0.2653687068	
679.375	0.4013409548	0.05221479842	
680.0	-0.03404848719	-0.05599882104	
680.625	0.2452455526	0.003940262816	
681.25	0.06035871429	-0.1882910068	
681.875	-0.01042574479	0.1713834276	
682.5	0.5770818062	0.09103651413	
683.125	0.1584361757	-0.1148055503	
683.75	0.1558545914	0.2160518806	
684.375	0.4999796276	-0.04103945737	
685.0	0.1960028238	-0.1804462451	
685.625	0.3128376653	0.2397640296	
686.25	0.4197134869	-0.2061038962	
686.875	0.2075643556	-0.1018508917	
687.5	0.4479895262	-0.1950729568	
688.125	-0.1774116142	-0.5435903856	
688.75	-0.2173392293	-0.1059066158	
689.375	-0.4434127107	0.2622287611	
690.0	0.2459484653	0.4508748674	
690.625	0.1303057633	0.07265361001	
691.25	0.382813694	0.5356807712	
691.875	0.5468755799	0.1263371766	
692.5	0.4167462433	0.2821980569	
693.125	0.9733801733	0.07428156938	
693.75	0.4296771397	-0.4279033189	
694.375	0.4259174937	-0.1160014807	
695.0	0.5971573788	-0.489304918	
695.625	0.455517022	-0.2609602894	
696.25	0.7123714962	0.3833066717	
696.875	0.6393483985	0.5648140978	
697.5	0.407574515	0.1979120648	
698.125	0.5578056905	0.3287511578	
698.75	0.5111162582	-0.3281204575	
699.375	-0.4868024044	-0.2585837673	
700.0	-0.2706170058	0.2104430514	
700.625	0.2293391542	0.4811576232	
701.25	0.3216018895	-0.01186856337	
701.875	0.1530727726	0.3739751405	
702.5	0.5441563772	0.2749943093	
703.125	0.2745407765	0.00557966519	
703.75	0.4856148613	0.0652646231	
704.375	0.3550903618	-0.3325740405	
705.0	0.06979563642	-0.1083071028	
705.625	0.4228398585	0.07952352197	
706.25	0.3555508625	0.0441143867	
706.875	0.2090978576	0.3505302772	
707.5	0.3213203316	0.5110458248	
708.125	0.5188052516	0.05380229507	
708.75	0.2577718268	-0.1281276374	
709.375	0.0001780419431	-0.1946478778	
710.0	-0.1662270193	0.2803742499	
710.625	-0.04197200428	0.04076135636	
711.25	0.2277135386	0.2510366843	
711.875	0.09875905804	-0.09852570395	
712.5	0.3231172727	0.1165331077	
713.125	0.3957467523	-0.2656879813	
713.75	0.02625352775	-0.2166076783	
714.375	0.1620673228	-0.2089198446	
715.0	-0.1079525057	-0.3094013044	
715.625	-0.004321065537	-0.08800384271	
716.25	0.2998963274	-0.2095121349	
716.875	0.3249734422	-0.3553840468	
717.5	0.3858954042	-0.04981634638	
718.125	0.8731997736	0.2373759431	
718.75	0.8128003767	-0.4346240249	
719.375	0.5009544681	-0.1213169804	
720.0	0.9119572513	-0.7317446689	
720.625	-0.1664347089	-0.8148907621	
721.25	0.352400863	-0.8533187593	
721.875	-0.2376469288	-1.348612335	
722.5	-1.218051055	-0.4320595307	
723.125	-0.5085175698	-0.3286834331	
723.75	-0.6376667276	0.5981428445	
724.375	0.164167669	0.3520125126	
725.0	-0.1437572255	0.3480184986	
725.625	0.3470373936	0.6614252896	
726.25	0.1498098066	0.3875608545	
726.875	-0.4545223495	0.9018219815	
727.5	-0.03999746655	1.767874896	
728.125	0.5348127712	1.49269186	
728.75	-1.273089193	2.32563211	
729.375	-0.4989089323	4.951104942	
730.0	0.7002422313	2.351914832	
730.625	-1.804998344	3.094128292	
731.25	0.3746949064	5.176453688	
731.875	-1.452432612	0.9487799729	
732.5	-3.630071998	-0.9025759854	
733.125	-2.754653931	1.164080107	
733.75	-0.3882834021	0.7990008343	
734.375	0.8351935826	0.9783722804	
735.0	-0.2842043603	-0.7450159976	
735.625	0.0004277821482	-0.1389938905	
736.25	-0.3767751834	0.7029426785	
736.875	0.7279654744	0.4003931774	
737.5	0.3730654647	0.4532892898	
738.125	2.474402029	-0.07789891863	
738.75	1.348057943	-2.071584646	
739.375	1.009035551	-0.2355372298	
740.0	5.349450184	1.003028638	
740.625	2.628112147	-3.171137864	
741.25	-3.60476179	1.113822248	
741.875	-5.629693268	1.260682791	
742.5	-0.6114723973	0.007073241369	
743.125	1.738134625	-2.348722101	
743.75	-0.3205696917	-1.728909425	
744.375	-0.3278546256	0.1638931111	
745.0	-0.2162583668	0.1119220839	
745.625	0.03055851935	-0.1007033307	
746.25	0.1811857771	-0.08090200473	
746.875	-0.3274978378	0.008866462007	
747.5	-0.02848310172	0.3290157394	
748.125	-0.1009484065	0.4204927003	
748.75	0.3102029443	0.5921631603	
749.375	0.1874093723	0.3033501744	
750.0	-0.471630638	0.08549346271	
