!Created with skrf (http://scikit-rf.org).
# GHz S RI R (50+0j) 
!freq	ReS11	ImS11	
500.0	-0.1049032323	-1.482739653	
500.625	0.2581867804	-0.4824991602	
501.25	-0.3319005278	-1.107906539	
501.875	-0.3610724528	-0.2858220813	
502.5	0.06227415536	-0.123910612	
503.125	-0.1090537738	0.008227451449	
503.75	0.02783408969	0.01971944466	
504.375	0.05553030709	0.02448268274	
505.0	-0.01424048701	-0.03930062589	
505.625	0.05754391614	-0.02703748473	
506.25	-0.1677289023	-0.07228064179	
506.875	0.0928935943	-0.08020289305	
507.5	-0.1410115318	-0.7575899509	
508.125	-0.1819091368	-0.519006569	
508.75	0.9727324138	-0.5364676253	
509.375	-0.6949126629	-1.690225915	
510.0	-0.4192438815	-0.04070407161	
510.625	0.04918782301	-0.2056332338	
511.25	-0.1769004739	0.007563976109	
511.875	-0.01724905928	-0.008398893818	
512.5	-0.04017413105	0.04059856986	
513.125	-0.05771150762	-0.06943656558	
513.75	0.002734041713	-0.03425759863	
514.375	-0.1669241589	-0.09620039688	
515.0	0.1487143514	0.2761695603	
515.625	-0.2949432546	-1.015063197	
516.25	-0.4372466073	-0.2098626772	
516.875	0.09579342738	-0.839032607	
517.5	-0.1284885676	-0.3154918129	
518.125	0.02900802058	0.01988772297	
518.75	-0.1000027839	-0.25526979	
519.375	-0.02776775598	0.04749207373	
520.0	0.05004677409	0.07339316753	
520.625	0.1966177643	-0.05616136171	
521.25	-0.1341509823	-0.2729952333	
521.875	-0.1774937321	-0.005877973738	
522.5	-0.1257938924	0.003176492881	
523.125	0.04799695187	0.0626942186	
523.75	-0.1633010803	-0.155953213	
524.375	-0.2527569958	0.1629031083	
525.0	0.01382171537	0.001654881767	
525.625	-0.03589249348	0.1323739342	
526.25	0.02982450806	-0.1083175948	
526.875	-0.11135394	0.1181337461	
527.5	0.0697548359	0.1474571714	
528.125	-0.08026713181	0.2885169193	
528.75	0.002461382548	0.3793909653	
529.375	0.03526953103	-0.01257427341	
530.0	-0.08326882405	0.3337123049	
530.625	0.2325831257	0.2389914827	
531.25	0.4108823378	0.02176457166	
531.875	0.4047976901	-0.1833599358	
532.5	-0.1764156571	-0.02442450831	
533.125	0.1709926966	0.07695852602	
533.75	-0.001477980829	-0.2519192229	
534.375	0.05091268786	-0.2219853816	
535.0	-0.3165153246	-0.1681105927	
535.625	-0.1074060688	0.1597353377	
536.25	-0.03594489647	0.07048869818	
536.875	0.1356183654	0.02645847939	
537.5	0.02498988433	-0.03930700189	
538.125	0.177992985	-0.008639369697	
538.75	0.1000464366	-0.1742065282	
539.375	-0.01917584281	-0.12266821	
540.0	-0.164637053	-0.2410393618	
540.625	-0.1944158802	0.02278768416	
541.25	-0.05270224787	0.02195676007	
541.875	-0.1036814762	-0.03486954285	
542.5	0.005645963165	0.00262904744	
543.125	-0.05772132046	-0.1035972026	
543.75	-0.1751743017	0.03120873197	
544.375	-0.02141078844	-0.02827899494	
545.0	-0.01510335562	0.1092475367	
545.625	0.06495063767	-0.01917619198	
546.25	0.09759373124	0.1104592197	
546.875	0.1601649155	-0.1055752624	
547.5	0.05874127831	-0.06500065606	
548.125	0.005120110444	-0.2213872122	
548.75	-0.1959346121	-0.1021542616	
549.375	-0.04995232682	-0.06178992048	
550.0	-0.1288081595	-0.02155753724	
550.625	-0.0132960711	0.03138164088	
551.25	-0.1163600027	-0.003952126551	
551.875	-0.06293100345	0.1014936172	
552.5	-0.05027349905	0.04299980786	
553.125	-0.02866444027	0.08114125279	
553.75	0.04569448341	0.03712422345	
554.375	0.09858093023	0.01594016354	
555.0	0.1067943524	-0.07942777807	
555.625	0.08810485039	-0.1079197442	
556.25	0.07746088508	-0.144521627	
556.875	-0.0322566755	-0.1764739277	
557.5	-0.09788273	-0.1084840518	
558.125	-0.1171289933	-0.04869096276	
558.75	-0.1212800887	-0.01079288141	
559.375	-0.1142985607	0.02495003499	
560.0	-0.1024054545	0.06045121704	
560.625	-0.07445065771	0.1282366538	
561.25	0.02769132738	0.09651040123	
561.875	-0.01435201345	0.05841171097	
562.5	0.04953674574	0.05441091613	
563.125	0.0249338301	0.08154896628	
563.75	0.1921106472	0.0165317288	
564.375	0.09316256222	-0.1185257236	
565.0	0.1124557787	-0.111083582	
565.625	-0.04098217929	-0.2286204679	
566.25	-0.1037409462	-0.06589628248	
566.875	-0.0860153639	-0.1618671463	
567.5	-0.2061467348	-0.1110854868	
568.125	-0.07850533529	-0.1372037323	
568.75	-0.2764475285	-0.1822292392	
569.375	-0.2108567981	0.1985305015	
570.0	-0.1277297215	0.1078345194	
570.625	-0.1372042131	0.2411593689	
571.25	0.07436630256	0.08943390735	
571.875	-0.02831980143	0.1524389767	
572.5	0.1934041573	-0.07025781571	
573.125	0.03536356745	-0.04179985218	
573.75	0.1719385568	-0.1327451738	
574.375	-0.1046157537	-0.1104788933	
575.0	0.09267367257	0.04844640484	
575.625	0.008244511971	-0.1678678207	
576.25	0.007864797538	-0.02590982414	
576.875	0.08881846759	-0.2000814395	
577.5	-0.06393965839	-0.2260314311	
578.125	-0.05376734817	-0.0528455584	
578.75	-0.01662752286	-0.198290096	
579.375	-0.2675906069	-0.09438861285	
580.0	0.05114229561	0.03376262043	
580.625	-0.1603689729	-0.07356203321	
581.25	-0.00101973295	0.1119582467	
581.875	-0.1583669183	0.101615228	
582.5	0.09863851188	0.2696772561	
583.125	0.11323809	-0.04442309878	
583.75	-0.01579645516	0.162973439	
584.375	0.1152866099	-0.03539492607	
585.0	-0.006124585147	0.1368360977	
585.625	0.266635026	0.02238860168	
586.25	0.07583045201	-0.1331003601	
586.875	0.1489529671	-0.05004932733	
587.5	-0.02535245833	-0.2444277879	
588.125	-0.06613395522	-0.05375342411	
588.75	0.1306570412	-0.1456262556	
589.375	0.02898707113	-0.2477890923	
590.0	-0.03323834256	-0.07267356401	
590.625	-0.2038914588	-0.1662475528	
591.25	-0.1018028756	0.2570493836	
591.875	-0.01425993347	0.02769839465	
592.5	-0.07154964077	0.2163765183	
593.125	0.04193263524	-0.05402605838	
593.75	0.03361981224	0.3040960684	
594.375	0.2362801811	-0.0163579213	
595.0	0.06697391691	0.09733463455	
595.625	0.2331332241	0.1844215066	
596.25	0.1587274361	-0.05055429857	
596.875	0.06597142534	0.09073568126	
597.5	0.2493675072	0.06167754214	
598.125	0.1431913047	0.02588005857	
598.75	0.1274916925	0.1569621491	
599.375	0.2726034705	-0.07666126667	
600.0	0.08565970199	-0.1428063964	
600.625	0.1998267875	-0.1093623568	
601.25	0.08981897573	-0.2610555506	
601.875	-0.1212640051	-0.07129146254	
602.5	-0.07816891244	-0.1589736153	
603.125	-0.1616087079	0.1509104241	
603.75	-0.02136478269	0.01456913424	
604.375	-0.206146662	0.03644327836	
605.0	0.07670411767	0.1580817032	
605.625	-0.08463500124	-0.07290127027	
606.25	-0.1978463911	0.1539721485	
606.875	-0.07490538455	0.04594555748	
607.5	-0.2637396304	0.1577545844	
608.125	0.01401762378	0.3510339577	
608.75	0.1444143452	0.1029788679	
609.375	0.2700490542	0.0858343942	
610.0	0.1881870859	-0.1194645813	
610.625	0.01851973927	-0.09292334964	
611.25	0.1326452793	-0.2156210059	
611.875	-0.1796340399	-0.109206466	
612.5	-0.06569652684	-0.05940388508	
613.125	-0.297667516	-0.04983810413	
613.75	-0.01167767776	0.231226453	
614.375	-0.05945261703	0.02160057695	
615.0	0.1150556679	0.1472150438	
615.625	-0.08629112372	-0.01367744567	
616.25	-0.1755283313	0.2031113768	
616.875	0.0232003745	0.2989136351	
617.5	-0.05934815632	0.07659035958	
618.125	0.006320842844	0.2486965723	
618.75	0.1268947803	0.1873348309	
619.375	0.04283554458	0.1213797258	
620.0	0.2251986623	0.1045388932	
620.625	0.08790188825	-0.2239180115	
621.25	-0.01564794079	-0.1763035717	
621.875	-0.1935793446	-0.1827047829	
622.5	-0.1946755884	0.1424382581	
623.125	0.004907425312	0.0173269286	
623.75	0.1874601508	0.1154323949	
624.375	-0.03257905295	-0.1057843012	
625.0	0.1254812654	0.0130791505	
625.625	-0.009741648272	-0.1646834057	
626.25	0.01757508374	-0.07503317152	
626.875	-0.1768857052	-0.1733317911	
627.5	-0.1859911716	0.03125632048	
628.125	-0.02976734575	-0.07726945643	
628.75	-0.1249420822	-0.2146100149	
629.375	-0.10211608	-0.07014299332	
630.0	-0.1663658078	-0.1123070644	
630.625	-0.2735725142	0.04307284002	
631.25	-0.1034676467	0.1961620597	
631.875	-0.1242346473	0.2292113321	
632.5	0.1739385063	0.2821916447	
633.125	0.2249071626	-0.01327073783	
633.75	0.1179652447	0.06186504619	
634.375	0.1086524073	-0.2268796569	
635.0	-0.03728089519	-0.03812291097	
635.625	-0.1410477882	-0.1944884155	
636.25	-0.1912615076	0.1960784712	
636.875	-0.01599408787	0.0491007544	
637.5	-0.1480242959	0.1268531391	
638.125	0.05773642376	0.1341121678	
638.75	-0.164440403	0.08645354915	
639.375	0.007730111228	0.3822820975	
640.0	0.1946382299	0.1482525927	
640.625	0.1358070609	0.2084716577	
641.25	0.41804117	-0.01236073889	
641.875	0.07930512931	-0.2255870645	
642.5	0.131079326	-0.1831977528	
643.125	-0.2329002685	-0.2352973485	
643.75	-0.08343556595	0.07531568313	
644.375	-0.2471195684	-0.1155016982	
645.0	-0.1267056088	0.2823190474	
645.625	0.09041400979	-0.02137490374	
646.25	0.1195267771	0.2787518692	
646.875	0.1929462023	-0.3241803908	
647.5	-0.08507749431	0.1685858547	
648.125	0.3311957268	-0.06551737488	
648.75	0.1047783306	-0.07143516265	
649.375	0.4414270689	-0.08482799713	
650.0	0.1390371032	-0.5056818086	
650.625	0.04968468398	-0.1674402448	
651.25	0.3723082736	-0.168694449	
651.875	0.2899448049	-0.3828473604	
652.5	0.1184373146	-0.01757806029	
653.125	0.4423406406	-0.03474409974	
653.75	0.1109902455	-0.3565847492	
654.375	-0.01302255721	-0.130121447	
655.0	-0.3224402088	-0.2755854718	
655.625	-0.1396060513	0.346751424	
656.25	-0.004613428013	0.05675484558	
656.875	-0.03131113557	0.3082067094	
657.5	0.103363936	-0.06179039448	
658.125	0.005361634527	0.3159101815	
658.75	0.5387413052	-0.04130595529	
659.375	0.1534535719	-0.1381462908	
660.0	0.4189915989	-0.1764527947	
660.625	0.1456277212	-0.5393642443	
661.25	0.0116467104	-0.1377804533	
661.875	0.3676985324	-0.1967140827	
662.5	0.2774288464	-0.3369674359	
663.125	0.1587411287	-0.1462920505	
663.75	0.3625433333	-0.2728212541	
664.375	-0.1733047073	-0.390493901	
665.0	-0.1536023158	-0.1591953154	
665.625	-0.4266104431	-0.004756777858	
666.25	-0.04286207389	0.3630438207	
666.875	0.02943080911	0.09378044081	
667.5	0.2203399685	0.2250171689	
668.125	0.2171118623	-0.1237900972	
668.75	0.1669332585	-0.03050908458	
669.375	0.2654992746	-0.4022699115	
670.0	-0.1525559628	-0.1815693422	
670.625	0.1078229724	-0.1422992765	
671.25	0.06108897087	-0.3265424811	
671.875	-0.01166390448	-0.06403167544	
672.5	0.3426825843	-0.04139883413	
673.125	0.2295006545	-0.308734286	
673.75	0.08398490624	-0.1431328146	
674.375	0.1769732634	-0.2870103285	
675.0	-0.1902019794	-0.348182358	
675.625	-0.0992527815	-0.02122385988	
676.25	-0.22199757	-0.1776766796	
676.875	-0.1642245287	0.1230994531	
677.5	-0.04282440872	-0.05630018735	
678.125	-0.3041451081	0.1798585587	
678.75	0.1714800186	0.2213316588	
679.375	0.02657284287	0.079500931	
680.0	0.3205993063	-0.03186858963	
680.625	-0.05502312156	-0.2395199113	
681.25	0.1348618726	0.2958078656	
681.875	0.3315168735	-0.0572702228	
682.5	-0.1083401161	0.04555248784	
683.125	0.2221219544	0.3357494037	
683.75	0.4973681322	-0.009484416611	
684.375	-0.03978566885	0.1102461801	
685.0	0.4616709823	0.1612733998	
685.625	0.3512233191	-0.1397269347	
686.25	0.1096458911	0.01934356641	
686.875	0.5517914105	-0.1719285722	
687.5	0.1084138027	-0.3336646929	
688.125	0.132338888	-0.3141490121	
688.75	-0.4981779202	-0.3838514932	
689.375	-0.2358055282	0.4072530432	
690.0	-0.09793829728	0.2195085663	
690.625	0.3202022486	0.4632662463	
691.25	0.330754778	0.09879920806	
691.875	0.2660203789	0.4665298865	
692.5	0.860475403	0.2804314474	
693.125	0.3426554873	-0.1348636328	
693.75	0.6524683444	-0.01296367989	
694.375	0.6120197085	-0.5324772988	
695.0	0.1988025798	-0.0793505587	
695.625	0.5619457518	0.2367556654	
696.25	0.4355776813	-0.01754079416	
696.875	0.2168123723	0.3239454284	
697.5	0.243704237	0.6365914653	
698.125	0.7970725171	0.2230369526	
698.75	0.597174664	-0.4704554707	
699.375	-0.2732634658	-0.6098624041	
700.0	-0.4334539748	0.370538136	
700.625	0.176251043	0.1755957783	
701.25	0.05692667057	0.3393528105	
701.875	0.4201378408	0.1447076365	
702.5	0.1632327665	0.1858276811	
703.125	0.4979867436	0.2726438549	
703.75	0.3999993575	-0.2761174979	
704.375	0.1408788838	-0.04235417278	
705.0	0.4258972296	-0.1109924424	
705.625	0.1718755833	-0.07004672382	
706.25	0.1500591206	0.2986157057	
706.875	0.3531094338	0.4472475621	
707.5	0.2473050314	0.1579228411	
708.125	0.4907641595	0.1343661644	
708.75	0.3782377373	-0.3792891397	
709.375	-0.3959325652	-0.314707829	
710.0	-0.2098150911	0.08818288264	
710.625	0.1540360703	0.312679546	
711.25	0.04509131619	0.02538818853	
711.875	0.2029981702	0.2396710881	
712.5	0.4138676151	-0.1110752755	
713.125	0.07534212523	-0.1196755591	
713.75	0.2856082642	-0.2474508585	
714.375	-0.06967968962	-0.3266723039	
715.0	-0.007543063487	-0.07651164825	
715.625	0.1278466091	-0.3329962791	
716.25	0.03092925543	-0.2981949181	
716.875	0.3080428723	-0.04423826317	
717.5	0.7292677175	0.0630559069	
718.125	0.5426024549	-0.2161912539	
718.75	0.6252149693	0.07626692091	
719.375	1.139428519	-0.6782169913	
720.0	0.4145745613	-1.142768749	
720.625	0.499509705	-0.7948120363	
721.25	0.1716850147	-1.522305443	
721.875	-0.5044802305	-0.7827374031	
722.5	-0.269069886	-1.046809023	
723.125	-0.9985641135	-0.1788165941	
723.75	-0.1232074362	0.5191683686	
724.375	-0.2343145882	0.4364670151	
725.0	0.5357697618	0.5520965532	
725.625	0.07518214186	0.2158674672	
726.25	-0.1613948832	0.814731151	
726.875	0.159527504	1.158783196	
727.5	0.03135731803	0.8693049651	
728.125	-0.7734603126	2.292099367	
728.75	0.3685521411	3.307955639	
729.375	-0.02479998985	2.158843171	
730.0	-2.242521196	4.722223438	
730.625	1.179470845	5.570780303	
731.25	-1.292445112	2.212244966	
731.875	-4.071319982	2.60802306	
732.5	-3.686001517	2.357541583	
733.125	-1.158684821	-0.1469649614	
733.75	-1.601502523	1.315969107	
734.375	1.268102498	0.2331222269	
735.0	0.09260660891	-0.3354144633	
735.625	-1.047427687	-0.2133988014	
736.25	0.4117142326	0.5162754805	
736.875	-0.06310414778	0.6625036102	
737.5	1.504642059	0.4193453075	
738.125	1.019358891	-0.9690344825	
738.75	1.324381283	0.2321531054	
739.375	4.289858718	-2.164219386	
740.0	0.4263510684	-3.61431594	
740.625	0.3227408022	2.464306176	
741.25	1.570878326	6.637477884	
741.875	1.695067765	-0.4513948079	
742.5	-0.1173798993	-5.235093083	
743.125	-0.4633176118	-2.166464912	
743.75	-0.1430848363	-0.2519366797	
744.375	-0.40898922	-0.4892193336	
745.0	0.3192890315	0.2575871667	
745.625	-0.01024113061	0.1251678914	
746.25	-0.08023296747	-0.2622961968	
746.875	-0.1311805015	0.0734130613	
747.5	-0.2850503369	0.2790716751	
748.125	0.1596573903	0.642801383	
748.75	0.2317173256	0.3027456674	
749.375	-0.06065218482	0.5062247958	
750.0	-0.4281249737	0.3779703429	
