!Created with skrf (http://scikit-rf.org).
# GHz S RI R (50+0j) 
!freq	ReS11	ImS11	
500.0	-1.779228045	-1.777726872	
500.625	1.658083406	-1.92302299	
501.25	-1.493774948	-2.605344739	
501.875	-2.182127372	-0.7037266781	
502.5	-0.03651013714	-0.1031164125	
503.125	-0.3967020005	0.02710346761	
503.75	0.2044351309	-0.01253128733	
504.375	0.1446830594	0.05554514429	
505.0	-0.09812353888	-0.09120753631	
505.625	0.247660176	-0.1982069211	
506.25	-0.592053156	0.1263552875	
506.875	0.159435906	-0.6614156858	
507.5	-0.8311133025	-1.913214262	
508.125	-1.257684487	-0.9929989104	
508.75	2.653091766	-1.754225222	
509.375	-2.802271752	-5.627001888	
510.0	-0.6610048987	0.05031019737	
510.625	-0.9118777245	-1.411013321	
511.25	-0.1978493142	0.1466623481	
511.875	-0.4268448174	-0.2488909145	
512.5	-0.04188896626	0.165484207	
513.125	-0.17945533	-0.2559091475	
513.75	-0.013088945	-0.08317462368	
514.375	-0.4756231708	-0.3455404437	
515.0	0.5804403731	1.250682629	
515.625	-1.199041057	-2.948603579	
516.25	-1.028121645	0.8378247945	
516.875	0.3346121341	-2.345786404	
517.5	-1.048286616	-0.4278518295	
518.125	0.286166872	-0.2350762963	
518.75	-0.6971556448	-0.3550257215	
519.375	-0.03921153174	0.002128269396	
520.0	0.3878338767	0.2940640666	
520.625	0.4141738023	-0.361537483	
521.25	-0.02628312829	-0.3522720229	
521.875	-0.6164078063	-0.1951681376	
522.5	0.06232143648	0.09540782412	
523.125	-0.2883228926	0.1320701097	
523.75	-0.0367958052	-0.04162560429	
524.375	-0.7121218505	0.2229608642	
525.0	0.1789434552	0.01858657491	
525.625	-0.06388168602	0.2579650395	
526.25	0.07353370866	-0.238933264	
526.875	-0.1983824631	0.3459092663	
527.5	0.1446102145	0.2604868797	
528.125	-0.2631451719	0.7965931785	
528.75	0.4954161647	0.8244456987	
529.375	-0.09575396025	0.1179025239	
530.0	0.466421319	0.2041295922	
530.625	-0.1363971376	0.8237150181	
531.25	1.614541411	-0.3353944839	
531.875	0.2287558497	-0.1445336057	
532.5	-0.2672550419	-0.7333963796	
533.125	0.2366214023	0.3602537969	
533.75	0.06591763735	-0.8953429466	
534.375	-0.1372996154	-0.221786904	
535.0	-0.9741769484	-0.6208024194	
535.625	-0.07686654251	0.5076192278	
536.25	-0.08300573194	0.1595876466	
536.875	0.331802656	0.07141476377	
537.5	0.03751511739	-0.1515255815	
538.125	0.4299450311	-0.02129245851	
538.75	0.152513007	-0.4311302453	
539.375	-0.01509408466	-0.3125939323	
540.0	-0.5493638672	-0.496824334	
540.625	-0.2761392473	0.1738334722	
541.25	-0.1739230774	-0.07860559269	
541.875	-0.156797227	-0.07234859325	
542.5	-0.1727921826	0.0102932804	
543.125	-0.04098358757	-0.2038622294	
543.75	-0.4050022668	0.08769194789	
544.375	0.06062265931	-0.06213309922	
545.0	-0.03880155806	0.3293836496	
545.625	0.09040458128	-0.09294239181	
546.25	0.2811976725	0.3648465958	
546.875	0.1594931148	-0.3605159999	
547.5	0.2280518382	-0.04404853369	
548.125	-0.07976969944	-0.5871424781	
548.75	-0.4051034362	-0.08275480478	
549.375	-0.08034397255	-0.1736333814	
550.0	-0.3340521973	0.03795583362	
550.625	0.02423724072	0.00239605649	
551.25	-0.3165463657	0.09102959356	
551.875	-0.009282569927	0.1756666321	
552.5	-0.195580789	0.1492665229	
553.125	0.01936819865	0.1900520272	
553.75	0.09192386181	0.08703251738	
554.375	0.2349972431	0.01031449559	
555.0	0.2143319554	-0.193694048	
555.625	0.176625842	-0.244779177	
556.25	0.1475085091	-0.3386288725	
556.875	-0.1046493183	-0.3708777704	
557.5	-0.2312041823	-0.2196825402	
558.125	-0.2651060999	-0.09544603761	
558.75	-0.2702336279	0.01023471446	
559.375	-0.2129001385	0.06654577731	
560.0	-0.2392976276	0.1411067127	
560.625	-0.1031974683	0.3091675061	
561.25	0.06444489717	0.1484137669	
561.875	0.03532290384	0.1876986259	
562.5	0.06315218815	0.009509636111	
563.125	0.1436418373	0.274674954	
563.75	0.3342401226	-0.1496098979	
564.375	0.1981408065	-0.0681959312	
565.0	0.2675594843	-0.4530458494	
565.625	-0.2136618956	-0.2986185041	
566.25	-0.1357181116	-0.1907788369	
566.875	-0.3761691075	-0.2928179987	
567.5	-0.4110037433	-0.05990731003	
568.125	-0.1269897105	-0.4239003268	
568.75	-0.7316869869	-0.1587940637	
569.375	-0.2966602021	0.2523008941	
570.0	-0.5184358546	0.3929925987	
570.625	0.07766292794	0.6337978217	
571.25	-0.05147217852	-0.05185856153	
571.875	0.2825187681	0.5059673054	
572.5	0.01245911787	-0.2557078419	
573.125	0.4293085464	-0.01153463314	
573.75	0.04313492438	-0.563234694	
574.375	-0.1140271091	0.1189127818	
575.0	0.2835959494	-0.3111571401	
575.625	-0.1841204435	0.01437945957	
576.25	0.4085187625	-0.2023356788	
576.875	-0.1940784254	-0.522115937	
577.5	-0.1235688896	-0.09200728962	
578.125	0.1295515523	-0.4111838954	
578.75	-0.3914636886	-0.4083624468	
579.375	-0.156879468	0.07533664557	
580.0	-0.01089035535	-0.2802220506	
580.625	-0.2341968971	0.1868933055	
581.25	-0.1892700144	-0.1171150311	
581.875	-0.05445304982	0.6423187596	
582.5	0.4452535451	0.1790896556	
583.125	-0.2053150283	-0.008264819101	
583.75	0.4631139263	0.3729660223	
584.375	-0.2884423366	-0.1690821242	
585.0	0.5205888174	0.4071473239	
585.625	0.1981264685	-0.3425534851	
586.25	0.3391733252	0.228609369	
586.875	0.147131312	-0.6498498343	
587.5	-0.07965258633	-0.0120476942	
588.125	0.1908245231	-0.4312493904	
588.75	-0.1077079241	-0.5532001273	
589.375	0.0007479284271	-0.07496200208	
590.0	0.04699113108	-0.5556221975	
590.625	-0.5256160907	0.0200465856	
591.25	-0.1394717957	0.1994048405	
591.875	-0.2334053724	0.2461192461	
592.5	0.1978527453	0.1318344718	
593.125	-0.2095581593	0.1976724771	
593.75	0.2435898962	0.1837345538	
594.375	0.1263811148	0.1468735496	
595.0	0.3974023274	0.5817260945	
595.625	0.7480588733	-0.1773334128	
596.25	-0.08049359419	0.2090060607	
596.875	0.7092413529	0.224865536	
597.5	0.2259570457	-0.1577385404	
598.125	0.2618112116	0.5853179831	
598.75	0.5531785087	-0.1153383039	
599.375	0.2655944847	0.1236774849	
600.0	0.6102209318	-0.4600558374	
600.625	0.06372431831	-0.4875988537	
601.25	0.1923518941	-0.2134577394	
601.875	-0.1330261594	-0.4685155587	
602.5	-0.2730219625	0.03948345826	
603.125	-0.2085605315	0.1575887149	
603.75	-0.2474248023	0.05362701179	
604.375	-0.3180052409	0.3101009489	
605.0	0.01654152808	0.04770783059	
605.625	-0.3582598281	0.2163624494	
606.25	-0.009627060038	0.1858865836	
606.875	-0.5770056962	-0.06214488475	
607.5	-0.1868714275	0.7997537177	
608.125	-0.1410906975	0.1568411226	
608.75	0.5043879851	0.7897799958	
609.375	0.2540004926	-0.4469346255	
610.0	0.5355565069	0.03387997487	
610.625	0.1292075158	-0.6158001578	
611.25	0.05639757134	-0.007576220373	
611.875	-0.3547573144	-0.5619594278	
612.5	-0.1863165509	0.06432027737	
613.125	-0.5571172401	-0.1079774183	
613.75	0.009745332236	0.5538791276	
614.375	-0.1624035348	0.1354165802	
615.0	0.3867102968	0.09990550113	
615.625	-0.3089097384	0.07246229523	
616.25	0.03969203004	0.6512593318	
616.875	-0.04111674418	0.06317355593	
617.5	-0.4112793643	0.6685138762	
618.125	0.2695351472	0.5060406829	
618.75	-0.1421802588	0.2493307589	
619.375	0.3945894005	0.4964480255	
620.0	0.2698828965	-0.007626277368	
620.625	0.3587449069	-0.3843090156	
621.25	-0.2526403823	-0.2630631065	
621.875	-0.4247170141	-0.2942230732	
622.5	-0.4339534979	0.2711954831	
623.125	-0.1682869838	0.2934534436	
623.75	0.4979208309	0.1270314632	
624.375	-0.1785782137	-0.01255609995	
625.0	0.3964850631	-0.3799458654	
625.625	-0.1153722851	0.1548360707	
626.25	0.1211138186	-0.543466623	
626.875	-0.5679794547	-0.01230271914	
627.5	0.01131606778	-0.0836325487	
628.125	-0.4733925124	-0.3563952983	
628.75	-0.1375950282	-0.01230540796	
629.375	-0.09256520454	-0.5465775309	
630.0	-0.6195197378	-0.06318854499	
630.625	-0.2418943548	0.04874639269	
631.25	-0.4903319313	0.4165525247	
631.875	0.08153929461	0.6437449552	
632.5	0.379599774	0.3641348191	
633.125	0.3406511273	0.05730794334	
633.75	0.5842169483	-0.0830819338	
634.375	-0.1201907942	-0.2730417603	
635.0	0.1444609301	-0.3362531168	
635.625	-0.5580966397	-0.1140560314	
636.25	-0.09081501664	-0.03902907799	
636.875	-0.3621413762	0.4810276425	
637.5	0.2643758377	0.157307057	
638.125	-0.4566383834	-0.04406480213	
638.75	-0.00181553606	0.8310400839	
639.375	0.1707260924	0.08276916237	
640.0	0.03518622766	0.7149640899	
640.625	0.8629552027	0.3109300928	
641.25	0.331919839	-0.2155052063	
641.875	0.7511744259	-0.2496073007	
642.5	-0.4443792223	-0.4057926717	
643.125	0.08887605146	-0.2233838216	
643.75	-0.6408459352	-0.3434817	
644.375	-0.115776751	0.3787086151	
645.0	-0.4604675469	-0.04137645026	
645.625	0.1639743821	0.7683214239	
646.25	0.5420473476	-0.07167161813	
646.875	-0.1626494239	0.06077639088	
647.5	0.670065806	0.01697453374	
648.125	-0.215683692	0.2280473038	
648.75	1.087750201	-0.1371605122	
649.375	0.01197836652	-0.8545526133	
650.0	0.4064267083	0.01223974412	
650.625	0.8520873176	-1.297902712	
651.25	-0.4053873377	-0.6220002582	
651.875	0.6954580468	0.2786266918	
652.5	1.065302455	-0.6862992783	
653.125	0.04850839894	-0.408344848	
653.75	0.8676814416	-0.3070139635	
654.375	-0.5758484985	-0.8477686177	
655.0	-0.2619571041	0.1351009784	
655.625	-0.7433917637	0.09554019437	
656.25	0.500648731	0.7614308031	
656.875	-0.1860389566	-0.1988150246	
657.5	0.2195903369	0.5225407386	
658.125	0.4466063016	0.07442119792	
658.75	0.3044541206	0.2674920031	
659.375	1.12045553	-0.4686761082	
660.0	0.06795349502	-0.7176937801	
660.625	0.4158311484	-0.4375863891	
661.25	0.6528008471	-1.002954775	
661.875	-0.2082981784	-0.7124330375	
662.5	0.7316363103	0.1384914869	
663.125	0.8278112172	-0.9727186438	
663.75	-0.1530614899	-0.4506376952	
664.375	0.3328082375	-0.7973211099	
665.0	-1.092250098	-0.2008766137	
665.625	-0.3129706001	-0.03899094065	
666.25	-0.4753537662	0.8450909944	
666.875	0.595416894	0.2784691085	
667.5	0.03133355268	0.2053901911	
668.125	0.8276113657	0.03420805398	
668.75	0.2222776333	-0.5435921932	
669.375	0.1382742359	-0.2790390382	
670.0	0.1898042614	-0.6079368004	
670.625	-0.3078869357	-0.4222184989	
671.25	0.3077764471	-0.2758136339	
671.875	0.2677838561	-0.5683809602	
672.5	0.1662566868	-0.3298782713	
673.125	0.69407905	-0.2034642857	
673.75	0.2714359303	-0.9556611845	
674.375	-0.2628991797	-0.192723529	
675.0	0.2441759303	-0.6727115019	
675.625	-0.9312301409	-0.3782425391	
676.25	0.1049693906	0.2893875934	
676.875	-0.8214977123	-0.3129200812	
677.5	0.05930352764	0.4467077938	
678.125	-0.6065515316	-0.06385214738	
678.75	0.5497845202	0.9267381199	
679.375	0.04692097447	-0.1652054168	
680.0	0.4530189565	0.0706094534	
680.625	0.3521057497	-0.4682803004	
681.25	-0.2369767163	-0.1460706931	
681.875	0.4410017366	0.4805440752	
682.5	0.6650923615	-0.006100862976	
683.125	0.4342066044	0.007636801776	
683.75	0.377583535	0.3526336822	
684.375	1.028651983	-0.1438601201	
685.0	0.1413487164	0.01532175909	
685.625	0.9838246473	0.2245539434	
686.25	0.6398263125	-0.7942928809	
686.875	0.2685050756	0.4079349514	
687.5	1.224897677	-1.491426015	
688.125	-0.9370074487	-0.1843098926	
688.75	-0.5932676368	-1.084737049	
689.375	-0.6609768235	1.456635658	
690.0	0.2721380826	0.09124894451	
690.625	0.8002461459	1.235305209	
691.25	0.6408021002	0.001928452205	
691.875	0.7543023615	0.9025989225	
692.5	1.684147574	0.4358041535	
693.125	1.160083184	-0.314328458	
693.75	1.319896245	-0.4530374169	
694.375	0.7531229564	-0.9457874019	
695.0	1.178480747	-0.584435479	
695.625	0.9468814209	-0.6364437549	
696.25	0.7607868602	0.6289682781	
696.875	1.744154584	0.79038477	
697.5	0.4910539341	0.3664244035	
698.125	1.796982973	0.903580895	
698.75	0.1235894598	-1.647981395	
699.375	-0.1100799123	-0.9411483997	
700.0	-0.8618378646	1.496281888	
700.625	0.527246444	0.06117492985	
701.25	0.5598554025	1.098226935	
701.875	0.6980144108	-0.1113956962	
702.5	0.4756400141	0.7859327887	
703.125	1.366536606	0.07491995279	
703.75	0.2941227652	-0.075647857	
704.375	1.078664588	-0.5161129797	
705.0	0.06048576033	-0.5741884732	
705.625	0.6439506641	0.6190814575	
706.25	1.115413086	-0.1031271623	
706.875	0.04467382125	0.5284990872	
707.5	1.069912878	1.176744499	
708.125	0.8285484159	-0.4375475027	
708.75	0.9116352926	-0.6109808933	
709.375	-1.215080542	-0.5363042544	
710.0	-0.07419591134	0.3030620125	
710.625	0.1418066505	0.5908646201	
711.25	0.3257089134	0.009312600244	
711.875	0.428133955	0.3383435899	
712.5	0.6952092224	-0.1883398868	
713.125	0.7489321805	-0.2998253806	
713.75	0.04600959318	-0.8223747184	
714.375	0.264020843	-0.1098921795	
715.0	-0.2702841862	-0.9183438162	
715.625	-0.1501528474	0.009912816125	
716.25	1.051684363	-0.6487610252	
716.875	0.128199047	-1.267632572	
717.5	0.7790398394	0.9911755899	
718.125	2.973161906	-0.4423032837	
718.75	0.2694291961	-1.752247222	
719.375	2.935885726	0.6441730035	
720.0	-0.3290760577	-4.122616941	
720.625	0.2233290871	-1.059642887	
721.25	0.2818213404	-2.845010757	
721.875	-2.049035433	-2.501617393	
722.5	-0.629201753	-1.270912857	
723.125	-2.563880487	-0.2245585229	
723.75	-0.4541047259	1.454687047	
724.375	0.005755225734	0.6998952583	
725.0	0.1001882575	1.060005944	
725.625	1.025134319	1.161192224	
726.25	0.1671005084	0.6161892006	
726.875	-0.9336807789	2.617025019	
727.5	1.621353273	4.824543904	
728.125	-0.2514181088	0.9760227334	
728.75	-1.237321324	11.4138736	
729.375	6.481991547	7.411658495	
730.0	-5.470429186	4.08759446	
730.625	4.814753655	22.22677826	
731.25	5.602823046	-1.225375922	
731.875	-11.54467675	4.937848317	
732.5	-9.457891442	7.175403614	
733.125	-3.202748193	4.665643915	
733.75	-3.523602577	1.816863175	
734.375	3.289270007	-0.4265679791	
735.0	-0.2692924085	-0.7904176477	
735.625	-1.543571504	-0.3846256006	
736.25	1.26568832	1.579473852	
736.875	-0.1524732164	0.7606197785	
737.5	3.352538464	1.184729423	
738.125	5.004559029	-2.464973056	
738.75	0.2292617484	-5.011643478	
739.375	6.935024071	4.906978451	
740.0	17.67582682	-20.36157281	
740.625	-6.751491677	-5.968030579	
741.25	0.7804753656	20.41752637	
741.875	14.79026577	8.129149033	
742.5	5.704454393	-16.80332075	
743.125	-3.829751723	-11.36337516	
743.75	-1.37700086	0.03295317849	
744.375	-0.5721144623	-1.070479686	
745.0	0.7439893205	0.83730637	
745.625	-0.08284294298	0.1765792596	
746.25	-0.2030159658	-0.6444411365	
746.875	-0.4961137799	0.4415954503	
747.5	-0.3634721652	0.5970086338	
748.125	1.11798182	1.496716219	
748.75	0.7154525968	1.034413196	
749.375	-0.1641774376	1.34656577	
750.0	-0.1055093681	0.551722419	
