!Created with skrf (http://scikit-rf.org).
# GHz S RI R (50+0j) 
!freq	ReS11	ImS11	
500.0	-0.6630267314	-1.975914707	
500.625	2.498364941	-2.921759112	
501.25	-2.204229003	-0.8625641613	
501.875	-0.1397516611	-1.91037529	
502.5	-0.3694606373	-0.4983617607	
503.125	-0.1288605667	0.2148755231	
503.75	-0.1746973813	0.09743985874	
504.375	0.1711961129	-0.06166494692	
505.0	-0.04420511297	0.05834742727	
505.625	0.04379211663	-0.3746641719	
506.25	-0.12607886	0.2348778113	
506.875	-1.261381004	-0.48148043	
507.5	-0.1920621504	0.6112458734	
508.125	1.589798102	-1.850567478	
508.75	1.081552889	-4.816180861	
509.375	-1.825167317	-1.883984626	
510.0	-0.444239959	-1.21773938	
510.625	-0.9712064424	-0.2299809262	
511.25	-0.1917613904	-0.1777842778	
511.875	-0.4529558687	-0.1681334911	
512.5	-0.0654677936	0.175846922	
513.125	0.04164023829	-0.222642077	
513.75	-0.2485943891	-0.2795641634	
514.375	-0.3484845993	0.3269549362	
515.0	0.8653357175	-1.403909146	
515.625	-1.889272067	0.2412925162	
516.25	1.862686206	-2.57641689	
516.875	-2.334500836	-1.884742871	
517.5	-0.09124750036	0.3863403173	
518.125	-0.2488415753	-0.4791480218	
518.75	-0.03318727182	0.272666078	
519.375	-0.2986281536	0.06075646062	
520.0	0.5000265787	0.07067239269	
520.625	0.2716616647	-0.1707913187	
521.25	0.1510038772	-0.8758085013	
521.875	-0.3990231329	0.1244195405	
522.5	-0.127359319	-0.05939794818	
523.125	-0.08478758048	0.1865182169	
523.75	-0.2961084177	-0.3108687071	
524.375	-0.2569748497	0.3732638798	
525.0	-0.2879677678	0.1347321528	
525.625	0.3353764861	0.288288797	
526.25	-0.2924172253	-0.02512735351	
526.875	0.07037272462	0.146644922	
527.5	-0.4518019172	0.3158387279	
528.125	0.4061351957	1.130708957	
528.75	0.1896336696	0.2016714323	
529.375	0.09249677871	0.4758803007	
530.0	0.1691860195	0.07779095722	
530.625	0.3397100021	1.394557091	
531.25	0.7297838204	-0.06652270761	
531.875	0.9497826958	-0.3419096546	
532.5	-0.6336512517	0.06964148292	
533.125	0.7145197854	-0.5246570746	
533.75	-0.248472162	-0.2234806602	
534.375	0.1699680075	-1.170948895	
535.0	-0.889282863	0.2610854451	
535.625	-0.3416095339	0.01396632132	
536.25	-0.02941672339	0.3815342864	
536.875	0.1620783146	-0.1025199682	
537.5	0.2250829903	0.02482812261	
538.125	0.3391762997	-0.3019925256	
538.75	0.1852796128	-0.1778906144	
539.375	-0.09726616793	-0.5030503112	
540.0	-0.4962319202	-0.2557255548	
540.625	-0.2735635485	-0.1349987684	
541.25	-0.322885862	0.02275623865	
541.875	0.006534524289	0.01968492015	
542.5	-0.1064817998	-0.1801618114	
543.125	-0.3080134397	-0.07590236602	
543.75	-0.04241673736	0.1118263642	
544.375	-0.29934772	0.01539879039	
545.0	0.2423368763	0.147417073	
545.625	-0.158429557	0.236335432	
546.25	0.5190167443	-0.04591131677	
546.875	0.02109782913	0.05653303412	
547.5	0.4260065128	-0.4332865543	
548.125	-0.3299164996	-0.1998426106	
548.75	-0.05433764931	-0.3228309045	
549.375	-0.3676509606	-0.2909259611	
550.0	-0.1320894161	0.1698337885	
550.625	-0.1495260843	-0.1476339879	
551.25	-0.1575299713	0.2055570732	
551.875	-0.1712233671	0.04735441805	
552.5	-0.1312473183	0.2863820002	
553.125	-0.02395379866	0.08374759639	
553.75	0.1308116413	0.1495734832	
554.375	0.2174815384	-0.02081304749	
555.0	0.2250151636	-0.1449393516	
555.625	0.2176328895	-0.2584610474	
556.25	0.1512909412	-0.3504328066	
556.875	-0.08481467002	-0.3724456048	
557.5	-0.2130172661	-0.2454055028	
558.125	-0.291485152	-0.1060225104	
558.75	-0.2398378611	0.008778277394	
559.375	-0.2614079075	0.004585537099	
560.0	-0.2387974183	0.223644831	
560.625	-0.07493174393	0.1929960451	
561.25	-0.06242142075	0.266627267	
561.875	0.1630658158	0.09391366329	
562.5	-0.08989825122	0.08947505803	
563.125	0.2861620557	0.2082154945	
563.75	0.1655622717	-0.02399289107	
564.375	0.4414591161	-0.1811191424	
565.0	0.02715590514	-0.4223907252	
565.625	0.06059893397	-0.249205263	
566.25	-0.3456653361	-0.3760312529	
566.875	-0.3145637839	-0.03070855152	
567.5	-0.1694425564	-0.3204840679	
568.125	-0.4475694165	-0.5445349938	
568.75	-0.4812453567	0.02753564457	
569.375	-0.5621336206	-0.0966604063	
570.0	-0.3303351611	0.7604045558	
570.625	0.04818439975	0.175476865	
571.25	-0.3696504175	0.4175861587	
571.875	0.368684733	-0.1397976177	
572.5	0.2322481418	0.3925790802	
573.125	0.3032244833	-0.5706363777	
573.75	-0.1938629844	-0.09610466886	
574.375	0.3510243849	-0.06380737411	
575.0	-0.2097938937	-0.2920625316	
575.625	0.322200478	0.0316750921	
576.25	0.08113013212	-0.5421065456	
576.875	-0.1158533261	-0.02727481402	
577.5	0.34233432	-0.4594840137	
578.125	-0.3234805004	-0.5220654004	
578.75	-0.1969369469	-0.07394174662	
579.375	0.04675084687	-0.2186124433	
580.0	-0.3609312549	-0.2023520773	
580.625	0.1331929696	0.05044559769	
581.25	-0.567212227	0.1516108248	
581.875	0.3111517609	0.3677138732	
582.5	-0.1655035361	0.09986990047	
583.125	0.2786300956	0.5830828267	
583.75	0.00248255145	-0.3967469749	
584.375	0.07693740105	0.5470883287	
585.0	0.4004955357	-0.2747411686	
585.625	0.05100943997	0.1966262449	
586.25	0.6457883533	-0.05532840688	
586.875	-0.08390883295	-0.4038242093	
587.5	0.2178265817	-0.1917960312	
588.125	-0.192164433	-0.5555863713	
588.75	0.03050061908	0.009264532585	
589.375	0.4436521571	-0.4988397322	
590.0	-0.3385053306	-0.3052399484	
590.625	-0.1673668759	-0.2456838776	
591.25	-0.4665556597	0.1844692763	
591.875	-0.06755945905	0.4679478568	
592.5	0.1226165343	-0.1463653558	
593.125	-0.1753461407	0.3727427481	
593.75	0.09643730146	-0.03547490812	
594.375	0.2809525585	0.6021121218	
595.0	0.6078373147	-0.006682137576	
595.625	0.03349961351	0.256144284	
596.25	0.6620331425	0.3449005278	
596.875	0.1515640608	-0.3657836968	
597.5	0.1262388464	0.609698596	
598.125	0.6443297729	0.2834076561	
598.75	0.2308269409	0.04163437201	
599.375	0.557192945	0.1545059315	
600.0	0.3726694657	-0.4983900274	
600.625	0.2731462616	-0.1887571919	
601.25	0.36135874	-0.5144452456	
601.875	-0.3136280997	-0.2492815327	
602.5	-0.1859828098	-0.2225354757	
603.125	-0.3053590439	0.1991202773	
603.75	-0.2411492831	0.1638030988	
604.375	-0.09656685343	0.1663559269	
605.0	-0.3876729625	0.07009526181	
605.625	0.03895720702	0.3506484721	
606.25	-0.3495281277	-0.2660754423	
606.875	-0.5542807444	0.619361816	
607.5	-0.130020463	0.09344541989	
608.125	-0.4802165395	0.7708349444	
608.75	0.6844088603	0.0475587188	
609.375	0.3636649563	0.36504706	
610.0	0.6267213467	-0.4888687616	
610.625	-0.06673581019	-0.1889291355	
611.25	0.263913623	-0.5653658219	
611.875	-0.2611165241	-0.03779664296	
612.5	-0.285729197	-0.2954245096	
613.125	-0.5417710114	0.3041581643	
613.75	-0.2404782653	-0.02984013168	
614.375	0.1653486822	0.4396793238	
615.0	-0.03033739455	-0.2069857449	
615.625	0.03224166995	0.5604868466	
616.25	0.06041666208	0.05242330169	
616.875	-0.4818034311	0.4730540404	
617.5	0.1070883987	0.6774992045	
618.125	-0.2075310082	0.1737200079	
618.75	0.09731286234	0.709637875	
619.375	0.2322143374	0.1566144388	
620.0	0.3933823724	0.3106506554	
620.625	0.1726609631	-0.4345100915	
621.25	-0.04292565534	-0.4689743597	
621.875	-0.5616978128	-0.09373766983	
622.5	-0.3425841131	-0.04656675454	
623.125	-0.227525095	0.643391614	
623.75	0.204347253	-0.1753458334	
624.375	0.3475851025	0.003884757542	
625.0	-0.2355788008	-0.008057181562	
625.625	0.4090282575	-0.1992759938	
626.25	-0.4433952022	-0.3171195543	
626.875	0.1304838657	-0.16955637	
627.5	-0.6190876933	-0.3247432922	
628.125	-0.3021964366	0.03936023	
628.75	0.02587761731	-0.2350842944	
629.375	-0.2827214893	-0.5615816861	
630.0	-0.3041573439	-0.03323312341	
630.625	-0.5969989223	-0.0140255057	
631.25	-0.2667348247	0.5986759543	
631.875	-0.08282013536	0.3026844551	
632.5	0.3129341566	0.7137866521	
633.125	0.5044033193	-0.0449599159	
633.75	0.3053288561	-0.1246074069	
634.375	0.2229426727	-0.1521869659	
635.0	-0.06653332389	-0.6028710431	
635.625	-0.1400906497	0.2105357191	
636.25	-0.6465788036	-0.1665721643	
636.875	0.03096452498	0.5805380193	
637.5	-0.11018431	-0.2475191972	
638.125	-0.1427338453	0.7537944533	
638.75	-0.09774415295	-0.08795784377	
639.375	-0.3225210559	0.9321291116	
640.0	0.7715071266	0.4012499851	
640.625	0.1498143556	0.1428481916	
641.25	0.8190876451	0.3943783393	
641.875	0.3820838061	-0.7765224495	
642.5	-0.1287312332	-0.115361879	
643.125	-0.1878773407	-0.6737335182	
643.75	-0.4687345055	0.2678230842	
644.375	-0.371004888	-0.4506108937	
645.0	-0.3626335843	0.6828332003	
645.625	0.2072305975	0.1994660082	
646.25	0.09872977483	0.3691972198	
646.875	0.6447803782	-0.09599646161	
647.5	-0.3088555026	-0.07596456076	
648.125	0.6430393541	0.4844019047	
648.75	0.5099773755	-0.726329027	
649.375	0.2509217762	0.1750443354	
650.0	0.9583284181	-1.25982527	
650.625	-0.3890604604	-0.6668267216	
651.25	0.8134748742	0.1382445151	
651.875	1.002049762	-1.050644008	
652.5	-0.09962657246	-0.2994550814	
653.125	0.9412709549	0.1633469408	
653.75	0.3840971457	-1.005812662	
654.375	-0.1992524638	-0.1852337782	
655.0	-0.6045820184	-0.7775227526	
655.625	-0.2738093636	0.9045748472	
656.25	0.04075528254	-0.03339141626	
656.875	0.001550786606	0.5622918358	
657.5	0.2931250738	-0.1116265617	
658.125	-0.0817851165	0.5331843326	
658.75	1.04497469	0.28158888	
659.375	0.5297765209	-0.5973547508	
660.0	0.3789558593	-0.2813910953	
660.625	0.7872697496	-1.091380044	
661.25	-0.2863210427	-0.605327769	
661.875	0.8723719749	-0.228939111	
662.5	0.66796623	-0.9087967487	
663.125	0.04513645108	-0.3406603923	
663.75	0.9853083965	-0.5198205101	
664.375	-0.5814291077	-0.9580551861	
665.0	-0.3232692715	-0.1489091235	
665.625	-0.8513392875	-0.09494745035	
666.25	-0.06975561358	0.9124628401	
666.875	-0.04259538871	0.23644274	
667.5	0.6426864647	0.3763200815	
668.125	0.3110797206	-0.2730038078	
668.75	0.5581153034	0.04638877306	
669.375	0.2129820776	-0.9197051316	
670.0	-0.1882183362	-0.2536326729	
670.625	0.1701058283	-0.3210468857	
671.25	0.2705546863	-0.5688781496	
671.875	-0.02662039899	-0.5764308745	
672.5	0.4754694097	0.1341522925	
673.125	0.564897482	-0.7960078115	
673.75	0.07503159849	-0.2930046545	
674.375	0.5296978492	-0.6316944967	
675.0	-0.797237039	-0.6186600781	
675.625	0.1506567308	-0.03870121648	
676.25	-0.812993852	-0.4998107252	
676.875	-0.326616156	0.5195306485	
677.5	-0.08735739103	-0.2942474291	
678.125	-0.637359142	0.6057492596	
678.75	0.3523467703	0.2351846141	
679.375	0.2286342126	0.3786999892	
680.0	0.6637107297	-0.4590578586	
680.625	-0.3092661266	0.06018473056	
681.25	0.6300744642	0.009884676559	
681.875	0.2817511939	-0.2134389819	
682.5	0.1518604373	0.2674741243	
683.125	0.6761418137	0.4593067052	
683.75	0.9551204497	-0.09013518255	
684.375	0.1812220523	-0.1408320207	
685.0	0.761443251	0.6595508571	
685.625	1.006208874	-0.6326443552	
686.25	-0.08340865117	0.5186662152	
686.875	1.500660218	-0.962791997	
687.5	-0.247324696	-0.3881058165	
688.125	0.6786321321	-1.143649166	
688.75	-1.912430295	-0.1957678638	
689.375	0.07788470132	0.1726547284	
690.0	-0.1468642187	1.444143673	
690.625	0.8083915106	0.2065591335	
691.25	0.3368010622	0.7033311924	
691.875	1.313875811	0.8894538331	
692.5	1.052313446	0.2571404203	
693.125	1.54617025	0.08875201335	
693.75	1.423241248	-0.6515105477	
694.375	0.8635150627	-0.8373701036	
695.0	0.9975527485	-0.7796910375	
695.625	1.000162988	0.03654431827	
696.25	1.769229123	0.1905860615	
696.875	0.5484773051	0.3178814498	
697.5	0.9342976152	1.818539667	
698.125	1.638420292	-0.5711792852	
698.75	1.15001785	-0.1731594978	
699.375	-1.598595136	-1.265640409	
700.0	0.1416455436	0.6977250367	
700.625	-0.2166197215	1.201797429	
701.25	0.7929657127	-0.0789892662	
701.875	0.1334695163	0.7799329978	
702.5	1.318376956	0.587935675	
703.125	0.3671262137	0.2035772337	
703.75	1.283681952	-0.0963333383	
704.375	0.3480952422	-0.6794679439	
705.0	0.6846400187	0.1935725122	
705.625	0.82023767	-0.6365566362	
706.25	0.1654406281	0.4680756893	
706.875	0.9725879027	1.154095839	
707.5	0.6051936775	-0.06598079546	
708.125	1.092745021	0.7722368049	
708.75	0.6125530427	-1.308633645	
709.375	-0.5287993342	-0.3343132874	
710.0	-0.6386892716	0.4630582862	
710.625	0.4455289464	0.3211573881	
711.25	0.0691589313	0.379013569	
711.875	0.6605419763	0.1858591704	
712.5	0.7137320542	-0.04260177222	
713.125	0.5683884677	-0.4226903505	
713.75	0.3587713499	-0.4433946727	
714.375	-0.0005660450148	-0.8359458979	
715.0	-0.3060172885	-0.0836163366	
715.625	0.6165995397	-0.6880907808	
716.25	-0.4155484567	-1.048865986	
716.875	0.713277421	0.3960088462	
717.5	2.334062329	-0.3317349572	
718.125	0.06280952739	-1.189177871	
718.75	3.28961094	1.268341821	
719.375	1.080118696	-3.04182558	
720.0	0.7559751125	-0.5099069168	
720.625	1.855843329	-3.543022157	
721.25	-1.786253069	-2.619098022	
721.875	0.1350347189	-1.603342277	
722.5	-1.907827105	-2.436790462	
723.125	-2.132261554	0.3580018578	
723.75	-0.7761681833	0.4933184309	
724.375	0.1500418145	1.651088291	
725.0	0.4924849639	0.4285468927	
725.625	0.1257738734	1.066620906	
726.25	-0.04384577185	2.023349864	
726.875	1.403560629	2.58551281	
727.5	-1.089719018	1.069400199	
728.125	0.002811383407	8.270720071	
728.75	3.087196438	6.11749211	
729.375	-5.214945908	1.616489898	
730.0	1.935705221	19.96068598	
730.625	2.925138616	0.3075978213	
731.25	-8.610633301	10.64702441	
731.875	-0.5908993918	15.88122199	
732.5	-2.667937928	-3.684918087	
733.125	-9.942416849	1.073022713	
733.75	-0.859232488	4.428672251	
734.375	1.756742623	-0.09003108548	
735.0	1.126814934	-1.376624287	
735.625	-1.318949134	1.433634894	
736.25	-0.7305293966	0.4856923466	
736.875	1.456968843	1.96786946	
737.5	2.601345571	-1.083014224	
738.125	2.245131622	1.086493586	
738.75	7.825137652	-3.638941822	
739.375	2.983677159	-9.453200432	
740.0	-4.780605088	1.564447294	
740.625	10.38211942	23.93464791	
741.25	25.48512012	1.23573015	
741.875	-11.67460781	-10.00574955	
742.5	-15.15014699	-2.394767003	
743.125	-0.7820458346	2.014013366	
743.75	1.292224383	-5.102549565	
744.375	-2.12879784	1.480360501	
745.0	-0.2605040044	-0.2045937445	
745.625	0.3157273934	-0.1197879425	
746.25	-0.1784305106	-0.03989915872	
746.875	-1.188260917	-0.2598979941	
747.5	-0.2465091973	1.277810568	
748.125	0.6706533305	1.418080105	
748.75	0.5239336298	0.9946306083	
749.375	0.7400482945	1.826443469	
750.0	-0.7716381045	-0.08599536935	
