!Created with skrf (http://scikit-rf.org).
# GHz S MA R 50.0 
!freq magS11 angS11
500.0 0.0117547713977 -178.833342652
500.625 0.0122519625958 140.313131323
501.25 0.0143786242398 -172.004452713
501.875 0.0128496721344 -119.502778457
502.5 0.024742997202 159.301823648
503.125 0.0105168885128 118.926230797
503.75 0.017499293858 -31.2858610106
504.375 0.0123505591181 137.465190211
505.0 0.0159352339349 -58.2403947769
505.625 0.0345661658392 -79.9068144506
506.25 0.0374738631065 -105.694717188
506.875 0.0493070131942 -108.801335785
507.5 0.0375570419286 -137.915101576
508.125 0.0444150682733 -105.530409262
508.75 0.0856475009513 -113.140508381
509.375 0.0503571270514 -173.028676952
510.0 0.0254592944915 -146.496447963
510.625 0.0321374427511 -168.194076781
511.25 0.0750443630556 -166.267025954
511.875 0.0489721102259 137.905732251
512.5 0.0373346934609 102.391234671
513.125 0.0521332708215 45.2487936848
513.75 0.0702317157645 48.5209462738
514.375 0.0401743995599 23.2869300413
515.0 0.0553708246297 12.4102513466
515.625 0.0812627964839 54.7057997136
516.25 0.107059493499 34.1108834142
516.875 0.101652081444 70.0355788395
517.5 0.105142189235 19.3474577568
518.125 0.190760419222 71.805055845
518.75 0.0807559594506 11.9324534364
519.375 0.0707687100127 23.9112654862
520.0 0.0973089402119 -0.481141017831
520.625 0.101753419849 -2.36302241384
521.25 0.0892548707172 -18.0571223477
521.875 0.0637447201609 0.648795733808
522.5 0.0922815056491 -31.6387174398
523.125 0.175693881377 -33.9308283101
523.75 0.226313646509 -52.2306767198
524.375 0.189513537054 -62.1379018585
525.0 0.0691069620207 -40.4546576158
525.625 0.0440648988363 -20.2535734363
526.25 0.0350728278118 -22.7164862617
526.875 0.0507632374765 -18.176352597
527.5 0.0549333177805 -21.6452018481
528.125 0.0457224266157 -51.6573175253
528.75 0.0743417904466 -67.8119530431
529.375 0.0884736970582 -106.876214976
530.0 0.0383350910577 -140.718208654
530.625 0.0506567527447 -146.707779577
531.25 0.086273457582 -125.737209618
531.875 0.169528836952 -144.036466937
532.5 0.131239820066 -171.574628761
533.125 0.107167524349 178.035583257
533.75 0.109677852904 171.829270862
534.375 0.111163175814 -177.805835429
535.0 0.0899513322919 165.733234146
535.625 0.0637055900304 179.646774745
536.25 0.0448532805295 164.41062813
536.875 0.0709907576671 -157.37796501
537.5 0.0868959890507 -142.553702071
538.125 0.116942456321 -173.424118823
538.75 0.0864104068907 178.217236486
539.375 0.0748502858846 -159.483611736
540.0 0.098885354576 -154.329951874
540.625 0.148975095572 -157.226804398
541.25 0.101052412002 -139.385158154
541.875 0.0902898754918 -138.566491298
542.5 0.1058884403 -140.78650182
543.125 0.152303880861 -166.997996756
543.75 0.110027547557 158.498083495
544.375 0.0951047346362 137.170758264
545.0 0.0908517920353 93.6142946883
545.625 0.0982957876094 86.574027578
546.25 0.0998010652286 69.7568320197
546.875 0.0834989312998 56.7321837935
547.5 0.120849443862 59.9603048615
548.125 0.129398707909 79.943414403
548.75 0.0692453658878 90.2030934861
549.375 0.0922668407705 90.3140917766
550.0 0.0919041095618 128.997904746
550.625 0.0495864059825 161.999854923
551.25 0.0460523977132 -144.244154862
551.875 0.0684165434725 -158.654296509
552.5 0.10990030003 -161.331879187
553.125 0.0981670176259 -169.314278058
553.75 0.0852899262783 -163.013304862
554.375 0.11026833632 169.196396212
555.0 0.131894465244 164.963599981
555.625 0.0967806002456 160.406018528
556.25 0.106164310441 161.516784374
556.875 0.107070064673 169.530948389
557.5 0.108089041906 170.080527926
558.125 0.0872199878656 165.470573542
558.75 0.0883213850326 178.966734253
559.375 0.0638458801981 -169.570155026
560.0 0.0466161292239 -145.543744707
560.625 0.0603395179351 -134.514699415
561.25 0.0941261156013 -151.82854987
561.875 0.103631402936 -159.774319608
562.5 0.0919384011898 177.230401093
563.125 0.107725878393 146.796116155
563.75 0.124646072627 133.553618841
564.375 0.103038692606 123.244823593
565.0 0.0840156386847 121.160763549
565.625 0.0810363816092 122.057493675
566.25 0.0986442842473 155.213744048
566.875 0.0713629264757 -175.461949782
567.5 0.0682141063029 -170.599668365
568.125 0.0750702796268 -167.234208381
568.75 0.0776025779929 -149.948498128
569.375 0.0447063314993 -93.0828486452
570.0 0.0616762539959 -102.932523529
570.625 0.0923951309122 -113.254488604
571.25 0.0945116324693 -121.530983181
571.875 0.0851081599329 -117.161854277
572.5 0.111376484515 -150.205722851
573.125 0.134621601389 -171.157137429
573.75 0.110675030015 160.404069615
574.375 0.076291788381 155.976208244
575.0 0.103720238989 159.823401843
575.625 0.109306561962 157.993520407
576.25 0.0920492321178 146.11691389
576.875 0.0815572800467 131.721197938
577.5 0.0859575860419 137.936091444
578.125 0.0577584138453 164.569487793
578.75 0.0513937124134 160.129922404
579.375 0.0531385191204 172.088659534
580.0 0.0678254759152 -164.893829509
580.625 0.0784017788547 -143.06860789
581.25 0.0894572807701 -168.118351623
581.875 0.113407265741 -166.252261301
582.5 0.115372931061 -170.939540788
583.125 0.0929935781875 -168.471012118
583.75 0.0823607109208 -168.818499352
584.375 0.0991525639942 -150.495591376
585.0 0.0930923935965 -140.582061391
585.625 0.0696377532209 -140.136012689
586.25 0.07302657404 -146.370233379
586.875 0.078619030026 -119.833407178
587.5 0.0716374390609 -136.070595125
588.125 0.0570657888643 -171.096089703
588.75 0.0687460888345 -170.909735051
589.375 0.0853604362789 -142.133508373
590.0 0.093822037508 -165.196997239
590.625 0.104334878532 163.365691942
591.25 0.122494347875 153.939591454
591.875 0.099016765738 154.768602231
592.5 0.0615376313881 151.600583659
593.125 0.0592816223193 146.417132356
593.75 0.0759414995556 168.750535456
594.375 0.0549900231302 -140.572161267
595.0 0.0449034507466 -112.064149173
595.625 0.0597122563165 -103.139626681
596.25 0.0759034250101 -81.8337374045
596.875 0.0649988392765 -77.2411762239
597.5 0.0597649737342 -55.8693318931
598.125 0.064571304978 -56.6932052677
598.75 0.0715183312353 -70.0006416694
599.375 0.0993129771343 -53.6631919851
600.0 0.102686853986 -61.7427723324
600.625 0.0975179427575 -58.5616781517
601.25 0.0843863531249 -79.1083958588
601.875 0.0654135689585 -77.620709967
602.5 0.0593656238949 -78.5862609161
603.125 0.0413475637509 -65.8612887618
603.75 0.0306264397452 -30.6257448003
604.375 0.0308056409383 -37.3147616423
605.0 0.0758446189901 -1.07563993362
605.625 0.0544033806705 1.07446023678
606.25 0.0302288570718 33.3188625464
606.875 0.0185900021568 46.365474131
607.5 0.0716943004575 53.5098506049
608.125 0.0832065924089 36.4706160625
608.75 0.0649039209898 23.2324788542
609.375 0.0504662866814 22.8908455512
610.0 0.0840641980434 54.3622071647
610.625 0.0700243888133 45.0903580289
611.25 0.0582134047525 49.190266282
611.875 0.0277247856063 14.4497333024
612.5 0.0327937235948 114.034829913
613.125 0.0282464781275 125.854462238
613.75 0.0299212047542 129.522913544
614.375 0.0487749814188 124.852167821
615.0 0.0216644721325 109.592560147
615.625 0.0378420165682 137.496674094
616.25 0.0641743216247 136.470438076
616.875 0.0488728856464 130.238404185
617.5 0.0292560295914 117.901311919
618.125 0.0273657095649 134.57361058
618.75 0.0323567183595 142.593633346
619.375 0.0227055731724 145.193839775
620.0 0.00827447266822 165.120995885
620.625 0.0184407333982 -101.375740007
621.25 0.0521663302607 -98.8671227524
621.875 0.0614071119979 -112.30232564
622.5 0.0726746775584 -158.385905861
623.125 0.0750173619173 167.119971493
623.75 0.0599710749373 163.535811107
624.375 0.0456930092787 -174.991590484
625.0 0.0270545842869 -114.470662324
625.625 0.0586191501798 -155.752839648
626.25 0.0291706444206 179.941354391
626.875 0.0103089306851 -170.129983541
627.5 0.0526521945437 -7.49466411951
628.125 0.0371928950636 -47.4407182239
628.75 0.0345731080905 -21.4654800527
629.375 0.0503684872191 -20.2945116156
630.0 0.0711449486216 5.14787485342
630.625 0.0743759448987 -12.1019326175
631.25 0.0659105710369 -7.97683870598
631.875 0.0690968048359 -14.3466043472
632.5 0.0689899582135 16.9264731659
633.125 0.052470574485 -9.24539148042
633.75 0.0403944869589 8.48044641937
634.375 0.0495600045958 34.3905262027
635.0 0.0335584112379 26.0993539462
635.625 0.0521264646025 52.9163750184
636.25 0.0423054823818 23.7750472213
636.875 0.0584653029129 33.5330306067
637.5 0.0437843801302 44.7419579989
638.125 0.0535738013606 74.9148604367
638.75 0.0577727240956 65.4176583666
639.375 0.0928197347494 94.5177542212
640.0 0.0766075631029 110.150042955
640.625 0.0595010796237 113.082541226
641.25 0.0774469213857 133.15145543
641.875 0.0640076323247 151.552719301
642.5 0.0456907794657 152.536857542
643.125 0.0731239973291 166.522043987
643.75 0.0552789506381 160.828421401
644.375 0.0709570801296 -169.613929767
645.0 0.0730994934126 175.0587398
645.625 0.0987793231542 171.82996125
646.25 0.0863959959378 163.670991139
646.875 0.0661116309513 179.995641208
647.5 0.0700623527928 -170.833894426
648.125 0.0815888431422 -171.602526469
648.75 0.08532912928 -154.564832205
649.375 0.0442486283078 -150.29476747
650.0 0.0458230915321 -111.161050288
650.625 0.0616017674998 -84.1199837147
651.25 0.0822200496665 -61.9831505045
651.875 0.0523725217041 -40.0185231367
652.5 0.0841698224769 -19.8547622703
653.125 0.106837865459 -1.7375718446
653.75 0.120499668386 8.6539751867
654.375 0.109062262719 9.00386349517
655.0 0.126842098235 17.1241330663
655.625 0.0894683923531 30.6792826476
656.25 0.0697534335266 27.4411445376
656.875 0.055145194824 5.65625559109
657.5 0.0686046435077 26.602964576
658.125 0.0638273296875 50.1234383861
658.75 0.0690821359025 62.9305905344
659.375 0.069089777658 47.9141617897
660.0 0.119297675423 30.6144114514
660.625 0.122092549817 20.288380513
661.25 0.114351925929 6.83417519894
661.875 0.133381922324 -10.1919264787
662.5 0.119854983021 -16.5973348784
663.125 0.0935900517133 -14.7016136156
663.75 0.113242825223 7.50399636565
664.375 0.0750881806915 52.2778710303
665.0 0.0622774298065 98.2614451507
665.625 0.0643904677207 118.443586314
666.25 0.0878200387802 134.369846613
666.875 0.115200949278 173.802386971
667.5 0.0987506511306 -165.359243474
668.125 0.103610563855 -175.62439996
668.75 0.139847300352 168.915909913
669.375 0.109253936181 -179.777813296
670.0 0.0774408091013 -166.418206462
670.625 0.0884702460705 -167.795900231
671.25 0.12750522851 175.638152623
671.875 0.0787014577307 171.877083419
672.5 0.074994649563 160.627869915
673.125 0.0811903038735 159.458341612
673.75 0.121884891705 159.819951105
674.375 0.113990309976 172.551431085
675.0 0.121704152055 -172.642800846
675.625 0.129110365922 -146.082599379
676.25 0.123452720757 -123.48803305
676.875 0.112133033469 -116.370639677
677.5 0.125262189995 -124.770636286
678.125 0.118467963355 -111.792350874
678.75 0.0789839558928 -91.4490486419
679.375 0.0394977303747 -58.5861982668
680.0 0.0771477869916 -67.9470397142
680.625 0.114756320791 -72.7111840937
681.25 0.107614543571 -69.7863559605
681.875 0.102315831783 -90.2176006132
682.5 0.136858601213 -116.580313916
683.125 0.156731261293 -115.308803428
683.75 0.133494461332 -101.224776948
684.375 0.126662261867 -80.2002881339
685.0 0.123879967835 -34.6298618884
685.625 0.119051828777 3.64208307593
686.25 0.100134896325 23.137965624
686.875 0.101142304527 45.438718647
687.5 0.0618245928571 100.665045593
688.125 0.0821579576165 118.267140219
688.75 0.0972026570717 116.1064327
689.375 0.152960101904 118.147690837
690.0 0.133990318619 134.848886889
690.625 0.121148093021 128.495451067
691.25 0.148723248155 97.2560537974
691.875 0.18911064636 72.8949083491
692.5 0.148987745479 41.1119370962
693.125 0.0767687958455 -7.89490749197
693.75 0.0904045692578 -30.2618641077
694.375 0.125875332853 -19.0580262815
695.0 0.138333975037 10.7699909205
695.625 0.102330332929 57.4402326461
696.25 0.118127160949 115.177106025
696.875 0.142525950703 174.692749855
697.5 0.141887428963 -140.658252096
698.125 0.145940427589 -134.615283574
698.75 0.130498854402 -128.902091116
699.375 0.0984145112417 -122.044610154
700.0 0.102101149572 -116.429826756
700.625 0.0998758109412 -75.2264283878
701.25 0.0984341625123 -61.8124009041
701.875 0.0829645828738 -59.6761311738
702.5 0.103023359483 -85.6070763331
703.125 0.175519176196 -124.21270233
703.75 0.168874776351 -148.675691976
704.375 0.124116749432 176.092081694
705.0 0.105238182089 166.144212884
705.625 0.150341845405 -175.859531328
706.25 0.127336549578 -98.0146325845
706.875 0.0886169869341 -57.6087603041
707.5 0.0767191577684 -36.0265352147
708.125 0.0949710469304 14.8758544125
708.75 0.112925164282 72.7165546024
709.375 0.106293125656 109.123947695
710.0 0.105000910773 130.428067867
710.625 0.109226507929 156.777433388
711.25 0.11943894669 176.440730952
711.875 0.143582710706 174.31332906
712.5 0.141889306017 147.011904241
713.125 0.130833973132 95.8982280832
713.75 0.0962570486468 47.8977716997
714.375 0.110799718494 28.5468050672
715.0 0.115651981368 33.1278311068
715.625 0.0860793056474 57.4569260875
716.25 0.0743691308907 67.2570187202
716.875 0.134450025932 121.028628926
717.5 0.147719132307 152.780522902
718.125 0.118584953835 164.114194045
718.75 0.103194477336 171.849459679
719.375 0.113567394179 -176.507211239
720.0 0.135812911536 -112.43363393
720.625 0.114483999419 -64.9918756863
721.25 0.0957738246906 -20.6610307739
721.875 0.0808664219748 51.6737062226
722.5 0.075951590959 81.0937248002
723.125 0.0823519661112 85.5130859663
723.75 0.103544740295 38.88368281
724.375 0.102755059873 -7.46686562006
725.0 0.0971176930456 -36.46847304
725.625 0.112950025748 -56.9313119302
726.25 0.121717198127 -54.2900338859
726.875 0.0951448768096 -63.7280780515
727.5 0.0904399538969 -11.0321335457
728.125 0.0854241369066 3.6990834496
728.75 0.075622759455 13.4636302859
729.375 0.0767358480733 15.0896591915
730.0 0.0592078663373 -5.95580626531
730.625 0.0817909045729 37.6977538235
731.25 0.0870766424359 75.1193427373
731.875 0.0726028858442 114.604216998
732.5 0.0522662128888 141.679885776
733.125 0.104349599853 -170.960523527
733.75 0.092534557911 -174.412007165
734.375 0.0682578967629 168.503660712
735.0 0.0481588237045 148.968163664
735.625 0.0490918303479 149.261641073
736.25 0.0481263728926 145.566714091
736.875 0.0541313996173 169.579353112
737.5 0.0559648568914 -176.761250619
738.125 0.116250079581 -166.727600604
738.75 0.0940094458738 -168.00507983
739.375 0.0523285249114 -167.831650385
740.0 0.011116856084 -71.6849477382
740.625 0.0776594882326 -145.499261559
741.25 0.0537995960059 -154.368454734
741.875 0.0200004565955 -91.093509563
742.5 0.0353866257127 -10.5712458582
743.125 0.0377408030581 47.7636907212
743.75 0.039183602233 86.826934274
744.375 0.046576723639 123.375074972
745.0 0.0555526912843 175.413954628
745.625 0.090094325399 99.6665999374
746.25 0.0745160562152 87.6912142006
746.875 0.0626807119643 40.8527174937
747.5 0.0408849256186 10.8272914616
748.125 0.0112644699222 60.276330578
748.75 0.0468844138156 -25.3259772811
749.375 0.028968330256 -41.8243311759
750.0 0.0421137492486 -89.0555746168
