!Created with skrf (http://scikit-rf.org).
# GHz S MA R 50.0 
!freq magS11 angS11
500.0 0.0104591800632 147.288461531
500.625 0.00973350028046 100.058224011
501.25 0.00868375176343 -70.4892931311
501.875 0.0337987658773 -177.94060518
502.5 0.0279816517417 173.957490714
503.125 0.0133071673635 38.9736304399
503.75 0.0157552388382 114.006540681
504.375 0.00737808511911 114.879310451
505.0 0.00350465011338 -40.1188633926
505.625 0.0437367420393 -83.4869943093
506.25 0.0279617726469 -127.709744763
506.875 0.0493864758936 -122.24540421
507.5 0.0419574719009 -121.918005195
508.125 0.0642463425424 -81.0988718359
508.75 0.0603883077114 -133.074679703
509.375 0.0527848446764 -135.489549336
510.0 0.031801144454 -119.187786963
510.625 0.0505740929863 -154.971004186
511.25 0.0514966042586 -179.584983392
511.875 0.0453802709566 134.803389316
512.5 0.0384078569627 97.8433386273
513.125 0.0642128471234 55.6812118915
513.75 0.0544444338954 33.130992029
514.375 0.0494788992011 14.1844145779
515.0 0.0674274124453 10.4838199309
515.625 0.0628238429389 37.3297360939
516.25 0.0897834239295 29.6551224195
516.875 0.119207992886 70.2525549461
517.5 0.118804918656 21.1049049856
518.125 0.18852712672 68.13843484
518.75 0.0767062383948 3.72396094141
519.375 0.059067783539 14.9687908345
520.0 0.113193273024 -1.55697325031
520.625 0.0915526410082 -13.8875639692
521.25 0.0800230287971 -25.8236419889
521.875 0.0734225991076 1.34295978677
522.5 0.102176954729 -31.9941208865
523.125 0.176887078974 -37.9663867481
523.75 0.210142297804 -58.7365575286
524.375 0.211238409474 -49.6628969712
525.0 0.0800861411473 -37.3320105424
525.625 0.0324385070155 -61.935615165
526.25 0.0347476891244 -18.5504355837
526.875 0.0511738257604 -21.0834965088
527.5 0.0595652561084 -25.3314910848
528.125 0.0266740738661 -70.9794771886
528.75 0.0586660169952 -72.750696998
529.375 0.0807530647904 -119.272834829
530.0 0.0570727115089 -128.26282054
530.625 0.0347269106241 -139.132241437
531.25 0.121183967327 -133.406579827
531.875 0.169643357636 -147.058136457
532.5 0.156069866258 -170.330806472
533.125 0.0783377560166 171.973321756
533.75 0.100091865992 166.607798805
534.375 0.099955076937 175.797516832
535.0 0.0983306046696 163.247315289
535.625 0.0508454589341 171.228201102
536.25 0.0497522419052 162.314444494
536.875 0.0805562727744 -160.993928708
537.5 0.106043820599 -146.096125891
538.125 0.10147443426 -173.455856015
538.75 0.0920513675023 179.045271811
539.375 0.0777173093889 -162.361694579
540.0 0.106330549415 -159.69662627
540.625 0.119109014395 -157.986578664
541.25 0.127418901596 -141.104128614
541.875 0.0989967579629 -143.532969935
542.5 0.116772741507 -145.043735846
543.125 0.126688942662 -166.313713221
543.75 0.12252063216 159.334278679
544.375 0.0893325807238 132.982302041
545.0 0.0984999994256 89.8437977561
545.625 0.0825226792121 81.4373266513
546.25 0.0920405663305 66.9104324771
546.875 0.0934285057447 53.7593287603
547.5 0.125541400709 55.791824908
548.125 0.107904129217 76.9076978639
548.75 0.0861983383587 90.7964669147
549.375 0.0904087852543 85.1025235187
550.0 0.102859510917 124.536630435
550.625 0.0287747316979 158.586803998
551.25 0.0401302423783 -141.099161591
551.875 0.0591308632114 -156.006424653
552.5 0.120613062361 -168.737450073
553.125 0.0812826442252 -162.64836671
553.75 0.0864187485594 -165.659259899
554.375 0.102382996528 168.233164539
555.0 0.136862244758 160.207046704
555.625 0.0923444258746 159.131257821
556.25 0.0980604933319 163.139734474
556.875 0.123476138981 164.803294853
557.5 0.116572032393 166.607001307
558.125 0.103368057342 163.432453659
558.75 0.0824413164885 176.820537507
559.375 0.0570382918438 -174.635073172
560.0 0.0517293522132 -154.740077836
560.625 0.0522360354637 -132.273766011
561.25 0.086782298202 -148.543604843
561.875 0.0986442114621 -161.620605185
562.5 0.0957637860268 172.106290537
563.125 0.094186579371 152.208233372
563.75 0.121738622276 133.681020714
564.375 0.0957940886578 121.732814099
565.0 0.0943537367459 117.513823789
565.625 0.0697839317987 122.04806179
566.25 0.0910064053697 155.324396634
566.875 0.0779611282868 177.470823389
567.5 0.0742649089793 -178.422533233
568.125 0.0869811224224 -174.499744282
568.75 0.0623381391298 -143.964318632
569.375 0.0471588425154 -107.214491061
570.0 0.0618403742021 -110.663981378
570.625 0.0915389337518 -116.624090455
571.25 0.0902424650568 -120.14632353
571.875 0.0895918237244 -127.723609826
572.5 0.113038116013 -156.749098992
573.125 0.146066245921 -177.41747035
573.75 0.0986331617584 164.947913812
574.375 0.0864728214811 145.18825527
575.0 0.108204610948 150.738804817
575.625 0.107593987092 155.875836502
576.25 0.0877109850751 147.236971734
576.875 0.0754689316477 134.306932765
577.5 0.0915814050002 130.590070788
578.125 0.051810376663 166.434246174
578.75 0.0482246730222 162.155258116
579.375 0.0577690581388 154.097504569
580.0 0.0687886655385 -178.244360398
580.625 0.0785405086259 -156.379140237
581.25 0.0894593508334 -162.630910825
581.875 0.114544995729 -173.097538947
582.5 0.118011179597 -175.717017839
583.125 0.0985779022358 -175.470125447
583.75 0.078275599609 -156.359191873
584.375 0.100109298178 -150.729334047
585.0 0.089617540648 -141.551227442
585.625 0.0763556612953 -153.133343762
586.25 0.0687530776604 -133.716669658
586.875 0.0813366853108 -131.707571722
587.5 0.0752326507076 -144.656487467
588.125 0.0613318140207 176.741438686
588.75 0.0688767513683 -147.682788934
589.375 0.0844806795631 -146.095283639
590.0 0.0909805297659 -163.810912353
590.625 0.102184173487 158.097483146
591.25 0.119173945742 165.210771596
591.875 0.0948314252908 159.455984355
592.5 0.0628788331174 147.890866743
593.125 0.0629880877033 137.56550777
593.75 0.0716932533118 -169.560254877
594.375 0.0573955875593 -139.717911079
595.0 0.0450657745195 -110.788288798
595.625 0.052844775185 -115.225595359
596.25 0.0816228293084 -71.1698109727
596.875 0.0668332648837 -72.3070563209
597.5 0.0568239116076 -60.8582444389
598.125 0.0575728719733 -72.2374487439
598.75 0.0809688353265 -61.0849284353
599.375 0.0955490697857 -61.1023443751
600.0 0.103728913697 -66.9922578969
600.625 0.0986123207432 -73.0420105916
601.25 0.0845017422346 -61.7246054653
601.875 0.0707363242424 -77.7022581488
602.5 0.0579808976168 -76.3275006405
603.125 0.0447159487398 -81.4048526207
603.75 0.0309982154995 -32.8459784928
604.375 0.0432621193339 -24.5121056139
605.0 0.0569735312658 -25.679159854
605.625 0.0519745789115 -8.68056769899
606.25 0.0215592627848 -12.0231844533
606.875 0.0428427552284 52.2315248376
607.5 0.0786151285878 47.6885296889
608.125 0.0714235141302 26.3943587807
608.75 0.0657599078615 25.4993526172
609.375 0.0666927513998 28.9955192615
610.0 0.0647607943172 35.4706535029
610.625 0.0640980475758 35.348457204
611.25 0.0459709992484 19.7644503497
611.875 0.0385791616067 54.1547331277
612.5 0.0352162497101 102.56153422
613.125 0.0364121459179 129.563237773
613.75 0.022018139701 131.508443494
614.375 0.0576799459383 126.804009708
615.0 0.0404920846191 118.040938101
615.625 0.032831996713 145.288568069
616.25 0.0464558970758 133.692574221
616.875 0.0486068637053 131.023728867
617.5 0.0430814033626 123.696801272
618.125 0.03652629377 138.902858796
618.75 0.0171704823439 143.015666173
619.375 0.0315565459693 162.797799013
620.0 0.0182272711858 155.588709584
620.625 0.0153412927036 -150.751793067
621.25 0.0545643008768 -78.3859649033
621.875 0.0727680682493 -129.322492199
622.5 0.0769819785579 -171.13202892
623.125 0.0710678373995 176.402878705
623.75 0.0510072916145 171.059592188
624.375 0.054056360625 -177.675018153
625.0 0.0430148640086 -147.838054198
625.625 0.0263200631891 -149.141815519
626.25 0.0201444371115 169.358439542
626.875 0.018319945872 0.0151683304994
627.5 0.024823437981 -41.3193256095
628.125 0.0324606352865 -52.0023676531
628.75 0.0325340704662 -22.6190748572
629.375 0.0617924597257 1.58595520094
630.0 0.0606765479702 -32.459787232
630.625 0.0665080045836 -4.20434355784
631.25 0.0658129616892 1.11672046255
631.875 0.0711539966674 8.11849182945
632.5 0.0635611777499 -10.8530448056
633.125 0.0497976947636 -15.1273431452
633.75 0.0474434239817 -7.36712329749
634.375 0.0568648302706 34.6872473518
635.0 0.0363107169878 5.33359123396
635.625 0.0333771065513 41.1962830631
636.25 0.0615992661788 47.551310801
636.875 0.0625410984974 41.217325131
637.5 0.0571797642256 54.6204367823
638.125 0.0233046045294 35.7089457828
638.75 0.0579102819571 72.6522831197
639.375 0.0865015854861 83.4234115087
640.0 0.0829144020256 110.785062227
640.625 0.0502342557916 77.6102509805
641.25 0.0581908904136 119.020519119
641.875 0.0592237268268 139.377961378
642.5 0.0646320308696 163.562698649
643.125 0.0547320241664 156.516058497
643.75 0.052093104265 166.799348439
644.375 0.0717978412104 -172.748840893
645.0 0.0890413412658 -179.166691676
645.625 0.0714671809885 153.304101639
646.25 0.0800132480545 156.898330908
646.875 0.0727499654305 170.103661533
647.5 0.0803091768399 -174.342547122
648.125 0.0661544386294 172.676623421
648.75 0.0769751575146 -163.674998495
649.375 0.0535042258682 -147.934719709
650.0 0.0547151221305 -118.044425336
650.625 0.0781258021706 -87.8792839028
651.25 0.0667790466794 -64.4915280629
651.875 0.0718457173081 -42.1703981803
652.5 0.0914316886616 -22.5067703167
653.125 0.132501917387 -1.29047197308
653.75 0.110738170499 6.1680867201
654.375 0.102734449976 3.19984755204
655.0 0.133339142715 13.7304657549
655.625 0.0854250954019 18.8308635136
656.25 0.0606171585566 20.6978807635
656.875 0.07709117813 7.45585004461
657.5 0.0817943048708 24.4919540864
658.125 0.0830976286653 47.4744326784
658.75 0.041362739534 69.8974969906
659.375 0.0729225712331 46.4505279864
660.0 0.104183465005 24.0826318476
660.625 0.125824443996 16.3703155445
661.25 0.0857797860888 4.07099213962
661.875 0.11626425084 -12.6419286612
662.5 0.115394955718 -22.375084461
663.125 0.115060772684 -15.8246989383
663.75 0.0822684011401 2.70888966161
664.375 0.0853113320002 53.5914035677
665.0 0.0745065368999 91.7931481535
665.625 0.0501466680899 109.164024846
666.25 0.0754421016459 133.888879058
666.875 0.100683407549 169.153446594
667.5 0.104617386685 -170.756672384
668.125 0.0952676974451 -179.727881971
668.75 0.124309541647 169.546530983
669.375 0.135265602045 177.693974649
670.0 0.08681861195 -170.824212517
670.625 0.0905326745386 -172.504837544
671.25 0.109304555388 176.101106745
671.875 0.104179701716 168.773707101
672.5 0.0744542029711 156.146943648
673.125 0.0908661910623 150.754276568
673.75 0.107156525467 160.046746508
674.375 0.108106821168 169.040527983
675.0 0.124030852524 -178.302352933
675.625 0.128091158046 -150.511402366
676.25 0.116269404556 -125.057255757
676.875 0.117604368444 -121.73475762
677.5 0.132231754224 -130.318928707
678.125 0.137246281069 -117.201345949
678.75 0.0632867775103 -91.8917281827
679.375 0.0506161214454 -73.4018512092
680.0 0.0810534894337 -79.6852357078
680.625 0.133196537549 -81.2195269188
681.25 0.0895707249398 -66.0928234642
681.875 0.0974288367433 -89.7347181267
682.5 0.138434968558 -121.220209102
683.125 0.168429155337 -121.858520223
683.75 0.145252853989 -107.068608314
684.375 0.11123297434 -77.9261221999
685.0 0.122907522243 -36.6038192585
685.625 0.130484327375 -2.11520397823
686.25 0.120210705036 18.6011279978
686.875 0.075194215697 51.1911316772
687.5 0.0769139030762 90.5288497524
688.125 0.0831127582572 107.94370909
688.75 0.106520457666 106.986352479
689.375 0.128472201684 129.363574844
690.0 0.129549526763 135.459099644
690.625 0.11326998049 128.863075396
691.25 0.147943483655 93.2598970238
691.875 0.175678019882 71.0278987598
692.5 0.137809602291 41.3110443521
693.125 0.0965225440669 -17.9324929513
693.75 0.0973851014949 -41.0087957725
694.375 0.145331279288 -35.1092209021
695.0 0.114358429065 20.6466309593
695.625 0.0987547942952 57.7268547628
696.25 0.108723826022 115.288740446
696.875 0.143433169004 168.208966657
697.5 0.14808689603 -148.463700495
698.125 0.140373660836 -132.437942191
698.75 0.126698629268 -130.335019268
699.375 0.116050702743 -129.722980323
700.0 0.0885106973153 -104.688713025
700.625 0.108876282124 -83.9229549649
701.25 0.090819039362 -60.5737209393
701.875 0.0852318230444 -68.4753604392
702.5 0.100649562655 -72.4437401672
703.125 0.171507659642 -119.030907473
703.75 0.194203037886 -158.480976329
704.375 0.131011322234 169.128764595
705.0 0.11493022633 153.993383197
705.625 0.136664436737 -161.641772079
706.25 0.139919898331 -105.81764625
706.875 0.0933034260643 -63.3353180759
707.5 0.0812212384126 -47.6131314564
708.125 0.0893868232521 35.53865816
708.75 0.117390866798 73.236200206
709.375 0.101428784353 108.411716949
710.0 0.102397739923 122.136955261
710.625 0.106262594937 155.301573712
711.25 0.12142407515 177.128825718
711.875 0.145067915147 166.07973539
712.5 0.157124114899 137.136651006
713.125 0.117317074675 108.949860084
713.75 0.0978897428955 51.0792207441
714.375 0.10646384605 17.4331353839
715.0 0.117504416156 18.8399430862
715.625 0.0834546652933 43.6069413903
716.25 0.0826463956971 81.8476715554
716.875 0.123056701016 105.717703198
717.5 0.143347878935 149.584128418
718.125 0.116604764119 156.962824276
718.75 0.109760948279 -174.936509419
719.375 0.116023326043 -170.389109072
720.0 0.130501804499 -134.203859116
720.625 0.115210191039 -75.1387146644
721.25 0.0980401514479 -9.41571283946
721.875 0.0879763906555 44.1899116851
722.5 0.0753930794842 73.1728907375
723.125 0.0720115555455 55.8153486168
723.75 0.133701057652 56.9319751848
724.375 0.116669099043 1.33977083891
725.0 0.0905955168475 -40.1875052673
725.625 0.101590564572 -69.0889050178
726.25 0.107096133386 -78.2974674875
726.875 0.101065119057 -47.5692702626
727.5 0.0838389766402 -35.2888731424
728.125 0.0860910246292 -0.188620542524
728.75 0.0668164225713 -2.8016013369
729.375 0.108241645041 36.3665560568
730.0 0.0736062782025 8.17165718282
730.625 0.0537320190775 7.40249456716
731.25 0.0679134381772 61.9621440788
731.875 0.0654327493948 113.16037167
732.5 0.0767009356141 154.637381265
733.125 0.103177373326 -178.219030965
733.75 0.0783976651003 171.279235314
734.375 0.0916144261566 -169.452803241
735.0 0.0684786071375 159.584117128
735.625 0.0653347762608 154.55747432
736.25 0.0253163929485 139.280114059
736.875 0.0660276680273 173.315282033
737.5 0.0848920633723 177.739917772
738.125 0.0823173573303 -178.662952513
738.75 0.076481027591 -176.059285765
739.375 0.0393937966117 -171.773352961
740.0 0.0501735699252 -140.166138946
740.625 0.0772781254501 -151.127661855
741.25 0.0529102068548 -156.038280601
741.875 0.0110244101357 -47.6458213025
742.5 0.0493332839541 -20.4712950518
743.125 0.0511287178185 48.2975600205
743.75 0.039471117172 79.1712465762
744.375 0.0375166704429 171.963882067
745.0 0.0740869562495 113.108701133
745.625 0.0744957984893 102.168552243
746.25 0.0876571443728 78.667317923
746.875 0.054560048568 57.8792625983
747.5 0.0626840593541 3.88717694303
748.125 0.0217309696759 -5.57754335709
748.75 0.0204298415028 -14.0863397393
749.375 0.0324990901192 -40.6662819618
750.0 0.0391109051581 -48.8992696234
