!Created with skrf (http://scikit-rf.org).
# GHz S MA R 50.0 
!freq magS11 angS11
500.0 0.0139789464111 179.161523911
500.625 0.00897521903066 68.7612013586
501.25 0.0132319779221 -132.99210404
501.875 0.0287364931718 -166.805851914
502.5 0.0339070432193 176.905843129
503.125 0.0146678321675 57.4843251209
503.75 0.00665421393237 53.5748158852
504.375 0.00463796153514 -38.9492437033
505.0 0.0123616796586 -53.9446131522
505.625 0.0429454877177 -79.8023621415
506.25 0.023772835406 -145.738365672
506.875 0.0513904993267 -117.183436946
507.5 0.0451832472879 -117.148371158
508.125 0.0534241925479 -90.0622072058
508.75 0.0640361730724 -126.428709747
509.375 0.0560584234716 -131.206217846
510.0 0.0437748950559 -108.04837699
510.625 0.0507600676797 -153.957680397
511.25 0.0554810884853 -171.077765318
511.875 0.0481915550232 142.40361905
512.5 0.0379835549281 106.650614324
513.125 0.0595962461907 56.638513252
513.75 0.0550655411925 39.8033194843
514.375 0.0377752724111 7.75072641271
515.0 0.0749109319334 11.3709100147
515.625 0.0556175789734 28.7061196092
516.25 0.0830450323223 29.639828034
516.875 0.107943028168 64.2598157169
517.5 0.124729862636 24.8154385144
518.125 0.172944043011 60.4107791896
518.75 0.0751310871155 4.31593626551
519.375 0.0674839337401 21.8424115822
520.0 0.110112752936 0.436370894261
520.625 0.0865077555181 -17.5964631252
521.25 0.0751157337661 -27.9212942559
521.875 0.0644327882211 -2.46670847705
522.5 0.109606375316 -29.5877478612
523.125 0.160027971996 -43.878904435
523.75 0.212899670872 -57.1603655265
524.375 0.211799421225 -49.4044501227
525.0 0.0803091623665 -33.7140244878
525.625 0.0333126067406 -37.2451608704
526.25 0.0415504229145 -6.99117131926
526.875 0.0543720134771 -17.2085372316
527.5 0.0578332478867 -22.2482344156
528.125 0.0300666638162 -62.5716288136
528.75 0.0564541985181 -73.7257139575
529.375 0.0855750821245 -106.529606061
530.0 0.0509603020424 -125.767565404
530.625 0.0385859347602 -139.20567351
531.25 0.137874203064 -137.539785734
531.875 0.175599378102 -144.89197145
532.5 0.153329861517 -168.699679057
533.125 0.0843593208528 175.447023025
533.75 0.100695888605 170.229229787
534.375 0.110799871083 -178.131555426
535.0 0.0989640063553 165.12105417
535.625 0.0478122539614 170.735035951
536.25 0.0599502946426 168.357559608
536.875 0.0816464095846 -156.94231782
537.5 0.100311702864 -144.071173135
538.125 0.103973929589 -171.828011216
538.75 0.100236069308 -177.188432419
539.375 0.0783099046062 -160.292048636
540.0 0.105851388442 -156.002090644
540.625 0.129522525735 -153.38964647
541.25 0.137252816826 -139.733652779
541.875 0.102380895063 -142.204541396
542.5 0.1093611046 -140.406133804
543.125 0.135960907488 -164.49377522
543.75 0.12956080063 162.138771143
544.375 0.0944969793189 137.998809917
545.0 0.0998048996103 92.1338441154
545.625 0.0757741103842 83.7937305066
546.25 0.0878204492353 69.8765844908
546.875 0.0828854309994 55.1239532428
547.5 0.124264378401 59.0916146842
548.125 0.111919634152 80.2728572403
548.75 0.0917535234237 93.2364562465
549.375 0.097509422178 89.4094345143
550.0 0.101155759835 127.51581775
550.625 0.0282490680241 164.377834561
551.25 0.0396585337113 -132.502461738
551.875 0.0662313551358 -157.991762519
552.5 0.119246481006 -164.828453533
553.125 0.0897991582193 -165.487744
553.75 0.0901786882312 -166.882734639
554.375 0.105197510514 169.736083513
555.0 0.136053591349 162.982213165
555.625 0.0834466164603 162.994199644
556.25 0.0987410948367 164.79364906
556.875 0.119569406987 166.192155206
557.5 0.11432127867 168.277066404
558.125 0.0997595068394 166.225846783
558.75 0.0790344092971 -178.101188994
559.375 0.0603172271729 -169.079842075
560.0 0.0506623944927 -149.227907217
560.625 0.0511347727967 -122.423822398
561.25 0.0857917079828 -144.180107606
561.875 0.0960253391308 -158.080015358
562.5 0.0980036509492 171.685160074
563.125 0.0951698259084 153.052169736
563.75 0.120247792955 136.154223429
564.375 0.10303506462 123.397904288
565.0 0.0913713371581 120.311998903
565.625 0.0652862565982 127.062635613
566.25 0.0837166873234 162.309488621
566.875 0.0694034104873 -177.054610467
567.5 0.0760091259248 -177.397316819
568.125 0.0795832308037 -167.107670624
568.75 0.0667530887871 -144.386402409
569.375 0.0506753454313 -109.197414039
570.0 0.063369194791 -108.134403232
570.625 0.0847540744984 -108.697428124
571.25 0.0894364514358 -115.800561456
571.875 0.0903168125449 -129.324614527
572.5 0.115672090341 -156.684505913
573.125 0.138727988291 -172.290302688
573.75 0.101588949829 163.746279614
574.375 0.0822046478352 150.22845882
575.0 0.112528805744 150.213677309
575.625 0.0989627561228 163.307481319
576.25 0.0843986534271 152.474689003
576.875 0.080459767947 132.040995929
577.5 0.0919451447936 131.125646776
578.125 0.0490602407765 175.0062482
578.75 0.0478036832742 169.251806275
579.375 0.0510862017036 166.337112497
580.0 0.0701310680744 -177.049868196
580.625 0.0798853566948 -148.897545865
581.25 0.0897858029483 -163.00608029
581.875 0.117061411902 -176.753592725
582.5 0.11764615073 -173.745333617
583.125 0.0971740297364 -171.880036464
583.75 0.0786378629987 -159.985752519
584.375 0.102682800275 -151.073319532
585.0 0.087725555611 -137.432549982
585.625 0.0747333169356 -149.449047242
586.25 0.0703764928878 -135.302228846
586.875 0.0840455363129 -136.990737037
587.5 0.0728101232135 -142.407235788
588.125 0.0607579567813 -178.972086181
588.75 0.0691856664185 -155.80565367
589.375 0.0839926025772 -147.883520905
590.0 0.0916520312067 -162.823533592
590.625 0.103625951775 160.017219051
591.25 0.117338276759 165.022865939
591.875 0.0905155352572 162.987970789
592.5 0.058656575871 154.483044849
593.125 0.0638286368472 140.852203316
593.75 0.0750244170497 -173.082985272
594.375 0.0585657067992 -137.771451015
595.0 0.0432963096733 -115.605575709
595.625 0.0526566297297 -113.31622623
596.25 0.0821305960987 -68.0987012562
596.875 0.0701144693377 -66.3258232265
597.5 0.0609741194978 -53.3134460677
598.125 0.062273175594 -67.0100176252
598.75 0.0788993285313 -60.1417230652
599.375 0.0910772091747 -64.0088036472
600.0 0.102745702702 -65.0358169367
600.625 0.0983984581826 -71.0644421068
601.25 0.0824859909244 -66.791512138
601.875 0.0694715338777 -78.8966950559
602.5 0.0613586793628 -67.9379715346
603.125 0.0444130013038 -79.892331879
603.75 0.039428200372 -13.1814435461
604.375 0.040789706449 -22.1272971273
605.0 0.0542383935922 -23.8820877952
605.625 0.0516754259894 -5.91843028979
606.25 0.0211018845843 -5.92492000848
606.875 0.0369064174491 50.6861303179
607.5 0.074214828854 46.3975557062
608.125 0.0659818528646 27.8726123941
608.75 0.081056546115 33.4318191589
609.375 0.0655043019979 30.8494179792
610.0 0.0683244410698 39.1308112793
610.625 0.0654500983495 38.0253536263
611.25 0.0482448492929 24.7881881835
611.875 0.035706781047 49.3386546431
612.5 0.0266219076424 96.2659683176
613.125 0.0357424076174 127.32668105
613.75 0.0234936315676 130.018439807
614.375 0.0745566520038 134.51674434
615.0 0.0438075920917 119.118257161
615.625 0.0447416161083 141.766920281
616.25 0.0361817616692 145.196248378
616.875 0.0686155175371 136.897153756
617.5 0.0522952581443 128.667650265
618.125 0.037810297274 131.138508899
618.75 0.00638903108553 166.833788877
619.375 0.0495882413352 160.734699672
620.0 0.0193636850779 150.991111192
620.625 0.0158466406081 -96.7704050718
621.25 0.049351947408 -81.4422397774
621.875 0.0772408259665 -131.154773362
622.5 0.0823123305486 -177.70290287
623.125 0.0855995959639 172.473700562
623.75 0.044666130798 -176.43514868
624.375 0.0716829824272 178.587792861
625.0 0.041079056312 -145.244177645
625.625 0.0333970807762 -141.960045838
626.25 0.0210352266899 168.07738582
626.875 0.0146293089574 0.108555410847
627.5 0.0272444216008 -27.3567771023
628.125 0.0318746948603 -30.4624032155
628.75 0.0356285509998 -14.5935514342
629.375 0.0576079987831 1.85396485219
630.0 0.0603748827425 -26.5097444695
630.625 0.0691138409742 9.19687643604
631.25 0.0713605768745 9.18551606773
631.875 0.0691124870396 5.08531607319
632.5 0.0607127658007 -5.99390302748
633.125 0.0429111260661 -2.89108000118
633.75 0.0409910761735 -4.82195453939
634.375 0.0550648891153 36.8571760571
635.0 0.0402482780987 -22.4999744225
635.625 0.0347701450171 43.0386204573
636.25 0.0603001174649 43.2361228203
636.875 0.0620288922487 42.2110964849
637.5 0.0525615463426 56.3892895937
638.125 0.0332125148819 65.2015030059
638.75 0.0740190144592 79.7051406686
639.375 0.0858629798573 91.6820785856
640.0 0.0800013687031 111.916899995
640.625 0.0490259712254 88.0545524661
641.25 0.0561232254424 114.849107032
641.875 0.0621964448251 153.989805381
642.5 0.0598193805685 162.514270559
643.125 0.0580539628258 160.29786336
643.75 0.0658510024368 177.045340939
644.375 0.074095354376 -168.548291243
645.0 0.0873632527015 -176.997379862
645.625 0.0747138238294 160.916813614
646.25 0.0789474775198 159.450530823
646.875 0.0615908302048 169.174911166
647.5 0.0822739635256 -172.40091692
648.125 0.0641701209519 170.172143809
648.75 0.068036233029 -162.430821326
649.375 0.0450339371613 -155.224305096
650.0 0.0627103588846 -115.880952766
650.625 0.0644510669303 -87.8661607682
651.25 0.0697194759127 -61.2362273442
651.875 0.0700270501574 -43.6608869045
652.5 0.0918107966288 -20.0971111285
653.125 0.129913407931 0.309315373029
653.75 0.105734889299 6.71215252954
654.375 0.105839713574 6.18291645272
655.0 0.130865531922 15.3661075946
655.625 0.0721328016921 12.8220627388
656.25 0.058309532349 22.2203106245
656.875 0.0703107266994 5.69211151868
657.5 0.0800143322683 27.287886415
658.125 0.0795624588936 51.8735624759
658.75 0.0549441453229 67.1400572272
659.375 0.0831676942044 42.9338696288
660.0 0.110619045779 28.9972042136
660.625 0.124897897489 18.5046830192
661.25 0.0913912834408 5.66378271453
661.875 0.111410284107 -10.9317699541
662.5 0.123556779762 -17.695981229
663.125 0.107248712211 -14.2045246423
663.75 0.0973523948248 7.67167620578
664.375 0.0985589553009 58.012228175
665.0 0.0807289335844 94.0646779649
665.625 0.0438459039776 112.878740851
666.25 0.0691209841901 140.71088307
666.875 0.105581640279 175.694177218
667.5 0.109393246662 -170.55932598
668.125 0.0850839132172 -173.509111896
668.75 0.12115069704 170.636902157
669.375 0.133123613419 177.385230975
670.0 0.0923579734362 -168.798323962
670.625 0.0780444960001 -171.942904385
671.25 0.111948667749 176.194714082
671.875 0.109803008634 169.985159783
672.5 0.0793292813766 158.671611806
673.125 0.0825072104986 158.805846366
673.75 0.103142588475 164.026654269
674.375 0.104209935684 171.327766395
675.0 0.126309139809 -176.860511254
675.625 0.114350119871 -145.679735609
676.25 0.111415254821 -120.804888823
676.875 0.107598556138 -121.337501291
677.5 0.136969953297 -129.841062959
678.125 0.11730906626 -115.742613299
678.75 0.0679150626487 -90.6151702113
679.375 0.05734864374 -75.147414634
680.0 0.0810122729262 -77.0764570745
680.625 0.131665659454 -77.3240491138
681.25 0.0894203689173 -64.207596418
681.875 0.095955805706 -86.0195239491
682.5 0.129107395513 -117.063644012
683.125 0.173586461093 -121.579586811
683.75 0.131310099905 -101.991462054
684.375 0.116396581624 -77.6704949095
685.0 0.127171069568 -37.0017975207
685.625 0.131994581686 -1.39911236427
686.25 0.116657900898 21.0327485105
686.875 0.0863817649497 49.1054901769
687.5 0.0829118572673 86.5431099279
688.125 0.0832403804863 110.556987551
688.75 0.107360733277 110.49737644
689.375 0.142228702447 125.00593911
690.0 0.124813920915 139.392925126
690.625 0.119011370915 129.921777483
691.25 0.148022999796 95.1037177618
691.875 0.160217578737 77.8998674042
692.5 0.130291065778 43.7145214194
693.125 0.0878452015295 -15.1472117116
693.75 0.0970364232476 -37.0268131838
694.375 0.144118392247 -29.5911629906
695.0 0.124512588738 15.4672149504
695.625 0.0974705309309 63.2055015902
696.25 0.113493130045 115.889657111
696.875 0.145705230328 167.201918876
697.5 0.140728345668 -141.627301255
698.125 0.137594419257 -129.984987911
698.75 0.120222669638 -128.055785399
699.375 0.113833257695 -126.883514047
700.0 0.0939034946574 -111.423759661
700.625 0.11506938389 -88.3061564207
701.25 0.0964766638703 -60.7757514557
701.875 0.0848210944415 -64.5629456325
702.5 0.100669894042 -74.7178009259
703.125 0.170264820099 -114.599657033
703.75 0.176558591617 -153.652758568
704.375 0.133935475662 167.810680154
705.0 0.113899763537 159.425821195
705.625 0.14207171529 -168.904735003
706.25 0.144815205954 -110.866316504
706.875 0.0917204361401 -62.3310931767
707.5 0.0806056926234 -43.3951137017
708.125 0.08800506926 31.1730087169
708.75 0.111814070615 73.2399964343
709.375 0.107744598107 105.631323441
710.0 0.102938081342 122.886305786
710.625 0.106704984427 165.20425653
711.25 0.123816329674 179.998024471
711.875 0.146483588333 167.70399851
712.5 0.155422678276 140.491733444
713.125 0.126593563568 104.098360219
713.75 0.0974139404081 57.2795053155
714.375 0.102353532075 29.5285513609
715.0 0.118798949192 15.2076170758
715.625 0.0841287747507 58.0466330432
716.25 0.0802459346566 79.0350432255
716.875 0.115031428999 98.6923111671
717.5 0.146517956433 146.797312254
718.125 0.116216614151 158.305171573
718.75 0.109161570608 -174.369918307
719.375 0.118509573159 -165.748217292
720.0 0.126989259809 -132.028397634
720.625 0.113358322034 -79.3080216994
721.25 0.0965534089369 -4.22137751919
721.875 0.0863228716412 35.4871421799
722.5 0.0725888709688 72.9596019217
723.125 0.0747957925371 62.233673088
723.75 0.128616459829 55.0467065821
724.375 0.119430669762 6.27745063181
725.0 0.103089337389 -32.5022592127
725.625 0.0922654290629 -72.3102277566
726.25 0.108849344374 -70.8093872915
726.875 0.0999022914585 -48.2311677574
727.5 0.0768204937993 -44.6105835259
728.125 0.0812720827973 -1.42084655121
728.75 0.0694549716669 3.94491961974
729.375 0.101902905194 34.2941135703
730.0 0.0772098427079 11.8502115668
730.625 0.0544712663687 30.5272899876
731.25 0.0529286272352 58.9064076463
731.875 0.0870851770737 122.464990008
732.5 0.0753704533642 150.247203771
733.125 0.088923565915 175.070061179
733.75 0.063349034757 163.003877259
734.375 0.0949235977894 -165.31847391
735.0 0.0853589401811 164.793446508
735.625 0.0629159090727 152.897279633
736.25 0.0102135615299 142.698513007
736.875 0.0903400296363 167.490150693
737.5 0.0924104680228 -179.163230665
738.125 0.0804766178896 -173.732407118
738.75 0.0624160535861 176.910344534
739.375 0.0678030239007 -157.177781893
740.0 0.0465059208443 -138.514935539
740.625 0.0651672624297 -152.606328509
741.25 0.047932238845 -156.767868197
741.875 0.0115178488403 -58.6525047731
742.5 0.0798756652289 -20.2497864093
743.125 0.05092293275 49.1592625819
743.75 0.0313777047841 96.760198424
744.375 0.0328795188717 160.413304554
745.0 0.0541582121751 126.554416324
745.625 0.0603891832295 116.058893445
746.25 0.0758567610997 80.0623851218
746.875 0.0529290733815 68.317955755
747.5 0.0746981991242 5.37464222322
748.125 0.0265408899388 -8.87503738355
748.75 0.0219778027191 41.8366620284
749.375 0.0281441417997 -25.6253827364
750.0 0.0339443678925 -48.6125993005
