!Created with skrf (http://scikit-rf.org).
# GHz S RI R (50+0j) 
!freq	ReS11	ImS11	
500.0	0.92009089	-4.628566914	
500.625	-0.6626365761	-1.893918741	
501.25	-1.112119767	-2.378605584	
501.875	-1.788271254	-0.6901263623	
502.5	-0.2544574107	-0.1122997244	
503.125	-0.1833730512	-0.09914774142	
503.75	0.2001152839	0.4081256261	
504.375	-0.03803912542	-0.01076490265	
505.0	0.168427676	-0.1472186878	
505.625	-0.118804224	0.08055129286	
506.25	-0.1827809722	-0.6535661596	
506.875	0.7721189587	0.4957528701	
507.5	-0.04501079043	-2.245733496	
508.125	-1.101781286	-2.182557412	
508.75	-0.1483738078	-0.9427332855	
509.375	0.4194334303	-4.597454913	
510.0	-1.982598549	0.2460677204	
510.625	-0.1740704801	-0.2420977422	
511.25	-0.514439761	-0.2859997091	
511.875	-0.307980056	-0.02574466792	
512.5	-0.07792723235	0.1865003727	
513.125	-0.0821059768	-0.2780672114	
513.75	-0.2368446819	-0.01650714561	
514.375	-0.07373512117	-0.3035097956	
515.0	-1.171706557	0.1481507506	
515.625	2.122243436	-1.943046329	
516.25	-3.913220796	-2.557876382	
516.875	0.3195673485	0.3181758245	
517.5	0.05133463851	-1.214341877	
518.125	0.006463294918	0.3705356796	
518.75	-0.1625936945	-1.013800668	
519.375	-0.07182609107	0.2367053328	
520.0	0.1372251909	0.1581521993	
520.625	0.6528360971	-0.2226966941	
521.25	-0.3521438755	-0.5489393453	
521.875	-0.2172014711	-0.1790187468	
522.5	-0.1531758022	0.2526560208	
523.125	-0.192555232	-0.1759208854	
523.75	-0.2711700965	0.2405641742	
524.375	-0.2648462735	-0.1390900841	
525.0	0.09013363246	0.6851237442	
525.625	-0.08671164431	-0.08593297748	
526.25	0.1605076249	0.07950900092	
526.875	-0.3174673392	0.0188130277	
527.5	0.1500992639	0.7648451739	
528.125	0.09203631813	0.2822351424	
528.75	-0.1407986554	0.855209134	
529.375	0.279065245	-0.05251446718	
530.0	-0.06449256409	0.7925200546	
530.625	0.4476946674	0.3421851352	
531.25	1.248146318	0.6472811173	
531.875	-0.05985824912	-0.9100698604	
532.5	0.3511911125	-0.2896082966	
533.125	-0.7158878331	-0.1483465156	
533.75	0.9186969595	-0.6744608767	
534.375	-0.920319482	-0.4226370553	
535.0	-0.2062182779	-0.3473204752	
535.625	-0.6783820216	0.5792390742	
536.25	0.1031735609	0.04722385963	
536.875	0.2494940982	0.1772347505	
537.5	0.1847896748	-0.2065559895	
538.125	0.09716353202	-0.07616402102	
538.75	0.4574929995	-0.326156883	
539.375	-0.2783266139	-0.2771613761	
540.0	-0.2703977766	-0.343781846	
540.625	-0.5321893732	-0.0342307377	
541.25	-0.0518473533	0.08837891921	
541.875	-0.1567100709	-0.1335748425	
542.5	-0.1737903971	-0.05811345033	
543.125	-0.0942760833	-0.001535171806	
543.75	-0.2629668442	-0.1871665223	
544.375	0.02860230041	0.3234814709	
545.0	-0.2257611094	-0.007217070823	
545.625	0.4018790465	0.1836169731	
546.25	-0.05502830333	-0.009203846754	
546.875	0.5776244711	-0.0172783704	
547.5	-0.1474946424	-0.2184526728	
548.125	0.1292210555	-0.3755983018	
548.75	-0.4571546558	-0.358898366	
549.375	-0.2702635818	0.042716048	
550.0	-0.1179738837	-0.1407645388	
550.625	-0.1643704304	0.1675977057	
551.25	-0.1178035563	-0.04222745726	
551.875	-0.2132440674	0.2806029638	
552.5	-0.01366903402	0.1070748022	
553.125	-0.06648458061	0.2097713397	
553.75	0.1258389714	0.06539220575	
554.375	0.2056212054	0.003990391353	
555.0	0.2349387302	-0.1807962776	
555.625	0.1673269658	-0.2732279232	
556.25	0.126604826	-0.3233505855	
556.875	-0.08663417758	-0.3749164199	
557.5	-0.2509578982	-0.2284169653	
558.125	-0.2579897043	-0.06300330086	
558.75	-0.2486218983	-0.01490767258	
559.375	-0.2574403085	0.09360244064	
560.0	-0.1685210219	0.1423129083	
560.625	-0.1623728884	0.274021253	
561.25	0.1023757035	0.2551190974	
561.875	0.01436808486	0.01994676793	
562.5	0.07833819068	0.2261607407	
563.125	0.09339695104	0.04033027987	
563.75	0.3899956814	0.09598682106	
564.375	0.1785595039	-0.3638745669	
565.0	0.2142478142	-0.1654523788	
565.625	-0.1648232684	-0.4959343569	
566.25	-0.2371466036	-0.07829933959	
566.875	-0.2322188828	-0.2612889073	
567.5	-0.4652838318	-0.2890270317	
568.125	-0.3777472001	-0.1226321293	
568.75	-0.370222884	-0.385104201	
569.375	-0.6960111227	0.4631191126	
570.0	0.01109385843	0.3141680621	
570.625	-0.4433023213	0.4062376951	
571.25	0.3818772451	0.3060886742	
571.875	-0.1805253772	0.2846722031	
572.5	0.5829000341	-0.2359393481	
573.125	-0.127586477	-0.02692897071	
573.75	0.4257611627	-0.2065510852	
574.375	-0.1737478508	-0.4120628443	
575.0	0.1045138021	0.2055861968	
575.625	0.1086705602	-0.4626902298	
576.25	-0.1419244788	-0.006348554955	
576.875	0.2657305814	-0.4835257594	
577.5	-0.2544222309	-0.4909334683	
578.125	-0.08269177793	-0.07760834905	
578.75	-0.03027354129	-0.4143945331	
579.375	-0.4226047721	-0.2181090808	
580.0	0.03690003389	0.1554707021	
580.625	-0.2997451067	-0.2844083276	
581.25	-0.003225277356	0.393380362	
581.875	-0.1897369799	0.08697352227	
582.5	0.1591707164	0.6781680865	
583.125	0.3658472631	-0.192024205	
583.75	-0.2198036582	0.3196684176	
584.375	0.5002122828	-0.1462558517	
585.0	-0.1640818492	0.2760509466	
585.625	0.6824235048	0.04813866228	
586.25	0.1344797015	-0.3712111512	
586.875	0.2958101688	-0.05635874007	
587.5	-0.1908674781	-0.553840648	
588.125	-0.02803789399	0.00462953885	
588.75	0.2695658274	-0.4897221023	
589.375	-0.1245038864	-0.4527400302	
590.0	0.1202800982	-0.2046042375	
590.625	-0.5796506785	-0.2226136306	
591.25	-0.2375404647	0.4244946123	
591.875	0.08097666579	0.133700713	
592.5	-0.2318385943	0.1550359563	
593.125	0.1923522869	-0.009320597929	
593.75	-0.04121491213	0.525708249	
594.375	0.4848231507	0.004671847635	
595.0	0.1265312026	0.2081789354	
595.625	0.6105734997	0.4415459716	
596.25	0.2995224141	-0.3663237424	
596.875	0.1673160055	0.4883977099	
597.5	0.7006578477	0.1571147436	
598.125	0.2361802978	-0.02226802687	
598.75	0.3604913486	0.3943389102	
599.375	0.5342633828	-0.3007935034	
600.0	0.2702055618	-0.1449003019	
600.625	0.4699039034	-0.5195392438	
601.25	-0.09240706083	-0.4047739693	
601.875	0.0517741699	-0.3265632545	
602.5	-0.4474721083	-0.001696026584	
603.125	-0.1332682638	0.09442161715	
603.75	-0.1642937568	0.1909111551	
604.375	-0.2970406553	0.0242461578	
605.0	-0.1530308072	0.4665106528	
605.625	-0.02788243522	-0.237762319	
606.25	-0.4868359233	0.4534135469	
606.875	-0.01186639095	0.1097308247	
607.5	-0.7989891851	0.3077713848	
608.125	0.4283216977	0.6147860711	
608.75	0.002133375832	0.3721535291	
609.375	0.9161562036	-0.12191973	
610.0	-0.06606561504	-0.313121966	
610.625	0.5219602181	-0.3086784786	
611.25	-0.2379346998	-0.3958560016	
611.875	0.04340562353	-0.2493108321	
612.5	-0.6834012684	-0.04533336272	
613.125	-0.1419867599	-0.03178935319	
613.75	-0.4410035535	0.4555239062	
614.375	0.3500272485	0.05766477182	
615.0	-0.1219983901	0.3917210703	
615.625	0.250883033	-0.0502523812	
616.25	-0.4192572899	0.2811477059	
616.875	-0.0006925675516	0.7283207996	
617.5	-0.1112965367	0.1134650863	
618.125	-0.1264781249	0.7378495286	
618.75	0.2739509066	0.2712485353	
619.375	0.02452296993	0.4032588329	
620.0	0.5623768695	-0.04365600932	
620.625	0.1851416366	-0.2267717406	
621.25	-0.3117107491	-0.4737056984	
621.875	-0.3076195165	-0.0842006131	
622.5	-0.6773826057	0.07560743251	
623.125	0.2142877383	0.3601770642	
623.75	0.131163715	0.3279120515	
624.375	0.04035100394	-0.4101671648	
625.0	0.1954533956	0.2258826413	
625.625	-0.07230898734	-0.5898121607	
626.25	0.157588716	0.05683276678	
626.875	-0.4233809359	-0.5181510463	
627.5	-0.4373672996	0.1623906905	
628.125	-0.02595522661	-0.1259435684	
628.75	-0.214323034	-0.4991635522	
629.375	-0.2490516921	-0.1044056605	
630.0	-0.3359946788	-0.3361838676	
630.625	-0.5801429349	0.3275909407	
631.25	-0.1342724116	0.2236945714	
631.875	-0.1693361142	0.714505214	
632.5	0.5166650431	0.3169154967	
633.125	0.3841047552	0.04563369961	
633.75	0.2902147464	-0.08849229257	
634.375	0.3355543531	-0.4783615698	
635.0	-0.355257856	-0.06802128507	
635.625	-0.1212534274	-0.4811166303	
636.25	-0.468283731	0.4932039242	
636.875	0.1571808481	-0.02766962177	
637.5	-0.4238836873	0.5899778952	
638.125	0.1858918853	-0.08041469019	
638.75	-0.554459746	0.4669257919	
639.375	0.4863433286	0.7611584683	
640.0	0.05821730631	0.03862294739	
640.625	0.4665002914	0.6652873508	
641.25	0.8913416702	-0.2213372153	
641.875	-0.03117341776	-0.4238225863	
642.5	0.3424610107	-0.4551473603	
643.125	-0.7436779616	-0.06207917011	
643.75	0.0628213072	-0.2867466321	
644.375	-0.7563762902	0.1600509684	
645.0	0.09046926185	0.2688705486	
645.625	-0.2775705192	0.4977505171	
646.25	0.702097176	0.2754244826	
646.875	0.09267583467	-0.3509676531	
647.5	-0.07131272647	0.4438501013	
648.125	0.791939493	-0.2138885023	
648.75	-0.1506981983	-0.01290303331	
649.375	1.219462191	-0.6310502791	
650.0	-0.3081580199	-0.9882863004	
650.625	0.4392484431	0.06041263713	
651.25	0.943409824	-1.151421219	
651.875	-0.3364502308	-0.4815261176	
652.5	0.8026933219	0.3519893659	
653.125	0.8634953611	-0.7937753725	
653.75	-0.1266546855	-0.4432654922	
654.375	0.3410587067	-0.6495885439	
655.0	-1.114871952	0.0353836648	
655.625	0.07861411798	0.3511607728	
656.25	-0.3519493293	0.428305506	
656.875	0.6106463224	0.1509497804	
657.5	-0.3833047181	0.1920198849	
658.125	0.6452544172	0.4888081283	
658.75	0.6333593831	-0.1318057233	
659.375	0.3792861626	-0.1893769534	
660.0	0.9868009514	-0.6887571631	
660.625	-0.321395916	-0.9440105203	
661.25	0.472009805	-0.2172332665	
661.875	0.7459608097	-0.8979706686	
662.5	-0.03168944515	-0.6826129261	
663.125	0.8125328778	0.09473622708	
663.75	0.1834466536	-1.228920128	
664.375	-0.3045432797	-0.2316520562	
665.0	-0.4010292002	-0.7013991021	
665.625	-0.909688776	0.519864204	
666.25	0.01119108459	0.2654315248	
666.875	0.2008103301	0.7026306761	
667.5	0.5712825369	-0.08973315163	
668.125	0.2078386966	0.1957512259	
668.75	0.7157681953	-0.5878443789	
669.375	-0.1338907594	-0.4473857001	
670.0	0.1030825837	-0.312796752	
670.625	0.1556851864	-0.5219400146	
671.25	-0.1248239015	-0.6254199356	
671.875	0.1898268742	0.02286017281	
672.5	0.7087326005	-0.5710801121	
673.125	0.115644721	-0.4942902676	
673.75	0.5343219211	-0.219563889	
674.375	-0.2015910178	-1.029760589	
675.0	-0.186901488	0.04252722126	
675.625	-0.3024794497	-0.7646183349	
676.25	-0.8277405238	0.2424762296	
676.875	0.2004239055	0.09357625609	
677.5	-0.7332566044	-0.1312830593	
678.125	0.09078445794	0.5500692194	
678.75	-0.09887337642	0.2821891897	
679.375	0.8326669078	0.3152695765	
680.0	-0.1486469299	-0.399216431	
680.625	0.4501271587	0.02362965569	
681.25	0.2704256395	-0.3470938782	
681.875	-0.0653967521	0.0446813746	
682.5	0.5921771084	0.5249526095	
683.125	0.7862136971	-0.04551309787	
683.75	0.439838947	-0.1710300873	
684.375	0.3006762619	0.3993690126	
685.0	1.309782062	0.02237973384	
685.625	-0.1921571993	-0.3566285402	
686.25	1.383497695	0.2544354986	
686.875	0.09934831904	-1.017159064	
687.5	0.688502944	0.06661654552	
688.125	-0.3737085851	-1.939394485	
688.75	-0.5179215506	0.7193534399	
689.375	-1.177198023	0.205462236	
690.0	0.8602684511	1.018987542	
690.625	0.3112005662	0.1448405311	
691.25	0.8789784369	0.9798073695	
691.875	1.078386023	0.2136860634	
692.5	1.182406152	0.5867322535	
693.125	1.654664734	-0.1911300689	
693.75	0.9588987019	-0.7017827753	
694.375	1.037788384	-0.8837242555	
695.0	0.7523562628	-0.7310529117	
695.625	1.421124807	-0.09709667038	
696.25	1.062728486	-0.3280948931	
696.875	0.3383875508	1.124291309	
697.5	2.030385638	0.8657073504	
698.125	0.4954751445	0.06325727268	
698.75	1.498663045	-1.379002192	
699.375	-1.511657544	-0.01154533048	
700.0	-0.8212811607	0.04261574017	
700.625	1.020677735	1.013358503	
701.25	0.1161965109	0.02174645234	
701.875	0.8704573968	1.107229326	
702.5	0.7211328789	-0.1298500571	
703.125	0.81939352	0.6286955248	
703.75	1.081347681	-0.6593684842	
704.375	0.1048406215	-0.0501103748	
705.0	1.073037783	-0.5437070857	
705.625	0.1157246581	-0.3239292574	
706.25	0.5193521563	1.022768464	
706.875	1.233432997	0.06235537667	
707.5	0.02638232565	0.8016391627	
708.125	1.591644613	0.1368130707	
708.75	-0.002116266517	-0.9692316821	
709.375	-0.5305247406	-0.643539789	
710.0	-0.4344038049	0.8433592851	
710.625	0.1583191594	0.1067502618	
711.25	0.3604538306	0.3617939549	
711.875	0.4846097671	0.1057759834	
712.5	0.6608534324	-0.06775763137	
713.125	0.5441181371	-0.4606028441	
713.75	0.4346831357	-0.5883539017	
714.375	-0.3410784921	-0.6301815956	
715.0	0.335277877	-0.040136823	
715.625	-0.1653039648	-1.188225412	
716.25	-0.1822501359	0.02450024272	
716.875	1.562243382	-0.1094837053	
717.5	1.225610192	-1.646824035	
718.125	0.5277872791	1.557256693	
718.75	3.192180409	-1.612905986	
719.375	-0.2605440271	-1.515822826	
720.0	3.072426576	-1.149307689	
720.625	-1.33163213	-3.819509469	
721.25	-0.536192705	-0.9525199671	
721.875	-0.2876055564	-2.821231135	
722.5	-2.449406399	-1.730806922	
723.125	-1.176243354	0.3523581187	
723.75	-1.424459069	1.094626319	
724.375	0.6607896183	1.042159356	
725.0	0.1695767133	0.6168198498	
725.625	0.170256292	1.214165613	
726.25	0.7652406507	2.02256671	
726.875	0.5319012061	0.8539047756	
727.5	-2.143160045	3.514148921	
728.125	2.635560836	6.25636556	
728.75	2.678976397	0.992935697	
729.375	-9.428057752	13.43819614	
730.0	12.10879586	7.069152212	
730.625	-6.508882601	3.754991491	
731.25	-1.057797409	27.00198792	
731.875	5.621617952	2.72958483	
732.5	-11.92468905	-1.802588393	
733.125	-6.631065957	4.89709413	
733.75	0.0681426497	4.083493445	
734.375	0.6274170081	0.6472275829	
735.0	-0.4515367252	-2.64176934	
735.625	-0.05685871136	0.4947246108	
736.25	-0.6550997303	1.403519801	
736.875	2.167262293	1.185023717	
737.5	0.6346351499	-0.03354671174	
738.125	5.39445725	-0.2843114054	
738.75	4.557622015	-5.417453556	
739.375	0.146315122	-7.038265093	
740.0	6.298495395	9.777647959	
740.625	26.04814998	1.08008258	
741.25	-6.291563586	-21.72184921	
741.875	-37.73068118	-9.098377696	
742.5	-9.759611967	0.8444486045	
743.125	8.196194039	-2.70233345	
743.75	-2.501268924	-3.427246225	
744.375	0.1107407458	0.9274206761	
745.0	-0.334167561	0.5174797907	
745.625	0.1791336867	-0.3628151022	
746.25	0.170717023	-0.01398472777	
746.875	-0.8503730148	0.1363089248	
747.5	-0.007743221184	1.069000008	
748.125	0.4254159757	0.8774147691	
748.75	0.8724477518	1.452013301	
749.375	1.135782623	1.768982807	
750.0	-1.668325065	0.5945134136	
