!Created with skrf (http://scikit-rf.org).
# GHz S RI R (50+0j) 
!freq	ReS11	ImS11	
500.0	0.3843019807	-0.674564518	
500.625	0.8739343992	-1.947740529	
501.25	-0.9399056384	-0.3747299136	
501.875	-0.03057336819	-0.6304330079	
502.5	-0.1343763642	-0.2099885755	
503.125	-0.04052479092	0.02210874813	
503.75	-0.04306099348	0.130369741	
504.375	0.02890644527	-0.05752127483	
505.0	0.03028286859	0.01575660248	
505.625	-0.06669787121	-0.1194495345	
506.25	-0.02929392617	0.05460498324	
506.875	-0.5102344195	-0.05975400027	
507.5	-0.138581396	0.05653683958	
508.125	0.6762024904	-0.7615283118	
508.75	0.8750354085	-1.945028432	
509.375	-0.3391679536	-0.7965731122	
510.0	-0.3348652495	-0.6343465167	
510.625	-0.3273499639	-0.2168774538	
511.25	-0.0038900151	-0.08192359034	
511.875	-0.2453253815	-0.1298978246	
512.5	-0.01606519832	0.08650726363	
513.125	0.04819251052	-0.02645372688	
513.75	-0.1435244468	-0.1228475202	
514.375	-0.02834795368	0.1149413521	
515.0	-0.09807445848	-0.5674412595	
515.625	-0.2803370181	0.1309398473	
516.25	0.3649108292	-1.014067187	
516.875	-0.7291341004	-0.7576091723	
517.5	0.01960652106	-0.005380460686	
518.125	-0.03431041545	-0.1638301317	
518.75	-0.05314690878	-0.05365692017	
519.375	-0.08634335416	0.001628634709	
520.0	0.1723557776	0.05726507956	
520.625	0.1499654209	-0.1594642906	
521.25	0.04517938581	-0.2209836025	
521.875	-0.3123108041	-0.1291480077	
522.5	-0.05185208034	0.09508629306	
523.125	-0.1897767766	-0.07556657661	
523.75	-0.1806282861	0.159423518	
524.375	-0.01734645817	-0.05018647626	
525.0	-0.2378618152	0.2830819564	
525.625	0.1824551465	0.005944718217	
526.25	-0.09966547406	0.06086789636	
526.875	0.02243926464	0.03533585963	
527.5	-0.1821314203	0.2988776979	
528.125	0.1756728556	0.5351883473	
528.75	0.1631892635	0.09324889564	
529.375	-0.01910691071	0.1694759183	
530.0	0.2475794823	0.1030417078	
530.625	-0.09565339483	0.3316111742	
531.25	0.7108723523	0.1532934399	
531.875	0.1498660846	-0.3972377162	
532.5	0.08586207706	-0.06604012723	
533.125	-0.1176512081	-0.1785481945	
533.75	0.1756379603	-0.038924573	
534.375	-0.2734757571	-0.4889864039	
535.0	-0.2880260635	0.05350094589	
535.625	-0.2517465194	0.08005440983	
536.25	0.01260979105	0.1766181937	
536.875	0.07392115192	-0.02542946682	
537.5	0.1391788175	-0.02860688819	
538.125	0.1127708092	-0.1594677096	
538.75	0.1469737381	-0.0794097287	
539.375	-0.09714272729	-0.2864957919	
540.0	-0.241800902	-0.173300213	
540.625	-0.1231418037	-0.08668117703	
541.25	-0.1666145111	-0.01282985166	
541.875	-0.06591233726	0.0351562034	
542.5	-0.06919626677	-0.1526194242	
543.125	-0.141101482	0.03362546833	
543.75	0.01505643807	-0.0009984045391	
544.375	-0.1029360859	0.1167890899	
545.0	0.1098411548	-0.007607916717	
545.625	0.03822697576	0.1476133045	
546.25	0.1592060455	-0.03355181762	
546.875	0.09593566214	0.02356664224	
547.5	0.172798092	-0.2058971154	
548.125	-0.1245067925	-0.1597946768	
548.75	-0.07026708051	-0.1396441003	
549.375	-0.197139195	-0.1288094865	
550.0	-0.06181525567	0.08250600756	
550.625	-0.1002232784	-0.04050660674	
551.25	-0.06832638847	0.09261196622	
551.875	-0.09335036209	0.04235232747	
552.5	-0.07962243707	0.1292131965	
553.125	0.0002736828076	0.06295905061	
553.75	0.05281415785	0.07374841343	
554.375	0.1214254676	-0.02177618412	
555.0	0.1099910279	-0.08467303474	
555.625	0.1140983815	-0.1463901484	
556.25	0.07753332245	-0.1876216852	
556.875	-0.05471804777	-0.2042217027	
557.5	-0.1301031366	-0.1356395015	
558.125	-0.1595289519	-0.04635073795	
558.75	-0.1391442022	0.004931477656	
559.375	-0.1415707386	0.02272181959	
560.0	-0.1386122394	0.1152513823	
560.625	-0.03965704862	0.1417271537	
561.25	-0.02004740289	0.1253308909	
561.875	0.07651031449	0.0653018571	
562.5	-0.03243889458	0.04444030742	
563.125	0.1388838336	0.1145988197	
563.75	0.131762045	-0.03719564399	
564.375	0.2042731433	-0.08662114244	
565.0	0.08365849658	-0.2649448747	
565.625	-0.04944567746	-0.1387230612	
566.25	-0.1266228474	-0.2050982584	
566.875	-0.2306762152	-0.03460085884	
567.5	-0.06983562218	-0.1032772025	
568.125	-0.2389126257	-0.2748167495	
568.75	-0.2851103634	0.00406373633	
569.375	-0.270804082	-0.0222395815	
570.0	-0.192597158	0.3924274244	
570.625	0.03729749803	0.1842492862	
571.25	-0.09575229766	0.1571942229	
571.875	0.1946971909	0.0563295534	
572.5	0.03755361967	0.07518553418	
573.125	0.2127896542	-0.2078339173	
573.75	-0.06877567433	-0.1803034555	
574.375	0.09405080839	0.01519806694	
575.0	-0.01060751629	-0.1890968891	
575.625	0.03817068524	0.02915301353	
576.25	0.1473726793	-0.2166454527	
576.875	-0.1199768739	-0.1707025479	
577.5	0.03813389872	-0.0786000608	
578.125	-0.01809133345	-0.3228043701	
578.75	-0.2135308074	-0.07907942313	
579.375	0.0167315616	-0.04793885583	
580.0	-0.1838720739	-0.1750028221	
580.625	0.001572902856	0.06872447217	
581.25	-0.2386450369	0.01652853948	
581.875	0.1901811906	0.3056308949	
582.5	0.06036393979	0.008640570722	
583.125	0.02039493133	0.2594051391	
583.75	0.188926496	-0.04615796511	
584.375	-0.09237219013	0.1633214906	
585.0	0.2675703872	0.06033537519	
585.625	0.06318569342	-0.05764643889	
586.25	0.2379451437	0.02615440969	
586.875	0.02366955049	-0.3081660657	
587.5	-0.0145860888	-0.06180887655	
588.125	0.0403594899	-0.263700716	
588.75	-0.06921416583	-0.2467534793	
589.375	0.06519558088	-0.05480537751	
590.0	-0.08235304453	-0.3524258527	
590.625	-0.2357850036	0.1342206617	
591.25	-0.1360402579	0.02444189901	
591.875	-0.110573176	0.2536100657	
592.5	0.1219621597	-0.01673741162	
593.125	-0.1168521287	0.2976443671	
593.75	0.1547038097	0.03828777163	
594.375	0.06920550411	0.2374711624	
595.0	0.3212594912	0.213897061	
595.625	0.09189379101	-0.03146418025	
596.25	0.1340582385	0.1634054377	
596.875	0.3204546793	0.01674552954	
597.5	0.1260706997	0.004355304221	
598.125	0.2262986979	0.2495755091	
598.75	0.3300700286	0.0218802467	
599.375	0.2045108648	-0.01135394132	
600.0	0.2881130884	-0.184687755	
600.625	0.1348052845	-0.321617996	
601.25	0.02179670734	-0.1388755297	
601.875	-0.0269362518	-0.2840469805	
602.5	-0.22313876	0.08700467826	
603.125	-0.0304609004	-0.07030258417	
603.75	-0.2710696501	0.1141016684	
604.375	-0.007251549127	0.1831613781	
605.0	-0.1683207156	-0.017727675	
605.625	-0.09425381946	0.2299281589	
606.25	-0.06057424768	-0.02340675581	
606.875	-0.3667863767	0.07103051013	
607.5	-0.0787017615	0.253063967	
608.125	-0.09283065998	0.2714396678	
608.75	0.2715319701	0.3217836593	
609.375	0.3152582391	-0.2006633902	
610.0	0.140216335	-0.08143366163	
610.625	0.1888876126	-0.2558141073	
611.25	-0.1297791528	-0.1944813416	
611.875	0.0251752823	-0.167245898	
612.5	-0.31877861	-0.138537428	
613.125	-0.09651894101	0.1355975734	
613.75	-0.2330641594	0.04368423751	
614.375	0.1514781192	0.2605269519	
615.0	-0.01250366743	-0.09196276412	
615.625	-0.04262672905	0.278852901	
616.25	0.05445866506	0.07786282111	
616.875	-0.1779766098	0.1158614821	
617.5	-0.1122961343	0.4325389918	
618.125	0.1653495455	0.237075515	
618.75	0.06693798346	0.2600264549	
619.375	0.2424489033	0.2671894586	
620.0	0.2627279695	0.006449778064	
620.625	0.2216594279	-0.1418558525	
621.25	-0.08005657996	-0.3769975667	
621.875	-0.1820001995	-0.00866578448	
622.5	-0.2977731426	-0.01649173848	
623.125	-0.001716776118	0.3521953006	
623.75	0.151999929	-0.1030890828	
624.375	0.138255862	0.01133933292	
625.0	-0.06612309954	-0.09208115988	
625.625	0.132643227	-0.04260990274	
626.25	-0.1153663806	-0.2639227773	
626.875	-0.1670620765	0.009029246355	
627.5	-0.1227996778	-0.1593576533	
628.125	-0.2292424	-0.08009374006	
628.75	-0.0589533339	-0.06377724384	
629.375	-0.07772920613	-0.2348005632	
630.0	-0.3259912985	-0.03819458366	
630.625	-0.2217895147	0.1395535039	
631.25	-0.2122236708	0.1913287704	
631.875	0.07115433599	0.3818562577	
632.5	0.1511777056	0.1479529343	
633.125	0.2237288882	0.1939364309	
633.75	0.1804873213	-0.2226357475	
634.375	-0.007028183953	0.02923933721	
635.0	-0.0004214895613	-0.2884065219	
635.625	-0.2173058128	0.0172285719	
636.25	-0.1525204846	-0.03124751958	
636.875	-0.1440415975	0.293791748	
637.5	0.1008405981	0.06346059199	
638.125	-0.1969684444	0.09733621243	
638.75	0.004368582629	0.3443500636	
639.375	-0.007753980853	0.1661480544	
640.0	0.1110128163	0.420107404	
640.625	0.4414289345	0.09540646026	
641.25	0.197927594	-0.0413847132	
641.875	0.3750559716	-0.221275383	
642.5	-0.2009758598	-0.3181370928	
643.125	-0.01914418826	-0.08173089252	
643.75	-0.2154565624	-0.2885200848	
644.375	-0.1646173347	0.2067024475	
645.0	-0.2511408958	-0.06678594835	
645.625	0.1277047484	0.4473444533	
646.25	0.2363159935	-0.1654442612	
646.875	0.06301703693	0.1308944643	
647.5	0.3007728152	-0.1758820509	
648.125	-0.01244613194	0.1485864984	
648.75	0.5322465101	-0.1257331038	
649.375	0.08884739117	-0.4169254654	
650.0	0.2081769826	-0.1722146363	
650.625	0.3480032916	-0.5260257176	
651.25	0.003922868167	-0.3652440865	
651.875	0.3376064285	0.008371231622	
652.5	0.5307009868	-0.272253514	
653.125	0.1326551166	-0.2612888901	
653.75	0.3593818022	-0.1637529182	
654.375	-0.2408382484	-0.5381187897	
655.0	-0.3552446359	0.2083727675	
655.625	-0.2434977192	0.06845954866	
656.25	0.1275053797	0.4090999894	
656.875	0.05244752716	-0.165103288	
657.5	0.0386896246	0.3579920737	
658.125	0.3463346617	-0.04242733079	
658.75	0.1648190881	0.1361518361	
659.375	0.7375389953	-0.2147122694	
660.0	0.08494980348	-0.4853552627	
660.625	0.3019380813	-0.195057084	
661.25	0.3240005238	-0.4860303415	
661.875	0.1025607844	-0.4422126542	
662.5	0.2891536067	-0.08986782769	
663.125	0.4399082647	-0.3917955226	
663.75	0.007104199336	-0.3637207915	
664.375	0.07808698771	-0.3771210024	
665.0	-0.5137106197	-0.3141352622	
665.625	-0.2568777979	0.2248037906	
666.25	-0.2213400661	0.2658125909	
666.875	0.2638090723	0.3446705572	
667.5	0.1945102675	-0.08730025954	
668.125	0.3057358497	0.1352679935	
668.75	0.2252963146	-0.3308892844	
669.375	0.01862929246	-0.1448002679	
670.0	0.2113619275	-0.3513062711	
670.625	-0.1532682359	-0.3472704474	
671.25	0.09130250087	-0.04249319701	
671.875	0.2791872165	-0.4151271711	
672.5	0.1218724492	-0.2824203135	
673.125	0.2236077452	-0.09592930541	
673.75	0.3047562893	-0.4042269108	
674.375	-0.1408998237	-0.2973838264	
675.0	0.02307764299	-0.3156445095	
675.625	-0.3605860443	-0.2461438988	
676.25	-0.2015447559	0.151388142	
676.875	-0.1325151973	-0.1500150265	
677.5	-0.2688428278	0.2072353442	
678.125	-0.01339717757	0.1063276496	
678.75	-0.09867831445	0.3353500799	
679.375	0.5262427853	0.03556498718	
680.0	-0.07900935665	-0.09980271235	
680.625	0.3749581215	0.01960520551	
681.25	0.1009143484	-0.2551050944	
681.875	-0.04801881481	0.2095734584	
682.5	0.5271439695	0.2259398008	
683.125	0.08176381295	-0.2139436198	
683.75	0.1851825979	0.2359283142	
684.375	0.5757354025	0.09786769466	
685.0	0.163242968	-0.1531295207	
685.625	0.4274547114	0.27242519	
686.25	0.3850504966	-0.2396699033	
686.875	0.1592204746	-0.191649331	
687.5	0.4577099515	-0.3535644154	
688.125	-0.3127748917	-0.7105421129	
688.75	-0.439117215	-0.1387980323	
689.375	-0.5484775255	0.3711718035	
690.0	0.3676486119	0.5323425361	
690.625	0.1504549994	0.1008345883	
691.25	0.4502119745	0.7233183722	
691.875	0.762710323	0.12039767	
692.5	0.5376602135	0.2693568426	
693.125	1.088535122	0.1017297506	
693.75	0.5989011264	-0.662758072	
694.375	0.5190981145	-0.2074040218	
695.0	0.824436284	-0.4913380167	
695.625	0.5193313416	-0.3410687435	
696.25	0.3714057652	0.2567538549	
696.875	0.7428718032	0.2825827246	
697.5	0.5708567546	0.1504623249	
698.125	0.639337771	0.3733600582	
698.75	0.6107618502	-0.7840603058	
699.375	-0.767421687	-0.4023328969	
700.0	-0.3192860711	0.1877127456	
700.625	0.194305814	0.5765290053	
701.25	0.2506222491	-0.003207050849	
701.875	0.1042818469	0.3931488327	
702.5	0.6848744041	0.3102168926	
703.125	0.3505026132	-0.03036411479	
703.75	0.5661749506	0.04949607681	
704.375	0.3750115999	-0.4456860258	
705.0	0.09869847883	-0.1626233723	
705.625	0.4630182346	0.2068158487	
706.25	0.3542157394	0.05925592253	
706.875	0.1883291371	0.2879471998	
707.5	0.4047645092	0.1637453516	
708.125	0.6928187481	-0.136213628	
708.75	0.1731390215	-0.4525104493	
709.375	-0.4861546605	-0.5195276486	
710.0	-0.4675500839	0.5435730603	
710.625	0.004793963829	0.06245482039	
711.25	0.2424586701	0.3140305049	
711.875	0.2698268349	-0.1022583439	
712.5	0.3429391786	0.2473695928	
713.125	0.4241269542	-0.3515359365	
713.75	-0.004542343722	-0.3184381077	
714.375	0.1663245406	-0.230793528	
715.0	-0.09608353661	-0.3867984794	
715.625	-0.04542901257	-0.119535963	
716.25	0.3921896055	-0.2750855525	
716.875	0.4235774182	-0.449075806	
717.5	0.3422562707	0.02451996088	
718.125	0.9085235528	0.1730105086	
718.75	0.9623752932	-0.711827649	
719.375	0.5358896879	-0.1475392611	
720.0	0.9549899862	-1.237291716	
720.625	-0.3235538758	-1.741992104	
721.25	0.1196874004	-1.034309513	
721.875	-0.1421481988	-1.800742442	
722.5	-1.226935875	-0.480227473	
723.125	-0.4017059069	-0.3635185661	
723.75	-0.6825125091	0.8205028798	
724.375	0.2654415139	0.4388140799	
725.0	-0.01269583127	0.4612987673	
725.625	0.4633857919	0.915161062	
726.25	0.2501744406	0.4791919162	
726.875	-0.4627795349	1.194128454	
727.5	0.1278093444	2.443223911	
728.125	0.8640797007	1.891869706	
728.75	-1.028517737	2.862277507	
729.375	0.1836797936	6.775331315	
730.0	2.002645623	3.000359167	
730.625	-1.792466211	5.117814794	
731.25	0.1601312405	6.583339707	
731.875	-1.073796736	2.036409329	
732.5	-5.116977585	1.209118949	
733.125	-4.018681953	2.403832091	
733.75	0.4458926155	1.291328161	
734.375	1.125186786	0.9411701458	
735.0	-0.6219524707	-0.9227363576	
735.625	-0.3017803683	0.05194135634	
736.25	-0.4674747047	1.049107094	
736.875	1.112828314	0.5144023047	
737.5	0.6071995746	0.3447020629	
738.125	3.025133493	-0.2258464595	
738.75	1.486290007	-3.279801752	
739.375	1.192913204	-0.6536527485	
740.0	7.533708882	0.09431503849	
740.625	4.941524981	-5.808282849	
741.25	-4.135729268	1.566829938	
741.875	-6.51127814	2.503712834	
742.5	-1.85925155	0.3999172061	
743.125	2.556009597	-3.657966862	
743.75	-0.6119231175	-1.953293056	
744.375	-0.3580140185	0.5097725266	
745.0	-0.1328260211	0.1480009087	
745.625	0.03589695125	-0.2355319003	
746.25	0.06315853887	-0.1618859241	
746.875	-0.4428872658	0.1040827461	
747.5	0.06436406714	0.4031081391	
748.125	0.09721832294	0.5909434041	
748.75	0.5289638854	0.8186121813	
749.375	0.3220710136	0.519451805	
750.0	-0.4733393498	0.1716929302	
