!Created with skrf (http://scikit-rf.org).
# GHz S RI R (50+0j) 
!freq	ReS11	ImS11	
500.0	0.06264748977	-0.4490695262	
500.625	0.9737824229	-1.207627929	
501.25	-0.7527468121	-0.5750420432	
501.875	0.01907479669	-0.3991299232	
502.5	-0.05889897995	-0.1909551611	
503.125	-0.04301999116	0.02640554279	
503.75	-0.04103946696	0.08423774759	
504.375	0.03532403239	-0.03706292382	
505.0	0.01505109309	0.01117780815	
505.625	-0.01003739279	-0.1092960646	
506.25	-0.06422833024	0.04008650077	
506.875	-0.3528740998	-0.1597847129	
507.5	-0.2407888289	0.06087721369	
508.125	0.4998362289	-0.4424444864	
508.75	0.7571763876	-1.360823067	
509.375	-0.7359987894	-0.9527252072	
510.0	-0.1822839221	-0.3634571512	
510.625	-0.3420122659	-0.2357462013	
511.25	-0.04463923004	-0.0342164623	
511.875	-0.1566265044	-0.09962308938	
512.5	-0.01267786976	0.02733255449	
513.125	0.01135551973	-0.0245706054	
513.75	-0.06694643835	-0.1092706917	
514.375	-0.0812046887	0.09196803728	
515.0	-0.04613964151	-0.4556624499	
515.625	-0.314028229	-0.05099498194	
516.25	0.362367766	-0.6273217025	
516.875	-0.4227896327	-0.782146529	
517.5	-0.02411322483	-0.03103087475	
518.125	0.006048394257	-0.1031184802	
518.75	-0.07007658445	-0.06156016464	
519.375	-0.05094125797	0.01371645298	
520.0	0.1242697901	0.07427862948	
520.625	0.1506304196	-0.1164499871	
521.25	-0.01938822691	-0.1814614571	
521.875	-0.1900701273	-0.1449206714	
522.5	-0.08294177431	0.09073438906	
523.125	-0.09599176552	-0.1011509878	
523.75	-0.1995701832	0.08990775615	
524.375	0.01122172256	0.009979666199	
525.0	-0.2204830253	0.2296253921	
525.625	0.1525134184	0.05436740327	
526.25	-0.07774992545	0.04525152692	
526.875	0.01668182483	0.03966425101	
527.5	-0.1114996085	0.2182555253	
528.125	0.0754222833	0.3997431819	
528.75	0.1044646678	0.15431725	
529.375	-0.02341867469	0.07511504524	
530.0	0.1705526088	0.1603792257	
530.625	-0.05022314224	0.166144624	
531.25	0.4705297972	0.2551396036	
531.875	0.2062219895	-0.3262208673	
532.5	0.08083758505	-0.02556357635	
533.125	-0.02487613247	-0.1848123908	
533.75	0.07206501122	-0.007691762993	
534.375	-0.08259549429	-0.4285641832	
535.0	-0.2655756251	-0.003281227316	
535.625	-0.1645032243	0.02994966779	
536.25	-0.008992028987	0.1379113212	
536.875	0.06664710011	-0.02447261812	
537.5	0.0984020171	-0.007727522854	
538.125	0.1141185114	-0.1346132896	
538.75	0.1061741895	-0.09902678891	
539.375	-0.05400216435	-0.1999296923	
540.0	-0.2136272268	-0.1734354234	
540.625	-0.08433241447	-0.03759721886	
541.25	-0.111089166	-0.04340336959	
541.875	-0.1063313235	0.03267714671	
542.5	-0.008408304367	-0.107767628	
543.125	-0.1386574499	-0.004582343082	
543.75	0.0143692725	0.01493087208	
544.375	-0.1191792594	0.06045200643	
545.0	0.08766751155	0.02557508792	
545.625	0.001950234284	0.1053056422	
546.25	0.1547276038	0.0005326491589	
546.875	0.06078708522	-0.002272054303	
547.5	0.1468159749	-0.1331281931	
548.125	-0.1123851775	-0.1561775038	
548.75	-0.06235913665	-0.0933840782	
549.375	-0.1351023481	-0.1189177595	
550.0	-0.08058775412	0.05268223325	
550.625	-0.05886223442	-0.03681841615	
551.25	-0.07979834835	0.07339733883	
551.875	-0.05580945953	0.03729647589	
552.5	-0.07561638888	0.08768857229	
553.125	0.002211977244	0.05720530708	
553.75	0.02849451102	0.05640704768	
554.375	0.104808631	-0.01032409117	
555.0	0.08997800576	-0.06834105428	
555.625	0.09735632704	-0.1109587701	
556.25	0.06812674939	-0.1492104138	
556.875	-0.03826885677	-0.1637763564	
557.5	-0.09924546663	-0.109311716	
558.125	-0.1271820355	-0.04089648747	
558.75	-0.1150305335	0.002500436507	
559.375	-0.1113378314	0.01670117618	
560.0	-0.1149535956	0.08616660554	
560.625	-0.03482411191	0.1199778116	
561.25	-0.01571396547	0.08800522882	
561.875	0.05501667071	0.06755815655	
562.5	-0.009422757751	0.02434633929	
563.125	0.09386532685	0.10960023	
563.75	0.1381787982	-0.04137560303	
564.375	0.1421115652	-0.04758157502	
565.0	0.1015887582	-0.2159423842	
565.625	-0.06334021761	-0.120700042	
566.25	-0.06199026385	-0.1584401358	
566.875	-0.2005913694	-0.05864407295	
567.5	-0.0475273493	-0.04681290928	
568.125	-0.1553928866	-0.2393516454	
568.75	-0.2575272774	-0.007544755546	
569.375	-0.1883143331	0.008329370361	
570.0	-0.2079983432	0.2807306857	
570.625	0.03876528082	0.1827204705	
571.25	-0.06950892452	0.08620060805	
571.875	0.1536998205	0.0974605339	
572.5	0.008155815873	0.01497006644	
573.125	0.1938968067	-0.119766635	
573.75	-0.02998050943	-0.1790874238	
574.375	0.0281643006	0.0256220034	
575.0	0.06198491602	-0.1314668709	
575.625	-0.01837559425	-0.006045125042	
576.25	0.1523418968	-0.1307469414	
576.875	-0.08361284709	-0.1904364488	
577.5	-0.01839084856	-0.02905107547	
578.125	0.04146587401	-0.2275555486	
578.75	-0.1928808653	-0.1166866072	
579.375	-0.01544336578	0.002915942065	
580.0	-0.1181946838	-0.1888209685	
580.625	-0.04379585297	0.08678305106	
581.25	-0.1496091309	-0.02578577721	
581.875	0.09170990664	0.2870332456	
582.5	0.1052914768	0.02498426375	
583.125	-0.02316398581	0.1406222321	
583.75	0.1618880569	0.02132161139	
584.375	-0.1097200778	0.07433510859	
585.0	0.2079690763	0.1054113284	
585.625	0.09546966552	-0.08756359417	
586.25	0.1446367323	0.02995902331	
586.875	0.1026388559	-0.2321567129	
587.5	-0.07014047319	-0.0686887137	
588.125	0.07414634677	-0.1563862696	
588.75	-0.02124310511	-0.2376319778	
589.375	-0.01481773192	-0.03417863562	
590.0	-0.0003565270149	-0.2745047592	
590.625	-0.2416268028	0.1065640145	
591.25	-0.06605240635	0.01959567329	
591.875	-0.1279025715	0.1805417341	
592.5	0.1191623498	0.03754967807	
593.125	-0.1443553713	0.2155291178	
593.75	0.1486189139	0.06096531325	
594.375	0.06069680454	0.1465456009	
595.0	0.2262868078	0.1812946625	
595.625	0.1537660716	-0.05279929922	
596.25	0.07622328601	0.09675923835	
596.875	0.2570302405	0.05299887578	
597.5	0.1373504918	-0.008470985598	
598.125	0.1277951193	0.1734161983	
598.75	0.2817540522	0.07933293228	
599.375	0.1557555744	-0.05440595664	
600.0	0.2122001511	-0.09962499108	
600.625	0.1480889172	-0.2747713648	
601.25	-0.03588394898	-0.1435987685	
601.875	0.03075144269	-0.232273045	
602.5	-0.2159004183	0.03760502519	
603.125	0.005627817194	-0.07149608254	
603.75	-0.2268681013	0.04910061792	
604.375	-0.04995041084	0.1844349913	
605.0	-0.09731463479	-0.01938971185	
605.625	-0.08245268983	0.1727334761	
606.25	-0.01635823256	0.0539729133	
606.875	-0.2428799362	0.004326823444	
607.5	-0.1202684146	0.2128146824	
608.125	-0.04057378771	0.2250220894	
608.75	0.1468466958	0.2616664056	
609.375	0.3130567512	-0.1207844639	
610.0	0.07745259857	-0.09500096705	
610.625	0.1595382947	-0.14295515	
611.25	-0.1048303425	-0.2045425775	
611.875	0.01425303025	-0.07901927002	
612.5	-0.2544122985	-0.1722274914	
613.125	-0.1370681571	0.1676044035	
613.75	-0.1954336609	0.037226118	
614.375	0.06888643513	0.2423237916	
615.0	0.04980610501	-0.08595489468	
615.625	-0.1027553072	0.1875757327	
616.25	0.01777553151	0.07224450962	
616.875	-0.1150034269	0.09261659601	
617.5	-0.08170942249	0.2808099464	
618.125	0.1108488522	0.2600270024	
618.75	0.1525832822	0.216503174	
619.375	0.120522638	0.2542774523	
620.0	0.2818330638	0.01589657094	
620.625	0.1258509845	-0.08105220662	
621.25	-0.05527884452	-0.3226654468	
621.875	-0.2037005251	0.01147606941	
622.5	-0.1755092581	-0.03888530628	
623.125	-0.05868807221	0.2859691718	
623.75	0.1563199232	-0.06224940028	
624.375	0.06282603985	0.04431676869	
625.0	-0.01173038651	-0.1197591022	
625.625	0.0816033893	-0.0122014668	
626.25	-0.05731644556	-0.2196363562	
626.875	-0.1767431303	0.001015475583	
627.5	-0.06508429015	-0.09286965808	
628.125	-0.1290777001	-0.07711904239	
628.75	-0.09599014527	-0.08295216801	
629.375	-0.03226010652	-0.1616230069	
630.0	-0.2544677912	-0.1060812192	
630.625	-0.2140379226	0.1748303628	
631.25	-0.1670299221	0.07220670771	
631.875	0.002485307788	0.3287612456	
632.5	0.1484641323	0.1235148001	
633.125	0.1141226829	0.1695642235	
633.75	0.2242562421	-0.1568691882	
634.375	-0.0277619331	-0.02142265705	
635.0	0.05938710696	-0.2169776869	
635.625	-0.2139104153	-0.03629383978	
636.25	-0.07834370783	0.01548651093	
636.875	-0.1894064772	0.1556590376	
637.5	0.07558263161	0.1253630584	
638.125	-0.1460094966	0.02202671162	
638.75	-0.07228972824	0.2684335277	
639.375	0.04617064915	0.1472438041	
640.0	0.03328324609	0.2616296967	
640.625	0.3432066756	0.1703349996	
641.25	0.212697975	-0.07115805351	
641.875	0.2522674566	-0.07159092344	
642.5	-0.06659306895	-0.3376380343	
643.125	-0.06109584972	-0.01486032083	
643.75	-0.03986134211	-0.2993873304	
644.375	-0.2686185862	0.1692715295	
645.0	-0.08602675908	-0.0277473467	
645.625	-0.02767390888	0.4014508185	
646.25	0.2779058114	-0.10860793	
646.875	-0.007633291828	0.07353530473	
647.5	0.2249840835	0.009542442874	
648.125	-0.01607378901	0.0204831414	
648.75	0.428064152	0.01220868193	
649.375	0.158089686	-0.3941764754	
650.0	0.08493889397	-0.1295656136	
650.625	0.3374215054	-0.2975868516	
651.25	0.09607980836	-0.3959296312	
651.875	0.1573021245	-0.02002347235	
652.5	0.4481073302	-0.03377212032	
653.125	0.2171565892	-0.246588156	
653.75	0.2139492932	-0.0541749399	
654.375	-0.01678684264	-0.4781114199	
655.0	-0.4153427878	0.1240170902	
655.625	-0.1050994602	0.02511068325	
656.25	-0.0398860335	0.3297048928	
656.875	0.1633933456	-0.09547154264	
657.5	-0.1083561713	0.3206862186	
658.125	0.3051371172	0.07545605922	
658.75	0.1441095721	0.04639334984	
659.375	0.5156652445	0.008785691199	
660.0	0.186387527	-0.4639723113	
660.625	0.1152579182	-0.1433950255	
661.25	0.3075527206	-0.3124711018	
661.875	0.1850527059	-0.3902358844	
662.5	0.1588804933	-0.08836354752	
663.125	0.4260277272	-0.1877022187	
663.75	0.07177191869	-0.3601873965	
664.375	0.03840140307	-0.2474487185	
665.0	-0.2735462051	-0.3663091592	
665.625	-0.3227860315	0.2108201679	
666.25	-0.1291804942	0.1304085286	
666.875	0.1142230033	0.3353391876	
667.5	0.253202765	-0.07747610515	
668.125	0.1449385599	0.1410752912	
668.75	0.289816542	-0.2431699569	
669.375	-0.01402916603	-0.1580978881	
670.0	0.1849663145	-0.2202813609	
670.625	-0.04310785362	-0.3339790643	
671.25	-0.002678274891	-0.05282738168	
671.875	0.2967891524	-0.2238293117	
672.5	0.1618641612	-0.2419038319	
673.125	0.1437321376	-0.1021827806	
673.75	0.3045860919	-0.2000038487	
674.375	-0.05093645656	-0.354572965	
675.0	0.04867876118	-0.188534127	
675.625	-0.2040334073	-0.2670009033	
676.25	-0.2461336506	0.06257995284	
676.875	-0.02521139586	-0.06680050707	
677.5	-0.3393917664	0.002875185489	
678.125	-0.00997387728	0.1760653364	
678.75	-0.1210946391	0.164669213	
679.375	0.4320138015	0.2291545037	
680.0	-0.06889138048	-0.2284955287	
680.625	0.2377167208	0.1571366863	
681.25	0.168341308	-0.1924135641	
681.875	-0.07051480178	0.09571824334	
682.5	0.2832130871	0.3141878677	
683.125	0.1631767999	-0.19299703	
683.75	0.1001859777	0.1526689469	
684.375	0.3851585039	0.1769638755	
685.0	0.3055504482	-0.1309415909	
685.625	0.1507892909	0.1981051751	
686.25	0.4800677914	-0.07028075354	
686.875	0.1703463691	-0.2309442923	
687.5	0.3268692739	-0.1561436394	
688.125	0.0337485026	-0.6376718875	
688.75	-0.4243122413	-0.05167181231	
689.375	-0.3979810669	0.09141452459	
690.0	0.1364234642	0.5744770491	
690.625	0.2384148524	0.06974728805	
691.25	0.2557554776	0.7396265594	
691.875	0.7276535396	0.2122548116	
692.5	0.4097409115	0.156498196	
693.125	0.8006874404	0.1763572787	
693.75	0.5670869989	-0.480534873	
694.375	0.2367417123	-0.2532238912	
695.0	0.6992123572	-0.2378871739	
695.625	0.4721679101	-0.1711283104	
696.25	0.3273055799	0.1166394353	
696.875	0.4175115025	0.3387577528	
697.5	0.5826391597	0.3516093964	
698.125	0.3337829532	0.3117615896	
698.75	0.6709230389	-0.3628809794	
699.375	-0.541754218	-0.4987321252	
700.0	-0.153655082	0.1650606436	
700.625	-0.03077490976	0.4966341369	
701.25	0.3081123737	0.02462546362	
701.875	0.06094485455	0.3332682188	
702.5	0.4862077266	0.3981588693	
703.125	0.4015705761	-0.07378994282	
703.75	0.364494846	0.07810757238	
704.375	0.3137239947	-0.3204674853	
705.0	0.111569655	-0.2173955803	
705.625	0.265030608	0.1872242683	
706.25	0.1998926119	0.1430753144	
706.875	0.1978898847	0.2649791491	
707.5	0.2234736559	0.1376064132	
708.125	0.558339276	0.1676965415	
708.75	0.243255868	-0.4694620682	
709.375	-0.09670707873	-0.42786427	
710.0	-0.5583883842	0.3203890354	
710.625	0.08698120501	0.03060429403	
711.25	0.007468809639	0.3262653225	
711.875	0.2961444534	-0.03662980541	
712.5	0.2100557405	0.1428231644	
713.125	0.4039013317	-0.1869392531	
713.75	0.0524275038	-0.3069666908	
714.375	0.08240086357	-0.1194288664	
715.0	0.0104228624	-0.2745554017	
715.625	-0.08644986618	-0.1387185645	
716.25	0.2786057869	-0.1352715048	
716.875	0.4098626339	-0.2358844364	
717.5	0.3356771537	-0.1163283272	
718.125	0.3369480217	0.06331197079	
718.75	0.973202495	-0.1725513237	
719.375	0.357407911	-0.3565846022	
720.0	0.9535885829	-0.2607381458	
720.625	0.3689594199	-1.89377493	
721.25	0.02348279605	-0.5776809039	
721.875	0.3493699529	-1.421549582	
722.5	-0.9527898146	-0.8482175866	
723.125	-0.3591770443	-0.1624200521	
723.75	-0.7414438946	0.3647185091	
724.375	0.198779098	0.4890795075	
725.0	0.006563391272	0.2654863791	
725.625	0.1250641854	0.6690997638	
726.25	0.3098943086	0.5797799691	
726.875	-0.3515226868	0.6853999244	
727.5	-0.4319705531	1.727817609	
728.125	0.5539167757	2.057226233	
728.75	-0.1438569242	1.742027318	
729.375	-1.588327785	4.422994162	
730.0	1.092512846	3.434463791	
730.625	-1.29382382	2.057862162	
731.25	-3.659048306	5.086528842	
731.875	-1.06985639	3.413491223	
732.5	-3.21787751	-0.6967246747	
733.125	-4.060445616	0.5293627452	
733.75	-0.03325843797	1.53421161	
734.375	0.2344945293	0.7002169276	
735.0	0.001077262078	-1.114484359	
735.625	-0.1907452119	0.1616608215	
736.25	-0.4787574988	0.6033529182	
736.875	0.7016522514	0.7251750713	
737.5	0.5831354525	-0.08014639612	
738.125	1.796523347	0.5942843342	
738.75	2.315345405	-2.381853378	
739.375	0.6535217393	-1.500349546	
740.0	3.670335594	1.022261507	
740.625	5.896009162	-2.072107994	
741.25	-0.9277876964	-1.592714107	
741.875	-5.85831848	-2.79598867	
742.5	-3.382120713	-0.839658146	
743.125	1.054055563	-0.02668125818	
743.75	0.2801396559	-1.796666577	
744.375	-0.5557612624	0.3297048977	
745.0	-0.09098606757	-0.004763466632	
745.625	0.1875163431	-0.1535989592	
746.25	0.05732041433	-0.04936065487	
746.875	-0.3778653176	-0.05830553618	
747.5	-0.06561957408	0.3866591478	
748.125	0.01056968913	0.4048550359	
748.75	0.1749363787	0.680984666	
749.375	0.2506122022	0.5066188923	
750.0	-0.3338201032	0.09727931648	
