!Created with skrf (http://scikit-rf.org).
# GHz S RI R (50+0j) 
!freq	ReS11	ImS11	
500.0	-0.246326691	-4.247226052	
500.625	-0.7982168327	-2.639516593	
501.25	-0.3970781562	-0.9656248644	
501.875	-0.9160223366	-2.603359517	
502.5	-0.4868716312	-0.1473041974	
503.125	-0.2078184181	-0.1088386542	
503.75	0.2890045859	0.3345952322	
504.375	0.003675732536	0.06172200111	
505.0	0.08056032167	-0.2168773815	
505.625	0.05093021996	0.1188957369	
506.25	-0.3722312448	-0.6615034643	
506.875	0.2808516557	0.6760879273	
507.5	0.873507972	-1.26854281	
508.125	-0.264114816	-3.10833535	
508.75	-0.3673599971	-1.505942089	
509.375	0.6526431119	-4.760300668	
510.0	-2.03401389	1.146104391	
510.625	0.06171149531	-0.7634929458	
511.25	-0.8450535259	0.1303615721	
511.875	-0.2390042517	-0.0411615178	
512.5	-0.09753503508	0.1262760242	
513.125	-0.01494351362	-0.3125567145	
513.75	-0.337459715	0.02659396928	
514.375	0.07482397091	-0.3013783659	
515.0	-1.174237582	0.2503793027	
515.625	1.994410828	-2.203905626	
516.25	-4.174508206	-1.742408304	
516.875	0.6573442646	-0.07826892152	
517.5	-0.1199227119	-1.25163623	
518.125	0.006130164353	0.2954305665	
518.75	-0.09844385496	-0.9579585209	
519.375	-0.07007304136	0.2317435384	
520.0	0.1572568049	0.2210422882	
520.625	0.6961913646	-0.1912594026	
521.25	-0.3329742585	-0.6510008897	
521.875	-0.1953147662	-0.2706365017	
522.5	-0.1923810117	0.2044352362	
523.125	-0.1882568164	-0.02098462571	
523.75	-0.1621305971	0.1543728263	
524.375	-0.4481444375	-0.2727445438	
525.0	0.1934223586	0.6259746716	
525.625	-0.08941386912	-0.07934624406	
526.25	0.1383702188	0.05694290599	
526.875	-0.3113262735	0.04752900005	
527.5	0.1386877788	0.8205964994	
528.125	0.04008612247	0.3105844162	
528.75	-0.1744163314	1.036899658	
529.375	0.2043074336	-0.04618323837	
530.0	0.05618460668	0.835767322	
530.625	0.2700831068	0.374841574	
531.25	1.350631811	0.8149051207	
531.875	0.3552579804	-0.7835981083	
532.5	0.1281879145	-0.2525171032	
533.125	-0.3558653804	-0.1734100191	
533.75	0.6300536727	-0.5886600828	
534.375	-0.7930430545	-0.5376719846	
535.0	-0.2552135079	-0.4111121563	
535.625	-0.6782935749	0.4772993769	
536.25	0.1017299896	0.164154895	
536.875	0.2091722142	0.1578854068	
537.5	0.1997114381	-0.2074893476	
538.125	0.145108004	0.002067440956	
538.75	0.4988905213	-0.4549477848	
539.375	-0.2309006389	-0.2151307838	
540.0	-0.2302502052	-0.4919958849	
540.625	-0.5865008461	-0.009817145659	
541.25	-0.1312975245	0.06709788034	
541.875	-0.04919553518	-0.08059947311	
542.5	-0.2057941488	-0.1747726067	
543.125	-0.07998226538	0.08624784277	
543.75	-0.2825470533	-0.1798094095	
544.375	0.02543707355	0.2425652417	
545.0	-0.1950290277	0.08318996144	
545.625	0.3401659571	0.1286787981	
546.25	-0.03288089213	0.08123143423	
546.875	0.6313525438	-0.0622848418	
547.5	-0.09319646433	-0.2494027729	
548.125	0.1181238741	-0.3544201591	
548.75	-0.4314487457	-0.4111880847	
549.375	-0.2481636256	0.02417356429	
550.0	-0.1950474935	-0.1624117338	
550.625	-0.1028605099	0.1637622282	
551.25	-0.1883670487	-0.07569240822	
551.875	-0.2190017508	0.3104747008	
552.5	-0.0351762434	0.1125319982	
553.125	-0.09003135607	0.1803870252	
553.75	0.1415175343	0.1037904456	
554.375	0.2028447608	0.01604523352	
555.0	0.2611348317	-0.1700107149	
555.625	0.1937895576	-0.265463719	
556.25	0.1669509659	-0.3329015419	
556.875	-0.08378297307	-0.4014530764	
557.5	-0.2474424743	-0.2474784411	
558.125	-0.2613922798	-0.08479249464	
558.75	-0.2623187952	-0.03384869943	
559.375	-0.2838462841	0.07553139894	
560.0	-0.1852689437	0.1577069107	
560.625	-0.1792115024	0.2525284219	
561.25	0.09127189628	0.2741326424	
561.875	-0.02916346682	0.06539461289	
562.5	0.1414487048	0.1602450145	
563.125	0.03190939254	0.1575007565	
563.75	0.4587580637	0.06016136814	
564.375	0.1781298506	-0.3466871551	
565.0	0.210455805	-0.1797841108	
565.625	-0.04430619964	-0.4983853379	
566.25	-0.3472065406	-0.1467083361	
566.875	-0.1707919036	-0.2271790377	
567.5	-0.4726173241	-0.354422388	
568.125	-0.2917893903	-0.1731765402	
568.75	-0.5587400877	-0.4280780376	
569.375	-0.5687497963	0.4267993107	
570.0	-0.194848045	0.2545928443	
570.625	-0.4682788217	0.4894832932	
571.25	0.3815142995	0.3273215397	
571.875	-0.2170335916	0.2770733504	
572.5	0.6053157199	-0.141554414	
573.125	-0.08250563928	-0.09990826209	
573.75	0.4628063233	-0.2215792836	
574.375	-0.265178645	-0.3130833201	
575.0	0.2600105629	0.1594324808	
575.625	-0.002389175121	-0.4532823444	
576.25	-0.0817627909	0.03410399614	
576.875	0.2812113748	-0.5115109493	
577.5	-0.2160992662	-0.5277493716	
578.125	-0.1038200943	-0.1298029898	
578.75	-0.008641912696	-0.4272993767	
579.375	-0.4573471424	-0.177783516	
580.0	0.1035349884	0.04724260473	
580.625	-0.3751327392	-0.2067307745	
581.25	0.01185532255	0.2837164861	
581.875	-0.2549477968	0.1507734975	
582.5	0.1176891563	0.7249308663	
583.125	0.4373577122	-0.191669207	
583.75	-0.2893917722	0.3156818117	
584.375	0.4730934749	-0.1550893012	
585.0	-0.129388418	0.3889092011	
585.625	0.7293289893	-0.1328339746	
586.25	-0.01151133258	-0.1995311521	
586.875	0.5264025797	-0.1744990701	
587.5	-0.2456049671	-0.535980762	
588.125	-0.03090346384	-0.004318350565	
588.75	0.3747956535	-0.4198459987	
589.375	0.01338851797	-0.5660702028	
590.0	0.01119538352	-0.2382565441	
590.625	-0.4677918584	-0.3052377801	
591.25	-0.2107349704	0.3852469256	
591.875	-0.1144420062	0.1115565874	
592.5	0.02071397144	0.2582410739	
593.125	-0.09737497313	-0.07155190847	
593.75	0.1367313791	0.505493156	
594.375	0.5165437691	0.0153001379	
595.0	0.03867520441	0.1294555564	
595.625	0.5157989735	0.6765130848	
596.25	0.4201606056	-0.3548664141	
596.875	0.1236663652	0.4016609224	
597.5	0.7017052165	0.1306316491	
598.125	-0.001341559525	0.09150148729	
598.75	0.6965387018	0.521412423	
599.375	0.2930488322	-0.317391964	
600.0	0.3962724345	-0.08438396643	
600.625	0.5361338299	-0.4762667963	
601.25	-0.02638241081	-0.5203162291	
601.875	-0.05643523755	-0.2584258028	
602.5	-0.3319654428	-0.06294715337	
603.125	-0.3151819545	0.1133727871	
603.75	-0.1288023896	0.1248180556	
604.375	-0.3256890058	0.08547795054	
605.0	-0.1374571836	0.3060538227	
605.625	-0.2040291229	-0.06026138559	
606.25	-0.3587148396	0.3703179723	
606.875	-0.1015898905	0.05575497617	
607.5	-0.851183862	0.3445012752	
608.125	0.3584496933	0.6638298292	
608.75	0.01790573888	0.3862457797	
609.375	0.9207058681	-0.0499975228	
610.0	-0.02202641946	-0.2383289493	
610.625	0.5067514937	-0.2797585749	
611.25	-0.2104681726	-0.4224773675	
611.875	0.1051091929	-0.2732812946	
612.5	-0.6474586278	-0.1418071963	
613.125	-0.1377683283	-0.1030146184	
613.75	-0.414031672	0.4301161074	
614.375	0.2167422724	0.1269352083	
615.0	0.009500614321	0.345287071	
615.625	0.1800543044	-0.1324350443	
616.25	-0.3827572402	0.3881872832	
616.875	0.006206905752	0.6633089143	
617.5	-0.1871225416	0.1579170562	
618.125	-0.1687786993	0.797810124	
618.75	0.2562931721	0.3125271447	
619.375	-0.02912055136	0.4187753407	
620.0	0.5889619113	0.02236132797	
620.625	0.2558042821	-0.1996752753	
621.25	-0.2369848662	-0.5428004106	
621.875	-0.3894514373	-0.1114227874	
622.5	-0.5815267312	0.03893642255	
623.125	0.07790365192	0.3483389094	
623.75	0.1896862079	0.2764863786	
624.375	0.08934829436	-0.3619887897	
625.0	0.1822923751	0.2668608475	
625.625	-0.001086706995	-0.6518684564	
626.25	0.04478094226	0.01648337994	
626.875	-0.4033231299	-0.5098748521	
627.5	-0.3882798765	0.1877360592	
628.125	0.03217550844	-0.3032862725	
628.75	-0.5013725569	-0.344644338	
629.375	0.013537187	-0.1744776843	
630.0	-0.4986763601	-0.4382763141	
630.625	-0.6024216762	0.3113789647	
631.25	-0.1517690719	0.3231275113	
631.875	-0.2360188407	0.5632542691	
632.5	0.3440347482	0.5264643163	
633.125	0.5228037679	0.04512952165	
633.75	0.2532396156	-0.01290699437	
634.375	0.2304395899	-0.5099491974	
635.0	0.003201096009	-0.1628600855	
635.625	-0.3632882074	-0.3857874444	
636.25	-0.3259774376	0.3606493549	
636.875	-0.1252116792	-0.03182146954	
637.5	-0.3235742217	0.6033397612	
638.125	0.2469138311	-0.037881918	
638.75	-0.6354204691	0.2854581019	
639.375	0.2491189577	0.8705097525	
640.0	0.3361772989	0.2216942625	
640.625	0.3885928994	0.7163148841	
641.25	0.8721252969	-0.2487598197	
641.875	0.2226487144	-0.09840282726	
642.5	0.2669468425	-0.8703562515	
643.125	-0.4722105947	0.159900493	
643.75	0.03440479481	-0.3897316463	
644.375	-0.7826101374	0.04045378743	
645.0	-0.09081636296	0.4542521278	
645.625	-0.09187120639	0.2017074453	
646.25	0.5486697607	0.5727701884	
646.875	0.1407162312	-0.4225476946	
647.5	0.04205389267	0.4839741808	
648.125	0.549331128	-0.337758309	
648.75	0.2510299185	0.4123604626	
649.375	1.029834017	-0.9370544799	
650.0	-0.2558939389	-0.8365471501	
650.625	0.5411725721	0.05308607634	
651.25	1.053722945	-1.116855137	
651.875	-0.2115566662	-0.5749419039	
652.5	0.7524539504	0.3895862687	
653.125	0.9403062889	-0.7016994253	
653.75	0.00054964113	-0.265208542	
654.375	0.4445839564	-0.9972565888	
655.0	-1.043079956	-0.008408515304	
655.625	0.01007014352	0.292469166	
656.25	-0.4332695281	0.4408004709	
656.875	0.5740261	0.2443399155	
657.5	-0.3806507873	0.1370748656	
658.125	0.6018969909	0.5666101775	
658.75	0.6019142676	-0.04048713515	
659.375	0.5762521278	0.02215416263	
660.0	0.92638529	-1.008478488	
660.625	-0.1741249302	-0.6608499218	
661.25	0.6326993393	-0.2896390613	
661.875	0.8523835563	-0.9039928967	
662.5	0.0672233699	-0.7915119909	
663.125	0.7209129891	0.2056958887	
663.75	0.3848779859	-1.240707052	
664.375	-0.1624704365	-0.2657871507	
665.0	-0.5194834387	-0.9997299274	
665.625	-0.6692623346	0.6897224502	
666.25	-0.3315555709	0.1800601828	
666.875	0.2110627476	0.8089182437	
667.5	0.645759227	0.01602054952	
668.125	0.1343295824	0.05766118948	
668.75	0.8158880322	-0.2502754043	
669.375	-0.021115291	-0.6230838568	
670.0	0.09635946146	-0.3154496253	
670.625	0.1094648389	-0.6614767666	
671.25	-0.1492369631	-0.2532901411	
671.875	0.579945431	-0.3886441438	
672.5	0.4266227185	-0.5358252933	
673.125	0.2114001414	-0.3644044474	
673.75	0.5747081866	-0.1144461433	
674.375	0.212646079	-1.232027533	
675.0	-0.4902355231	0.06064619495	
675.625	-0.09876291949	-0.7905090191	
676.25	-0.8533976717	0.200390648	
676.875	0.2890648856	-0.1936069739	
677.5	-1.000973846	0.2306380873	
678.125	0.1993040156	0.1603101881	
678.75	-0.4230615345	0.5806214762	
679.375	0.9997847817	0.2336312909	
680.0	-0.04933842069	-0.4786684233	
680.625	0.3388822933	0.1992740358	
681.25	0.4151818265	-0.2816411076	
681.875	0.1155402272	-0.07814735007	
682.5	0.3949903383	0.4978427926	
683.125	0.8939660287	0.006551124059	
683.75	0.3850926655	0.111111219	
684.375	0.5655197558	0.3960080303	
685.0	1.030139504	-0.253848946	
685.625	0.004570910478	0.1586618665	
686.25	1.429101407	0.1791269773	
686.875	0.1910122795	-1.051837927	
687.5	0.7053610558	0.1936948338	
688.125	0.123837663	-1.906399248	
688.75	-0.7151430558	0.4726915562	
689.375	-1.409362062	0.1346708747	
690.0	0.7871985624	1.086618955	
690.625	-0.1281649182	0.306151534	
691.25	1.246226798	1.104624999	
691.875	0.9642635797	0.2908656448	
692.5	1.190323317	0.6533144713	
693.125	1.712388909	-0.05892614334	
693.75	1.302980922	-0.7353572599	
694.375	0.990782298	-0.9309815078	
695.0	0.8206486673	-0.5748767792	
695.625	1.52375808	-0.1710305291	
696.25	1.046859843	-0.1072841002	
696.875	0.5391390321	1.332692491	
697.5	1.66332271	0.9157147699	
698.125	0.6107527116	0.5102382655	
698.75	1.908575674	-1.168020885	
699.375	-1.535764786	-0.4331857548	
700.0	-0.9347616375	-0.1212111827	
700.625	0.7487369464	1.173587578	
701.25	0.03606398798	0.1134594111	
701.875	0.8300780428	1.144313171	
702.5	0.6851919087	0.02342705835	
703.125	0.8348263954	0.6195740695	
703.75	1.071703584	-0.6410859472	
704.375	0.3422690019	-0.1205812867	
705.0	0.9983168971	-0.5289792615	
705.625	0.1240873058	-0.2314835237	
706.25	0.5588656274	0.9865566826	
706.875	1.123330805	0.2981309712	
707.5	0.08150637627	0.8602921229	
708.125	1.607424427	0.4565392841	
708.75	0.1892427124	-0.8779033236	
709.375	-0.2898012286	-1.107157158	
710.0	-0.4924067135	0.952383582	
710.625	0.02476190357	0.06636324918	
711.25	0.3283803513	0.5022702248	
711.875	0.4546751022	0.1970021572	
712.5	0.8066677329	-0.09673675236	
713.125	0.4429974402	-0.3093568096	
713.75	0.5606603063	-0.5861881765	
714.375	-0.3644442294	-0.6153792105	
715.0	0.3687544488	-0.2783684169	
715.625	-0.2659209507	-0.8783254314	
716.25	0.1824903073	0.04948426905	
716.875	1.683651966	-0.3647904482	
717.5	0.8700574751	-1.521956667	
718.125	0.7083501419	1.773908237	
718.75	3.516223212	-0.897881192	
719.375	0.6188184887	-1.567209533	
720.0	2.68938353	-0.6500358355	
720.625	-0.228585912	-4.247503886	
721.25	0.4268853172	-1.286490839	
721.875	-0.2392017537	-3.36929484	
722.5	-2.395392039	-1.713697973	
723.125	-1.03709029	-0.2900405215	
723.75	-1.636649684	1.071805124	
724.375	0.5129399841	1.143384071	
725.0	0.3786975385	0.594910559	
725.625	0.01731409836	1.117951633	
726.25	0.7572583813	2.424643461	
726.875	0.1970196572	0.8772550426	
727.5	-1.941870438	4.376868858	
728.125	2.435373809	6.078031712	
728.75	-1.447200488	1.127955383	
729.375	-3.461021787	16.29565101	
730.0	7.075545911	6.24389972	
730.625	-6.494216886	6.057736142	
731.25	-6.975897815	20.3093528	
731.875	3.47617183	8.900784757	
732.5	-9.692908449	-4.062634254	
733.125	-8.644715479	2.486475768	
733.75	-0.6502489136	3.541479869	
734.375	0.9266171853	2.648307615	
735.0	-1.039600527	-2.094677347	
735.625	-0.4425893474	-0.1738950772	
736.25	-0.8744415099	1.526377048	
736.875	1.945722118	1.565260244	
737.5	1.692642115	-0.9782606468	
738.125	3.484481827	1.752290466	
738.75	7.586948827	-6.324149349	
739.375	-0.224387564	-6.750788028	
740.0	9.781871595	11.11745908	
740.625	24.52449269	-9.356504238	
741.25	-12.74973646	1.823232933	
741.875	-16.92113635	-2.839564911	
742.5	-4.211277136	6.226200205	
743.125	15.3097662	-3.806678641	
743.75	0.4517771868	-6.852152839	
744.375	-0.845583034	0.713396381	
745.0	-0.1578974673	0.1810274988	
745.625	0.2237245006	-0.3575440312	
746.25	0.2715975406	-0.1865313449	
746.875	-1.247562273	0.4094079399	
747.5	0.2601854627	0.7519595581	
748.125	0.1426415243	1.020528077	
748.75	1.159804362	1.914900646	
749.375	0.365617945	1.120429249	
750.0	0.8893943733	5.73495589	
