!Created with skrf (http://scikit-rf.org).
# GHz S RI R (50+0j) 
!freq	ReS11	ImS11	
500.0	-0.7115751314	-4.273979865	
500.625	-1.183204856	-2.236043177	
501.25	-0.07875688429	-1.856778846	
501.875	-2.147738687	-1.35074604	
502.5	-0.1870028146	-0.06145825579	
503.125	-0.3242031204	-0.01629475304	
503.75	0.2357054912	0.09198588759	
504.375	0.1077689647	0.06650848967	
505.0	-0.04878601902	-0.1695981555	
505.625	0.2271521813	0.00940882127	
506.25	-0.6431797106	-0.3456132362	
506.875	0.4282688181	0.3067613805	
507.5	0.4250323618	-1.884362245	
508.125	-1.347772597	-2.381496223	
508.75	1.683957929	-1.105701746	
509.375	-1.28084385	-6.091263473	
510.0	-0.9190584535	0.3537708853	
510.625	-0.2472214047	-0.9924024497	
511.25	-0.3963764222	0.1858488341	
511.875	-0.4304399841	-0.1774798127	
512.5	-0.1017514068	0.1476078928	
513.125	-0.1892790885	-0.3517941636	
513.75	-0.1712828938	0.07094032521	
514.375	-0.2201793226	-0.4258856791	
515.0	-0.4193365819	0.8713069456	
515.625	0.3220036921	-3.125636498	
516.25	-2.359492889	0.3206468263	
516.875	0.7783073804	-1.469491319	
517.5	-0.7982802952	-1.041473577	
518.125	0.3168911369	0.06307074475	
518.75	-0.5081323477	-0.8150261822	
519.375	-0.0327501805	0.1228704419	
520.0	0.2720547975	0.3197664061	
520.625	0.5689657921	-0.4085735214	
521.25	-0.2011477284	-0.4404473944	
521.875	-0.3103539872	-0.266704731	
522.5	-0.1047748362	0.1622634902	
523.125	-0.3791704135	0.06875220381	
523.75	-0.07321031647	-0.01830612825	
524.375	-0.6520712416	0.04642956104	
525.0	0.2400596711	0.2766201282	
525.625	-0.1116278929	0.1489500833	
526.25	0.1612678371	-0.1005345333	
526.875	-0.3656336611	0.2356309954	
527.5	0.2229026659	0.5050600975	
528.125	-0.2513250973	0.5600885218	
528.75	0.2245176518	1.06178083	
529.375	-0.07121117977	0.0009727024292	
530.0	0.4953677136	0.5966894081	
530.625	0.1680630146	0.5738760299	
531.25	1.452745568	0.5347286041	
531.875	0.0988926945	-0.4469215073	
532.5	0.05000990285	-0.4834302562	
533.125	-0.1668192338	0.227169418	
533.75	0.4450797151	-0.9445760786	
534.375	-0.4757616696	-0.1544435656	
535.0	-0.5210134449	-0.611994716	
535.625	-0.4304915137	0.6464116213	
536.25	0.0003399378842	0.1238294169	
536.875	0.3071529324	0.1404490889	
537.5	0.08313391671	-0.2015525655	
538.125	0.3735382138	0.04308569259	
538.75	0.2366306388	-0.5101272453	
539.375	-0.06160256995	-0.2495442538	
540.0	-0.3895411781	-0.5719928382	
540.625	-0.4801568447	0.1048439045	
541.25	-0.1447695626	0.01975062918	
541.875	-0.04935406553	-0.1240620954	
542.5	-0.2753914577	-0.09112918283	
543.125	-0.03708270192	-0.08872651339	
543.75	-0.3612608177	-0.02286539423	
544.375	0.06896690159	0.05941865033	
545.0	-0.1126600472	0.2387834101	
545.625	0.234155499	-0.05811971957	
546.25	0.05239786054	0.3224959598	
546.875	0.453162581	-0.2967991467	
547.5	0.03380066087	-0.09965718121	
548.125	0.07447190224	-0.4881718722	
548.75	-0.4904775092	-0.2645768492	
549.375	-0.09407999252	-0.05906306093	
550.0	-0.3239262713	-0.07192126268	
550.625	0.01145945078	0.08843497088	
551.25	-0.3065473893	-0.01548728789	
551.875	-0.0827965383	0.2879820313	
552.5	-0.1341591188	0.08856596508	
553.125	-0.04843561181	0.2103260028	
553.75	0.119754646	0.08836652177	
554.375	0.2245009656	0.02999375645	
555.0	0.2481986492	-0.1871339046	
555.625	0.1926584166	-0.2542308524	
556.25	0.1716756486	-0.3414618643	
556.875	-0.08819848694	-0.3985870922	
557.5	-0.2406086579	-0.2383206487	
558.125	-0.2623929125	-0.1059345983	
558.75	-0.2810020719	-0.01995394733	
559.375	-0.2504888896	0.08523473523	
560.0	-0.2172881794	0.1296184797	
560.625	-0.1575936884	0.3115584776	
561.25	0.09322254685	0.1884360172	
561.875	-0.01297628684	0.167211063	
562.5	0.1127230848	0.04705130032	
563.125	0.06395446023	0.2587640299	
563.75	0.455836161	-0.05533650662	
564.375	0.1207711397	-0.2053828533	
565.0	0.3151700978	-0.2772772692	
565.625	-0.1641230205	-0.4589975069	
566.25	-0.2195871802	-0.1265794763	
566.875	-0.284358371	-0.3231386011	
567.5	-0.4913074869	-0.1719512759	
568.125	-0.121678502	-0.3471048613	
568.75	-0.7151992449	-0.2857197185	
569.375	-0.3975374259	0.3524629426	
570.0	-0.4056913961	0.2190545735	
570.625	-0.2818960746	0.7659505232	
571.25	0.2422204576	0.009532237148	
571.875	-0.04440565139	0.4807822624	
572.5	0.3367484112	-0.3538646981	
573.125	0.2083474655	0.09949034404	
573.75	0.2923589058	-0.5599247409	
574.375	-0.2392595391	-0.01104249622	
575.0	0.3892251167	-0.1195535324	
575.625	-0.2219469274	-0.2598783784	
576.25	0.2632268348	0.07108773829	
576.875	0.03655536704	-0.6219531607	
577.5	-0.2573493056	-0.3262258312	
578.125	0.09796434013	-0.2327526746	
578.75	-0.2085682789	-0.5292672627	
579.375	-0.3230745742	0.06097822007	
580.0	0.0864744885	-0.1874776057	
580.625	-0.3838159763	0.05388989452	
581.25	-0.001847541963	0.006045473577	
581.875	-0.3229172142	0.4628315437	
582.5	0.466560735	0.5429523829	
583.125	0.06242213052	-0.2332631632	
583.75	0.08054700064	0.5473475117	
584.375	0.02726525436	-0.3567779472	
585.0	0.2467868987	0.5741006133	
585.625	0.4561626986	-0.3647753482	
586.25	0.07204186123	0.1309143152	
586.875	0.4689692155	-0.5268306454	
587.5	-0.3289602047	-0.2240412941	
588.125	0.1960260661	-0.1518544049	
588.75	0.2086824884	-0.5950206669	
589.375	-0.1032995012	-0.3264508333	
590.0	0.1096399967	-0.3677702795	
590.625	-0.6214622987	-0.1514084624	
591.25	-0.166843965	0.2078807188	
591.875	-0.2417881359	0.2329431226	
592.5	0.1659763371	0.2001357209	
593.125	-0.2730971564	0.0360916055	
593.75	0.2834847954	0.3893872391	
594.375	0.3080617214	-0.03993589118	
595.0	0.04985194831	0.4438501182	
595.625	0.8858368138	0.3527596961	
596.25	-0.01872857172	-0.15602808	
596.875	0.5320980184	0.4748914478	
597.5	0.4968960648	-0.132845781	
598.125	-0.01482812515	0.5156123139	
598.75	0.7855307407	0.1296472809	
599.375	0.202238761	-0.05122251794	
600.0	0.6108570791	-0.177492583	
600.625	0.3908571244	-0.6125136557	
601.25	-0.003055037242	-0.3184918883	
601.875	-0.05709512513	-0.3733521744	
602.5	-0.3390276329	-0.06609133467	
603.125	-0.2312357372	0.1627352547	
603.75	-0.2126145399	0.1043758881	
604.375	-0.319728383	0.2096673937	
605.0	-0.05247905866	0.1645484312	
605.625	-0.320877514	0.03514432244	
606.25	-0.1322028548	0.3334522142	
606.875	-0.3439599609	-0.1467449849	
607.5	-0.6879042166	0.8286725132	
608.125	0.1737800228	0.1992873794	
608.75	0.158564557	0.7606733452	
609.375	0.7440485522	-0.38511679	
610.0	0.1950719239	0.01978909437	
610.625	0.3924597181	-0.6364371015	
611.25	-0.1869250619	-0.1621783958	
611.875	0.02153041742	-0.4723155258	
612.5	-0.4361442917	0.1297920047	
613.125	-0.4062120525	-0.147801303	
613.75	-0.2485077379	0.4658961165	
614.375	-0.0476508687	-0.09038818048	
615.0	0.3070284716	0.3127102254	
615.625	-0.137438748	-0.03858659579	
616.25	-0.2340006669	0.6060936971	
616.875	0.2216199421	0.3323552335	
617.5	-0.5019167655	0.3805985358	
618.125	0.09860799103	0.742126158	
618.75	0.08710799695	0.1962695893	
619.375	0.1756525492	0.6278383295	
620.0	0.4018378396	-0.05506799718	
620.625	0.3856542866	-0.2443169992	
621.25	-0.3172502373	-0.4613626307	
621.875	-0.3376480018	-0.2833784169	
622.5	-0.5966447729	0.2017883214	
623.125	-0.06635331759	0.3248088657	
623.75	0.3459526848	0.281109929	
624.375	-0.1917707236	-0.2843563711	
625.0	0.426616831	0.07672644751	
625.625	-0.2682333094	-0.2673413723	
626.25	0.2860772807	-0.3216309499	
626.875	-0.6287498651	-0.2643001478	
627.5	-0.1024335662	0.1188814455	
628.125	-0.3115532442	-0.5507918002	
628.75	-0.3140433266	0.005325712182	
629.375	0.05799587626	-0.418932699	
630.0	-0.6081778031	-0.3339806072	
630.625	-0.4086099099	0.3495180711	
631.25	-0.3418785887	0.2317982086	
631.875	-0.1330255934	0.6688016331	
632.5	0.366351244	0.4602295941	
633.125	0.4126994613	0.05108582751	
633.75	0.473612467	-0.008806320355	
634.375	0.02597251605	-0.3334134155	
635.0	0.1166894956	-0.313764272	
635.625	-0.450464382	-0.2647695739	
636.25	-0.1391843959	0.221538187	
636.875	-0.5168950277	0.08075917468	
637.5	0.1013900192	0.5670486894	
638.125	-0.06890884273	-0.2523272028	
638.75	-0.4782407782	0.6722456338	
639.375	0.3560642666	0.5557873132	
640.0	-0.05233179171	0.3862889555	
640.625	0.8064212545	0.581789026	
641.25	0.4117229007	-0.2774924032	
641.875	0.6641527371	-0.05512485577	
642.5	-0.3643058622	-0.833758879	
643.125	-0.08445314012	0.04206443326	
643.75	-0.2341710786	-0.5860913495	
644.375	-0.5899926105	0.2670092611	
645.0	-0.04463271404	0.2515914473	
645.625	-0.3046184047	0.5239281418	
646.25	0.7291562767	0.1782191728	
646.875	-0.07802228506	-0.1645075629	
647.5	0.4695260114	0.3437098335	
648.125	-0.1451238211	-0.1605404391	
648.75	0.9859681414	0.2292222008	
649.375	0.4376006766	-1.053121551	
650.0	-0.09257917555	-0.2605799648	
650.625	1.154150449	-0.4382909967	
651.25	0.2337518171	-1.361540382	
651.875	0.06691819652	0.07676846857	
652.5	1.226452488	0.003156184382	
653.125	0.4091143385	-0.746416005	
653.75	0.4768513388	0.06890032464	
654.375	-0.2236365995	-1.205171199	
655.0	-0.6627396314	0.1949440539	
655.625	-0.3446965477	-0.110186945	
656.25	-0.1253655958	0.8932357588	
656.875	0.3476279831	-0.3001902874	
657.5	-0.117959539	0.5868787709	
658.125	0.578773971	0.2757189573	
658.75	0.4032703695	0.04442266613	
659.375	1.052887605	0.06071828109	
660.0	0.3522669973	-1.112240558	
660.625	0.1651656235	-0.353293241	
661.25	0.7988319616	-0.6114429319	
661.875	0.418451294	-1.173691402	
662.5	0.04321369808	-0.02949600826	
663.125	1.260103104	-0.4275494846	
663.75	-0.105444454	-0.8513757769	
664.375	0.342299143	-0.4332629001	
665.0	-1.087146955	-0.7548554984	
665.625	-0.2400262497	0.3153044341	
666.25	-0.6098347257	0.455241227	
666.875	0.4403216244	0.7339321938	
667.5	0.3862291457	-0.1278488479	
668.125	0.4374104866	0.3914745705	
668.75	0.5661253285	-0.6313765508	
669.375	0.0450293775	-0.370096271	
670.0	0.2732058402	-0.5101396041	
670.625	-0.2567473897	-0.5774270035	
671.25	0.2960173701	-0.1349537507	
671.875	0.3904689102	-0.5801452921	
672.5	0.3067604009	-0.4720901816	
673.125	0.2639775589	-0.09823085722	
673.75	0.9270001497	-0.4808043584	
674.375	-0.4048686704	-0.9170671614	
675.0	0.235257671	-0.1239911002	
675.625	-0.6782715587	-0.7601986591	
676.25	-0.3282524133	0.56391694	
676.875	-0.3980743431	-0.6723940725	
677.5	-0.3650353846	0.6625879823	
678.125	-0.2328809918	-0.2298870554	
678.75	-0.1815667905	1.041535542	
679.375	0.743665831	-0.2554055561	
680.0	-0.01523424045	0.0383884616	
680.625	0.5091635028	-0.06626424341	
681.25	0.168867543	-0.3289906737	
681.875	0.03531843037	0.2722119664	
682.5	0.768013186	0.3971636527	
683.125	0.4507615854	-0.02687728678	
683.75	0.4551550103	0.2360941763	
684.375	0.9850688744	0.188502495	
685.0	0.378685303	-0.2546327699	
685.625	0.6220916817	0.576033115	
686.25	1.207970787	-0.5059948943	
686.875	-0.1328979058	-0.2918032261	
687.5	1.451163033	-0.2418033244	
688.125	-1.03482985	-1.530485278	
688.75	-0.04612615642	-0.3825238476	
689.375	-1.401480911	1.074767146	
690.0	0.7328458105	0.4070800446	
690.625	-0.06428641357	1.136141446	
691.25	1.270185419	0.3035237966	
691.875	0.5890359112	0.7142031716	
692.5	1.441723287	0.7438105076	
693.125	1.721398242	-0.1892515333	
693.75	1.271853268	-0.4089385567	
694.375	0.9488860776	-0.9856243064	
695.0	1.079103197	-0.4195432059	
695.625	1.387007936	-0.5756603756	
696.25	0.7471724493	0.3440551925	
696.875	1.269517486	1.446078744	
697.5	1.135305693	0.317810506	
698.125	1.043691946	1.201831512	
698.75	1.397497127	-1.67371817	
699.375	-0.5714675212	-0.1347468744	
700.0	-1.521781487	0.6648662778	
700.625	0.8386399078	0.5322912868	
701.25	-0.07227203037	0.6585953413	
701.875	1.154695446	0.5358449665	
702.5	0.2642743379	0.5384123385	
703.125	1.267393777	0.5520894641	
703.75	0.6997446361	-0.5169505967	
704.375	0.9033432915	-0.04674678034	
705.0	0.49464337	-0.8010281544	
705.625	0.1901004674	0.3103774687	
706.25	1.244438338	0.6749162864	
706.875	0.2744931475	0.05899208944	
707.5	0.4605549072	1.27348352	
708.125	1.50399313	-0.197168443	
708.75	0.6135135802	-0.2465885455	
709.375	-0.9057223742	-1.216519094	
710.0	-0.1383445198	0.7008311953	
710.625	-0.1620175665	0.4410965838	
711.25	0.3962273473	0.2815991395	
711.875	0.4708230343	0.3277009633	
712.5	0.7686207207	-0.06947083474	
713.125	0.6159892213	-0.1914723747	
713.75	0.40891475	-0.8519030822	
714.375	-0.1284293649	-0.2819863153	
715.0	0.165716179	-0.7572538132	
715.625	-0.3984697603	-0.3221410915	
716.25	0.7584582219	-0.1655484147	
716.875	1.2540199	-1.281376148	
717.5	-0.2132877785	-0.06931426388	
718.125	2.608040687	1.283984163	
718.75	2.337209091	-1.758577262	
719.375	0.4855979937	0.08991640805	
720.0	3.141532199	-2.994450512	
720.625	-0.9690690092	-1.937704047	
721.25	0.8104921718	-2.711634466	
721.875	-0.8059668596	-3.445677918	
722.5	-1.399498288	-0.6744336572	
723.125	-1.830787186	-1.205825153	
723.75	-1.104324719	1.586863125	
724.375	0.2569880029	0.7973857805	
725.0	0.2167204496	0.7484321061	
725.625	0.3342437251	1.656850901	
726.25	1.107687533	1.121842158	
726.875	-1.024940352	1.783989622	
727.5	-0.2571465759	5.160014648	
728.125	2.556606731	2.444791572	
728.75	-5.986688333	7.022189562	
729.375	5.782188774	14.44195135	
730.0	2.161359393	1.217872215	
730.625	-15.46829421	12.64721065	
731.25	6.70916204	16.63196735	
731.875	-4.274732413	-2.12746848	
732.5	-13.49973689	2.39539381	
733.125	-6.898663022	3.825407682	
733.75	-1.700338716	0.7238548363	
734.375	3.639459772	1.989550018	
735.0	-0.5205796511	-0.812615628	
735.625	-0.8444277702	-0.3561928737	
736.25	-0.397696722	2.238414926	
736.875	1.816656069	0.399039352	
737.5	1.043954414	1.283307027	
738.125	5.767274654	-0.4371795162	
738.75	3.367169027	-7.338931598	
739.375	0.235494642	1.527543904	
740.0	19.43132865	-2.079209869	
740.625	-3.60110043	-13.49726103	
741.25	-16.32966172	9.87081431	
741.875	-4.163262516	52.19221746	
742.5	8.459183781	-6.025603287	
743.125	2.369408467	-10.97443509	
743.75	-3.224273253	-2.713729544	
744.375	-0.1852706852	-0.07284126196	
745.0	-0.1860624034	0.7020551691	
745.625	-0.2605044902	-0.08243645849	
746.25	0.02180945187	-0.5112170118	
746.875	-0.3822526844	0.226010329	
747.5	-0.2011594161	0.3123976029	
748.125	0.1825362464	2.1949624	
748.75	1.489093568	1.236009887	
749.375	-0.04640301558	1.265598468	
750.0	-1.572168342	-0.7035563688	
