!Created with skrf (http://scikit-rf.org).
# GHz S RI R (50+0j) 
!freq	ReS11	ImS11	
500.0	-0.1549104388	-0.6152386715	
500.625	0.6680237585	-0.5871228983	
501.25	-0.6218251295	-0.6849222605	
501.875	-0.09265185428	-0.1122963042	
502.5	0.01432299908	-0.1981251564	
503.125	-0.06116525218	0.03945781458	
503.75	-0.02671016832	0.03434843452	
504.375	0.04810509085	-0.008248788118	
505.0	-0.0008001952513	0.01581930431	
505.625	0.02368736481	-0.08643808126	
506.25	-0.1002973489	0.01851529465	
506.875	-0.07219423535	-0.1887811954	
507.5	-0.4022440547	-0.08071287818	
508.125	0.2424768706	-0.1991843704	
508.75	0.7113409914	-1.038758607	
509.375	-0.349912223	-0.9618216654	
510.0	-0.2822983963	-0.2362749706	
510.625	-0.1251975196	-0.2478176226	
511.25	-0.05110182923	0.0206595493	
511.875	-0.04741770836	-0.1041019307	
512.5	-0.01451665585	0.05994151565	
513.125	0.001150216243	-0.01341026916	
513.75	-0.01069149466	-0.09767914026	
514.375	-0.114884447	0.08086261954	
515.0	0.2424589958	-0.09111356445	
515.625	-0.3563081493	-0.3394927325	
516.25	0.3541259559	-0.460116941	
516.875	-0.2233193392	-0.5868114461	
517.5	-0.07926576035	0.007201164343	
518.125	0.04126126919	-0.05700362665	
518.75	-0.1440877385	-0.1058758264	
519.375	-0.04522020193	0.01504416025	
520.0	0.08777425586	0.08179955622	
520.625	0.1545793517	-0.09835699973	
521.25	-0.03991152848	-0.1571565638	
521.875	-0.09872973539	-0.0804162586	
522.5	-0.07209264331	0.07680126174	
523.125	-0.00863327571	-0.07807558325	
523.75	-0.197442552	-0.03051405421	
524.375	-0.02754521081	0.1048615327	
525.0	-0.1380104082	0.02637193948	
525.625	0.08258590837	0.1206978215	
526.25	-0.07397319081	-0.06955205832	
526.875	0.01947855537	0.04454170644	
527.5	-0.05181405043	0.04982952287	
528.125	-0.04243616529	0.3059482731	
528.75	0.08538446506	0.1423486639	
529.375	0.03347729209	0.06614395869	
530.0	0.09249052583	0.1620869144	
530.625	0.13581549	0.2280942691	
531.25	0.3212959909	0.2547323962	
531.875	0.3970346863	-0.1082750633	
532.5	-0.03352128784	0.001658992989	
533.125	0.0597778438	-0.1820104045	
533.75	0.03965852844	-0.04294549442	
534.375	0.05940792896	-0.3001235036	
535.0	-0.2527904257	-0.02383476333	
535.625	-0.1041147328	0.04160248749	
536.25	-0.02434965937	0.1054424445	
536.875	0.09918873254	-0.02157625097	
537.5	0.04825041847	0.005716352598	
538.125	0.1297657691	-0.08860604324	
538.75	0.04487736358	-0.08633300773	
539.375	-0.04900621831	-0.1430654103	
540.0	-0.2048951713	-0.1289324878	
540.625	-0.1129693666	0.01146034932	
541.25	-0.09488331601	-0.04843639607	
541.875	-0.1200091749	-0.03075593186	
542.5	-0.00296567659	-0.04406516598	
543.125	-0.1220113601	-0.06656180144	
543.75	-0.02551955508	0.02643092688	
544.375	-0.0925803774	-0.03033124385	
545.0	0.04242915914	0.06364737918	
545.625	-0.009359339428	0.05660999045	
546.25	0.1566331227	0.06597750657	
546.875	0.05056092117	-0.0524915543	
547.5	0.1035965656	-0.07576734727	
548.125	-0.07472330517	-0.1851518832	
548.75	-0.08605823948	-0.05090489659	
549.375	-0.06919431193	-0.1083207674	
550.0	-0.09405730286	0.03987800889	
550.625	-0.02059586495	-0.02536891322	
551.25	-0.09613559107	0.03640171228	
551.875	-0.03427857468	0.06184746046	
552.5	-0.05835235067	0.06195431874	
553.125	0.001633513425	0.05866492007	
553.75	0.03076586087	0.04444502379	
554.375	0.09650242218	0.004571872201	
555.0	0.0825481212	-0.06534735472	
555.625	0.0792161614	-0.09211140184	
556.25	0.06312375558	-0.1308854656	
556.875	-0.03348863271	-0.1411258738	
557.5	-0.0838107116	-0.09029667564	
558.125	-0.1071015211	-0.04083039179	
558.75	-0.1045858184	0.001997667418	
559.375	-0.0917685038	0.01875262389	
560.0	-0.1006829409	0.06215385339	
560.625	-0.0386010272	0.1130651529	
561.25	0.003034370151	0.06480920976	
561.875	0.02751074223	0.07276897018	
562.5	0.01285920807	0.01512641831	
563.125	0.05952699133	0.1010613771	
563.75	0.1388302289	-0.03291746135	
564.375	0.08058208722	-0.05634127912	
565.0	0.1078624103	-0.1470950678	
565.625	-0.06747594381	-0.1302029554	
566.25	-0.04920360765	-0.08615325529	
566.875	-0.1701188286	-0.1149113684	
567.5	-0.1219911606	0.007193653637	
568.125	-0.06262580748	-0.1889831455	
568.75	-0.266887684	-0.04205531984	
569.375	-0.1350938045	0.07727092367	
570.0	-0.2252974126	0.1766702873	
570.625	0.01134103541	0.2192494001	
571.25	-0.02997150597	0.01321830809	
571.875	0.08642309125	0.1347234568	
572.5	0.03214483217	-0.07568953153	
573.125	0.1425917091	-0.02110651486	
573.75	0.03388881346	-0.1909058428	
574.375	-0.04038409452	0.01277503887	
575.0	0.1024826039	-0.08359737709	
575.625	-0.04463684391	-0.04667361388	
576.25	0.104376071	-0.04532810093	
576.875	-0.01543161046	-0.2162706381	
577.5	-0.05887940798	-0.09167508945	
578.125	0.04010318129	-0.1237967605	
578.75	-0.1419060742	-0.2397657515	
579.375	-0.09158398401	0.0631657857	
580.0	0.03541458666	-0.1684744807	
580.625	-0.1320448296	0.08236589511	
581.25	-0.05215487282	-0.07764959541	
581.875	-0.0537595623	0.2338827187	
582.5	0.1663530756	0.03652768946	
583.125	-0.04070389358	0.02145622179	
583.75	0.1023636727	0.09649571362	
584.375	-0.02240640141	-0.03728414319	
585.0	0.1480858629	0.1598206703	
585.625	0.1618687802	-0.092853631	
586.25	0.06625115326	0.003221437358	
586.875	0.1499308434	-0.1492948464	
587.5	-0.07942595634	-0.08887630164	
588.125	0.05530405748	-0.07913373624	
588.75	0.04574146535	-0.2070973931	
589.375	-0.02316958561	-0.1146921606	
590.0	0.0793129618	-0.153637473	
590.625	-0.2727610813	-0.0278258893	
591.25	-0.03157840444	0.09620561677	
591.875	-0.1623720829	0.06836761121	
592.5	0.1126079585	0.1158148836	
593.125	-0.1284574527	-0.01371843484	
593.75	0.1407413869	0.1468446789	
594.375	0.06340904344	0.01873476456	
595.0	0.1675348201	0.1894334285	
595.625	0.2415989033	0.04142165463	
596.25	0.05391951018	-0.004412238915	
596.875	0.2102826404	0.07954852021	
597.5	0.1563904397	0.001506209483	
598.125	0.05559480061	0.1017256742	
598.75	0.2133869114	0.1024601802	
599.375	0.1512123329	-0.1006001376	
600.0	0.1541896654	-0.09200097487	
600.625	0.1746385524	-0.1954704704	
601.25	-0.01482565255	-0.1892789736	
601.875	0.009839340123	-0.08111002658	
602.5	-0.2291098749	-0.03566665538	
603.125	-0.0158100497	0.0883224261	
603.75	-0.1364557771	-0.0328466609	
604.375	-0.09097241576	0.209216323	
605.0	0.0342879177	-0.00187637432	
605.625	-0.1281225253	0.1714497517	
606.25	-0.0003838730264	0.09899713516	
606.875	-0.1722750025	-0.01569062963	
607.5	-0.2162675623	0.2375207029	
608.125	-0.07315234331	0.1697111318	
608.75	0.08366453776	0.1819851934	
609.375	0.2289902412	-0.02921286159	
610.0	0.07887428862	-0.1396695319	
610.625	0.03696083386	-0.1104579388	
611.25	-0.03121357409	-0.2161868212	
611.875	-0.06878327511	-0.03403897807	
612.5	-0.1510531736	-0.1578270338	
613.125	-0.2470408549	0.1239523383	
613.75	-0.001305413628	0.04213109612	
614.375	-0.03939671424	0.1789508221	
615.0	0.1041489442	-0.05942721637	
615.625	-0.1106808054	0.105326956	
616.25	0.04037650373	0.1610195649	
616.875	-0.01913080908	0.05628783351	
617.5	-0.1251686943	0.2334979293	
618.125	0.02129298088	0.1650638654	
618.75	0.05049430132	0.1238932147	
619.375	0.04296956692	0.2166526711	
620.0	0.2300333921	0.01391518972	
620.625	0.03359512058	-0.1769889421	
621.25	-0.03459938279	-0.1982361116	
621.875	-0.2469846961	-0.02402870778	
622.5	-0.1033158594	0.05179331535	
623.125	-0.119124624	0.1833627866	
623.75	0.1845425416	-0.01634649451	
624.375	-0.01295176908	0.01408426549	
625.0	0.08800080761	-0.1004756671	
625.625	-0.003143007508	-0.01319685925	
626.25	0.00836060569	-0.1577145444	
626.875	-0.2006831113	-0.05683476167	
627.5	-0.067050602	-0.004852186671	
628.125	-0.1144110228	-0.1527294091	
628.75	-0.07883769729	-0.1200681046	
629.375	-0.03940614311	-0.1395261491	
630.0	-0.2259999063	-0.1357180158	
630.625	-0.1593010633	0.110685104	
631.25	-0.06379232928	0.1112832846	
631.875	-0.06673606281	0.2428395228	
632.5	0.2014513526	0.1584306287	
633.125	0.125070768	0.05544422899	
633.75	0.2670079798	0.00711354981	
634.375	-0.02567550758	-0.1389234089	
635.0	0.07362003053	-0.1117316268	
635.625	-0.2388357972	-0.1006435969	
636.25	-0.06119076834	0.0835340371	
636.875	-0.1412319295	0.030248279	
637.5	0.009107900333	0.1712732831	
638.125	-0.06045083599	-0.01206292378	
638.75	-0.1265334663	0.2188353968	
639.375	0.09202934052	0.2264958538	
640.0	0.03303285677	0.18144196	
640.625	0.2736672078	0.2187732905	
641.25	0.2957307876	-0.07608209996	
641.875	0.06710224966	-0.08131340828	
642.5	0.06721751406	-0.2626640473	
643.125	-0.2021843582	-0.01312400105	
643.75	-0.05064847722	-0.1319216761	
644.375	-0.3985426306	0.01327274165	
645.0	0.03374508999	0.1581732192	
645.625	-0.08842871325	0.220034756	
646.25	0.3241934514	0.06958843603	
646.875	-0.09062048471	-0.07276507604	
647.5	0.159619283	0.1227883609	
648.125	0.07173024299	-0.08540885947	
648.75	0.2401492333	0.1572719797	
649.375	0.277580176	-0.3804985371	
650.0	-0.01413670067	-0.2182911424	
650.625	0.2416019289	-0.1373227088	
651.25	0.257490725	-0.3765241229	
651.875	0.0612864905	-0.1439652495	
652.5	0.2952193085	0.08144518614	
653.125	0.3146407818	-0.2043113306	
653.75	0.02001170838	-0.170180766	
654.375	0.1613689449	-0.3164768571	
655.0	-0.3868824357	-0.05540258477	
655.625	-0.0326110177	0.1338187883	
656.25	-0.1928314324	0.151639182	
656.875	0.2141379201	0.09680641082	
657.5	-0.2754943352	0.06629209052	
658.125	0.2860741705	0.2531587428	
658.75	0.2226655861	-0.04891784322	
659.375	0.2663160016	0.02578423015	
660.0	0.3161840833	-0.4437668596	
660.625	-0.03820693912	-0.2347473179	
661.25	0.2432931812	-0.1741788391	
661.875	0.2327271332	-0.3437415619	
662.5	0.08114563425	-0.2031081822	
663.125	0.297885789	-0.03746924889	
663.75	0.149800753	-0.3722329251	
664.375	-0.06229922273	-0.1927189707	
665.0	-0.1786324467	-0.2808710289	
665.625	-0.3515052828	0.1508035972	
666.25	-0.01148490036	0.1580173502	
666.875	-0.005728175518	0.2743666762	
667.5	0.265768164	0.03276603743	
668.125	0.06829929282	-0.002599855081	
668.75	0.3829441109	-0.1032492179	
669.375	-0.01973344816	-0.2722826242	
670.0	0.1017178357	-0.07237854261	
670.625	0.06994414927	-0.2916072764	
671.25	-0.09820312595	-0.1446511224	
671.875	0.2054913471	-0.03419458061	
672.5	0.1774612664	-0.2773730892	
673.125	0.09106921799	-0.1228826366	
673.75	0.2152454988	-0.1189808206	
674.375	0.04718986074	-0.3740223299	
675.0	-0.1268576853	-0.09063376439	
675.625	-0.0876127861	-0.2162013115	
676.25	-0.2604019199	0.002037513491	
676.875	-0.0343094836	0.05073341492	
677.5	-0.2187468031	-0.07810438086	
678.125	-0.06951900677	0.2417103641	
678.75	-0.0118856335	0.08161483316	
679.375	0.1989031794	0.2102014948	
680.0	0.1272547968	-0.3578149787	
680.625	-0.04768057611	0.1253354643	
681.25	0.2499530932	-0.03950601873	
681.875	-0.007921169523	-0.1136597716	
682.5	0.1025847602	0.2865577	
683.125	0.4475808233	-0.1321800685	
683.75	0.002061339237	-0.03806538004	
684.375	0.2852288916	0.2057296164	
685.0	0.3741380454	-0.04045363366	
685.625	0.08860098559	0.07681802036	
686.25	0.4207987793	0.1230976074	
686.875	0.2403670759	-0.3221672326	
687.5	0.1673696976	-0.1172942507	
688.125	0.04832433155	-0.4502650127	
688.75	-0.5118514305	-0.09428375957	
689.375	-0.1414216191	0.11816622	
690.0	-0.01792031275	0.4573350718	
690.625	0.3566470536	0.110296139	
691.25	0.07496068247	0.2495658811	
691.875	0.6089060089	0.4258083252	
692.5	0.3406800167	-0.08433307592	
693.125	0.4981858266	0.1625857635	
693.75	0.6787500837	-0.4961462446	
694.375	0.1328066412	-0.4132969147	
695.0	0.4036457094	0.006041249661	
695.625	0.4931327159	-0.2383955589	
696.25	0.334464765	0.1820969619	
696.875	0.2848690046	0.4039846943	
697.5	0.4834226643	0.4227169392	
698.125	0.4924085278	0.2088176957	
698.75	0.4016951925	-0.288516786	
699.375	-0.3889167132	-0.4382297013	
700.0	-0.1110202855	0.3277692073	
700.625	-0.07920720163	0.2799322265	
701.25	0.371831812	0.2063856054	
701.875	0.1256116057	0.1001540211	
702.5	0.2824979525	0.3436358045	
703.125	0.495868186	-0.03354953089	
703.75	0.1719049076	-0.05534083437	
704.375	0.3707456569	-0.1987874033	
705.0	0.1539951739	-0.2652022066	
705.625	0.07401416483	0.05306083543	
706.25	0.3375013883	0.2972753216	
706.875	0.1292145982	0.3161598612	
707.5	0.1418601754	0.337012098	
708.125	0.4893692491	0.1998369578	
708.75	0.2491463607	-0.3394377218	
709.375	-0.2528515051	-0.1070722367	
710.0	-0.2752448059	0.2179882002	
710.625	0.1356582654	0.1262555799	
711.25	-0.06316289334	0.1322739846	
711.875	0.4254038353	0.16105028	
712.5	0.1400979548	-0.07168618886	
713.125	0.3234701004	-0.07673108222	
713.75	0.1134458003	-0.325323846	
714.375	-0.04674848512	-0.1197606956	
715.0	0.07202939674	-0.2201297135	
715.625	-0.1061747243	-0.2271432435	
716.25	0.120708079	-0.07687136875	
716.875	0.4532422946	-0.1590852404	
717.5	0.4354785676	-0.1314349265	
718.125	0.3788301142	0.211683313	
718.75	0.9042575725	-0.09659149042	
719.375	0.8573726202	-0.60492846	
720.0	0.5139562585	-0.3913755194	
720.625	0.9329935553	-1.017757013	
721.25	-0.2846613282	-0.6492329203	
721.875	0.02486114023	-0.8307048729	
722.5	-0.7792387785	-1.036867785	
723.125	-0.6583796127	0.189501799	
723.75	-0.446010753	0.1553390861	
724.375	0.1397707189	0.7068926184	
725.0	0.151399741	0.09900926086	
725.625	-0.01042056532	0.4893188394	
726.25	0.2207013661	0.7414673947	
726.875	0.09948058066	0.5069216696	
727.5	-0.4956563479	1.186583048	
728.125	0.1852549421	2.124607138	
728.75	0.2077710936	1.423318175	
729.375	-2.070650644	3.050330948	
730.0	0.4723145529	4.456533261	
730.625	-0.004982436224	2.083801892	
731.25	-2.496856795	1.947316017	
731.875	-2.482487274	3.427539013	
732.5	-1.200108879	0.4465027623	
733.125	-2.565504751	-0.172617373	
733.75	-0.369189894	1.808761864	
734.375	0.4000677184	0.1394438919	
735.0	0.5402863473	-0.7846247953	
735.625	-0.3329349581	0.5776659528	
736.25	-0.3239706352	0.1675535541	
736.875	0.4941899487	0.7807408595	
737.5	0.8827729385	-0.297446855	
738.125	0.6903822224	0.1940675676	
738.75	2.682393854	-1.159798383	
739.375	0.9397961258	-2.472967978	
740.0	0.8504536147	0.6928394482	
740.625	4.762912497	1.276650563	
741.25	3.281634684	-1.349388297	
741.875	-3.101674077	-2.576605271	
742.5	-3.171673176	-2.289222193	
743.125	-0.4542168278	-0.5900241527	
743.75	0.8784791658	-0.7841907344	
744.375	-0.7140042251	-0.08583593109	
745.0	0.05562554134	0.008316563556	
745.625	0.1368225333	0.03824710687	
746.25	-0.09203390861	0.001199406787	
746.875	-0.2016411601	-0.08016219542	
747.5	-0.0855548695	0.3897672405	
748.125	0.1588446444	0.2974458575	
748.75	0.09802833386	0.3701593825	
749.375	0.2075330138	0.4856655296	
750.0	-0.1272785442	0.166767198	
