!Created with skrf (http://scikit-rf.org).
# GHz S MA R 50.0 
!freq magS11 angS11
500.0 0.0161997699049 -178.37151613
500.625 0.00948085745616 60.0304254661
501.25 0.00844807440359 -47.9199986303
501.875 0.0364463991735 -170.001001908
502.5 0.0371820196431 164.564423278
503.125 0.0136969379088 93.3218601345
503.75 0.0132912285284 -29.8531100208
504.375 0.00467431424195 -69.4060512173
505.0 0.00563317974434 -18.4060096112
505.625 0.0274858329943 -68.9937442202
506.25 0.0594654957305 -105.074344454
506.875 0.0556874184737 -119.105469292
507.5 0.0517941684577 -113.118002994
508.125 0.0567371431379 -88.2129031247
508.75 0.0635808523253 -130.893407224
509.375 0.0534431487535 -141.687354227
510.0 0.0463874529413 -116.652055769
510.625 0.0373422809004 -158.399952065
511.25 0.06793472577 -170.324089697
511.875 0.049388658539 138.130324375
512.5 0.0367526776355 99.6456537641
513.125 0.0539488797338 46.0463800417
513.75 0.0579437672262 29.4442575853
514.375 0.0367872527959 8.2550895431
515.0 0.0412497384787 -6.39603390703
515.625 0.112589480205 47.9793376808
516.25 0.0769691997096 20.6291620095
516.875 0.106844315021 68.2427736317
517.5 0.134513609989 22.0132727765
518.125 0.229807776076 71.9087104378
518.75 0.0772416603373 -0.360756314314
519.375 0.0607350442205 17.3318488438
520.0 0.096080530456 -4.7115418009
520.625 0.121361289872 -3.7457808632
521.25 0.072772285474 -38.3808681831
521.875 0.0654270385701 -0.964183918711
522.5 0.0942077449297 -38.4133872221
523.125 0.202465168081 -33.7412979576
523.75 0.212508530156 -60.7859669527
524.375 0.214457675234 -53.9901080895
525.0 0.072297410746 -54.9301040217
525.625 0.0468810239205 -26.4389273197
526.25 0.0441828766495 -13.4449501413
526.875 0.0554546681646 -20.9659235963
527.5 0.047304648363 -32.3180338213
528.125 0.0513959445109 -59.1361046442
528.75 0.0453232461311 -83.267867786
529.375 0.0812711444523 -115.933367997
530.0 0.0508895664065 -134.109036136
530.625 0.0387123803632 -146.619071947
531.25 0.120059176812 -139.730023868
531.875 0.178040407768 -148.988450665
532.5 0.142411628979 -172.84248362
533.125 0.113603884079 172.426344026
533.75 0.101162300461 164.11628342
534.375 0.10611759943 176.957480612
535.0 0.0828211623485 155.572476993
535.625 0.0771752911501 174.824784464
536.25 0.0598106127299 160.426660543
536.875 0.0894403672621 -164.038404566
537.5 0.100411793674 -146.306793127
538.125 0.104424399469 -177.440110959
538.75 0.104159830203 177.629575943
539.375 0.0841594823209 -164.889954098
540.0 0.0918465216806 -156.951666942
540.625 0.138442377419 -159.875196191
541.25 0.131182247966 -144.437172528
541.875 0.104990208504 -147.361316372
542.5 0.113368411042 -145.638723436
543.125 0.149059226809 -170.423601892
543.75 0.131421513826 157.779796183
544.375 0.0930935696701 133.888349734
545.0 0.0815891880398 86.394432731
545.625 0.115443433202 78.804200653
546.25 0.0805842201751 64.5806272886
546.875 0.0880236607642 52.8391477349
547.5 0.110869309464 55.5796406014
548.125 0.129864771561 75.1130684022
548.75 0.0926270524091 87.6456044816
549.375 0.0951530161199 85.9007391977
550.0 0.0837372870975 119.995589417
550.625 0.0626716206935 146.812339326
551.25 0.0305650471201 -125.126029516
551.875 0.0591049119334 -158.370447242
552.5 0.110262597041 -167.467660191
553.125 0.0979703326567 -174.036940974
553.75 0.0883102620522 -171.710323057
554.375 0.101509366267 168.178165344
555.0 0.123431761118 160.980001883
555.625 0.105522408945 153.62263018
556.25 0.0954363494313 162.013198595
556.875 0.118943215376 163.528060371
557.5 0.121896990194 163.744566173
558.125 0.0992219693019 162.516136028
558.75 0.071738037336 177.559571541
559.375 0.0607999318829 -173.517670749
560.0 0.0451979562003 -151.554345136
560.625 0.0603741578844 -150.632287935
561.25 0.0782996156132 -143.996242996
561.875 0.098993867076 -162.136473932
562.5 0.0904872228025 172.009340888
563.125 0.110270074377 139.052378376
563.75 0.121330813614 130.79464791
564.375 0.102449604692 120.032235519
565.0 0.0889072734483 117.843781599
565.625 0.0916393881567 110.005984432
566.25 0.0771166180787 157.891591434
566.875 0.0754454956353 177.786164427
567.5 0.0780754157931 175.82170841
568.125 0.0856257913802 -176.729529068
568.75 0.0783976071471 -157.088918153
569.375 0.0498400805806 -116.369485507
570.0 0.060828301894 -117.716481702
570.625 0.09387517844 -125.687184055
571.25 0.0852929534092 -116.916438289
571.875 0.0878030794876 -130.84107025
572.5 0.113834006067 -162.15222975
573.125 0.145156909881 -178.953040142
573.75 0.112165647479 156.914158791
574.375 0.0827648750202 146.841725853
575.0 0.102021381807 150.974345901
575.625 0.115647415406 147.565102435
576.25 0.0805227741293 150.428321367
576.875 0.0808368966849 131.66785345
577.5 0.0781614971544 135.601605306
578.125 0.0675858935117 149.559646968
578.75 0.0445858326317 167.117658474
579.375 0.0545048401572 160.405238615
580.0 0.0703996079309 168.922081084
580.625 0.0772863778259 -157.364059345
581.25 0.0874344814316 -165.433961427
581.875 0.113765235008 -179.246657579
582.5 0.120498616574 179.983209756
583.125 0.0951667873697 -172.027414918
583.75 0.0840313393927 -176.160921186
584.375 0.0980122310139 -158.478351227
585.0 0.0918235059385 -140.606902732
585.625 0.0733537469333 -149.359555443
586.25 0.0733290112315 -150.453444451
586.875 0.0819756232471 -140.355640434
587.5 0.0765991544477 -150.123059242
588.125 0.0600693619479 -178.784331601
588.75 0.0673109825805 178.98609669
589.375 0.079374589027 -156.951074476
590.0 0.0953059877648 -165.144225532
590.625 0.103631500812 163.431673845
591.25 0.123857832596 142.876211346
591.875 0.0896764832513 165.73276833
592.5 0.063513251912 148.499474624
593.125 0.056838439391 146.635812778
593.75 0.0741725232517 154.302793172
594.375 0.0607052060445 -148.36294696
595.0 0.0455780138045 -118.838420215
595.625 0.0618769268612 -99.9480174896
596.25 0.0683621016559 -103.679119454
596.875 0.0719462935778 -62.9928343071
597.5 0.0623598243572 -61.0222215527
598.125 0.0650975547391 -64.8020567811
598.75 0.0779451365984 -65.4745914827
599.375 0.0868563981233 -67.8030381429
600.0 0.0994760785857 -72.9103661645
600.625 0.102233467116 -68.8824657661
601.25 0.0863365855116 -86.8157638543
601.875 0.070160003311 -84.7859391192
602.5 0.0661704954503 -75.6471399568
603.125 0.0453510549557 -53.9022108898
603.75 0.0270598399027 -69.8407660723
604.375 0.039379568898 -27.9599965028
605.0 0.0559787978582 -26.7611695864
605.625 0.0497035923946 -21.6524433882
606.25 0.0264181513643 5.32651869274
606.875 0.023094610396 39.657817245
607.5 0.066131577235 45.9758648361
608.125 0.0572993915154 19.2691682399
608.75 0.0446990940276 8.42604161702
609.375 0.0677697289068 31.1930117845
610.0 0.0712466928635 39.9084985224
610.625 0.058359150194 27.020196735
611.25 0.0534876984053 30.3263901086
611.875 0.0333986775506 35.1145971408
612.5 0.0219824674688 89.8467340893
613.125 0.0406778702726 120.051750463
613.75 0.0456794675471 125.968073499
614.375 0.0219727398819 114.383435844
615.0 0.0585320457689 123.63697744
615.625 0.0428005010856 129.44620316
616.25 0.0424586811331 142.061984738
616.875 0.0267633273666 130.911780801
617.5 0.06016265587 128.089907789
618.125 0.0443757510743 128.939188928
618.75 0.0359547783451 148.755621899
619.375 0.00248013532223 -22.7685468821
620.0 0.0177271405102 133.895781681
620.625 0.0102197334841 -135.218698578
621.25 0.0391336799039 -98.6858384732
621.875 0.0683189633349 -91.7210429693
622.5 0.0882034968629 176.677355416
623.125 0.0777329302092 167.55196185
623.75 0.0708782948766 167.299368135
624.375 0.0321876894853 -148.906100795
625.0 0.0490223762462 -150.458797601
625.625 0.0387140641703 -155.454533806
626.25 0.0116859382224 167.486471328
626.875 0.00544766000165 66.5445831394
627.5 0.0326984831846 -18.2988477836
628.125 0.0398383131086 -32.4300916788
628.75 0.0309156807314 -15.6002883944
629.375 0.0439612664463 -7.98099136465
630.0 0.084437415453 6.50624210079
630.625 0.0794629461048 4.4784297103
631.25 0.0734280566015 2.85566835775
631.875 0.0655339076749 -6.00505469281
632.5 0.0641088226376 0.235146629552
633.125 0.05257936889 0.168305975293
633.75 0.0407181448849 -18.6004838004
634.375 0.0488225627106 5.77901790157
635.0 0.0522060784421 36.7118043575
635.625 0.0329615730566 25.5328031845
636.25 0.0533772250871 36.7497277405
636.875 0.071641462083 43.0665233956
637.5 0.0442840568077 41.5045903189
638.125 0.0526263512286 68.0623375006
638.75 0.0734404194232 72.3661304141
639.375 0.0824034498588 83.5666924422
640.0 0.0695788513405 100.890575378
640.625 0.0667634813871 107.596299777
641.25 0.0502239762378 90.4153872756
641.875 0.0611790117687 142.899872412
642.5 0.0585193134854 158.59213613
643.125 0.0624584854294 153.411294767
643.75 0.0680624509955 167.960996234
644.375 0.0771729462692 -172.395601337
645.0 0.0781843080881 178.11240131
645.625 0.106467718248 166.554380134
646.25 0.0828618147618 153.252313026
646.875 0.0621769136258 167.671350251
647.5 0.0596625089609 172.108220553
648.125 0.10280930211 -177.903120959
648.75 0.0666454254553 -179.056733724
649.375 0.0465080394599 -153.954512629
650.0 0.0425597788585 -132.757656405
650.625 0.0745224058601 -92.6240347274
651.25 0.0645236286801 -70.7476384709
651.875 0.0654746718802 -45.179514125
652.5 0.0973977408164 -27.9387352482
653.125 0.120235316731 -4.87833161726
653.75 0.0986356291007 -0.174940969437
654.375 0.0989454225827 3.77043687245
655.0 0.112426302585 8.15774743915
655.625 0.115666308601 25.1220013001
656.25 0.0576219323092 11.5093271983
656.875 0.0676493219952 2.22037689781
657.5 0.0937063493411 19.8152826519
658.125 0.0721310609371 43.1396568227
658.75 0.0668478152585 55.0757473521
659.375 0.0793828345947 35.0278724567
660.0 0.101697752879 23.8824851827
660.625 0.111043605616 15.0300751568
661.25 0.119699886092 -0.631119889042
661.875 0.0978660559628 -17.4183476347
662.5 0.120750517075 -24.1818997037
663.125 0.111920988088 -18.5022060277
663.75 0.113437560144 1.05767308118
664.375 0.0993390567868 48.6127483856
665.0 0.0785600615648 85.0777109481
665.625 0.0763568732654 104.909411063
666.25 0.0584161576074 132.038301142
666.875 0.100210836098 169.517948742
667.5 0.0929192200815 -171.986691976
668.125 0.110846193379 174.711238623
668.75 0.103168857947 166.800962805
669.375 0.131399205096 173.149091953
670.0 0.0887639686487 -175.833666976
670.625 0.0950524838387 -178.109347289
671.25 0.1183967225 169.358056633
671.875 0.107726494078 161.29190433
672.5 0.0815612519003 150.918388043
673.125 0.0881749069118 146.635593137
673.75 0.0897712659887 160.899503525
674.375 0.108546289276 168.278414918
675.0 0.105542840814 -177.048730138
675.625 0.140249885379 -157.347795696
676.25 0.107939063923 -125.417484519
676.875 0.112509492675 -123.261220709
677.5 0.11808902494 -133.746723151
678.125 0.141628616139 -123.034149104
678.75 0.0817271737502 -99.1818984445
679.375 0.0550023797818 -82.0846886977
680.0 0.0825342450369 -88.0395004463
680.625 0.120982028666 -82.0679410405
681.25 0.115934835185 -81.8126159372
681.875 0.0910548439723 -88.7101652963
682.5 0.133547359817 -121.481847609
683.125 0.168794257468 -129.329750045
683.75 0.148331910216 -110.450168835
684.375 0.125175720082 -84.1525932193
685.0 0.12778307566 -41.4779402438
685.625 0.140366193016 -7.48394348972
686.25 0.113547349119 17.9320158504
686.875 0.104092216363 36.9766736212
687.5 0.0790395010041 75.7371862464
688.125 0.0838188385429 99.4528400262
688.75 0.100962798395 108.530809289
689.375 0.148562474051 110.036203429
690.0 0.121112754683 135.701427468
690.625 0.117527542459 126.579790499
691.25 0.140866300597 95.7571897117
691.875 0.203771453441 58.3344834479
692.5 0.123094703457 39.9297792887
693.125 0.0913007937002 -19.5394176469
693.75 0.101766318759 -49.422738154
694.375 0.137619250068 -35.7107570311
695.0 0.14192674006 2.31856294015
695.625 0.093811956489 61.4367486864
696.25 0.111453708641 114.694524266
696.875 0.132857883075 171.041285327
697.5 0.148002217568 -152.298505272
698.125 0.133350436988 -133.357002504
698.75 0.128210861218 -131.544039025
699.375 0.111246108695 -128.729508527
700.0 0.102497890102 -122.906250755
700.625 0.112968510719 -95.526377302
701.25 0.0966739355071 -64.0294467202
701.875 0.0830638739574 -64.6180709016
702.5 0.0965678414922 -94.8852951769
703.125 0.162800783259 -114.549524601
703.75 0.184202689655 -158.638668636
704.375 0.125553836282 167.315748269
705.0 0.113092035232 152.617323368
705.625 0.148359816643 177.35078728
706.25 0.147338533604 -117.587077581
706.875 0.0983082740038 -68.5217144787
707.5 0.0765805144686 -41.8338266639
708.125 0.0935089431579 0.301233278734
708.75 0.110312630946 65.6511846577
709.375 0.106728999235 103.640785488
710.0 0.100652334844 131.303905995
710.625 0.106577327185 141.280793426
711.25 0.121614184333 175.979091889
711.875 0.145249411925 158.324741526
712.5 0.155857911822 140.180322841
713.125 0.136200301678 90.577463224
713.75 0.0980158267553 54.0164720398
714.375 0.110686213597 20.609642536
715.0 0.105705415853 27.3717258013
715.625 0.0864658478272 36.5270600483
716.25 0.0746632712515 65.0939290908
716.875 0.111207713766 96.9528801015
717.5 0.150780745107 143.654719613
718.125 0.119326612235 165.760090455
718.75 0.0960526648696 156.888887454
719.375 0.127285933579 -160.633214627
720.0 0.126531612884 -135.40087007
720.625 0.111851108459 -81.2074620087
721.25 0.0992986589316 -39.4988648142
721.875 0.0845006265425 27.6077946537
722.5 0.0740268442702 60.317008075
723.125 0.0804524167741 63.851138121
723.75 0.089940504604 23.01723663
724.375 0.12893854996 8.24055993475
725.0 0.0998912229669 -40.7088458493
725.625 0.097593641285 -70.3988967153
726.25 0.114364959796 -74.2648382411
726.875 0.100830832187 -57.2897463134
727.5 0.0779218966165 -40.7134042557
728.125 0.0813987587289 -11.2136478666
728.75 0.0918301362318 17.9122663083
729.375 0.070462242071 -4.78179095573
730.0 0.0895304956201 16.1659572483
730.625 0.0676381913472 19.5323817132
731.25 0.0676870527023 60.7207511747
731.875 0.0479194391875 96.1457857737
732.5 0.0696062098993 144.045955072
733.125 0.0814054285637 172.845996878
733.75 0.0670606674573 167.623068866
734.375 0.0396135821022 130.541396574
735.0 0.0959436139374 162.090986157
735.625 0.0769861550353 143.52517966
736.25 0.0446939791305 145.837683549
736.875 0.0244193982979 -156.596916935
737.5 0.11498589628 174.425124995
738.125 0.090434850754 -176.296706316
738.75 0.071329930569 -175.746120128
739.375 0.0256638742805 158.289463422
740.0 0.0281720672168 -142.974261768
740.625 0.0514616956714 -158.678673583
741.25 0.0448568494725 -163.283334974
741.875 0.0427352440521 -107.747975132
742.5 0.0185718256279 57.3755849608
743.125 0.0527138967022 52.9834271109
743.75 0.0378167883761 76.4940066223
744.375 0.0287597677487 111.670417381
745.0 0.0498836195313 165.573995395
745.625 0.0695696186771 117.440621184
746.25 0.0830137709086 70.0781906042
746.875 0.0808046160322 33.7256579497
747.5 0.0274231472972 45.4185856701
748.125 0.0387408518358 -11.7182659046
748.75 0.0240511051611 7.075166501
749.375 0.0276540802807 -43.1137376796
750.0 0.0268752713286 -92.2783691793
