!Created with skrf (http://scikit-rf.org).
# GHz S RI R (50+0j) 
!freq	ReS11	ImS11	
500.0	-0.815007238	-1.763964262	
500.625	1.503546063	-1.928945884	
501.25	-0.8745214591	-4.163698453	
501.875	-2.029068139	0.009510165991	
502.5	0.1941915882	-0.423761005	
503.125	-0.3135304914	0.2369962146	
503.75	-0.09557977794	0.06262089346	
504.375	0.1650620578	-0.06413232119	
505.0	-0.05336401684	0.06304087136	
505.625	0.1273838277	-0.439013429	
506.25	-0.2817466145	0.2982207786	
506.875	-0.0608009561	-0.7866917631	
507.5	-1.689827059	-1.759418618	
508.125	0.1736831799	-0.09977436772	
508.75	3.098605071	-4.312344553	
509.375	-3.210644579	-2.392261769	
510.0	-0.4166025053	-1.778107123	
510.625	-1.064261654	-0.3515610703	
511.25	0.04645869869	-0.2379258866	
511.875	-0.6071323277	-0.2222979223	
512.5	-0.1032518704	0.2012654738	
513.125	-0.06936031134	-0.2982983094	
513.75	-0.03793485654	-0.3090921554	
514.375	-0.698854394	-0.0151905913	
515.0	1.298708338	0.1381386383	
515.625	-2.102887123	-0.9412332432	
516.25	1.57256338	-0.5146447816	
516.875	-1.689971173	-2.982528056	
517.5	-0.6493338556	0.3721015487	
518.125	0.001443483111	-0.4746308681	
518.75	-0.5802277345	0.129721049	
519.375	-0.2460393011	0.01325064118	
520.0	0.5659393132	0.2368257905	
520.625	0.2704927352	-0.2732357962	
521.25	0.4084635493	-0.6733525867	
521.875	-0.6619166937	0.05180858591	
522.5	-0.01224266633	-0.06814993266	
523.125	-0.1192546202	0.2886422576	
523.75	-0.2404983138	-0.3292948701	
524.375	-0.4371329558	0.5387011355	
525.0	-0.1854117065	-0.037077035	
525.625	0.1041339572	0.4037209439	
526.25	-0.1854646139	-0.2821658114	
526.875	0.01137504703	0.3301414893	
527.5	-0.1987842633	0.1575678823	
528.125	0.03822844821	1.294147084	
528.75	0.4878423829	0.3663517816	
529.375	0.02285161767	0.4369419019	
530.0	0.1807332042	0.006225126103	
530.625	0.05370344978	1.500306158	
531.25	1.072220836	-0.3510400287	
531.875	0.7657447256	-0.0312205044	
532.5	-0.4793290871	-0.4954355546	
533.125	0.664637925	0.02056020556	
533.75	-0.2629480804	-0.7009445763	
534.375	0.4577501393	-0.7029125934	
535.0	-1.257217928	-0.2107317496	
535.625	-0.1607395096	0.2065828224	
536.25	-0.1234278966	0.2583590697	
536.875	0.3697082599	-0.01386347738	
537.5	0.09116624834	0.02437412601	
538.125	0.4469285954	-0.3123858603	
538.75	0.1332149285	-0.1963872028	
539.375	-0.02011098763	-0.5652041944	
540.0	-0.6686812845	-0.2868375939	
540.625	-0.2074711015	-0.05059854799	
541.25	-0.1980711906	-0.03984113892	
541.875	-0.229377605	-0.1217984918	
542.5	-0.03617312038	0.04968370936	
543.125	-0.2074080104	-0.3366934929	
543.75	-0.2279849404	0.2473075198	
544.375	-0.2112406198	-0.09849331966	
545.0	0.1399654175	0.2579289259	
545.625	-0.1467998583	0.0805447035	
546.25	0.5464779576	0.1840750454	
546.875	-0.001973205063	-0.1367481424	
547.5	0.4205558799	-0.1754950388	
548.125	-0.2604607401	-0.5769543852	
548.75	-0.1877774696	-0.09662230334	
549.375	-0.2177967091	-0.361789768	
550.0	-0.2580535385	0.1562092586	
550.625	-0.07147732716	-0.1512909184	
551.25	-0.2532496863	0.2160443008	
551.875	-0.1073808316	0.04456677206	
552.5	-0.2131409092	0.2348246077	
553.125	0.0001523643965	0.16837531	
553.75	0.07798880523	0.1350220489	
554.375	0.2695826508	0.01657567682	
555.0	0.2328724837	-0.166879873	
555.625	0.2389292302	-0.250494862	
556.25	0.180605181	-0.3668117357	
556.875	-0.07373630986	-0.4004538512	
557.5	-0.2264456011	-0.2714862209	
558.125	-0.294515112	-0.1277803927	
558.75	-0.2770775086	0.005192766361	
559.375	-0.2412219699	0.02102422428	
560.0	-0.2896740089	0.1742805155	
560.625	-0.07566072354	0.2946472473	
561.25	-0.05793431887	0.1871675488	
561.875	0.1617837507	0.1601967196	
562.5	-0.08329768901	0.06202107161	
563.125	0.279714706	0.2595713644	
563.75	0.2123623634	-0.09523964512	
564.375	0.4007403377	-0.06054979398	
565.0	0.218572963	-0.4916423795	
565.625	-0.1502284164	-0.2794273366	
566.25	-0.1216166129	-0.3237800492	
566.875	-0.5013938492	-0.2240257135	
567.5	-0.1790515543	-0.145626628	
568.125	-0.3621794088	-0.6190549427	
568.75	-0.5832276085	-0.02832995881	
569.375	-0.5163754321	-0.04109294255	
570.0	-0.5153822074	0.7118963712	
570.625	0.1720107895	0.4138432608	
571.25	-0.3424682518	0.07195224793	
571.875	0.5056909176	0.2838036286	
572.5	-0.04334525628	0.06632749014	
573.125	0.5684148854	-0.3456255984	
573.75	-0.1832437247	-0.3964576674	
574.375	0.3054689267	0.08038443217	
575.0	-0.1088219474	-0.4162232798	
575.625	0.2052473039	0.144110119	
576.25	0.3359728055	-0.4993912167	
576.875	-0.3003018593	-0.3253257368	
577.5	0.164226993	-0.1525482881	
578.125	0.03727062019	-0.6199070168	
578.75	-0.4137370525	-0.2360063787	
579.375	0.0181677435	-0.05538865026	
580.0	-0.2789868162	-0.3079195232	
580.625	0.04724694657	0.1191434239	
581.25	-0.5253607957	-0.02371635278	
581.875	0.1902841755	0.6051328509	
582.5	0.2002597121	-0.05194095273	
583.125	-0.2526668865	0.4602461853	
583.75	0.586682802	-0.1971531115	
584.375	-0.3493473402	0.3891276558	
585.0	0.6441364948	0.04520086319	
585.625	-0.06451036443	0.01921962914	
586.25	0.7494415204	0.03417384832	
586.875	-0.1087191469	-0.4847100558	
587.5	0.1680263417	-0.1012858141	
588.125	0.09869188551	-0.6225068432	
588.75	-0.2299730267	-0.3656346113	
589.375	0.3580377207	-0.08011263902	
590.0	-0.1375315687	-0.645791085	
590.625	-0.3672306065	-0.006940696863	
591.25	-0.3913644884	0.08314872693	
591.875	-0.1294452511	0.4580290199	
592.5	-0.002897206992	-0.06575459748	
593.125	-0.1003495572	0.2596942774	
593.75	0.1953041858	0.1149405753	
594.375	0.01718010799	0.4094205564	
595.0	0.7975479113	0.5861054124	
595.625	0.252673694	-0.3039071171	
596.25	0.2884870393	0.5843782109	
596.875	0.6907701254	-0.1884148636	
597.5	-0.06978379266	0.3004589494	
598.125	0.7311430158	0.5073805412	
598.75	0.1987134591	-0.03543359072	
599.375	0.6170090294	0.333328372	
600.0	0.4775070224	-0.5695777376	
600.625	0.1416831788	-0.349624254	
601.25	0.3641150852	-0.3356782895	
601.875	-0.2010504201	-0.4369385451	
602.5	-0.3042105489	-0.06372266205	
603.125	-0.2258956734	0.07369814687	
603.75	-0.3410382091	0.1037173659	
604.375	-0.1970220738	0.2573611327	
605.0	-0.216836602	0.0417860714	
605.625	-0.2100396028	0.3123734859	
606.25	-0.1198748945	-0.08787121913	
606.875	-0.8722301092	0.2849333572	
607.5	0.05261366451	0.403448829	
608.125	-0.5928227523	0.3940750106	
608.75	0.8818596405	0.4999212225	
609.375	0.1403522468	0.06313207328	
610.0	0.7791662107	-0.2427988576	
610.625	-0.1017363884	-0.4485329703	
611.25	0.4773568481	-0.2859206048	
611.875	-0.5019511298	-0.2310906541	
612.5	-0.101335534	-0.2807067568	
613.125	-0.7285107085	0.07070675827	
613.75	0.04870803311	0.163237849	
614.375	-0.0720940877	0.5578091484	
615.0	0.2134971428	-0.1985085054	
615.625	-0.291173945	0.4994946514	
616.25	0.2993758648	0.2534078312	
616.875	-0.5237521827	0.2083250017	
617.5	-0.1720619913	0.890088017	
618.125	0.1334328512	0.2197602636	
618.75	-0.2512100691	0.6432598243	
619.375	0.3822726688	0.3129297621	
620.0	0.2904799944	0.3040535853	
620.625	0.3077153662	-0.4881513245	
621.25	-0.0578724951	-0.348513524	
621.875	-0.6039066202	-0.2908103578	
622.5	-0.3794834749	0.1046865761	
623.125	-0.3348938815	0.4471433292	
623.75	0.4760039152	-0.1078239546	
624.375	0.07503119806	0.3304961052	
625.0	-0.1273543008	-0.479582657	
625.625	0.3066199697	0.1474994404	
626.25	-0.2268279611	-0.6812773011	
626.875	-0.2247051353	0.169010607	
627.5	-0.3263317749	-0.5449585337	
628.125	-0.4604209851	0.04899506115	
628.75	0.1572207304	-0.2494284568	
629.375	-0.3598077972	-0.6240574327	
630.0	-0.3563944542	0.01651452373	
630.625	-0.4931679984	-0.129108026	
631.25	-0.5149142517	0.5110226856	
631.875	-0.05959372549	0.5946882375	
632.5	0.3228423503	0.3937149116	
633.125	0.3996997522	0.3453892668	
633.75	0.4758266144	-0.2858810336	
634.375	0.1744601785	-0.1653681597	
635.0	0.05202501388	-0.5391454869	
635.625	-0.2502036482	0.001805356887	
636.25	-0.5300054724	-0.1319173061	
636.875	-0.1496580194	0.607723004	
637.5	0.1568632804	-0.0942862569	
638.125	-0.6944610152	0.3279058182	
638.75	0.2483690612	0.5207834518	
639.375	-0.3106371034	0.2613932595	
640.0	0.3067043791	0.9741365131	
640.625	0.6105659781	0.08966865182	
641.25	0.3940441678	0.4166505685	
641.875	0.5026054503	-0.8248652656	
642.5	-0.09998838696	-0.1307053422	
643.125	0.01904551499	-0.6259326952	
643.75	-0.7518958385	-0.07576341977	
644.375	0.0444704388	-0.0004346854151	
645.0	-0.6788416595	0.1698058823	
645.625	0.24630678	0.7542584235	
646.25	0.3075347683	-0.1531806022	
646.875	0.2441477428	0.5044431411	
647.5	0.005138675174	-0.472537296	
648.125	0.4318063605	0.6163922195	
648.75	0.8362123796	-0.5622828111	
649.375	-0.009886492278	-0.2064556766	
650.0	1.317258544	-0.4857651368	
650.625	-0.02540265483	-1.435597845	
651.25	0.01455574355	0.08093619962	
651.875	1.344864846	-0.1682267698	
652.5	0.5733033184	-0.7818347066	
653.125	0.3196831839	0.3087582941	
653.75	0.9047431291	-0.8182007832	
654.375	-0.4765484319	-0.4731436353	
655.0	-0.1286983943	-0.5281595634	
655.625	-1.051730469	0.6340949197	
656.25	0.4949009185	0.1842993631	
656.875	-0.2731537336	0.2136347332	
657.5	0.3641277824	0.3642257011	
658.125	0.09473144316	0.09393368641	
658.75	0.807254625	0.7227759194	
659.375	0.7519773377	-0.6394169214	
660.0	0.360533638	-0.4036258745	
660.625	0.8637469316	-0.662197956	
661.25	0.1163391564	-1.312637821	
661.875	0.1946265294	0.0498287664	
662.5	1.314676764	-0.3778988689	
663.125	0.4055661073	-0.8977145931	
663.75	0.4197030733	-0.0534544799	
664.375	-0.0265796467	-1.391151729	
665.0	-0.4404426465	-0.04323632879	
665.625	-0.8986367774	-0.3382758594	
666.25	-0.2839677582	1.008567793	
666.875	0.3380277209	0.1390690801	
667.5	0.2113643632	0.609598821	
668.125	0.7906248831	-0.1454640756	
668.75	0.2255713487	-0.3192673255	
669.375	0.4925349451	-0.3359331704	
670.0	-0.1403617112	-0.7803091217	
670.625	0.161027081	-0.2212692851	
671.25	0.2583941972	-0.5736576276	
671.875	0.09534151722	-0.462959864	
672.5	0.5270322877	0.004065231737	
673.125	0.8813302927	-0.5647974666	
673.75	0.02296856798	-0.7863421291	
674.375	0.2878166214	-0.07978866225	
675.0	0.07226052504	-1.073062977	
675.625	-0.8150962693	0.166202298	
676.25	-0.07298170222	-0.7207925046	
676.875	-0.7444358583	0.4107666509	
677.5	0.2033452559	-0.2394227752	
678.125	-1.01796963	0.5813807952	
678.75	0.5581325938	0.2220006363	
679.375	0.1063619385	0.3611518705	
680.0	0.6883492684	0.03901983687	
680.625	0.1017082298	-0.6276447769	
681.25	-0.0522987628	0.3660807313	
681.875	0.6632751539	0.1458073373	
682.5	0.456585108	0.07290089932	
683.125	0.3089651566	0.2372649145	
683.75	0.9640106256	0.324515474	
684.375	0.4301336171	-0.09603728278	
685.0	0.5356700576	0.459676734	
685.625	1.261653544	-0.04192023138	
686.25	-0.06187094126	-0.4365551923	
686.875	1.571946628	0.6019354068	
687.5	0.2091027358	-1.783801458	
688.125	0.5556500355	-0.1644582295	
688.75	-1.344562175	-1.308766235	
689.375	-0.07458835837	1.095235774	
690.0	-0.7640087096	0.8157807346	
690.625	1.208778346	0.5079777582	
691.25	0.2369194076	0.5297418795	
691.875	1.19950628	1.247189602	
692.5	1.553520741	0.2372616349	
693.125	1.390279137	0.1848290003	
693.75	1.479661544	-0.5913046813	
694.375	1.060282838	-0.7320739614	
695.0	1.259257692	-0.9328191104	
695.625	0.8178834359	-0.1570378719	
696.25	1.583276975	1.000878157	
696.875	1.164169874	0.3265086968	
697.5	0.1122287947	1.544607745	
698.125	2.305161486	0.6518423707	
698.75	0.2960331856	-0.3733016946	
699.375	-0.4826950761	-2.048404305	
700.0	-0.5165945903	1.349870978	
700.625	-0.5424762107	0.385005689	
701.25	1.199393539	0.5691776214	
701.875	0.1092371084	0.3610708933	
702.5	1.051434358	1.148606688	
703.125	0.845296251	-0.2320665415	
703.75	1.049530397	0.3423368807	
704.375	0.7188644542	-0.9428780682	
705.0	0.1395889861	0.1251599781	
705.625	1.450387385	-0.01370320869	
706.25	0.24889714	-0.08967493321	
706.875	0.2350035566	1.281686831	
707.5	1.331523419	0.7561646241	
708.125	0.442143169	0.6403202368	
708.75	1.367165697	-1.136941049	
709.375	-0.8217479107	-0.3353273922	
710.0	-0.7997889753	0.0617413623	
710.625	0.3580440392	0.6626968015	
711.25	0.004971329028	0.2109161904	
711.875	0.5825790137	0.3593048889	
712.5	0.5864702766	0.2075539939	
713.125	0.9357201808	-0.6611374511	
713.75	0.0147293468	-0.3236798946	
714.375	0.448167148	-0.8009602282	
715.0	-0.4573571873	-0.4089562802	
715.625	0.5874798905	-0.251084273	
716.25	0.2330521762	-1.415478321	
716.875	0.07187267595	0.1952562341	
717.5	2.276171679	0.7396568737	
718.125	2.387577719	-1.436553199	
718.75	0.1537077359	1.170352284	
719.375	4.114425694	-1.266756412	
720.0	0.09952739516	-1.949765016	
720.625	1.294895207	-1.63177305	
721.25	-0.1827010855	-4.033884258	
721.875	-0.3038700847	-1.13708786	
722.5	-1.247798351	-3.178994823	
723.125	-2.417673687	-0.2841575548	
723.75	-0.5792814173	0.8872407134	
724.375	-0.3770046009	0.9615470945	
725.0	0.614864778	1.346905472	
725.625	0.7106886167	0.5715166998	
726.25	-0.6003637891	1.461041031	
726.875	-0.3014299021	3.842183282	
727.5	1.298433331	1.62842559	
728.125	-3.641448067	5.764280003	
728.75	3.697619235	9.583463585	
729.375	0.2018971103	0.9464571028	
730.0	-15.26897602	22.13880912	
730.625	13.97680547	11.94596789	
731.25	-7.394789679	0.2960152263	
731.875	-12.84940566	9.153943914	
732.5	-9.001048539	8.693934611	
733.125	-3.442028296	-3.194892853	
733.75	-3.900777772	5.030620028	
734.375	1.880007139	0.8047565177	
735.0	1.009784246	-0.6402714979	
735.625	-2.435260784	0.5250060987	
736.25	0.3917820982	0.2461431008	
736.875	0.2547615823	2.120978824	
737.5	3.625228433	1.167353417	
738.125	3.803968862	-3.769003186	
738.75	1.636807727	2.058386185	
739.375	12.50327365	-9.199098019	
740.0	-4.064810746	-9.074372557	
740.625	4.091630784	16.53818205	
741.25	29.18714606	11.23922872	
741.875	-0.2019106048	-15.79639976	
742.5	-10.02287891	-15.29899795	
743.125	-4.585220621	-5.989427075	
743.75	1.658430532	0.05481340569	
744.375	-1.978582873	-1.45840163	
745.0	0.6239498216	0.1767699859	
745.625	0.2934104467	0.2994303167	
746.25	-0.2797884912	-0.3332816738	
746.875	-0.466136817	-0.1527781057	
747.5	-0.5854108894	1.203432256	
748.125	0.9149223695	0.9205248907	
748.75	0.04919656925	1.240589608	
749.375	-0.1255354249	1.620457187	
750.0	-1.091692043	1.589907275	
