!Created with skrf (http://scikit-rf.org).
# GHz S MA R 50.0 
!freq magS11 angS11
500.0 0.0181680678738 138.091798434
500.625 0.00893972296789 105.714970576
501.25 0.0101159127665 -59.306058394
501.875 0.0286538438659 -169.58618399
502.5 0.0216309202856 173.168470156
503.125 0.0122880035318 35.2844324451
503.75 0.0162923981956 123.108926685
504.375 0.00550442869622 124.317907992
505.0 0.00698483703654 -69.2207400499
505.625 0.045946502073 -84.5045256189
506.25 0.0352223621314 -119.013425431
506.875 0.0493772253778 -116.436554299
507.5 0.0411451001457 -115.060335874
508.125 0.0644748031315 -80.7903504299
508.75 0.0640669709859 -129.909089245
509.375 0.0491666208466 -136.55478441
510.0 0.0356672220596 -117.690832003
510.625 0.0545434296636 -155.534812763
511.25 0.0495233274519 177.706617406
511.875 0.0474165522432 137.76429724
512.5 0.0360836225898 94.5150295239
513.125 0.0655540644412 56.7498887784
513.75 0.0508358281987 38.342305784
514.375 0.0497292900534 24.6277331359
515.0 0.0648329206834 9.10437680453
515.625 0.0678783626329 45.0619253522
516.25 0.0910689945558 30.061664799
516.875 0.122183618039 71.7437028503
517.5 0.121876078648 21.9746549239
518.125 0.197994433243 70.194587838
518.75 0.0782538955688 6.39043319604
519.375 0.0643107083932 14.2562089084
520.0 0.116607204844 -0.769858301315
520.625 0.0937068777677 -10.9940629039
521.25 0.0812458435893 -24.340795015
521.875 0.0730814585939 1.86216170901
522.5 0.10093616098 -31.1884702907
523.125 0.178822755368 -35.3500322584
523.75 0.210917541543 -58.7578908335
524.375 0.207108644628 -49.6279460902
525.0 0.0761263066189 -37.4452230098
525.625 0.0317401082388 -62.2425210038
526.25 0.035154149952 -17.31341843
526.875 0.0526192920409 -20.2705638422
527.5 0.0591311864828 -23.0975915128
528.125 0.0270302328218 -66.7398157459
528.75 0.0619256544624 -71.059832604
529.375 0.0805029393567 -115.078438003
530.0 0.0565910767999 -124.815859768
530.625 0.0340492326334 -140.31357658
531.25 0.120105631846 -131.60707646
531.875 0.169516379587 -147.288484073
532.5 0.156503306636 -169.429667616
533.125 0.0791128296847 173.057116311
533.75 0.104055518819 168.974855814
534.375 0.102180097432 176.963459435
535.0 0.0959428681543 164.995398474
535.625 0.0543469021824 174.990185592
536.25 0.0495844410492 167.266559071
536.875 0.0839748834162 -159.122758683
537.5 0.106556804284 -144.189428606
538.125 0.101398086799 -172.300493432
538.75 0.0913942218246 -179.376650164
539.375 0.0757945971087 -161.702955904
540.0 0.106952171471 -157.283081653
540.625 0.115077339246 -155.591789308
541.25 0.124406995061 -138.760314196
541.875 0.0996689266978 -141.694345388
542.5 0.118100762459 -143.141104467
543.125 0.124042471161 -163.828619871
543.75 0.119633401893 160.76329639
544.375 0.0879625774356 136.442662256
545.0 0.0965375910955 92.4982971077
545.625 0.0866514998307 84.0925334691
546.25 0.0923472923623 69.9737160127
546.875 0.0943687557503 56.2319303696
547.5 0.125419192136 58.3140131677
548.125 0.102638266936 79.4582558141
548.75 0.0819318120984 92.9053771698
549.375 0.0854989962371 87.7940035015
550.0 0.100475723116 127.346010265
550.625 0.0323010754978 163.420267251
551.25 0.0411941245414 -137.844748301
551.875 0.0608585954792 -155.618582983
552.5 0.12228425728 -166.955572876
553.125 0.0819041170313 -160.3857331
553.75 0.0869310496454 -165.376709742
554.375 0.103406640423 168.422970726
555.0 0.136876322534 162.439634893
555.625 0.0946850653903 159.83502373
556.25 0.0975661538891 164.294819778
556.875 0.122781313865 166.750347868
557.5 0.115919022268 168.13117305
558.125 0.102651492864 165.326949705
558.75 0.0831983468377 -179.674266433
559.375 0.0584596812051 -172.39279851
560.0 0.0516173311581 -150.820913253
560.625 0.0549483458274 -132.332477488
561.25 0.0882908894794 -147.78923779
561.875 0.100632084516 -161.103079573
562.5 0.0952835768114 174.373337673
563.125 0.0962502105633 153.127198224
563.75 0.12397665389 135.01045537
564.375 0.097090589363 122.945789319
565.0 0.0930833735771 118.953808715
565.625 0.0721798524807 122.654739752
566.25 0.0910060478143 157.958630799
566.875 0.0783589035415 179.137872223
567.5 0.0742853399095 -176.261581698
568.125 0.0863742272451 -171.983852442
568.75 0.0596189688514 -138.859684017
569.375 0.0481793965023 -102.337040265
570.0 0.0628489703736 -108.737792764
570.625 0.0937849802629 -116.666196808
571.25 0.0908652065972 -118.61445133
571.875 0.0896180541478 -125.342508654
572.5 0.113969220682 -155.982488835
573.125 0.146313783059 -175.917337353
573.75 0.0946834261611 166.537629899
574.375 0.0853345258067 147.745349889
575.0 0.108124443484 153.867591989
575.625 0.10966893323 156.162529865
576.25 0.0858017013373 148.239482865
576.875 0.073278650982 133.384039807
577.5 0.0894236748113 134.29326557
578.125 0.0540607524689 167.312023124
578.75 0.0484279554688 165.297572975
579.375 0.0577222787991 157.824548548
580.0 0.0693238270286 -176.094740255
580.625 0.0793668258941 -154.062777315
581.25 0.0915881573672 -161.872297575
581.875 0.115508371214 -171.407723774
582.5 0.117476871895 -173.488463769
583.125 0.0978375303396 -173.60543985
583.75 0.0784879699074 -155.006247776
584.375 0.10219496506 -150.749561624
585.0 0.0887028855976 -141.630457573
585.625 0.0755162065954 -151.805086201
586.25 0.0685830573909 -128.279352285
586.875 0.0825762792612 -128.723634615
587.5 0.0738535181418 -142.912354708
588.125 0.0606520730386 177.395265635
588.75 0.0692469233306 -144.34047963
589.375 0.0865530564964 -144.456143991
590.0 0.0912737148467 -163.693982315
590.625 0.102194816827 158.959287926
591.25 0.119002126208 166.068163211
591.875 0.0948481284614 158.757620414
592.5 0.0628812429296 146.877571507
593.125 0.0621444446041 139.628224727
593.75 0.0715455424433 -167.58320336
594.375 0.0558907766083 -139.260977193
595.0 0.0449630871442 -105.722880891
595.625 0.0530916827104 -111.434469875
596.25 0.079558101514 -73.3313267501
596.875 0.0677032237583 -71.1196741013
597.5 0.0574021463127 -62.8077109876
598.125 0.0580411770005 -71.4986927238
598.75 0.079566960621 -60.085832735
599.375 0.0956004713678 -59.2073283962
600.0 0.103681792745 -64.7514635605
600.625 0.0981134490605 -72.8474459328
601.25 0.0835777428039 -60.6199895066
601.875 0.0695547385577 -78.5163362541
602.5 0.0566119988903 -78.3299411362
603.125 0.0436465622988 -77.9368765782
603.75 0.029449331651 -35.6907216569
604.375 0.0425394396127 -21.8951972171
605.0 0.0598923291505 -21.1979970072
605.625 0.0520412685862 -5.40872032512
606.25 0.0210180257087 -11.9568615401
606.875 0.0462377070462 54.6905766141
607.5 0.0748356506038 48.5986168995
608.125 0.070226344976 28.2136700106
608.75 0.0640258355832 22.9188570792
609.375 0.0652143172696 32.5698000122
610.0 0.0665937119731 38.602953311
610.625 0.0641389735251 35.9194927299
611.25 0.044755459725 19.8274118515
611.875 0.0382240748816 64.2695055739
612.5 0.0351924491014 104.593424877
613.125 0.0341895404726 131.030181033
613.75 0.0221744972482 131.025233436
614.375 0.0459879017766 134.135339272
615.0 0.0335142438412 119.587851487
615.625 0.0255361223128 147.946669054
616.25 0.0485687889247 137.581237636
616.875 0.0444468740199 130.008349862
617.5 0.0417489613599 122.155599751
618.125 0.033869638467 144.474452929
618.75 0.0199540368301 147.218624789
619.375 0.0245861508937 163.485241521
620.0 0.0145800600815 161.031777482
620.625 0.0186627696052 -137.261998001
621.25 0.0563694751378 -77.527303592
621.875 0.0755596750485 -122.528707819
622.5 0.0737316845591 -171.376809515
623.125 0.0651020116874 179.664760454
623.75 0.0526497182195 171.897801201
624.375 0.0476043896124 -174.839380128
625.0 0.0437378943226 -147.65213471
625.625 0.0279810262097 -150.767857557
626.25 0.0197964973734 163.798803863
626.875 0.0203728715954 1.76500029536
627.5 0.0227762142207 -49.7001094213
628.125 0.0328271722438 -49.9273855501
628.75 0.0348534652023 -23.9677511049
629.375 0.0645035203323 2.38837741108
630.0 0.0615194041287 -29.6442545748
630.625 0.0692192786679 -2.9735817281
631.25 0.0661964200501 3.53841485509
631.875 0.0720393544793 9.42567727812
632.5 0.0630282452137 -14.1594800571
633.125 0.0482967769935 -13.4751973177
633.75 0.0458019044105 -4.54376255882
634.375 0.0562153013771 36.3987085536
635.0 0.0371755555034 16.3402086897
635.625 0.0351546031552 37.368934054
636.25 0.0594836141274 49.1841332786
636.875 0.0623072645742 43.4760573649
637.5 0.0583503542433 56.9185352761
638.125 0.0240279193983 36.573111183
638.75 0.0605417134502 71.7144078778
639.375 0.089728483903 86.8918943322
640.0 0.0822999125385 112.125386531
640.625 0.0496480967813 79.8315002485
641.25 0.062105688108 122.023676807
641.875 0.0603680908375 140.634546333
642.5 0.0651348241597 164.990739301
643.125 0.0540346826589 158.235295364
643.75 0.0544073246252 167.835527555
644.375 0.0717262990714 -171.966145374
645.0 0.0902484789943 -177.442930671
645.625 0.0720416398255 155.249554116
646.25 0.0821867906112 160.283075909
646.875 0.0721966464798 176.956830875
647.5 0.0780440151592 -172.43739722
648.125 0.0709527401041 177.421199604
648.75 0.0764608411928 -161.540244826
649.375 0.0549800253275 -141.559765151
650.0 0.0543028270282 -115.056785745
650.625 0.0793795346745 -85.6162639423
651.25 0.0666851871792 -63.0868120521
651.875 0.0716114252252 -40.7898910479
652.5 0.0929334829947 -20.6401609273
653.125 0.133315625297 -0.159674261338
653.75 0.111498779438 6.48462159181
654.375 0.102728023964 4.80758402529
655.0 0.132865341021 14.8742206768
655.625 0.0890259934737 23.9649916598
656.25 0.0590602476396 23.0225642875
656.875 0.0755889448909 10.6387212434
657.5 0.0835308084472 26.6383592776
658.125 0.0840025136121 50.7347607952
658.75 0.0409889569094 72.2780844391
659.375 0.0736092318042 46.0617662904
660.0 0.108172679401 24.8302071388
660.625 0.1263263391 17.5056340081
661.25 0.0867249144886 5.33070367009
661.875 0.121116344291 -11.4983792617
662.5 0.11309582574 -20.7197447082
663.125 0.114476047356 -14.332415205
663.75 0.0785156617147 4.32962371604
664.375 0.0839491532529 55.8511960396
665.0 0.0752871313054 93.580020805
665.625 0.0540133763603 110.90736689
666.25 0.0783577593467 137.779679305
666.875 0.106691979958 173.295789526
667.5 0.105683056157 -168.398799137
668.125 0.100083876671 -176.803781219
668.75 0.128825227598 168.716555823
669.375 0.132773149729 179.77314331
670.0 0.0867605492118 -168.2104026
670.625 0.0942104106633 -172.230736245
671.25 0.105322623485 175.844305843
671.875 0.10070958231 172.272671078
672.5 0.072754767746 156.758367767
673.125 0.0913975717739 151.961775964
673.75 0.111247962618 161.642208533
674.375 0.112454875812 169.364821657
675.0 0.124637198785 -175.16304037
675.625 0.133596398364 -148.41306906
676.25 0.11968149222 -122.628397375
676.875 0.121072029653 -120.623977126
677.5 0.131937453455 -128.590577881
678.125 0.138477612466 -115.895479707
678.75 0.0591564578449 -89.6705513917
679.375 0.0492754854027 -68.5090138458
680.0 0.0834414034752 -77.4845505609
680.625 0.134470849608 -79.4186671648
681.25 0.0927102916127 -66.1892427303
681.875 0.100371520482 -89.1615064507
682.5 0.142477757053 -121.897209596
683.125 0.16850571431 -120.242741363
683.75 0.146968279714 -105.451125701
684.375 0.108391370917 -75.6231820412
685.0 0.125003499541 -34.3263337042
685.625 0.1322612805 -0.357639498121
686.25 0.119109173305 20.3430802129
686.875 0.0710467860741 54.8489953693
687.5 0.0752446581234 94.6877055341
688.125 0.0849618927566 110.098411902
688.75 0.10810120863 108.450900234
689.375 0.127185802683 131.534851259
690.0 0.1315549278 135.637148462
690.625 0.113885155191 128.082746939
691.25 0.148537850215 94.1771089172
691.875 0.1803474938 71.3873295917
692.5 0.138299561387 41.4378756216
693.125 0.0941875030508 -15.6679795648
693.75 0.098457943977 -38.2249133677
694.375 0.145800759022 -32.469650648
695.0 0.113491431641 24.6187256753
695.625 0.101219503661 59.4947663739
696.25 0.11135457686 117.257775623
696.875 0.144007932129 170.630354646
697.5 0.150033682485 -147.587729238
698.125 0.139145628158 -131.364880986
698.75 0.126844063704 -131.080010684
699.375 0.116827114971 -128.409410281
700.0 0.0873079932632 -101.875992722
700.625 0.106547899422 -81.804449712
701.25 0.0919685466112 -60.8889372834
701.875 0.085844883821 -66.3021745763
702.5 0.102384722033 -71.5737681847
703.125 0.171747537014 -118.37336833
703.75 0.193150317219 -156.469324374
704.375 0.129202313387 171.147295168
705.0 0.114889343015 155.159647618
705.625 0.135683230125 -156.678695285
706.25 0.136191936228 -103.85324912
706.875 0.0887563621041 -61.0520919767
707.5 0.0806879492115 -45.4049645667
708.125 0.0909330693971 37.6517677778
708.75 0.117917468338 72.8252313059
709.375 0.104459480919 111.621776887
710.0 0.10310046619 124.184962112
710.625 0.107961294771 154.420809429
711.25 0.121074942696 177.231430202
711.875 0.145646275752 166.289886901
712.5 0.156872128849 137.934919007
713.125 0.114428162101 111.642809821
713.75 0.0979879750378 51.475074561
714.375 0.107374309815 14.7886787137
715.0 0.11540908131 22.7067698568
715.625 0.0856102733667 43.1550967713
716.25 0.0866232134178 86.223207749
716.875 0.127362112411 108.764893584
717.5 0.147227340751 154.505827542
718.125 0.116490747172 158.734863173
718.75 0.107704503688 -175.503250618
719.375 0.114907211883 -170.83370838
720.0 0.13253524938 -130.215226845
720.625 0.113859197254 -74.7472948377
721.25 0.096293926203 -11.1316627561
721.875 0.0855279169773 46.5944569783
722.5 0.0720299463316 76.5265800276
723.125 0.0716404246721 57.3056503974
723.75 0.134450948967 57.8269357253
724.375 0.113576033452 1.01866276538
725.0 0.0910374097952 -42.7732019413
725.625 0.103265249517 -65.3168624132
726.25 0.106920108683 -77.0476608726
726.875 0.10008958831 -44.5376373935
727.5 0.0850705822771 -30.36309177
728.125 0.081610705184 2.49747977148
728.75 0.0681074642936 -0.0889491776763
729.375 0.107822002119 37.3375363359
730.0 0.0716190370032 5.28975477213
730.625 0.0554406019498 13.6555998327
731.25 0.0742396128521 64.1319478875
731.875 0.0627820594956 110.269354344
732.5 0.0777280036782 156.344592187
733.125 0.103234236623 -176.095441882
733.75 0.0763923208572 171.453481435
734.375 0.0771443974814 -165.89475033
735.0 0.0629281632553 160.968249613
735.625 0.0607625219966 154.038367195
736.25 0.027360685831 144.83251152
736.875 0.0578022210736 174.388880756
737.5 0.0756006951815 178.596384339
738.125 0.0852244507342 -177.625048327
738.75 0.0761633134706 -176.241946906
739.375 0.0326253389087 174.159350177
740.0 0.0609051459016 -131.435180872
740.625 0.0770270728694 -150.075917805
741.25 0.0548710074941 -151.511826987
741.875 0.0109789005463 -44.2683042152
742.5 0.0428800381456 -3.4099364321
743.125 0.0479263244828 58.1245203641
743.75 0.0474765092251 81.621538123
744.375 0.0405903927526 173.872990941
745.0 0.0823895640415 110.039155161
745.625 0.0755771178412 102.648065631
746.25 0.0864479448833 82.9887430759
746.875 0.056600936917 53.1008100061
747.5 0.0531136676457 3.14224240598
748.125 0.0195465793525 -0.00991131134997
748.75 0.02376420769 -19.0230047831
749.375 0.0332663161185 -47.7561216267
750.0 0.0414071305416 -44.5964737857
