!Created with skrf (http://scikit-rf.org).
# GHz S RI R (50+0j) 
!freq	ReS11	ImS11	
500.0	0.8113119746	-1.625424179	
500.625	-0.3866004997	-2.001651454	
501.25	-0.1563965615	-0.7135139835	
501.875	-0.4907603283	-0.9321775359	
502.5	-0.1221335997	-0.04934191485	
503.125	-0.09114394388	-0.04908664823	
503.75	0.1192068558	0.1671112073	
504.375	-0.004703571261	0.007588922793	
505.0	0.05674757695	-0.08695920015	
505.625	-0.05645079107	-0.004765096255	
506.25	0.03320626751	-0.1681134146	
506.875	-0.2193730692	0.3279663735	
507.5	0.3812541569	-0.3900617504	
508.125	0.2751871186	-1.415692208	
508.75	0.08157612679	-0.8504343712	
509.375	0.5278355007	-2.013507959	
510.0	-1.237991639	-0.5018183027	
510.625	-0.1405179309	-0.09252725819	
511.25	-0.1483496542	-0.06995281319	
511.875	-0.220362688	0.04198819636	
512.5	0.008807573602	0.02671567762	
513.125	0.01657150631	-0.1573145252	
513.75	-0.133547762	0.0335387476	
514.375	0.05615370718	-0.1751137102	
515.0	-0.4849185916	-0.01893497009	
515.625	0.7254043752	-0.3060761068	
516.25	-1.058058334	-1.360695316	
516.875	0.005254602264	-0.06155452526	
517.5	0.152670078	-0.2357990687	
518.125	-0.1515627284	-0.01761628941	
518.75	0.1003264279	-0.1435240747	
519.375	-0.06026184164	0.08890709606	
520.0	0.1478613486	0.01589403933	
520.625	0.1421287112	-0.02216465402	
521.25	0.0738674435	-0.4615429399	
521.875	-0.2204642373	-0.05213871825	
522.5	0.003905837877	-0.02205622905	
523.125	-0.1950739815	0.1334351297	
523.75	0.009854858076	0.08015264575	
524.375	-0.3033399002	-0.1565048744	
525.0	0.1015719622	0.320592689	
525.625	-0.05183244146	-0.04364141161	
526.25	0.05481880251	0.07404814982	
526.875	-0.1409984057	0.002966981465	
527.5	-0.09470290428	0.4148185086	
528.125	0.12772488	0.2041108112	
528.75	-0.1287041191	0.2004889856	
529.375	0.02625769629	-0.02220800349	
530.0	-0.04454345876	0.07806875909	
530.625	0.09077136107	0.2775076444	
531.25	0.7135599257	0.1471852983	
531.875	0.04004012976	-0.2430625547	
532.5	-0.04655257035	-0.2544027803	
533.125	-0.1497632095	0.05192099453	
533.75	0.2080340313	-0.3988407195	
534.375	-0.3869441148	-0.2680332928	
535.0	-0.208836635	-0.133664806	
535.625	-0.2910648993	0.2017924683	
536.25	0.05319189269	0.1044119274	
536.875	0.08872866075	0.07337365836	
537.5	0.1173182824	-0.09789829976	
538.125	0.07757030939	-0.05307841878	
538.75	0.2583284075	-0.1316246448	
539.375	-0.1298865107	-0.2141316755	
540.0	-0.1379880431	-0.1638357261	
540.625	-0.1623112496	-0.06080001276	
541.25	-0.160660499	0.0195880654	
541.875	0.006926375286	-0.05641560956	
542.5	-0.1318982812	-0.07455172448	
543.125	-0.08972712112	0.1052504485	
543.75	-0.1158110227	-0.101839774	
544.375	-0.01731222727	0.2203650484	
545.0	-0.05274796727	0.01124764742	
545.625	0.1384933481	0.1141765946	
546.25	0.06011761084	-0.02442974256	
546.875	0.19665466	0.06232271131	
547.5	0.04405515572	-0.231396461	
548.125	-0.02657469085	-0.1076163701	
548.75	-0.1370414228	-0.2299610206	
549.375	-0.2168979696	-0.039695485	
550.0	-0.03729252194	-0.02490078347	
550.625	-0.1206188588	0.03641168598	
551.25	-0.04918587311	0.02764962689	
551.875	-0.1191061132	0.05747280296	
552.5	-0.03459697499	0.1244873193	
553.125	-0.01996972068	0.05440152123	
553.75	0.07880404345	0.06299385968	
554.375	0.1046620749	-0.02448496124	
555.0	0.1299247137	-0.08515666068	
555.625	0.1045322398	-0.1496158605	
556.25	0.07429641525	-0.1815514026	
556.875	-0.04134081521	-0.2068968808	
557.5	-0.1317886409	-0.1385660904	
558.125	-0.1555763587	-0.04748261357	
558.75	-0.1344078267	-0.005503667404	
559.375	-0.1552735595	0.01878877798	
560.0	-0.1176954188	0.1121126866	
560.625	-0.06935591817	0.1186570748	
561.25	-0.004538423196	0.1599508094	
561.875	0.06391288074	0.01558076003	
562.5	-0.01467847178	0.1046866971	
563.125	0.1253058655	0.05145380112	
563.75	0.1381581229	0.03408364359	
564.375	0.2310762547	-0.1282317641	
565.0	0.03317654627	-0.2126442134	
565.625	0.01161967587	-0.168069221	
566.25	-0.2018543624	-0.1826362249	
566.875	-0.1430356216	0.01951752076	
567.5	-0.1353112248	-0.2181772089	
568.125	-0.2825318353	-0.1969884954	
568.75	-0.1243523904	-0.06028767948	
569.375	-0.4303907845	0.08414708748	
570.0	-0.04845234669	0.3371376084	
570.625	-0.07328250625	0.110810689	
571.25	-0.05333502227	0.2664232246	
571.875	0.09483562436	-0.04701764258	
572.5	0.1840718247	0.1178173437	
573.125	0.1015720385	-0.2686500407	
573.75	-0.03836638782	-0.00180413995	
574.375	0.1584388998	-0.1530330711	
575.0	-0.09521215285	-0.06175027871	
575.625	0.1507772391	-0.04834070758	
576.25	0.0362990482	-0.2470714939	
576.875	-0.0705166606	-0.07101364534	
577.5	0.130520186	-0.1879302232	
578.125	-0.1462643815	-0.2905360563	
578.75	-0.1294717063	2.928028686e-05	
579.375	0.04214062732	-0.2193342914	
580.0	-0.2198878528	-0.001378669252	
580.625	0.08496744718	-0.07793711538	
581.25	-0.2939298011	0.2452659632	
581.875	0.1694995804	0.126095981	
582.5	-0.09534535395	0.1274386	
583.125	0.1598828478	0.2544613046	
583.75	0.0007356432586	-0.1415831514	
584.375	0.04171972403	0.2137099558	
585.0	0.1581187332	-0.1004608151	
585.625	0.08226690043	0.07557644545	
586.25	0.3339848089	-0.1304726572	
586.875	-0.03883198304	-0.1901185341	
587.5	0.06947578273	-0.1245307623	
588.125	-0.03493854028	-0.2853242492	
588.75	-0.07243824265	-0.1398691845	
589.375	0.2096565053	-0.12354091	
590.0	-0.2209088285	-0.3164010065	
590.625	-0.1113137967	0.03485761974	
591.25	-0.2779244021	0.06115205145	
591.875	0.01290868775	0.3053436527	
592.5	-0.0851221512	-0.1640867163	
593.125	0.02612727955	0.2156647361	
593.75	-0.02398130829	-0.02406716683	
594.375	0.1530575525	0.2644122394	
595.0	0.3225357787	-0.02132958162	
595.625	0.07254905287	0.0697855609	
596.25	0.2597619252	0.1649569776	
596.875	0.2197297875	-0.05767574034	
597.5	0.09820994147	0.1765597025	
598.125	0.289217083	0.2149095189	
598.75	0.1802158658	0.03352080314	
599.375	0.246014648	0.02826404401	
600.0	0.251681381	-0.2169369504	
600.625	0.08303173223	-0.2753166189	
601.25	0.1246444131	-0.1150025873	
601.875	-0.1258949957	-0.2987338778	
602.5	-0.09947770083	0.1337193261	
603.125	-0.1640423294	-0.0852028882	
603.75	-0.1943258928	0.2345154023	
604.375	-0.005305103914	-0.06474847796	
605.0	-0.2521320099	0.146713678	
605.625	0.08521683109	0.1122896987	
606.25	-0.1881955573	-0.06382017173	
606.875	-0.1502151457	0.265882564	
607.5	-0.05818204191	0.2161798236	
608.125	-0.09915225173	0.2908347374	
608.75	0.3418374684	0.2693574124	
609.375	0.2681661765	-0.07553170392	
610.0	0.1956303347	-0.1490628732	
610.625	0.1398923029	-0.2562247811	
611.25	-0.06175727426	-0.1113101787	
611.875	0.008486961998	-0.1683140738	
612.5	-0.3276311303	0.0165864966	
613.125	-0.02329561225	0.03164708506	
613.75	-0.2679612572	0.1724572155	
614.375	0.2157744603	0.1674761589	
615.0	-0.1215528541	-0.002072233947	
615.625	0.17686676	0.1276769048	
616.25	0.001806454991	0.04750112248	
616.875	-0.2507975182	0.2049319926	
617.5	-0.003494873073	0.4367835994	
618.125	-0.08925273083	0.3952225826	
618.75	0.009126944288	0.3077817284	
619.375	0.2483971789	0.1798014316	
620.0	0.1453573959	0.03329683246	
620.625	0.1234592398	0.01512718375	
621.25	-0.2129626882	-0.2438926297	
621.875	-0.1572006365	-0.08072718235	
622.5	-0.3571436394	0.0318673729	
623.125	0.03448263065	0.3888002814	
623.75	0.06626317307	-0.01899815452	
624.375	0.1736480898	-0.07986578927	
625.0	-0.0696195327	-0.02502385936	
625.625	0.1578799241	-0.09871109422	
626.25	-0.1584242619	-0.2097423902	
626.875	-0.07640452889	-0.03262132622	
627.5	-0.2056066507	-0.1296696138	
628.125	-0.2128889912	-0.01354575694	
628.75	-0.08565267997	-0.1134020682	
629.375	-0.1429693057	-0.243570707	
630.0	-0.2657377532	-0.04644281738	
630.625	-0.2297216102	0.06323177763	
631.25	-0.2218479138	0.2915564122	
631.875	0.07197853496	0.3513892506	
632.5	0.1208274988	0.05336106815	
633.125	0.3550461738	0.1012908496	
633.75	0.104374583	-0.3397912604	
634.375	0.1068569033	-0.06330809105	
635.0	-0.08557784226	-0.2843798185	
635.625	-0.1417053114	0.04918572585	
636.25	-0.2342282688	-0.04566889152	
636.875	-0.06031500657	0.3089743695	
637.5	0.04170704407	0.01128463152	
638.125	-0.20472851	0.148440578	
638.75	0.07198289038	0.24887022	
639.375	-0.05288306567	0.1771686778	
640.0	0.2310845472	0.4133271419	
640.625	0.374550348	0.04549772947	
641.25	0.2334427367	0.03269999011	
641.875	0.3950214008	-0.1874213029	
642.5	-0.1806506032	-0.2726385591	
643.125	0.04481649295	0.00161593097	
643.75	-0.3035502852	-0.1719151666	
644.375	-0.0332114268	0.2873594998	
645.0	-0.3041238514	-0.01755694143	
645.625	0.2373592062	0.457931642	
646.25	0.1365003512	-0.09535075196	
646.875	0.1869227991	0.2744555036	
647.5	0.1453580385	-0.2256479252	
648.125	0.1028219441	0.2570049386	
648.75	0.5164744467	-0.2553934206	
649.375	0.03647335187	-0.3044632033	
650.0	0.2981734666	-0.2046666063	
650.625	0.2732117749	-0.5993947236	
651.25	-0.05780646699	-0.2794872388	
651.875	0.4214417472	-0.02137964517	
652.5	0.4548494158	-0.3338174725	
653.125	0.1194969288	-0.2237697699	
653.75	0.3639809455	-0.2078849189	
654.375	-0.3311612161	-0.5780330521	
655.0	-0.2477692482	0.1253876185	
655.625	-0.3172293237	0.131590419	
656.25	0.2773698122	0.4813780483	
656.875	-0.1022395782	-0.2084853137	
657.5	0.1637713729	0.3580048178	
658.125	0.2691963873	-0.06758597969	
658.75	0.1877106953	0.3026195552	
659.375	0.6319886638	-0.3188996054	
660.0	-0.06894662982	-0.3396237926	
660.625	0.2788022092	-0.2793475885	
661.25	0.2602007926	-0.5314309974	
661.875	0.03789527129	-0.3851998975	
662.5	0.444457103	-0.04828504808	
663.125	0.3643550947	-0.455137955	
663.75	0.002835937164	-0.2722432581	
664.375	0.03833770937	-0.416628154	
665.0	-0.521419195	-0.2369171697	
665.625	-0.2376608189	0.192214852	
666.25	-0.2116961877	0.2941368274	
666.875	0.3264598071	0.3674630181	
667.5	0.1369631496	-0.05784033142	
668.125	0.3653616138	0.09806360036	
668.75	0.1586590276	-0.3772843358	
669.375	0.06865928881	-0.06920622082	
670.0	0.1312510581	-0.3882055023	
670.625	-0.2171446883	-0.2758697071	
671.25	0.3009706544	-0.05102331819	
671.875	0.1868629452	-0.4119373552	
672.5	0.08825347974	-0.1912685929	
673.125	0.2500221007	-0.100824143	
673.75	0.254144864	-0.4625924196	
674.375	-0.1085661847	-0.175598541	
675.0	-0.004878735921	-0.3110856396	
675.625	-0.3834146999	-0.1941521558	
676.25	-0.1509183067	0.1483817278	
676.875	-0.2407276897	-0.1305596483	
677.5	-0.2393448461	0.2364906778	
678.125	-0.01768163467	0.08835689922	
678.75	-0.1070125205	0.3741358694	
679.375	0.5221396371	-0.05574769904	
680.0	-0.0972701501	-0.01541587171	
680.625	0.3540728664	-0.04509492907	
681.25	0.0438849696	-0.2608004182	
681.875	-0.02649780748	0.2463026211	
682.5	0.7220857306	-0.06470927232	
683.125	0.1107819092	-0.1541435419	
683.75	0.2735593326	0.2743962279	
684.375	0.5547593618	-0.1518640041	
685.0	0.1713351378	-0.2322812008	
685.625	0.4572155404	0.2115493258	
686.25	0.4170613032	-0.3078782296	
686.875	0.2281241421	-0.1685533064	
687.5	0.4738907455	-0.3494500559	
688.125	-0.3599996447	-0.5869204466	
688.75	-0.334615931	-0.03672562523	
689.375	-0.4354542401	0.4064120871	
690.0	0.406810935	0.5040519048	
690.625	0.106674155	0.0003997774062	
691.25	0.5387183848	0.6553642826	
691.875	0.7230264363	0.07775879686	
692.5	0.4844551181	0.3602292777	
693.125	1.246610729	-0.05864401398	
693.75	0.3930756463	-0.5475756149	
694.375	0.5830042049	-0.1554773066	
695.0	0.6286042798	-0.6721610062	
695.625	0.5005146519	-0.3513783285	
696.25	0.9251459403	0.2438691718	
696.875	0.8356227298	0.4641982448	
697.5	0.5553231994	0.1802600696	
698.125	0.7577107911	-0.01605150354	
698.75	0.4666270558	-0.5403224053	
699.375	-0.7109652443	-0.1151292601	
700.0	-0.1541627224	0.3256576139	
700.625	0.3699643039	0.5482869215	
701.25	0.367163872	-0.1014443586	
701.875	0.1774207369	0.4192368318	
702.5	0.7139291923	0.3167449208	
703.125	0.3381733814	-0.05738071899	
703.75	0.63587107	0.01482207425	
704.375	0.4239526575	-0.4470706548	
705.0	0.06955432181	-0.1288866585	
705.625	0.4946811654	-0.02885492791	
706.25	0.4526200785	0.008432760844	
706.875	0.417687438	0.4131580513	
707.5	0.5064159156	0.4338347055	
708.125	0.682241825	-0.09010045125	
708.75	0.1988539408	-0.3556728977	
709.375	0.03923286434	-0.2424890477	
710.0	-0.1778416338	0.463961084	
710.625	0.03973519943	0.02063502339	
711.25	0.2769747094	0.297706847	
711.875	0.1978532958	-0.2079703258	
712.5	0.3522396347	0.116300999	
713.125	0.4543088966	-0.3861861204	
713.75	-0.01535758663	-0.3137470845	
714.375	0.134052658	-0.2824624333	
715.0	-0.13229543	-0.3988479643	
715.625	-0.05143662957	-0.124139638	
716.25	0.3166455723	-0.2365585105	
716.875	0.4225723491	-0.4569099824	
717.5	0.5947058751	-0.2739616251	
718.125	0.9744689168	0.05346770579	
718.75	0.9734141989	-0.699946925	
719.375	0.4875990812	-0.7052333181	
720.0	0.9507919088	-0.8494926614	
720.625	-0.5890856418	-1.337762984	
721.25	0.006243257979	-0.9728312738	
721.875	-0.5030038504	-1.642587312	
722.5	-1.855908327	-0.3767549445	
723.125	-0.4722244104	-0.07024095232	
723.75	-0.721599259	0.8811699984	
724.375	0.4006021325	0.4670959557	
725.0	-0.06922491279	0.3757056789	
725.625	0.3274770775	0.8722567055	
726.25	0.3609260132	0.5970087595	
726.875	-0.4269698175	0.9491768136	
727.5	0.02563852531	2.37134388	
728.125	1.221086401	2.091509245	
728.75	-0.8290009463	2.98436963	
729.375	-0.2102328094	6.643880669	
730.0	2.632184201	3.648256421	
730.625	-0.4679323507	3.096868986	
731.25	-0.4158913981	6.427243508	
731.875	-0.2580650932	3.279694738	
732.5	-4.055170039	-1.016643214	
733.125	-3.483563499	2.314280095	
733.75	0.4351673545	1.440320413	
734.375	1.003258492	0.7126499287	
735.0	-0.6755497354	-1.108471723	
735.625	0.1397728728	-0.009655569065	
736.25	-0.3979735448	0.8790773181	
736.875	1.112631796	0.5951284247	
737.5	0.4933741649	-0.04342364716	
738.125	3.007678277	0.1524172619	
738.75	1.977885572	-3.229863105	
739.375	0.8300356504	-1.435595205	
740.0	5.792853038	2.300647628	
740.625	6.821136078	-3.604759694	
741.25	-3.565017071	-2.378294101	
741.875	-7.369799723	0.9821839605	
742.5	-3.558217066	-0.1874698558	
743.125	1.359760417	-1.689762482	
743.75	-0.6728938139	-2.409215591	
744.375	-0.3780952311	0.5846510773	
745.0	-0.2353523737	0.03624597169	
745.625	0.09617268073	-0.2001224021	
746.25	0.09117275593	-0.03295244644	
746.875	-0.3974890117	-0.143504612	
747.5	0.09280669254	0.5322820951	
748.125	0.06297634869	0.5192745283	
748.75	0.4040722912	0.7937683999	
749.375	0.4164264417	0.2158399123	
750.0	-0.7143710211	0.1970448981	
