!Created with skrf (http://scikit-rf.org).
# GHz S RI R (50+0j) 
!freq	ReS11	ImS11	
500.0	-0.7009227372	-1.391221862	
500.625	0.9688550775	-0.7245991475	
501.25	-1.222602758	-1.103333588	
501.875	-0.212553898	-0.287829512	
502.5	-0.027358275	-0.2645153003	
503.125	-0.1009859818	0.06293049576	
503.75	-0.04981125973	0.05470818618	
504.375	0.07392731219	-0.03505225578	
505.0	-0.01381974155	-0.002325761082	
505.625	0.0500015462	-0.1162951947	
506.25	-0.1318466696	0.06851229209	
506.875	-0.1896169724	-0.3506874077	
507.5	-0.6336049966	-0.4133457305	
508.125	0.365619163	-0.3416887847	
508.75	1.370830135	-1.521377562	
509.375	-0.4643086993	-1.272490104	
510.0	-0.2296534004	-0.1934555676	
510.625	-0.2201012563	-0.273573471	
511.25	-0.1488880224	0.01723866843	
511.875	-0.07400756137	-0.159724852	
512.5	-0.03100437627	0.1189062349	
513.125	-0.01777078032	-0.05597480625	
513.75	-0.0255337752	-0.1391204254	
514.375	-0.1660207795	0.1498157875	
515.0	0.4569406908	-0.1836283913	
515.625	-0.7840010733	-0.04153228935	
516.25	0.2045873502	-0.3049274142	
516.875	-0.6832296995	-0.9847710705	
517.5	-0.2675550142	-0.132761295	
518.125	-0.001646543914	-0.1242136749	
518.75	-0.1477356308	-0.08260079633	
519.375	-0.03532749769	0.02794146981	
520.0	0.1374294085	0.1309001297	
520.625	0.1805351802	-0.07907694341	
521.25	-0.0760765539	-0.2756657163	
521.875	-0.1163616699	-0.01557996655	
522.5	-0.1189221932	0.102548004	
523.125	0.0598001992	-0.04202878357	
523.75	-0.309223019	-0.01740446112	
524.375	0.01191482828	0.1814611808	
525.0	-0.186424854	0.03162368788	
525.625	0.1470362432	0.1561469506	
526.25	-0.1439716891	-0.03003013371	
526.875	0.001762239841	0.1411703988	
527.5	-0.06315684777	0.08154589007	
528.125	0.08538273058	0.452754898	
528.75	0.1721382252	0.2801395889	
529.375	-0.03678784678	0.04819362985	
530.0	0.1880914834	0.3488045806	
530.625	0.1425241457	0.1687308889	
531.25	0.1611327465	-0.01757775994	
531.875	0.3294607486	-0.4107533725	
532.5	-0.02879657394	0.04638952834	
533.125	0.2229424354	-0.2456611676	
533.75	-0.09757494248	-0.143645138	
534.375	-0.03716877156	-0.4820763067	
535.0	-0.4145944535	-0.009385108302	
535.625	-0.1141745533	0.1004490539	
536.25	-0.04191326273	0.1473987683	
536.875	0.1484794385	-0.03249949739	
537.5	0.06608046504	0.007202198235	
538.125	0.2247881711	-0.121604278	
538.75	0.1350127728	-0.1466400046	
539.375	-0.023307229	-0.2341449328	
540.0	-0.2856591211	-0.2179935676	
540.625	-0.1390535679	0.03046226475	
541.25	-0.004327021829	-0.00414581898	
541.875	-0.1031991036	0.007035332181	
542.5	0.01448073782	-0.06606210988	
543.125	-0.1737795597	-0.09616525629	
543.75	-0.05048472171	0.1615222763	
544.375	-0.1177722848	0.007112638951	
545.0	0.06089925185	0.1072103004	
545.625	-0.04382071358	0.02887397341	
546.25	0.1972797366	0.08241800964	
546.875	0.08250245257	-0.1095961238	
547.5	0.1444484697	-0.1067143956	
548.125	-0.106182044	-0.2666817644	
548.75	-0.1312514091	-0.04966030372	
549.375	-0.1086018132	-0.1537921045	
550.0	-0.1353385351	0.05943641139	
550.625	-0.02617322434	-0.01788707326	
551.25	-0.1356125027	0.06571519062	
551.875	-0.04258912532	0.0845144874	
552.5	-0.08624343791	0.0924473015	
553.125	0.00202804394	0.1034731561	
553.75	0.045449159	0.04457995182	
554.375	0.136019044	-0.006580418344	
555.0	0.114258488	-0.09742035167	
555.625	0.1095944666	-0.1330171788	
556.25	0.08487363582	-0.1915707623	
556.875	-0.05468262207	-0.2057444869	
557.5	-0.1230280229	-0.1294930048	
558.125	-0.1511445487	-0.05598031918	
558.75	-0.1490302962	0.001511034739	
559.375	-0.1332381678	0.02877558572	
560.0	-0.1395991826	0.08782720384	
560.625	-0.06045884314	0.1704855564	
561.25	0.01009971222	0.09371103793	
561.875	0.03603252118	0.100507038	
562.5	0.02603283862	0.02339110704	
563.125	0.07389377078	0.1384213898	
563.75	0.2086879045	-0.04505903894	
564.375	0.1178795221	-0.08634961626	
565.0	0.1488861099	-0.2115798869	
565.625	-0.1356781243	-0.2160616766	
566.25	-0.06271409952	-0.1070904392	
566.875	-0.2495400933	-0.2032675326	
567.5	-0.2057521192	-0.02741078762	
568.125	-0.08930335203	-0.2711924825	
568.75	-0.4049920571	-0.07212453002	
569.375	-0.1415595791	0.1050707431	
570.0	-0.2757669594	0.2218188635	
570.625	0.01196891646	0.333594675	
571.25	-0.01496559516	0.04212462952	
571.875	0.1475352365	0.2223654011	
572.5	0.07897828576	-0.1086866261	
573.125	0.186214893	-0.03263258235	
573.75	0.06340017194	-0.2786453513	
574.375	-0.08123297535	0.02178059423	
575.0	0.1549622287	-0.08248861051	
575.625	-0.06582391683	-0.1046991012	
576.25	0.1409607066	-0.04233338864	
576.875	-0.02181250169	-0.290185528	
577.5	-0.1126210314	-0.1370859638	
578.125	0.09698568567	-0.1442217098	
578.75	-0.1732335373	-0.278833098	
579.375	-0.1413449682	0.1630973413	
580.0	0.05545698074	-0.167884711	
580.625	-0.1900463933	0.08101164567	
581.25	-0.03535792039	-0.02054628084	
581.875	-0.08392711251	0.391596951	
582.5	0.2329114672	0.148184594	
583.125	-0.02313900846	0.009453527911	
583.75	0.1584269989	0.1392018464	
584.375	-0.06427774416	-0.06921562983	
585.0	0.1947134095	0.215094554	
585.625	0.2337747974	-0.1262419765	
586.25	0.08297312997	-0.01163209924	
586.875	0.1845250468	-0.2387732924	
587.5	-0.1422052655	-0.1796692574	
588.125	0.05404049987	-0.08944162317	
588.75	0.1054454868	-0.2907716485	
589.375	-0.07273678545	-0.2037935359	
590.0	0.0756198375	-0.1953820518	
590.625	-0.3934990556	-0.02719335982	
591.25	0.03106426341	0.1172552424	
591.875	-0.1752563972	0.08068693589	
592.5	0.1698649326	0.18038782	
593.125	-0.1743368665	-0.05572800553	
593.75	0.2534834517	0.1547555137	
594.375	0.04671802668	0.04761431206	
595.0	0.1550113529	0.2408586171	
595.625	0.3404148822	0.09414558859	
596.25	0.06163159873	0.04470958137	
596.875	0.2396000368	0.1670194076	
597.5	0.2077734276	-0.008392743095	
598.125	0.09151982239	0.1151616161	
598.75	0.2904899102	0.186255597	
599.375	0.2297191334	-0.108347534	
600.0	0.1883643783	-0.09698700185	
600.625	0.2697575138	-0.2656448142	
601.25	-0.003142916533	-0.313329128	
601.875	0.04130428842	-0.06673244362	
602.5	-0.3175542258	-0.04670331733	
603.125	-0.0188973217	0.144792273	
603.75	-0.2276594526	-0.05949407715	
604.375	-0.2136094039	0.2113982297	
605.0	-0.07483781093	-0.1426953847	
605.625	-0.2280937016	0.1058617016	
606.25	-0.05747263822	0.1893325386	
606.875	-0.2169792526	-0.01078687388	
607.5	-0.1499683695	0.309592308	
608.125	0.06210589768	0.2501515752	
608.75	0.258722249	0.2101077909	
609.375	0.4152908865	-0.06063707428	
610.0	0.2694908978	-0.2096189449	
610.625	0.1425929646	-0.1017585314	
611.25	-0.02478229569	-0.3468638104	
611.875	-0.106837642	-0.01941762446	
612.5	-0.1380350988	-0.2191691845	
613.125	-0.3521300636	0.1853999418	
613.75	0.01606313929	0.06444038932	
614.375	-0.01748739487	0.2972046409	
615.0	0.1875069961	-0.03727190699	
615.625	-0.1379149763	0.1876133829	
616.25	0.03569946834	0.3315370306	
616.875	-0.1136813529	0.1328992447	
617.5	-0.1249021283	0.317533789	
618.125	0.005467528916	0.312900285	
618.75	0.05691558459	0.1837653873	
619.375	0.09401746309	0.09415127779	
620.0	0.3143103619	0.1258913631	
620.625	0.06276217544	-0.1452955586	
621.25	-0.06895895208	-0.3006660513	
621.875	-0.4584095851	-0.1193793725	
622.5	-0.1126636154	0.1024571206	
623.125	-0.2183586084	0.2380808675	
623.75	0.2696964049	-0.005224514984	
624.375	-0.04388192285	0.0143377228	
625.0	0.1233661358	-0.1400402515	
625.625	-0.01371934393	-0.06069898259	
626.25	0.0192587608	-0.2333205677	
626.875	-0.2862426874	-0.08771289564	
627.5	-0.08909211134	0.009839720083	
628.125	-0.1423441973	-0.1215857818	
628.75	-0.165435512	-0.1053246647	
629.375	-0.04049185903	-0.1577064935	
630.0	-0.1816314984	-0.1807767411	
630.625	-0.373738798	0.1838523355	
631.25	-0.1107960747	0.2054881812	
631.875	-0.03379721813	0.3951536469	
632.5	0.2953845695	0.1807043632	
633.125	0.09202089338	-0.004752041322	
633.75	0.3387236959	-0.06926953515	
634.375	-0.0771597412	-0.2133633183	
635.0	0.1167180525	-0.1315684509	
635.625	-0.3087756845	-0.1093425049	
636.25	-0.088311422	0.1511174765	
636.875	-0.1632558053	0.07579992422	
637.5	0.02423777343	0.2439081015	
638.125	-0.04686664954	-0.02038445886	
638.75	-0.1704086949	0.3131456529	
639.375	0.1683029003	0.2992965044	
640.0	0.0836005179	0.2264517907	
640.625	0.3180896427	0.2784704547	
641.25	0.3762309306	-0.1733835267	
641.875	0.1248528208	-0.1343046286	
642.5	0.0278972626	-0.4034537459	
643.125	-0.2595108624	-0.003972232561	
643.75	0.0929119902	-0.1484170998	
644.375	-0.4162955687	0.05543850856	
645.0	0.009808622758	0.1753819527	
645.625	-0.2728313812	0.2795168237	
646.25	0.5427333695	0.07703403161	
646.875	-0.1310679346	-0.1010175066	
647.5	0.2363627413	0.1869254571	
648.125	0.1611549791	-0.1521482728	
648.75	0.2783989135	0.1206266886	
649.375	0.4683261734	-0.5626996773	
650.0	-0.04836154706	-0.3696899177	
650.625	0.2997055205	-0.2076454917	
651.25	0.3246460259	-0.5123736126	
651.875	0.01986119467	-0.2630531171	
652.5	0.4120459114	0.0257756231	
653.125	0.3747733287	-0.3702457312	
653.75	0.02683631037	-0.2403990496	
654.375	0.08070241086	-0.4326523017	
655.0	-0.5944606866	0.01650803797	
655.625	0.1129941771	0.2330041911	
656.25	-0.1275846939	0.2121849578	
656.875	0.4778027868	0.123071365	
657.5	-0.2395042032	0.05153563106	
658.125	0.3954234425	0.2912322893	
658.75	0.2619323694	-0.1467970563	
659.375	0.3967023076	0.03406594671	
660.0	0.4115192072	-0.5821053293	
660.625	-0.1052008202	-0.3889106424	
661.25	0.349634373	-0.2414443023	
661.875	0.3158292573	-0.4852387717	
662.5	0.1309050068	-0.3310010515	
663.125	0.3617479593	-0.1240143389	
663.75	0.1356789023	-0.5638209585	
664.375	-0.1468159265	-0.2321039767	
665.0	-0.2807415591	-0.3266035942	
665.625	-0.5268938495	0.2458090313	
666.25	0.06259547099	0.2489950008	
666.875	0.03221867275	0.3398295693	
667.5	0.4091337745	0.03256167038	
668.125	0.04217463095	-0.02979288162	
668.75	0.4148708611	-0.1573332319	
669.375	-0.1975023383	-0.3871518047	
670.0	0.07577568015	-0.111692107	
670.625	0.0813193247	-0.3832663372	
671.25	-0.1239333831	-0.2432900375	
671.875	0.3402488137	-0.04796912346	
672.5	0.3165269166	-0.3669137959	
673.125	0.09978657364	-0.2416558235	
673.75	0.2250510191	-0.1958247714	
674.375	-0.03122530279	-0.5336328041	
675.0	-0.2035417688	-0.08362878115	
675.625	-0.1772054725	-0.2714435979	
676.25	-0.3610968663	0.05586376134	
676.875	-0.06552648324	0.1039660801	
677.5	-0.2789694115	-0.1001313957	
678.125	-0.06338634746	0.395669788	
678.75	0.06092907724	0.05775600062	
679.375	0.2964947992	0.3573036548	
680.0	0.2333107327	-0.4303739305	
680.625	-0.07723447928	0.1232349626	
681.25	0.4708679992	-0.220869358	
681.875	-0.02403728504	-0.1354032426	
682.5	0.2301324756	0.5402890929	
683.125	0.65761232	-0.02800112136	
683.75	0.09388586665	-0.1113006087	
684.375	0.4170960248	0.2073844541	
685.0	0.4719427732	-0.07797306777	
685.625	0.1594541063	-0.1789353074	
686.25	0.4727151421	0.1840737982	
686.875	0.2769050739	-0.4665506944	
687.5	0.2212739339	-0.3214905807	
688.125	-0.004703310698	-0.6694674041	
688.75	-0.7715780723	0.04284707877	
689.375	-0.1318458879	0.2805992737	
690.0	0.05846559808	0.636249215	
690.625	0.5573251468	0.1139009419	
691.25	0.1070431064	0.2789863091	
691.875	1.015796377	0.647292823	
692.5	0.7279248511	-0.1260485939	
693.125	0.9234052405	0.3707721449	
693.75	0.9897122753	-0.4389533264	
694.375	0.2846591907	-0.7265419126	
695.0	0.7982964611	-0.179906184	
695.625	0.6831788341	-0.3739751165	
696.25	0.5625701905	0.1029715959	
696.875	0.4810416926	0.4692667412	
697.5	0.8676135837	0.5362269191	
698.125	0.5430931724	-0.1486777065	
698.75	0.2987425401	-0.5707803506	
699.375	-0.800058522	-0.4125444169	
700.0	-0.0377600061	0.6029769631	
700.625	-0.01803731073	0.2258026502	
701.25	0.6065870681	0.2561371544	
701.875	0.2013042893	0.08807551901	
702.5	0.4249090324	0.5302728333	
703.125	0.7445812954	-0.00408209347	
703.75	0.3537836178	0.06909826185	
704.375	0.5596671057	-0.1867767125	
705.0	0.2945480076	-0.3920340643	
705.625	0.2398899871	0.09534558668	
706.25	0.3664309984	0.06413275289	
706.875	0.3800030742	0.1685124409	
707.5	0.3251737308	0.3920648664	
708.125	0.3755718365	0.1284099856	
708.75	0.3023516359	-0.7527176748	
709.375	-0.2713797875	-0.1416871926	
710.0	-0.3224785906	0.3246761519	
710.625	0.4005833529	0.07134421359	
711.25	-0.08566389289	0.2079015251	
711.875	0.5021649097	0.08925148642	
712.5	0.1733943253	-0.117086234	
713.125	0.4544287232	-0.1169219701	
713.75	0.1272783115	-0.4771526552	
714.375	-0.07155394484	-0.1919039274	
715.0	0.1114597245	-0.3147609439	
715.625	-0.1268656803	-0.3806954203	
716.25	0.1111677869	-0.1638678728	
716.875	0.492021965	-0.1678790332	
717.5	0.638510085	-0.4079976746	
718.125	0.6734035694	0.01135134486	
718.75	0.900939496	0.06706869893	
719.375	0.5458805651	-1.017467937	
720.0	-0.3221962901	-0.4599718517	
720.625	0.4450295235	-1.680465616	
721.25	-1.651913009	-0.9630385002	
721.875	0.394405846	-0.8341727873	
722.5	-1.317855809	-1.140582236	
723.125	-0.9213088699	0.4248837922	
723.75	-0.5156905951	0.1421907365	
724.375	0.1909211177	0.9136865862	
725.0	0.2827490177	0.1135955209	
725.625	-0.03406673075	0.6732995689	
726.25	0.3080647834	1.117321244	
726.875	0.1928609216	0.7634099547	
727.5	-0.6967553839	1.699313282	
728.125	0.7727873027	3.359458456	
728.75	0.9102971272	2.041493226	
729.375	-1.44101804	3.62381345	
730.0	2.107657212	6.66607431	
730.625	4.229476028	3.003681919	
731.25	-2.003239676	4.102934007	
731.875	-2.416362995	6.979705547	
732.5	-1.55163617	1.789930571	
733.125	-4.652568345	-0.1830558584	
733.75	0.1412591363	2.79706272	
734.375	0.3447896081	-0.2384304268	
735.0	0.2492555342	-1.155062006	
735.625	-0.3467056223	0.870636879	
736.25	-0.3441226501	0.2089346917	
736.875	0.8800661761	1.10237192	
737.5	1.511206756	-0.5156668569	
738.125	0.5313223874	-0.1945876059	
738.75	3.916106335	-1.309481044	
739.375	1.631691227	-4.440599417	
740.0	0.9519618187	0.1932709496	
740.625	7.981950997	3.615985143	
741.25	5.290585386	-1.406105333	
741.875	-4.154782148	-4.38123653	
742.5	-5.41875262	-2.927808633	
743.125	-1.199900977	-0.6505138455	
743.75	0.4617794184	-1.516999078	
744.375	-0.9189677041	0.2065392935	
745.0	0.07441028639	-0.1713757883	
745.625	0.3236263298	0.01313254556	
746.25	-0.1709394948	0.009377479943	
746.875	-0.2764416127	-0.02699200137	
747.5	-0.01345017945	0.6246336972	
748.125	0.2562555771	0.5531930098	
748.75	0.1564841229	0.6239673562	
749.375	0.1396062759	0.6379983371	
750.0	-0.004777578543	0.4544479901	
