!Created with skrf (http://scikit-rf.org).
# GHz S RI R (50+0j) 
!freq	ReS11	ImS11	
500.0	-1.26512343	-3.566153071	
500.625	0.2966881886	-1.464847919	
501.25	-0.3452864876	-1.673311639	
501.875	-1.788972346	-1.341608715	
502.5	-0.2173909477	-0.007392904382	
503.125	-0.3239704283	-0.06086274161	
503.75	0.3078789936	0.1247868003	
504.375	0.08880296661	0.08449895491	
505.0	-0.04601972726	-0.1798408632	
505.625	0.2321026688	-0.002930069665	
506.25	-0.686522913	-0.3272038605	
506.875	0.5499073112	-0.02358884007	
507.5	0.2248595393	-2.020455374	
508.125	-1.186418626	-2.265940483	
508.75	1.645036396	-0.7619786875	
509.375	-2.26231295	-6.22016871	
510.0	-1.14141533	0.09072168066	
510.625	-0.4269707338	-1.04355187	
511.25	-0.3639171655	0.2328602877	
511.875	-0.4662920346	-0.3309662923	
512.5	-0.09806760762	0.1637117131	
513.125	-0.1269756489	-0.3678976873	
513.75	-0.1180434911	0.0270883309	
514.375	-0.2092200092	-0.3776227133	
515.0	-0.7168792064	1.147545792	
515.625	0.2595347661	-2.977769123	
516.25	-2.617747579	-0.1824271999	
516.875	1.079520144	-1.430517786	
517.5	-0.779544977	-1.071762059	
518.125	0.3004788871	0.1025575706	
518.75	-0.6285297112	-0.7270795896	
519.375	-0.01435990721	0.1428425859	
520.0	0.2530154893	0.345915887	
520.625	0.5747618907	-0.3770210591	
521.25	-0.1822087528	-0.3819411115	
521.875	-0.4301406025	-0.372559575	
522.5	-0.01182380534	0.2199224954	
523.125	-0.3471268162	-0.003810620772	
523.75	-0.06368970405	0.1052869308	
524.375	-0.7136942029	-0.1042550959	
525.0	0.3436182082	0.2979226645	
525.625	-0.1335699255	0.1030123544	
526.25	0.1854857143	-0.06533471084	
526.875	-0.3664793073	0.1846292623	
527.5	0.2598358516	0.5135546109	
528.125	-0.2356272877	0.5060487209	
528.75	0.191748778	1.145271787	
529.375	-0.04971057223	-0.03124109839	
530.0	0.540767726	0.5999249065	
530.625	-0.1676261813	0.5258386367	
531.25	1.838649335	0.4017858296	
531.875	0.02293248498	-0.4111135898	
532.5	0.1115875954	-0.6227921483	
533.125	-0.2220819193	0.2955027621	
533.75	0.4546972997	-0.9635305654	
534.375	-0.4822223865	-0.204677966	
535.0	-0.5009176433	-0.7319818902	
535.625	-0.3921971955	0.6722177769	
536.25	-0.00167863587	0.09823503477	
536.875	0.2997179783	0.1555284514	
537.5	0.1123915952	-0.2185788993	
538.125	0.3157389289	0.09137828651	
538.75	0.2826672771	-0.5340003142	
539.375	-0.05894953321	-0.2321567253	
540.0	-0.3846449185	-0.58257521	
540.625	-0.4669268129	0.1505417875	
541.25	-0.1171229424	-0.01295681797	
541.875	-0.07878650845	-0.120650619	
542.5	-0.2645054867	-0.08935274384	
543.125	0.02610194558	-0.06201332204	
543.75	-0.4024236073	-0.07526676748	
544.375	0.11812856	0.08718455163	
545.0	-0.1633714081	0.2569283706	
545.625	0.2477315088	-0.04731756205	
546.25	0.04261081062	0.3316404885	
546.875	0.4442569028	-0.3470330752	
547.5	0.04514298968	-0.05347786389	
548.125	0.08884256881	-0.5027816522	
548.75	-0.4921237775	-0.2677146728	
549.375	-0.09571465615	-0.03817023359	
550.0	-0.3163848291	-0.09208043431	
550.625	0.003541776723	0.09567153321	
551.25	-0.3054466212	-0.02140587317	
551.875	-0.07388201678	0.2774840555	
552.5	-0.1382331046	0.07602386947	
553.125	-0.04745878424	0.2124938389	
553.75	0.1173252204	0.08681472666	
554.375	0.2186251456	0.02754010443	
555.0	0.2482092073	-0.1841809039	
555.625	0.1859608644	-0.2543966248	
556.25	0.1696587879	-0.3370805877	
556.875	-0.08130251311	-0.397162307	
557.5	-0.2368825539	-0.2332327357	
558.125	-0.2596674839	-0.09810292609	
558.75	-0.2798142253	-0.02097150399	
559.375	-0.24658635	0.08175093198	
560.0	-0.2173328767	0.1259273289	
560.625	-0.1645205492	0.2972821818	
561.25	0.1006039232	0.2003596223	
561.875	-0.02601992095	0.1485765872	
562.5	0.123320419	0.05608061352	
563.125	0.06501723888	0.2591880173	
563.75	0.4371412179	-0.08000304005	
564.375	0.1214999509	-0.1758933616	
565.0	0.3367823816	-0.2965095883	
565.625	-0.1792206278	-0.4400329168	
566.25	-0.222826808	-0.118937687	
566.875	-0.2510119541	-0.3195042893	
567.5	-0.5084902566	-0.2113586225	
568.125	-0.1250555601	-0.2792047068	
568.75	-0.6938695786	-0.3253767562	
569.375	-0.3903069012	0.3533827109	
570.0	-0.4220447985	0.2384904871	
570.625	-0.2285823258	0.7317454129	
571.25	0.2112614092	-0.007443397953	
571.875	-0.03286695024	0.5008973927	
572.5	0.3469382253	-0.3568249134	
573.125	0.1485441931	0.08428036354	
573.75	0.3475620073	-0.5133422979	
574.375	-0.255229354	-0.05161042158	
575.0	0.3984445664	-0.1043702771	
575.625	-0.2269954992	-0.2291674445	
576.25	0.3139711841	0.04037708407	
576.875	0.004311318487	-0.6186429623	
577.5	-0.2640288153	-0.28683965	
578.125	0.0991927568	-0.220485875	
578.75	-0.1778779254	-0.5208698886	
579.375	-0.3677545359	0.03051377675	
580.0	0.1107142154	-0.1464838608	
580.625	-0.397833134	0.02975077792	
581.25	-0.004387737112	0.002741747695	
581.875	-0.3016540144	0.4820497807	
582.5	0.4459465565	0.4750898521	
583.125	0.02742958416	-0.2176753842	
583.75	0.07546469452	0.5356401857	
584.375	0.05647468622	-0.3590686446	
585.0	0.2023168076	0.5690902863	
585.625	0.4835159788	-0.3347399359	
586.25	0.04459649099	0.1104203066	
586.875	0.4745418428	-0.5266330569	
587.5	-0.3296938303	-0.1761187727	
588.125	0.2287255475	-0.20892317	
588.75	0.1663236436	-0.608148792	
589.375	-0.1147546878	-0.2952294802	
590.0	0.1270516971	-0.3835936291	
590.625	-0.5958117234	-0.1620787891	
591.25	-0.1647534882	0.2657845273	
591.875	-0.2164724295	0.1726100012	
592.5	0.1204892234	0.2325642179	
593.125	-0.2531833784	0.03693665605	
593.75	0.2715512784	0.3345744943	
594.375	0.2709990897	0.02811283897	
595.0	0.09882247552	0.4561579634	
595.625	0.9034119797	0.3341443845	
596.25	-0.00153792521	-0.1782937354	
596.875	0.4909472295	0.496688787	
597.5	0.5155959511	-0.1074721654	
598.125	-0.02672769004	0.4847673844	
598.75	0.7922735385	0.124963549	
599.375	0.174527994	-0.0451879004	
600.0	0.6428538308	-0.1642377912	
600.625	0.3170694972	-0.6314054049	
601.25	0.01309435373	-0.2723496056	
601.875	-0.03060032434	-0.4008089696	
602.5	-0.3229696769	-0.02566769497	
603.125	-0.2814984088	0.1557365443	
603.75	-0.1944349715	0.08220715412	
604.375	-0.3560160422	0.1541972268	
605.0	-0.02193304504	0.2272495313	
605.625	-0.3121467891	0.02359354829	
606.25	-0.1487332106	0.3440896927	
606.875	-0.3191940068	-0.1191854116	
607.5	-0.6749501613	0.756173402	
608.125	0.1910043596	0.2182293043	
608.75	0.1104246305	0.7124255013	
609.375	0.7420974884	-0.4561374105	
610.0	0.2230683486	0.1103328744	
610.625	0.4204932894	-0.6243716848	
611.25	-0.183525204	-0.1238498681	
611.875	0.00394810914	-0.6185170524	
612.5	-0.4205969606	0.1834136837	
613.125	-0.3868052547	-0.2259026306	
613.75	-0.268714461	0.5813941546	
614.375	0.005941994802	-0.05500447735	
615.0	0.2955759897	0.3648256402	
615.625	-0.1370217267	-0.1285063963	
616.25	-0.2928991947	0.613589435	
616.875	0.2167822657	0.3867472732	
617.5	-0.504192246	0.3160029107	
618.125	0.09707598983	0.7772795752	
618.75	0.064768761	0.1614142674	
619.375	0.1246723178	0.6502821521	
620.0	0.4034404581	-0.08146922126	
620.625	0.3971320928	-0.2346354	
621.25	-0.3133306016	-0.3887478767	
621.875	-0.32111248	-0.2710019688	
622.5	-0.608029604	0.2174156952	
623.125	-0.08511341808	0.2371005106	
623.75	0.3838338667	0.2993095855	
624.375	-0.1589556139	-0.2628297288	
625.0	0.505024678	0.0666992211	
625.625	-0.369120587	-0.2181540565	
626.25	0.2784655843	-0.2899670028	
626.875	-0.6167444899	-0.2824768934	
627.5	-0.1167914335	0.1505608692	
628.125	-0.209698406	-0.5130055983	
628.75	-0.3630883138	-0.04871901956	
629.375	0.05722789136	-0.4114319386	
630.0	-0.6323434527	-0.3063416531	
630.625	-0.3190284202	0.3155125397	
631.25	-0.403627293	0.2015270428	
631.875	-0.1120516507	0.7083625568	
632.5	0.3688083933	0.45603432	
633.125	0.4177181475	0.03040486533	
633.75	0.4264974061	0.0622036193	
634.375	-0.02767949776	-0.470254111	
635.0	0.1301827807	-0.2315373985	
635.625	-0.4882226584	-0.316361223	
636.25	-0.09118392171	0.2515117494	
636.875	-0.4909693163	0.1276979774	
637.5	0.1631091625	0.5089035009	
638.125	-0.1383839081	-0.2448848411	
638.75	-0.4614576326	0.7319054097	
639.375	0.4184845198	0.4922320266	
640.0	-0.05675885772	0.3726550519	
640.625	0.7441542791	0.6172419461	
641.25	0.506456231	-0.3401195937	
641.875	0.5373265959	-0.02406948502	
642.5	-0.3342994103	-0.8728911077	
643.125	-0.04256955802	0.02852713843	
643.75	-0.3153961886	-0.5695354538	
644.375	-0.537111801	0.3454246639	
645.0	-0.05152058565	0.1271204773	
645.625	-0.2504726385	0.6107541614	
646.25	0.7146976959	0.1620661324	
646.875	-0.09364779461	-0.2010175754	
647.5	0.4543429228	0.420495362	
648.125	-0.07800833989	-0.2787319522	
648.75	0.952280604	0.3186364704	
649.375	0.4341898805	-1.094724892	
650.0	-0.09686831747	-0.232768392	
650.625	1.146359143	-0.4550785235	
651.25	0.1272172756	-1.369120231	
651.875	0.08443113601	0.1593897676	
652.5	1.237141063	-0.0298497201	
653.125	0.3764806868	-0.7419340896	
653.75	0.4496261351	0.07955644734	
654.375	-0.2443450358	-1.198549417	
655.0	-0.6507002383	0.2147490559	
655.625	-0.3458567849	-0.08641148263	
656.25	-0.1011729633	0.8927208513	
656.875	0.3537293979	-0.3086706117	
657.5	-0.1271039482	0.577230066	
658.125	0.5773137938	0.277169781	
658.75	0.4097006792	0.01915084201	
659.375	1.02173402	0.04826128299	
660.0	0.3127062436	-1.089351098	
660.625	0.2003986905	-0.3562899939	
661.25	0.7636970126	-0.6366730784	
661.875	0.3553439187	-1.150151413	
662.5	0.05520048188	-0.02056735336	
663.125	1.250119587	-0.4039496278	
663.75	-0.1068882772	-0.8911431278	
664.375	0.2692148444	-0.3939777424	
665.0	-1.029606354	-0.785598795	
665.625	-0.2407999865	0.3330997223	
666.25	-0.6391639973	0.4864324882	
666.875	0.5300294292	0.6623908161	
667.5	0.2797778245	-0.1086612309	
668.125	0.5053486675	0.3884086115	
668.75	0.534856225	-0.6413553683	
669.375	0.0469089958	-0.3761400189	
670.0	0.2342889775	-0.4374253914	
670.625	-0.1522624585	-0.6584782877	
671.25	0.1790987071	-0.1019396536	
671.875	0.4059926578	-0.5547122992	
672.5	0.2970923615	-0.4661270403	
673.125	0.3352178576	-0.09676535447	
673.75	0.8555950054	-0.6188608703	
674.375	-0.4499265979	-0.7801279594	
675.0	0.2659264374	-0.1339231849	
675.625	-0.6578911469	-0.742870388	
676.25	-0.4150167722	0.5279703008	
676.875	-0.2842193019	-0.6476647267	
677.5	-0.4304909135	0.6788259672	
678.125	-0.1939082335	-0.1798599024	
678.75	-0.1555659954	1.05717011	
679.375	0.6543692998	-0.3688006053	
680.0	0.08080760528	0.1442044844	
680.625	0.5064150371	-0.1647266812	
681.25	0.1107086317	-0.3500018039	
681.875	0.03716997483	0.3170481989	
682.5	0.7495482725	0.3300760966	
683.125	0.4805880786	-0.04729920496	
683.75	0.4018942753	0.1657594083	
684.375	0.9424629718	0.3081698686	
685.0	0.433619893	-0.3612216796	
685.625	0.610539683	0.5411905798	
686.25	1.194849227	-0.4935974969	
686.875	-0.1138843268	-0.2837137261	
687.5	1.478019255	-0.2534193077	
688.125	-1.028259033	-1.521503561	
688.75	0.03846916872	-0.4470038056	
689.375	-1.40124067	1.059670537	
690.0	0.785967625	0.4147735677	
690.625	-0.08629218455	1.139027086	
691.25	1.249983227	0.1798693157	
691.875	0.5647482101	0.6642408693	
692.5	1.531514912	0.7312166034	
693.125	1.575095298	-0.3271962805	
693.75	1.234442116	-0.4243883188	
694.375	0.9258499319	-1.053628628	
695.0	1.003249329	-0.414824474	
695.625	1.445051262	-0.5362451932	
696.25	0.7277322559	0.2278672802	
696.875	1.247671662	1.508360929	
697.5	1.179923256	0.3253751023	
698.125	0.9636957892	1.16445214	
698.75	1.303396408	-1.760173379	
699.375	-0.4496446465	-0.04760805709	
700.0	-1.558028277	0.6975636557	
700.625	0.9114193851	0.4851043986	
701.25	-0.1082937175	0.6935978812	
701.875	1.262677524	0.3613687052	
702.5	0.2542349396	0.4647940474	
703.125	1.332082067	0.5638032678	
703.75	0.5005379083	-0.626589028	
704.375	0.9808754696	0.02720028134	
705.0	0.4554222218	-0.8610664853	
705.625	0.1347013845	0.3339523612	
706.25	1.26507899	0.726188393	
706.875	0.3547659135	0.01375848139	
707.5	0.4977556203	1.301795856	
708.125	1.532861465	-0.150642591	
708.75	0.4701607673	-0.286577323	
709.375	-0.8750017819	-1.245357031	
710.0	-0.06541768854	0.6636642501	
710.625	-0.2449872533	0.4383604167	
711.25	0.4716126121	0.1965226179	
711.875	0.3908547078	0.3121266989	
712.5	0.7285991832	-0.09135450538	
713.125	0.6033022913	-0.1788091799	
713.75	0.411224628	-0.8727503289	
714.375	-0.2260820199	-0.1447886801	
715.0	0.2798476128	-0.8861684211	
715.625	-0.4562481828	-0.3237884853	
716.25	0.8153488528	-0.07018534546	
716.875	1.254979085	-1.350046278	
717.5	-0.2327559161	-0.02109307065	
718.125	2.875561486	1.190147735	
718.75	2.234356513	-1.93706704	
719.375	0.4425095637	0.3923067603	
720.0	2.908835818	-3.25039677	
720.625	-1.252501072	-1.90233074	
721.25	0.8111113819	-2.533839647	
721.875	-0.9739533224	-3.439303305	
722.5	-1.479951984	-0.694498812	
723.125	-1.790653848	-1.18873155	
723.75	-0.9375990264	1.610354145	
724.375	0.2803052564	0.779294325	
725.0	0.1716139438	0.6971479205	
725.625	0.3986613253	1.62483396	
726.25	1.095651592	1.122316369	
726.875	-1.217143927	1.694488597	
727.5	-0.2404244954	5.565268078	
728.125	2.940981882	2.663733106	
728.75	-6.150531059	8.033360998	
729.375	3.195203635	15.069951	
730.0	1.773624659	1.167374503	
730.625	-10.95034052	16.46296892	
731.25	8.326589669	16.45099735	
731.875	-5.082305342	-2.367230567	
732.5	-12.9254281	2.118127196	
733.125	-6.48110702	3.805680325	
733.75	-1.327269415	0.9896422648	
734.375	3.52682508	1.932862108	
735.0	-0.5234319902	-0.7002418837	
735.625	-0.9202149919	-0.3181404882	
736.25	-0.2711703307	2.296897388	
736.875	1.605614838	0.1877491465	
737.5	1.205330287	1.472495099	
738.125	5.633059653	-0.2891420338	
738.75	4.510388018	-6.394706702	
739.375	-0.9013792634	0.7225513785	
740.0	24.83408401	-0.4593650231	
740.625	-2.930637272	-11.68747539	
741.25	-11.5467079	8.942925067	
741.875	-3.060185455	19.76811132	
742.5	9.755247206	-1.663200423	
743.125	2.436419499	-12.16440416	
743.75	-2.98573925	-2.675371298	
744.375	0.1905070588	-0.1399260433	
745.0	-0.124682444	0.645487946	
745.625	-0.1968137313	-0.154081393	
746.25	0.2058568739	-0.5145262178	
746.875	-0.854506915	0.5556084473	
747.5	-0.1818874222	0.5769294118	
748.125	0.4899141497	1.760331186	
748.75	1.187409583	0.9963042453	
749.375	0.1282801581	1.080150054	
750.0	-0.7145010166	0.4177151854	
