!Created with skrf (http://scikit-rf.org).
# GHz S RI R (50+0j) 
!freq	ReS11	ImS11	
500.0	0.5171995935	-1.495849112	
500.625	-0.2148391263	-1.869514467	
501.25	0.1042456718	-0.853135098	
501.875	-0.8016845727	-0.7654007712	
502.5	-0.08962082659	-0.08114484023	
503.125	-0.1232015265	-0.03852670114	
503.75	0.07939644231	0.1396170755	
504.375	0.009455294052	0.03329460295	
505.0	0.05095101654	-0.066860544	
505.625	-0.03372622063	-0.001516855719	
506.25	-0.02491682457	-0.2055273634	
506.875	0.1136855989	0.2912886447	
507.5	0.3273688846	-0.5897997394	
508.125	-0.1712028076	-1.213422754	
508.75	0.2050061655	-0.8401510269	
509.375	0.441534629	-1.438641314	
510.0	-1.049563617	-0.4428918821	
510.625	-0.1601422077	-0.09268325715	
511.25	-0.1287894029	-0.1078041655	
511.875	-0.2131235302	0.07478966708	
512.5	-0.04955395526	0.01175985393	
513.125	-0.01615394804	-0.17650916	
513.75	-0.08248789486	0.05461197568	
514.375	-0.004169261625	-0.141222215	
515.0	-0.3489212202	0.03127105988	
515.625	0.5755832666	-0.7958965511	
516.25	-1.086751424	-0.7365836843	
516.875	-0.237386019	-0.1019246521	
517.5	0.1210673368	-0.3096727426	
518.125	-0.09748066763	0.03183129251	
518.75	-0.08281084716	-0.2900653507	
519.375	-0.09889425468	0.08408739189	
520.0	0.141098223	0.01778648889	
520.625	0.1713629979	-0.01123345514	
521.25	0.01561972083	-0.3375925986	
521.875	-0.2102915011	0.1122028935	
522.5	-0.01829866724	-0.06118817991	
523.125	-0.1496421069	0.1707921325	
523.75	0.05881360484	-0.02056510525	
524.375	-0.4221870443	-0.02912081895	
525.0	0.1515838565	0.240252651	
525.625	-0.05671241876	-0.02592602386	
526.25	0.09411664327	-0.07520925267	
526.875	-0.1435461226	-0.001489435937	
527.5	-0.0541363056	0.4062080904	
528.125	0.1827394686	0.1708208046	
528.75	0.1051295057	0.3484408024	
529.375	0.1364135984	0.0784720062	
530.0	0.1592207775	0.1632237508	
530.625	0.1243737142	0.5380748867	
531.25	0.6885895414	-0.1154270894	
531.875	0.220577924	-0.09653199479	
532.5	-0.02558087368	-0.3243030193	
533.125	0.06300667943	0.1392617572	
533.75	0.2732887822	-0.4446008529	
534.375	-0.2466854701	-0.2133022657	
535.0	-0.247174616	-0.2090180954	
535.625	-0.2580738791	0.2450656631	
536.25	0.03563286383	0.08058787867	
536.875	0.1175348805	0.07751539199	
537.5	0.09018467657	-0.08913007447	
538.125	0.0895050882	-0.03360012139	
538.75	0.1636072149	-0.1330564861	
539.375	-0.140558176	-0.1724458501	
540.0	-0.1179867451	-0.1675742697	
540.625	-0.25935166	-0.08040335131	
541.25	-0.1546053529	0.0776181109	
541.875	-0.000422543216	-0.06837238773	
542.5	-0.1976962742	-0.1471619684	
543.125	-0.01782416681	-0.03462210034	
543.75	-0.1940460564	-0.1376218952	
544.375	0.008917307799	0.1048507826	
545.0	-0.06894092271	0.06476615184	
545.625	0.1458713641	0.08280335927	
546.25	0.03858622884	-0.01188280632	
546.875	0.2220294541	0.003194384545	
547.5	0.009717884512	-0.1935274208	
548.125	-0.0002205326498	-0.1507786292	
548.75	-0.1775856945	-0.222713489	
549.375	-0.1771343226	-0.01961065365	
550.0	-0.06078028075	-0.04101149872	
550.625	-0.1017196682	0.05521283681	
551.25	-0.04930510535	0.03812386118	
551.875	-0.1249994664	0.09542449913	
552.5	-0.01810856772	0.1203747703	
553.125	-0.03359685514	0.07320728508	
553.75	0.09400853603	0.06834987845	
554.375	0.1054009888	-0.01146430155	
555.0	0.1312061768	-0.09426573255	
555.625	0.09833152983	-0.1529758614	
556.25	0.07587572542	-0.18188028	
556.875	-0.04505444381	-0.2082211679	
557.5	-0.1354199681	-0.1331936572	
558.125	-0.154080091	-0.03747361542	
558.75	-0.1358507066	-0.00246401998	
559.375	-0.1519885542	0.02997409643	
560.0	-0.1091941484	0.1087051467	
560.625	-0.07442949798	0.1209194328	
561.25	0.01071752293	0.1639500912	
561.875	0.0474000915	0.020687917	
562.5	0.003019433694	0.1079186684	
563.125	0.1068388441	0.04369142201	
563.75	0.1298390866	0.03927116792	
564.375	0.2039969092	-0.1615140681	
565.0	0.02190906701	-0.1795557685	
565.625	0.02386759544	-0.1887511089	
566.25	-0.2649095042	-0.1831833384	
566.875	-0.1161292442	-0.04045164904	
567.5	-0.170120025	-0.2296622453	
568.125	-0.3161439049	-0.112977754	
568.75	-0.1893568203	-0.1016855211	
569.375	-0.4363654488	0.171863715	
570.0	-0.02744646504	0.2976405141	
570.625	-0.1356603454	0.1210723608	
571.25	0.01105113078	0.2860606743	
571.875	0.02118246939	-0.03528447702	
572.5	0.233780926	0.08695237526	
573.125	0.02509332047	-0.2708269305	
573.75	0.01418169166	-0.02758979947	
574.375	0.1153066771	-0.1615864778	
575.0	-0.08429606605	-0.02616004436	
575.625	0.166810981	-0.06831145833	
576.25	-0.01163288325	-0.260095963	
576.875	-0.02193138373	-0.05725028967	
577.5	0.1001795099	-0.2631356384	
578.125	-0.2050563527	-0.2463339843	
578.75	-0.0358409138	0.01643131201	
579.375	-0.05451575469	-0.2088521109	
580.0	-0.2095830792	0.06279213424	
580.625	0.04540712264	-0.2356480657	
581.25	-0.198553063	0.250185736	
581.875	0.09795521999	0.02748407563	
582.5	-0.07344851902	0.1680015728	
583.125	0.1979222279	0.2115075916	
583.75	-0.02554434456	-0.1017306058	
584.375	0.1547035695	0.2086682612	
585.0	0.1307751119	-0.06866422785	
585.625	0.1388002686	0.1038527014	
586.25	0.3058615651	-0.1302713825	
586.875	-0.02164884246	-0.1501052941	
587.5	0.08039899001	-0.1417992614	
588.125	-0.0735359258	-0.2823778646	
588.75	-0.04789060035	-0.08374580187	
589.375	0.2945216607	-0.2042472851	
590.0	-0.2301857844	-0.2330969909	
590.625	-0.1110971846	-0.02652946693	
591.25	-0.2804679947	0.1160815576	
591.875	0.1776969616	0.2497345078	
592.5	-0.0987421647	-0.05822329363	
593.125	0.04134133823	0.1620480809	
593.75	-0.009692464769	0.05387875331	
594.375	0.2984372691	0.2301059441	
595.0	0.3073789227	0.01356089633	
595.625	0.08332953319	0.09329594822	
596.25	0.2919928824	0.1221488283	
596.875	0.1581537032	-0.05220273435	
597.5	0.08925133513	0.1530350179	
598.125	0.3003644362	0.1798385408	
598.75	0.181956736	0.01663788812	
599.375	0.2531758839	-0.02370383665	
600.0	0.2585718124	-0.2713154795	
600.625	0.02377580093	-0.2323239568	
601.25	0.1796283427	-0.166310519	
601.875	-0.2462610419	-0.2709026325	
602.5	-0.05831466206	0.0767464597	
603.125	-0.2083400593	-0.03995539582	
603.75	-0.02316555615	0.2381551849	
604.375	-0.07746843088	-0.03263319233	
605.0	-0.1858408198	0.1835034138	
605.625	0.04186583658	0.1021927355	
606.25	-0.2394860808	0.06633178848	
606.875	-0.259491069	0.2544264327	
607.5	-0.281846957	0.1849726656	
608.125	-0.1105198718	0.3153476446	
608.75	0.3223870131	0.2178075967	
609.375	0.2300624698	-0.1044230592	
610.0	0.2426957242	-0.07840901939	
610.625	0.07657647355	-0.3173906844	
611.25	-0.08016703769	-0.08911161212	
611.875	-0.06967519821	-0.2863322673	
612.5	-0.3047922654	0.1384425052	
613.125	-0.12030898	-0.05951380721	
613.75	-0.247472089	0.2564302457	
614.375	0.2045193038	0.04350179308	
615.0	-0.03678692895	0.2068580746	
615.625	0.1574509024	0.1485614319	
616.25	-0.05933816091	0.05159409273	
616.875	-0.08615876442	0.3008526267	
617.5	-0.1183670802	0.1945457879	
618.125	-0.02183836348	0.1859856348	
618.75	-0.006172972833	0.3429886097	
619.375	0.2003406287	0.2351162504	
620.0	0.167696323	-0.148140563	
620.625	0.2109411996	-0.2416299081	
621.25	-0.2374086689	-0.1539563789	
621.875	-0.141188148	-0.1146847119	
622.5	-0.4084935595	0.02699732364	
623.125	0.07870811868	0.2620817414	
623.75	0.04590897634	0.05596330137	
624.375	0.1534344762	-0.1341000277	
625.0	-0.03815385443	0.02733805744	
625.625	0.1456699328	-0.1537061983	
626.25	-0.1754216947	-0.1399436897	
626.875	-0.1101817461	-0.09706385926	
627.5	-0.2562094086	-0.1207163002	
628.125	-0.191765877	-0.1277906878	
628.75	-0.03169572	-0.1488024379	
629.375	-0.1307145898	-0.255158184	
630.0	-0.2149052495	-0.01908306751	
630.625	-0.09000975973	0.001744343817	
631.25	-0.2057173172	0.3282791505	
631.875	0.1738839388	0.3317399223	
632.5	0.09678669003	0.2251251656	
633.125	0.5069676134	0.12429531	
633.75	0.09206076847	-0.1775044937	
634.375	0.1463414346	-0.1402395477	
635.0	-0.1323486878	-0.2621349199	
635.625	-0.104024578	0.01266527897	
636.25	-0.2935481302	0.02874007753	
636.875	0.001020333108	0.2775645425	
637.5	-0.0230073372	-0.002724524398	
638.125	-0.1526396975	0.2199512659	
638.75	0.06783435582	0.2155259215	
639.375	-0.08048859964	0.2773957335	
640.0	0.2983985518	0.3834940463	
640.625	0.3207991051	0.02463119981	
641.25	0.1622564661	-0.003886979597	
641.875	0.3212182639	-0.3248738706	
642.5	-0.2820089432	-0.2261873267	
643.125	-0.001683884067	-0.1781670009	
643.75	-0.5264436855	-0.1473464308	
644.375	0.005549425535	0.1105532252	
645.0	-0.443727606	0.1650641415	
645.625	0.2700287482	0.3107486732	
646.25	-0.03539579565	-0.03279275337	
646.875	0.2344763631	0.1442984547	
647.5	0.01270537178	-0.1753170027	
648.125	0.1969682195	0.2851651587	
648.75	0.4483763831	-0.3046704606	
649.375	0.08459133972	-0.2455246882	
650.0	0.3669731456	-0.2803908344	
650.625	0.1515314597	-0.6578133625	
651.25	0.031639822	-0.1797332094	
651.875	0.4731393722	-0.1342983877	
652.5	0.3905971958	-0.3390747167	
653.125	0.0498991441	-0.1566945567	
653.75	0.447820129	-0.2777167379	
654.375	-0.3765397509	-0.4292528573	
655.0	-0.1901150377	-0.01196864631	
655.625	-0.4573244436	0.1452928316	
656.25	0.3820945184	0.3093906392	
656.875	-0.1501578088	-0.0121695149	
657.5	0.2403615956	0.2783275301	
658.125	0.1399934307	-0.02953325039	
658.75	0.3160203813	0.2692496519	
659.375	0.5017341728	-0.5265729837	
660.0	0.05191056445	-0.2941846696	
660.625	0.2810479734	-0.352854422	
661.25	0.1948742734	-0.5581022546	
661.875	-0.01029647725	-0.2450654635	
662.5	0.4602511	-0.1676498689	
663.125	0.2701508309	-0.4706718418	
663.75	0.06090586055	-0.2674895931	
664.375	0.04998552482	-0.4362751822	
665.0	-0.5386304606	-0.1777215421	
665.625	-0.201835478	0.1356233205	
666.25	-0.2951053937	0.3616907424	
666.875	0.3465316634	0.2678259589	
667.5	0.07031551518	0.0458159646	
668.125	0.5062015196	0.0121315913	
668.75	0.01885118333	-0.3208728457	
669.375	0.1599907375	-0.1308264601	
670.0	0.06330020177	-0.453577224	
670.625	-0.2133713141	-0.0645408237	
671.25	0.2188380062	-0.1500316225	
671.875	0.1080099592	-0.3509385662	
672.5	0.1011985442	-0.2039471102	
673.125	0.3621703961	-0.1049562671	
673.75	0.08858597274	-0.5070319584	
674.375	-0.05163845744	-0.179829955	
675.0	-0.04081277104	-0.3514167536	
675.625	-0.3930492181	-0.1106821378	
676.25	-0.09178938062	0.1054647505	
676.875	-0.2770308418	-0.1206650041	
677.5	-0.1769472226	0.2518971466	
678.125	-0.04650948731	-0.0155966615	
678.75	-0.01540754097	0.4426168089	
679.375	0.4138301916	-0.3197612558	
680.0	0.008597048393	0.09516702969	
680.625	0.2923245413	-0.1952341431	
681.25	-0.1158382555	-0.1725984838	
681.875	0.3348344133	0.4528243663	
682.5	0.5313628101	-0.05240056841	
683.125	0.0815051611	0.02301847317	
683.75	0.4164195461	0.1904528311	
684.375	0.5866619022	-0.06382493977	
685.0	0.09543609599	0.1046657969	
685.625	0.5497078993	0.1654098957	
686.25	0.3744250738	-0.3096156871	
686.875	0.1745671007	-0.1290015063	
687.5	0.3489332761	-0.4957590402	
688.125	-0.4432911458	-0.5169697123	
688.75	-0.3121250918	-0.1529113313	
689.375	-0.4936285007	0.5221131194	
690.0	0.5502330087	0.3986184359	
690.625	-0.015264195	0.2225278555	
691.25	0.6739386451	0.5131806069	
691.875	0.4280448032	0.006107843967	
692.5	0.7153881523	0.6005493814	
693.125	1.061947884	-0.2162549799	
693.75	0.3951849262	-0.4480170123	
694.375	0.7828413242	-0.5268025056	
695.0	0.6711495874	-0.5668398498	
695.625	0.6144911554	-0.04272238783	
696.25	0.5633576441	0.3313573347	
696.875	0.905982941	0.4014261215	
697.5	0.722541038	0.4244475334	
698.125	0.6728086058	0.1751769541	
698.75	0.4420728913	-0.8714438745	
699.375	-0.5932754172	-0.03760174067	
700.0	-0.4719274546	0.318532474	
700.625	0.5202305192	0.5866766376	
701.25	0.1783158518	0.02111263278	
701.875	0.2673589764	0.4849931156	
702.5	0.6998448543	0.1680016797	
703.125	0.3321880187	0.2289806727	
703.75	0.6370805295	-0.08261077718	
704.375	0.3020653489	-0.4549734643	
705.0	0.3631500383	-0.09102837896	
705.625	0.5424428052	0.07505939396	
706.25	0.2851011705	0.4100367863	
706.875	0.262190776	0.3552618521	
707.5	0.5282727281	0.5267722308	
708.125	0.572015317	-0.2272877932	
708.75	-0.1367714252	-0.4022304834	
709.375	-0.4645328054	-0.3941002871	
710.0	0.0002095246477	0.4335795933	
710.625	-0.07824005845	-0.02915771648	
711.25	0.456095445	0.279533573	
711.875	0.1155345022	-0.01406618601	
712.5	0.4911632791	0.06611530253	
713.125	0.3424104413	-0.4062492493	
713.75	0.06938182193	-0.2320119733	
714.375	0.1675323536	-0.3319333671	
715.0	-0.1904789737	-0.3338009819	
715.625	-0.006304978372	-0.1897877019	
716.25	0.3774374062	-0.3734237716	
716.875	0.5316094021	-0.29471613	
717.5	0.5218035581	-0.02431667017	
718.125	1.157071182	0.03619334482	
718.75	1.003546051	-0.7578378525	
719.375	0.2149592411	-0.5636487333	
720.0	1.473217532	-1.569590843	
720.625	-0.6293007821	-1.13824619	
721.25	0.3407835283	-0.9557467766	
721.875	-0.8086836659	-2.091476166	
722.5	-1.197237854	-0.2541779499	
723.125	-0.8300527218	-0.4123398767	
723.75	-0.5383692637	0.9539951005	
724.375	0.2730811272	0.3484367023	
725.0	-0.001300797088	0.5020816026	
725.625	0.4636637869	0.7608937161	
726.25	0.2687392159	0.4727267718	
726.875	-0.4018852007	1.28828267	
727.5	0.1662820067	2.41292721	
728.125	0.6357871864	1.983560516	
728.75	-1.246884342	3.788972473	
729.375	1.391231286	5.917768051	
730.0	3.855827276	3.271519821	
730.625	-1.151536339	4.889265888	
731.25	1.73904639	7.7877943	
731.875	1.851201765	1.121663961	
732.5	-5.214868088	1.192369397	
733.125	-3.071137488	3.663887843	
733.75	0.1373164689	0.9588858435	
734.375	1.550255717	0.9654534652	
735.0	-1.057166383	-0.6510840245	
735.625	-0.2741349145	-0.0705280419	
736.25	-0.1912472184	0.997573364	
736.875	1.105182556	0.3698703658	
737.5	0.4365152935	0.3689423015	
738.125	2.969557203	-0.7035908097	
738.75	1.536614555	-2.905382952	
739.375	0.5707265867	-0.7189552796	
740.0	6.658476385	-1.064477518	
740.625	3.678661678	-7.316900562	
741.25	-3.908522045	1.311143709	
741.875	-8.294762832	5.516034006	
742.5	-1.984605099	1.916510597	
743.125	2.668413056	-2.561202426	
743.75	-1.402223087	-2.157211842	
744.375	-0.173883523	0.3485718981	
745.0	-0.1025896138	0.2043011462	
745.625	-0.1406392292	-0.2618346499	
746.25	0.1364995684	-0.1905907074	
746.875	-0.3174309758	0.2112741903	
747.5	0.1248693701	0.4461481952	
748.125	0.01674953811	0.57998024	
748.75	0.5294466872	0.8560188723	
749.375	0.2525854761	0.543028778	
750.0	0.1751341343	0.776644337	
