!Created with skrf (http://scikit-rf.org).
# GHz S MA R 50.0 
!freq magS11 angS11
500.0 0.0233985247499 -157.228931327
500.625 0.0101251536467 115.863418496
501.25 0.0166081813878 -159.582998288
501.875 0.0132524882285 -115.427271352
502.5 0.0426009800093 171.529474441
503.125 0.0134105896408 75.8699588718
503.75 0.00820084091705 34.7385143466
504.375 0.0058901674446 -64.2306418411
505.0 0.010194168381 -59.6941474093
505.625 0.0252155414143 -69.551505814
506.25 0.0325659389329 -111.085887178
506.875 0.0722322468765 -94.2957630177
507.5 0.0382144299391 -127.413196824
508.125 0.052940280524 -103.004118246
508.75 0.0820854444196 -118.907081088
509.375 0.0489997515567 -178.605476715
510.0 0.0281410867383 -133.612213591
510.625 0.0416965429985 -160.822298092
511.25 0.063382260369 -174.172281646
511.875 0.0605886690094 150.838739397
512.5 0.0387010883454 101.608195367
513.125 0.0559240340674 48.9773001519
513.75 0.0704583848221 44.0841052926
514.375 0.0314276197998 -7.49874570907
515.0 0.035371111451 -4.94061710397
515.625 0.0757253218966 47.9909833408
516.25 0.109458472809 28.5991404262
516.875 0.0818143365295 62.0977950702
517.5 0.112347057523 19.4712883019
518.125 0.188886936163 61.1543951947
518.75 0.0934230667252 14.284546004
519.375 0.067073110628 16.9069717962
520.0 0.0932848241944 -3.63931011498
520.625 0.100442882386 -5.75866887528
521.25 0.0945320637382 -23.1119860128
521.875 0.0536312047886 -10.7996199123
522.5 0.0846152371838 -39.4455164497
523.125 0.171462503215 -41.2384192567
523.75 0.233002739759 -55.2447017639
524.375 0.194832848697 -67.4737321013
525.0 0.0686105043563 -56.996759578
525.625 0.0375694371602 -36.9388989162
526.25 0.0494697287253 -12.7512412266
526.875 0.0559608781812 -23.1789174226
527.5 0.0474410377258 -30.2377467342
528.125 0.0410797797622 -59.8454186873
528.75 0.0762344294247 -74.5544545238
529.375 0.087927290519 -116.896014046
530.0 0.0485471888183 -143.852735797
530.625 0.0443600300793 -152.682078095
531.25 0.0890872041272 -134.081676914
531.875 0.174712275423 -150.066461351
532.5 0.152998679055 -172.918246003
533.125 0.100582425407 173.571327088
533.75 0.127880779424 164.54140317
534.375 0.109775995065 175.385181425
535.0 0.0806865907761 158.120913008
535.625 0.065148213212 175.307892007
536.25 0.0620450815315 159.499060764
536.875 0.0751968853598 -162.204326072
537.5 0.0921786900158 -148.944983849
538.125 0.112892056749 -177.582927631
538.75 0.106843002551 175.697099586
539.375 0.0793054722061 -167.640910213
540.0 0.0924814721417 -156.581303069
540.625 0.136007399056 -160.372339522
541.25 0.109787271469 -146.322794221
541.875 0.09439240033 -145.041470134
542.5 0.101341299644 -143.963894821
543.125 0.143289633357 -169.179259655
543.75 0.12935191377 156.878137045
544.375 0.0953199631956 133.807929867
545.0 0.0800336617534 89.0843849112
545.625 0.0994352163786 80.539960528
546.25 0.10505337018 63.3226355484
546.875 0.0712359655235 51.3014562098
547.5 0.111993041397 56.3648377604
548.125 0.12517311934 75.542422947
548.75 0.0846050438206 85.4918440563
549.375 0.0974658288194 83.3379603696
550.0 0.0812493456056 122.542786458
550.625 0.0505434526293 149.499766521
551.25 0.0443642181606 -156.954669544
551.875 0.0606256721813 -163.937505384
552.5 0.113277398767 -168.30776437
553.125 0.0911235817881 -170.304297843
553.75 0.0925433730709 -172.701962775
554.375 0.103627488769 166.091464917
555.0 0.122774841132 162.64916806
555.625 0.0943091474894 156.648699238
556.25 0.105163946297 156.832526231
556.875 0.101622932921 166.842604193
557.5 0.11469036857 164.125803354
558.125 0.0978258556162 162.16470578
558.75 0.092354804848 172.806533028
559.375 0.0647077997543 -175.584992883
560.0 0.0451150848508 -151.544169923
560.625 0.054661306478 -140.504632523
561.25 0.0914795374248 -157.517880198
561.875 0.0956440994753 -161.261113718
562.5 0.088655686267 173.557002773
563.125 0.105150020939 143.676567548
563.75 0.137827537971 126.145983137
564.375 0.103418465721 119.368499176
565.0 0.0893648759043 118.11906051
565.625 0.0826720990151 115.744511069
566.25 0.10299686532 145.688518102
566.875 0.0638695945148 -176.112546654
567.5 0.0725239918547 -179.12890383
568.125 0.0752945369008 -172.969828809
568.75 0.0744481063141 -154.784498476
569.375 0.0481999730017 -114.487618168
570.0 0.0596880856217 -113.231947724
570.625 0.0848740803414 -113.714807774
571.25 0.0933506154193 -128.396032301
571.875 0.0852408200767 -124.668282168
572.5 0.110855472083 -157.195340755
573.125 0.134013430422 -175.782855352
573.75 0.109243617693 158.046573235
574.375 0.0739220682293 154.420772913
575.0 0.100299953979 155.605391745
575.625 0.102200073984 155.679741607
576.25 0.0947039911689 141.014970554
576.875 0.0819744663286 127.902050947
577.5 0.0785475144088 138.386725871
578.125 0.0599874517022 157.924782625
578.75 0.0530545225254 149.987306011
579.375 0.0489258106534 174.423974807
580.0 0.0667988351514 -179.198088115
580.625 0.0733478697211 -150.539952873
581.25 0.0862421859033 -171.680535219
581.875 0.112401261009 -179.528548698
582.5 0.116958628819 -179.044099613
583.125 0.0957849924365 -172.695966256
583.75 0.0824783738987 -169.748526564
584.375 0.105525808011 -166.243907913
585.0 0.0901705772301 -141.70825347
585.625 0.074509120248 -152.922178267
586.25 0.071812481403 -147.190828106
586.875 0.0807234763272 -138.263261154
587.5 0.0729758522386 -146.418272738
588.125 0.0602907860293 -179.961758192
588.75 0.0660483469412 -167.866063101
589.375 0.0814791064707 -160.138376277
590.0 0.0919251552596 -166.877830216
590.625 0.105692602433 164.579381612
591.25 0.123226612449 152.091995945
591.875 0.105315842317 147.766853981
592.5 0.0596917808514 154.456625689
593.125 0.0613828193882 151.653073991
593.75 0.072994310303 168.43110758
594.375 0.0609700975221 -165.347047965
595.0 0.0424574520295 -120.460396884
595.625 0.063291947522 -98.4567561872
596.25 0.0741125524674 -88.7132082097
596.875 0.0636379295531 -87.3890024252
597.5 0.0653617136967 -51.4096173817
598.125 0.0630791510737 -65.4557905873
598.75 0.0706304271737 -74.9809301158
599.375 0.085608741906 -66.6140666344
600.0 0.100538683452 -69.4074202403
600.625 0.0977198508407 -70.9983208177
601.25 0.086056355161 -77.1367465994
601.875 0.0704109507223 -98.2824556474
602.5 0.064903399967 -75.7022470324
603.125 0.0483532500184 -50.9173715277
603.75 0.0343382613191 -27.2738101785
604.375 0.0305610883239 -44.1412936178
605.0 0.0754774646422 -7.56521513074
605.625 0.0515799908306 -14.7480960303
606.25 0.023935104591 1.272667567
606.875 0.0257153032466 41.6309482956
607.5 0.0470852304369 35.468935717
608.125 0.074366857433 26.3274600549
608.75 0.0675057200248 22.4624503246
609.375 0.0478666678362 18.172314963
610.0 0.0909969038481 52.7090517955
610.625 0.0659458518963 34.8953420987
611.25 0.0503384364917 32.2521464859
611.875 0.0331053766458 26.8498391953
612.5 0.0160800947706 65.8771708898
613.125 0.0321882551188 123.057669701
613.75 0.0486780004566 119.731191386
614.375 0.0529407453417 125.137506211
615.0 0.0167108774007 101.527061888
615.625 0.0526726335704 132.636905716
616.25 0.0594943978879 132.163280375
616.875 0.0651372763634 132.505288291
617.5 0.0231127784842 106.774112812
618.125 0.0350785609648 127.602171087
618.75 0.0512035310574 139.644735831
619.375 0.0296710652865 143.353110963
620.0 0.0105656260877 -3.39658744936
620.625 0.0148714540771 -109.391199571
621.25 0.0371962251055 -96.293995045
621.875 0.058118839081 -113.3842826
622.5 0.06827087835 -155.122206351
623.125 0.0998292257825 157.835191234
623.75 0.0789926617204 158.041530468
624.375 0.0530733452401 179.370005075
625.0 0.0297542356511 -117.031818295
625.625 0.0706505644533 -160.742940909
626.25 0.0243719842734 173.310914072
626.875 0.0037477864844 -59.7442647412
627.5 0.0368616364694 -16.1611428368
628.125 0.0425012537965 -13.5703776071
628.75 0.0337446981704 -15.5598507664
629.375 0.0547915769943 -3.87535526364
630.0 0.0632076851972 -4.72984723574
630.625 0.069049732177 7.49059970145
631.25 0.0672703049783 -8.77941300379
631.875 0.070442557121 -4.71923219307
632.5 0.0649245883108 3.99090169837
633.125 0.0491011923143 14.7290644596
633.75 0.0407824626089 -7.75722536957
634.375 0.0381745086189 3.13141526836
635.0 0.0367805787151 6.07153796523
635.625 0.0516424229859 45.1296646191
636.25 0.0397159151879 4.95303807231
636.875 0.0625036038594 34.345097132
637.5 0.044980070764 43.8364305249
638.125 0.0379341457938 64.1152483909
638.75 0.0785748974773 73.873772861
639.375 0.0875550432447 89.6988558769
640.0 0.0703626377465 102.000126085
640.625 0.0546429920876 100.354664284
641.25 0.0805904455063 125.048252684
641.875 0.0636198824784 143.830257654
642.5 0.061716679397 148.253567536
643.125 0.0685861034457 160.367662438
643.75 0.0743286410679 167.926023678
644.375 0.0758786703307 -175.107064768
645.0 0.0870064183996 178.588373129
645.625 0.0892503876281 164.696792558
646.25 0.102801415404 166.531355639
646.875 0.0590695102125 162.094945936
647.5 0.0558193088892 175.489313841
648.125 0.0826072377262 -177.520039702
648.75 0.092066268639 -161.312433216
649.375 0.0383011066151 178.956376185
650.0 0.03170551664 -128.882953719
650.625 0.0582416262148 -97.2544744009
651.25 0.0806905733927 -68.9829326351
651.875 0.04453657984 -48.8587363388
652.5 0.0883230483252 -25.785080699
653.125 0.121183969599 -6.15062299735
653.75 0.123216817569 4.06031823932
654.375 0.106415438066 3.21852814573
655.0 0.114196410737 10.6713066268
655.625 0.0920991198702 19.3527665097
656.25 0.0738739982519 20.2520179909
656.875 0.0494943878886 -9.28398386236
657.5 0.0780459243125 17.6983874385
658.125 0.0729342808385 44.679485064
658.75 0.0584223041654 61.0758294905
659.375 0.0842092598701 35.8077184247
660.0 0.109541452789 23.8914088847
660.625 0.112185601685 15.9496585435
661.25 0.107564495784 2.45629270568
661.875 0.135387706476 -16.2738623963
662.5 0.124122119596 -23.9197981168
663.125 0.104979987797 -23.777810642
663.75 0.104219334719 2.45876274521
664.375 0.103379787633 49.5057190241
665.0 0.0713734222148 83.7896184428
665.625 0.0640619416876 108.575102565
666.25 0.0908240644657 125.108266274
666.875 0.101946386128 167.343294971
667.5 0.0880977738993 -169.15879089
668.125 0.0967723487565 178.937773431
668.75 0.139289497486 161.891808847
669.375 0.102475593764 172.211720327
670.0 0.0817509149807 -172.7841455
670.625 0.0780893609689 -173.333712008
671.25 0.121145542725 169.783949304
671.875 0.0910982758393 163.124776563
672.5 0.0793215618285 151.706572273
673.125 0.072653656143 148.400168186
673.75 0.120200421714 152.005065993
674.375 0.10085322664 168.083691355
675.0 0.106293919387 -174.753425543
675.625 0.112173676761 -153.297321934
676.25 0.131674886061 -129.668421435
676.875 0.0981474242202 -120.938986396
677.5 0.115206797833 -128.295481738
678.125 0.117301679087 -120.700123441
678.75 0.0789104708733 -97.5668827614
679.375 0.0471812096903 -78.3380932279
680.0 0.0748839406668 -83.1192601533
680.625 0.125525131198 -82.8381840636
681.25 0.106766221272 -76.898166478
681.875 0.103943485909 -98.3770833032
682.5 0.119707320791 -114.948250882
683.125 0.158250885179 -123.939461419
683.75 0.129603052591 -107.651600558
684.375 0.123397677138 -83.5765299845
685.0 0.143238255889 -45.2591485978
685.625 0.127774743135 -4.68350202133
686.25 0.11885636761 16.1037086847
686.875 0.0969220003812 40.2652251333
687.5 0.0721745806961 75.7965387221
688.125 0.0791656457049 105.467602695
688.75 0.103351416077 108.521105752
689.375 0.141806470515 116.716379028
690.0 0.141347381499 127.456670066
690.625 0.118750478019 124.7958711
691.25 0.141713980117 96.3863725616
691.875 0.183212070788 67.2336341284
692.5 0.160395813994 33.9706053352
693.125 0.0732838512198 -12.4883749524
693.75 0.0934656777285 -43.0688805104
694.375 0.127866801999 -34.8276549615
695.0 0.130407337296 6.73100177626
695.625 0.106169618852 46.659130304
696.25 0.112962615277 109.93690787
696.875 0.131053073729 174.593995334
697.5 0.135761053635 -145.52361204
698.125 0.147252830103 -141.05588499
698.75 0.123418150403 -131.146684764
699.375 0.113552934993 -129.839746873
700.0 0.0984902539981 -118.667147806
700.625 0.11466349374 -96.5605063685
701.25 0.100440698922 -68.4508289514
701.875 0.0815917342069 -64.2797742899
702.5 0.0973695420086 -87.2968337021
703.125 0.167937447272 -131.64667525
703.75 0.166901851407 -148.357314078
704.375 0.126129903666 172.385645111
705.0 0.102944402029 155.908610375
705.625 0.145005654973 -176.308500223
706.25 0.14926855311 -118.169865499
706.875 0.0957025207849 -67.8711588062
707.5 0.0780066178889 -41.3898039939
708.125 0.0911779248271 11.9816607471
708.75 0.111421085441 53.1428849819
709.375 0.104920237319 102.002682724
710.0 0.101914555424 132.554768624
710.625 0.103784243909 158.081929328
711.25 0.117847666702 163.250971783
711.875 0.143609236649 165.533351645
712.5 0.157441409976 138.428844305
713.125 0.131400067462 97.2493193329
713.75 0.10862345649 37.5700088902
714.375 0.110152493348 35.9550227753
715.0 0.113883483054 35.6643584525
715.625 0.0818729759124 53.7706985768
716.25 0.0742623427095 67.1213587152
716.875 0.119878192918 105.320434469
717.5 0.14319855105 142.311657608
718.125 0.11931307393 168.537516742
718.75 0.101460681562 167.655636769
719.375 0.107301675816 174.199954588
720.0 0.136960103495 -117.780293766
720.625 0.114555144558 -73.0346704872
721.25 0.099611903612 -25.4948879524
721.875 0.0857129635554 22.7321157155
722.5 0.0754523287408 63.8235511944
723.125 0.0740903112331 54.6900140009
723.75 0.111423217291 36.9290423056
724.375 0.0982830409423 -16.2852559632
725.0 0.103781876274 -34.9350285518
725.625 0.110166369142 -62.8619339421
726.25 0.109574183873 -68.8554239286
726.875 0.0999001877357 -64.668328236
727.5 0.0865789826088 -23.5222744368
728.125 0.0766410075856 -10.4443112446
728.75 0.0960681136894 17.4075732991
729.375 0.0875474940726 14.4051243375
730.0 0.0576140916256 -16.8690711628
730.625 0.0931525463875 35.7436614673
731.25 0.0876419149471 67.4318740511
731.875 0.0839152989477 118.468230895
732.5 0.0573521671275 140.155815912
733.125 0.0782619649592 167.653314956
733.75 0.0861366404071 176.701529347
734.375 0.0649252368172 164.071706598
735.0 0.039071830786 124.974861037
735.625 0.0626441215255 146.578582562
736.25 0.0661803300985 143.890037726
736.875 0.0563956425238 161.022384257
737.5 0.0496635934773 -175.072147895
738.125 0.129483803603 -170.215851644
738.75 0.0896297937796 -172.218660832
739.375 0.0699492323325 -158.789692286
740.0 0.0220009528863 -137.469880954
740.625 0.0371171820842 -141.834440366
741.25 0.0465728686148 -156.447133926
741.875 0.0491817642501 -119.210263166
742.5 0.0440594576756 -19.4678609186
743.125 0.0169077136825 92.6327549672
743.75 0.0358715219461 100.591989272
744.375 0.0326332600321 145.132909009
745.0 0.0493245123101 137.351992038
745.625 0.0670670150769 118.793710967
746.25 0.0814592001017 79.3598146467
746.875 0.0857358486355 27.6259338389
747.5 0.0451213018195 2.69119094012
748.125 0.0155349174704 59.3490614319
748.75 0.0342699979523 -24.8804575244
749.375 0.0296983747577 -35.4273495232
750.0 0.0296942607546 -61.4057769885
