!Created with skrf (http://scikit-rf.org).
# GHz S RI R (50+0j) 
!freq	ReS11	ImS11	
500.0	0.2991990133	-1.099561445	
500.625	-0.1508907401	-0.6330978238	
501.25	0.04131480996	-0.6240338859	
501.875	-0.3748185887	-0.4258339129	
502.5	-0.01561612178	-0.0476468594	
503.125	-0.07368617928	-0.02270985305	
503.75	0.06702912368	0.06610873244	
504.375	0.01430943338	0.02831751299	
505.0	0.01709787851	-0.04951472613	
505.625	0.003457584667	0.006729113486	
506.25	-0.09390596439	-0.1307397909	
506.875	0.06788765498	0.1233535541	
507.5	0.166869531	-0.4824035438	
508.125	-0.01228697771	-0.7788267061	
508.75	0.1081355155	-0.4346192239	
509.375	0.1339770511	-1.117279987	
510.0	-0.5371539168	-0.0850589083	
510.625	-0.008342353105	-0.0790527192	
511.25	-0.06739496113	-0.07023735731	
511.875	-0.09614133175	0.0389596717	
512.5	-0.0458591218	0.02611126302	
513.125	-0.03663131708	-0.08833542937	
513.75	-0.02692114671	0.01476984164	
514.375	-0.03415872472	-0.1280109683	
515.0	-0.1690728217	0.1380148813	
515.625	0.3283220106	-0.6947483173	
516.25	-0.5867526889	-0.5651792607	
516.875	0.184404246	-0.2780942429	
517.5	0.03346189228	-0.2571844618	
518.125	-0.02994490566	0.03514239321	
518.75	0.0131510113	-0.1857572076	
519.375	-0.04309134328	0.05360574596	
520.0	0.0663489999	0.01155087275	
520.625	0.132359561	-0.02465790806	
521.25	-0.02564092166	-0.3149198101	
521.875	-0.1603857245	-0.01969989083	
522.5	-0.04597397203	-0.03719471162	
523.125	-0.05565027363	0.1197653882	
523.75	0.009136720846	-0.08830573263	
524.375	-0.2771671698	-0.004323581859	
525.0	0.08304333718	0.09411201446	
525.625	-0.05064945604	0.0316771785	
526.25	0.06926697211	-0.01532299481	
526.875	-0.1057530192	0.01647835053	
527.5	0.0280978291	0.2349806442	
528.125	-0.01578394068	0.1456897778	
528.75	-0.09310612382	0.194556503	
529.375	0.07533357214	0.02898665055	
530.0	-0.1192318936	0.08484099737	
530.625	0.1727176664	0.3116396382	
531.25	0.4412242215	0.04365445031	
531.875	0.2429035882	-0.03214126973	
532.5	-0.1403925096	-0.166491351	
533.125	-0.02618174851	0.0945150874	
533.75	0.09592747278	-0.2633614033	
534.375	-0.08399017135	-0.114289461	
535.0	-0.1709139004	-0.1504079087	
535.625	-0.1738933678	0.1527471905	
536.25	0.01272201538	0.04786496142	
536.875	0.08956962585	0.04377516798	
537.5	0.04383904268	-0.0711063938	
538.125	0.07404716778	-0.001221839162	
538.75	0.1393207801	-0.1476359245	
539.375	-0.08946841919	-0.08905971535	
540.0	-0.08823577091	-0.1515240373	
540.625	-0.1850021806	-0.02480519971	
541.25	-0.08832789013	0.03308826308	
541.875	-0.02696350611	-0.06268293441	
542.5	-0.07893374498	0.005233457528	
543.125	-0.007469498163	-0.02231655663	
543.75	-0.1312924731	-0.06643440466	
544.375	0.02876756158	0.04539039884	
545.0	-0.05012088982	0.05252312994	
545.625	0.1146439755	0.0364753191	
546.25	0.03392777635	0.0501406318	
546.875	0.1856011056	-0.02277784918	
547.5	0.00448789587	-0.1090581527	
548.125	0.01506820263	-0.1245934291	
548.75	-0.1435453206	-0.1473539886	
549.375	-0.1006080468	-0.006976154306	
550.0	-0.05265679796	-0.032224886	
550.625	-0.06154661737	0.04121367737	
551.25	-0.05085573761	-0.005341699121	
551.875	-0.08590726065	0.07751757615	
552.5	-0.01159111813	0.06002777311	
553.125	-0.02694147595	0.04920152239	
553.75	0.05244472656	0.03634347054	
554.375	0.07169084202	0.0007917125983	
555.0	0.09260677147	-0.06565319309	
555.625	0.06896710128	-0.100870793	
556.25	0.05482155274	-0.1221602367	
556.875	-0.0324931629	-0.145064186	
557.5	-0.0947648436	-0.08936128387	
558.125	-0.1060571566	-0.02776068858	
558.75	-0.09886242121	-0.003612315198	
559.375	-0.1060726608	0.02841094365	
560.0	-0.07299582819	0.07014760258	
560.625	-0.06166437353	0.08964772342	
561.25	0.02130796575	0.1066674284	
561.875	0.01221322419	0.009628689187	
562.5	0.01670089179	0.08260330525	
563.125	0.05861961708	0.02593270934	
563.75	0.1255133012	0.03882302532	
564.375	0.1271915456	-0.127499328	
565.0	0.03086799787	-0.1043133771	
565.625	0.02354522209	-0.1612501352	
566.25	-0.1501318641	-0.07202285851	
566.875	-0.04530685132	-0.0432208436	
567.5	-0.1530225471	-0.1482152038	
568.125	-0.1490250846	-0.07462098203	
568.75	-0.1332744853	-0.1260823972	
569.375	-0.2808607488	0.1600050461	
570.0	-0.02394001078	0.1670359689	
570.625	-0.1026275453	0.1133117661	
571.25	0.0451010078	0.1682916857	
571.875	-0.02540150397	0.005071943429	
572.5	0.1878286489	0.03412722066	
573.125	0.007734548163	-0.1401144813	
573.75	0.07219193932	-0.005391387892	
574.375	0.01044696897	-0.1761683673	
575.0	-0.02828403868	0.04197166718	
575.625	0.09953259744	-0.1118888521	
576.25	-0.03996618619	-0.1219434745	
576.875	0.04153076329	-0.05019309496	
577.5	0.04672049965	-0.2186121345	
578.125	-0.1483262504	-0.1311640234	
578.75	-0.01201319637	-0.05233680734	
579.375	-0.09182762187	-0.2018764634	
580.0	-0.09500562391	0.0836060587	
580.625	-0.04747179965	-0.1175026313	
581.25	-0.09024033214	0.1723564575	
581.875	0.007251477994	-0.003051008987	
582.5	-0.03830188222	0.1807024639	
583.125	0.1917947501	0.07678188434	
583.75	-0.08742054556	-0.002502224495	
584.375	0.1178582934	0.1101653321	
585.0	0.0271795119	-0.03474385613	
585.625	0.1241436107	0.09250442989	
586.25	0.1813203135	-0.14485399	
586.875	0.009647251984	-0.04981760565	
587.5	0.06296657422	-0.1575209789	
588.125	-0.1009366724	-0.1533811596	
588.75	0.03765937742	-0.03685869322	
589.375	0.121865146	-0.2014051664	
590.0	-0.1471133178	-0.107255123	
590.625	-0.07266139742	-0.07060423172	
591.25	-0.2449764593	0.1394491755	
591.875	0.07618004745	0.1241207165	
592.5	-0.1533319523	0.02847901429	
593.125	0.08127084164	0.07355991195	
593.75	-0.08462445786	0.1294478322	
594.375	0.2348036935	0.137887748	
595.0	0.1339728639	-0.02309519292	
595.625	0.08574080577	0.1355444485	
596.25	0.2150870407	0.002094790585	
596.875	0.08976412626	-0.04466782544	
597.5	0.1607086995	0.1487220675	
598.125	0.2159883298	0.06650068277	
598.75	0.09365064349	0.03705588378	
599.375	0.2311864963	-0.004882158265	
600.0	0.1306011796	-0.2057753812	
600.625	0.05494482496	-0.1007281845	
601.25	0.1248980753	-0.1680272773	
601.875	-0.1570226227	-0.1385551646	
602.5	0.001563100976	0.01338341065	
603.125	-0.2029214019	0.01583142889	
603.75	-0.01503343866	0.1389581554	
604.375	-0.08083103074	-0.02647603014	
605.0	-0.08500671599	0.1985219621	
605.625	0.04042216582	0.03622605579	
606.25	-0.1916289703	-0.001140011865	
606.875	-0.09403190976	0.149024359	
607.5	-0.1501910086	0.0887375879	
608.125	-0.07878179215	0.2728523849	
608.75	0.228866689	0.1264539275	
609.375	0.1106691989	0.0006829633936	
610.0	0.1336591251	-0.1077723818	
610.625	-0.0005347911374	-0.1944634718	
611.25	0.0553166526	-0.05562222454	
611.875	-0.1085397361	-0.1885285975	
612.5	-0.1481012429	0.04436385153	
613.125	-0.1253366207	-0.07865151531	
613.75	-0.1260793724	0.2164195643	
614.375	0.1147529615	0.004804616405	
615.0	-0.05258132531	0.1178422564	
615.625	0.05312427723	-0.03397197312	
616.25	-0.09611463397	0.05120236808	
616.875	-0.1315503049	0.2535820344	
617.5	0.06532078118	0.1976369991	
618.125	-0.007029345661	0.2188260616	
618.75	0.05863606969	0.2313567685	
619.375	0.107549508	0.1057105832	
620.0	0.1351532996	0.05371807035	
620.625	0.1616589736	-0.1712134812	
621.25	-0.1086933014	-0.1022691179	
621.875	-0.0970063149	-0.08088442846	
622.5	-0.2518781579	0.09450899611	
623.125	0.1042305133	0.1837500096	
623.75	0.06006394842	0.08155845911	
624.375	0.06655337753	-0.1257818941	
625.0	0.01823736353	0.04887490639	
625.625	0.09415803381	-0.1358604286	
626.25	-0.1040470128	-0.06862358426	
626.875	-0.0517921866	-0.109469401	
627.5	-0.1937181626	-0.05098669599	
628.125	-0.09687948136	-0.00894096652	
628.75	-0.007685425115	-0.1389055711	
629.375	-0.1571470367	-0.1439108902	
630.0	-0.1738753484	-0.04683293286	
630.625	-0.1896032444	0.02310295961	
631.25	-0.1324833139	0.21363879	
631.875	0.01316279328	0.1588388294	
632.5	0.05604634858	0.1878499395	
633.125	0.2955383204	0.04035451973	
633.75	0.02420353121	-0.08617580195	
634.375	0.1231767615	-0.09744469224	
635.0	-0.1040943099	-0.1622096991	
635.625	-0.03811167773	-0.07371807311	
636.25	-0.2582180643	0.05397495203	
636.875	0.01867911408	0.147402428	
637.5	-0.05855228463	0.004426161126	
638.125	-0.09959718949	0.1818548676	
638.75	0.01748733638	0.07058502275	
639.375	-0.1012026049	0.239154895	
640.0	0.208904085	0.2571920387	
640.625	0.2040016053	0.04739282959	
641.25	0.2539753734	0.1036116707	
641.875	0.1931356765	-0.2736553495	
642.5	-0.03191555145	-0.08810939846	
643.125	-0.02857085509	-0.1922347226	
643.75	-0.2813908229	-0.0163229372	
644.375	-0.04080152734	-0.06444548765	
645.0	-0.2484452369	0.1789660703	
645.625	0.2661068599	0.1873976222	
646.25	-0.002834849122	0.0317668556	
646.875	0.3137411195	0.0813031598	
647.5	-0.08650977841	-0.1063447051	
648.125	0.2611588982	0.1833347437	
648.75	0.223070867	-0.1952646689	
649.375	0.1055428601	-0.09006792073	
650.0	0.3282578452	-0.2944195003	
650.625	0.009959166601	-0.3571696176	
651.25	0.1171692133	-0.06352797143	
651.875	0.3897991662	-0.157663948	
652.5	0.205221103	-0.2350251841	
653.125	0.1562979561	0.02332608643	
653.75	0.2912779202	-0.2788723639	
654.375	-0.2199123947	-0.2447491992	
655.0	-0.1056960318	-0.106729537	
655.625	-0.3316110421	0.2087119608	
656.25	0.1633175595	0.11120362	
656.875	-0.173287516	0.04874684522	
657.5	0.1753222562	0.1366345272	
658.125	0.01538699953	0.01126639099	
658.75	0.3723671075	0.3085932219	
659.375	0.2683456762	-0.3302157861	
660.0	0.1338432065	-0.1095345448	
660.625	0.2617528237	-0.2982797614	
661.25	0.04480885737	-0.4131979705	
661.875	0.1065956559	-0.09650374192	
662.5	0.3671623557	-0.1981265379	
663.125	0.1759329191	-0.2709839457	
663.75	0.1338017388	-0.1259156642	
664.375	0.01866982171	-0.4080892147	
665.0	-0.315548084	-0.08188446234	
665.625	-0.2074418999	-0.002567124666	
666.25	-0.1656415882	0.305583081	
666.875	0.2295850079	0.1318496473	
667.5	0.0358858067	0.1251093867	
668.125	0.3104876085	-0.03501183278	
668.75	0.07626668145	-0.1565271336	
669.375	0.2058243081	-0.08649136933	
670.0	-0.02565091619	-0.3599164871	
670.625	-0.06333874378	-0.06524754683	
671.25	0.1750791097	-0.2064420509	
671.875	0.02624086878	-0.2388601844	
672.5	0.09304147771	-0.05819904273	
673.125	0.3050473022	-0.1194151478	
673.75	0.06131340084	-0.3015256617	
674.375	0.09668989605	-0.1323781735	
675.0	-0.02366526367	-0.3013779063	
675.625	-0.2764070113	-0.07273913905	
676.25	-0.02392752514	-0.02578445599	
676.875	-0.2445937669	0.006362903833	
677.5	-0.06051206498	0.1162077882	
678.125	-0.1596607604	0.008412595812	
678.75	0.04688206038	0.357409378	
679.375	0.1717316759	-0.1144921718	
680.0	0.1148394381	0.06976745809	
680.625	0.180224547	-0.19251711	
681.25	-0.177266433	-0.02119555166	
681.875	0.2108695249	0.248477513	
682.5	0.1811374852	-0.2618134087	
683.125	0.03497156706	0.09111929176	
683.75	0.2792782683	0.2212642403	
684.375	0.2623378489	-0.2101865967	
685.0	0.0766113847	0.1914341088	
685.625	0.4534633911	0.00217598129	
686.25	0.1867833138	-0.1585786111	
686.875	0.2669340726	0.02126058483	
687.5	0.3277449085	-0.4168305565	
688.125	-0.1895355608	-0.2756128127	
688.75	-0.2365285931	-0.2708189486	
689.375	-0.363909729	0.330994247	
690.0	0.2372576269	0.2099983725	
690.625	-0.01434123801	0.3071766314	
691.25	0.494816267	0.2020041863	
691.875	0.2617667112	0.1296351887	
692.5	0.5126919219	0.3683445764	
693.125	0.6947908337	-0.3449900883	
693.75	0.2812623881	-0.1778427037	
694.375	0.5438233551	-0.2650942444	
695.0	0.2199150171	-0.4097341857	
695.625	0.2434453575	-0.1081785753	
696.25	0.588583728	0.09142829245	
696.875	0.4628649878	0.1604398588	
697.5	0.1739179722	0.3017857679	
698.125	0.5425033059	0.3102278469	
698.75	0.4950823632	-0.3137653206	
699.375	-0.1937607919	-0.2236539224	
700.0	-0.2879099838	0.2045157766	
700.625	0.2545352638	0.3043517891	
701.25	0.06637625216	0.05353285708	
701.875	0.2921902143	0.3347042077	
702.5	0.3793164258	0.02496639899	
703.125	0.2394484225	0.1751811413	
703.75	0.4790448803	-0.1433259575	
704.375	0.134545455	-0.2731669298	
705.0	0.1679423925	0.03351011886	
705.625	0.2594606075	-0.1168108617	
706.25	0.1544975673	0.1120495667	
706.875	0.1217228976	0.3169163018	
707.5	0.3473439928	0.2912875387	
708.125	0.4404957696	0.1307780361	
708.75	0.2995254573	-0.249945092	
709.375	-0.2166110116	-0.3793715366	
710.0	-0.1147474771	0.2108101173	
710.625	-0.08069789684	0.1725958729	
711.25	0.2007544996	0.06009280677	
711.875	0.07931989852	0.1123158601	
712.5	0.3514063121	0.03009100541	
713.125	0.2060468662	-0.2948083049	
713.75	0.08089532059	-0.1133101213	
714.375	0.06426598453	-0.2741858546	
715.0	-0.1273487779	-0.1665256007	
715.625	0.09455005106	-0.1125561441	
716.25	0.1813405145	-0.3083750128	
716.875	0.1724949054	-0.2035182484	
717.5	0.3742019463	0.0989278235	
718.125	0.7154407718	-0.01516389551	
718.75	0.6160477812	-0.2605201658	
719.375	0.7648278674	-0.04098188222	
720.0	0.8343466287	-0.8541565202	
720.625	-0.02823982458	-0.6725137365	
721.25	0.3740472464	-0.72801438	
721.875	-0.4687595254	-1.191565933	
722.5	-0.3645298058	-0.2690403994	
723.125	-0.7053367155	-0.3268980704	
723.75	-0.3325022615	0.6622559588	
724.375	0.06058355605	0.2478926172	
725.0	0.01224060082	0.5403572585	
725.625	0.4133058391	0.3860540076	
726.25	-0.04951204574	0.3733821573	
726.875	-0.2354371842	0.9536614946	
727.5	0.2494945911	1.331024282	
728.125	-0.05266853284	0.9741442088	
728.75	-0.6062222778	2.657406137	
729.375	0.5481928472	3.421373749	
730.0	-0.4173231858	1.927717451	
730.625	-0.9558185819	3.996851838	
731.25	0.7992369314	3.382579448	
731.875	-2.285320487	1.016655443	
732.5	-3.845143967	0.4067922792	
733.125	-1.958519186	1.592473537	
733.75	-0.4783585394	0.4052536561	
734.375	1.028610967	0.8727794323	
735.0	-0.2402423642	-0.4408222968	
735.625	-0.3037001172	-0.2844469684	
736.25	-0.106778289	0.8216346329	
736.875	0.4129081672	0.05463920766	
737.5	0.6995671128	0.5862207477	
738.125	1.710529333	-0.85890533	
738.75	0.5091563732	-1.393434494	
739.375	1.606444481	0.1364426052	
740.0	5.049451882	-1.919430836	
740.625	-0.08941452963	-2.356339218	
741.25	-2.961448744	2.906037233	
741.875	-2.358886832	2.888658016	
742.5	0.6661658382	-0.6314030219	
743.125	0.8469725523	-2.276949417	
743.75	-0.6352772284	-1.018679094	
744.375	-0.1212686974	0.03134303142	
745.0	-0.1418414793	0.3203182873	
745.625	-0.07544606129	-0.07382624436	
746.25	0.08134529001	-0.1929603687	
746.875	-0.2571454228	0.08282271198	
747.5	-0.02434198487	0.2065367477	
748.125	-0.02639255678	0.4536103171	
748.75	0.3953823422	0.3782489267	
749.375	0.09075382016	0.2717241425	
750.0	-0.3422546163	0.1535747476	
