!Created with skrf (http://scikit-rf.org).
# GHz S RI R (50+0j) 
!freq	ReS11	ImS11	
500.0	-2.130184426	-1.790759076	
500.625	1.654957954	-1.788662104	
501.25	-1.005467475	-2.560535554	
501.875	-2.167618101	-0.3857706643	
502.5	-0.01182977115	-0.1439552909	
503.125	-0.3795767219	0.05532960864	
503.75	0.1639251142	-0.01736096541	
504.375	0.1567935875	0.04066745834	
505.0	-0.0936297964	-0.07755977731	
505.625	0.2453179136	-0.2197045649	
506.25	-0.5912927712	0.1269186031	
506.875	0.2242242997	-0.6544103847	
507.5	-0.9047611301	-2.088201485	
508.125	-1.317237554	-1.033600407	
508.75	3.258458661	-2.137307447	
509.375	-2.621248221	-4.29607251	
510.0	-0.7255140335	-0.5464304035	
510.625	-0.8851038218	-1.471125273	
511.25	-0.1504444503	0.1620907145	
511.875	-0.4554465112	-0.2587772188	
512.5	-0.08670980525	0.1808415248	
513.125	-0.1661635865	-0.2389323448	
513.75	-0.009810502362	-0.03283252469	
514.375	-0.4575723697	-0.2777386616	
515.0	0.5414414261	1.124135505	
515.625	-1.134530034	-2.812493094	
516.25	-0.5199448672	0.8178131065	
516.875	0.1658668743	-2.329451533	
517.5	-1.030032428	-0.318517288	
518.125	0.2887545077	-0.2868147373	
518.75	-0.8360009598	-0.3959511131	
519.375	-0.0647902706	-0.01587689499	
520.0	0.4334455396	0.3660809882	
520.625	0.3698296413	-0.4066624847	
521.25	0.07113115682	-0.3563094613	
521.875	-0.6080878051	-0.2049616101	
522.5	0.05950665876	0.0928822497	
523.125	-0.3436670369	0.2020010242	
523.75	-0.0259709652	-0.0548450987	
524.375	-0.7121670639	0.1837728817	
525.0	0.1791800217	0.08394277838	
525.625	-0.07950338836	0.235083147	
526.25	0.08017729715	-0.2693482116	
526.875	-0.219435501	0.3610963867	
527.5	0.1740762609	0.2901802714	
528.125	-0.2963079883	0.8288160806	
528.75	0.53291171	0.7911448298	
529.375	-0.1561520655	0.2060628047	
530.0	0.4796675257	0.2443290036	
530.625	-0.2028592506	0.9598818985	
531.25	1.648575827	-0.3320012909	
531.875	0.2679686871	-0.06608848865	
532.5	-0.2364222682	-0.6830731356	
533.125	0.2518928979	0.387498625	
533.75	-0.009385662111	-0.9705069941	
534.375	-0.03740794361	-0.1908498168	
535.0	-0.9646280264	-0.6392800166	
535.625	-0.07626847508	0.5156740193	
536.25	-0.09282003028	0.1667318368	
536.875	0.3542455721	0.07684953131	
537.5	0.03055112637	-0.1347602564	
538.125	0.48254617	-0.0446026363	
538.75	0.1285471386	-0.4122396789	
539.375	0.009386436314	-0.3439220037	
540.0	-0.585829262	-0.496063135	
540.625	-0.2626015754	0.161603504	
541.25	-0.1716325981	-0.07270358842	
541.875	-0.1577737776	-0.1003012519	
542.5	-0.1785643407	0.02582981966	
543.125	-0.04652148779	-0.2179422349	
543.75	-0.4139126084	0.1170249504	
544.375	0.03639025979	-0.08594520167	
545.0	-0.01904760608	0.3250771262	
545.625	0.06309396744	-0.09791794102	
546.25	0.3156803467	0.3781602789	
546.875	0.1678649208	-0.3531961404	
547.5	0.2435470974	-0.04712941376	
548.125	-0.07813745065	-0.6146279175	
548.75	-0.3983777516	-0.07755231666	
549.375	-0.0763648609	-0.2152331871	
550.0	-0.3407118551	0.0572163131	
550.625	0.02692154898	-0.02366108704	
551.25	-0.3283034634	0.09744319919	
551.875	-0.01611155369	0.1657136105	
552.5	-0.2008431092	0.150209745	
553.125	0.01403035967	0.1923924819	
553.75	0.09332352821	0.09241063012	
554.375	0.2401760996	0.01720630001	
555.0	0.2216140358	-0.1887815563	
555.625	0.1899507241	-0.2426297678	
556.25	0.1610877321	-0.3439376333	
556.875	-0.09865683226	-0.3861191024	
557.5	-0.2315763071	-0.2264011375	
558.125	-0.2671894976	-0.09937198659	
558.75	-0.2762276631	0.008537966705	
559.375	-0.2153969685	0.06328873859	
560.0	-0.2522613765	0.1390438409	
560.625	-0.1039754723	0.3193523944	
561.25	0.04481053501	0.1475168666	
561.875	0.05646735056	0.2011985397	
562.5	0.03903277348	0.00542538951	
563.125	0.1608471495	0.2911172129	
563.75	0.3346017198	-0.150441473	
564.375	0.2120526907	-0.05894836613	
565.0	0.2833483306	-0.4478735384	
565.625	-0.2067105825	-0.3125612586	
566.25	-0.1362477673	-0.1996191221	
566.875	-0.3953464915	-0.299282073	
567.5	-0.384636165	-0.05662855012	
568.125	-0.1602015915	-0.4810891912	
568.75	-0.7288699181	-0.1337834828	
569.375	-0.3192424886	0.2025054586	
570.0	-0.5533111291	0.4227625801	
570.625	0.07922735662	0.6523505663	
571.25	-0.06414106739	-0.05939120442	
571.875	0.2898787063	0.5241260307	
572.5	0.007531607801	-0.2395741217	
573.125	0.4682996156	-0.02033300273	
573.75	0.006881175429	-0.5686074544	
574.375	-0.06290048087	0.1566953622	
575.0	0.2544531533	-0.3698042502	
575.625	-0.1570350847	0.06174445215	
576.25	0.420996547	-0.2327916022	
576.875	-0.2061386539	-0.5285362263	
577.5	-0.1107779077	-0.09811778903	
578.125	0.1281359819	-0.4350790388	
578.75	-0.4072415367	-0.4077354268	
579.375	-0.1344018445	0.06433207065	
580.0	-0.0400352245	-0.3017187298	
580.625	-0.2037322883	0.1904887383	
581.25	-0.2321612326	-0.1252384491	
581.875	-0.03517818831	0.6602090922	
582.5	0.442942217	0.1637495115	
583.125	-0.217906261	0.02309435481	
583.75	0.4963225862	0.3462807123	
584.375	-0.3384133458	-0.1261353165	
585.0	0.5572261818	0.3892932064	
585.625	0.1749629225	-0.3405757371	
586.25	0.3799615979	0.2567000409	
586.875	0.1305705292	-0.6741101986	
587.5	-0.05717509891	-0.007417082383	
588.125	0.2045643479	-0.4419402594	
588.75	-0.1045258169	-0.5571531627	
589.375	0.03828686893	-0.05367624419	
590.0	0.04849719714	-0.5912242398	
590.625	-0.5172785715	0.03181430917	
591.25	-0.1791950924	0.1572751387	
591.875	-0.2333548426	0.2919794899	
592.5	0.1938945997	0.07674838708	
593.125	-0.202292336	0.2165508116	
593.75	0.2431046292	0.1940666371	
594.375	0.1083430985	0.1385379109	
595.0	0.4042537238	0.6166664185	
595.625	0.7544170486	-0.1684732169	
596.25	-0.07007895269	0.2637623269	
596.875	0.7496716553	0.2007911028	
597.5	0.179995115	-0.1613778638	
598.125	0.2972833436	0.6517960001	
598.75	0.5344204297	-0.1372186569	
599.375	0.2867907293	0.1707815936	
600.0	0.6417467803	-0.4724881876	
600.625	0.09460477208	-0.5104130391	
601.25	0.2062443083	-0.2207436191	
601.875	-0.1605554085	-0.4663735739	
602.5	-0.2825286696	0.02612482608	
603.125	-0.216743147	0.1179310142	
603.75	-0.2397849259	0.07945834257	
604.375	-0.2966481507	0.2750968171	
605.0	-0.03175037302	0.07241954271	
605.625	-0.3378298176	0.204526431	
606.25	-0.02872405923	0.1697990309	
606.875	-0.5906028661	-0.05773447784	
607.5	-0.1542375466	0.8369816337	
608.125	-0.1742564471	0.1578171695	
608.75	0.5549368833	0.8351725253	
609.375	0.2426797955	-0.436040305	
610.0	0.5616168481	0.06173687664	
610.625	0.09243510025	-0.6598007599	
611.25	0.085860374	0.001395925442	
611.875	-0.3952220434	-0.5905938262	
612.5	-0.104723569	0.03852275826	
613.125	-0.6045957645	-0.1302702314	
613.75	-0.0009921720145	0.516795237	
614.375	-0.2611450799	0.1909061735	
615.0	0.4201442986	0.06650247843	
615.625	-0.3106617547	0.07065870114	
616.25	0.05549452068	0.6789129997	
616.875	-0.08111638911	0.02005355257	
617.5	-0.4234937697	0.7135751088	
618.125	0.2913811013	0.5463682801	
618.75	-0.1936538661	0.2366242351	
619.375	0.4090986477	0.5109665253	
620.0	0.2625433198	0.03760940542	
620.625	0.3873064471	-0.4081825828	
621.25	-0.2632277422	-0.2820154683	
621.875	-0.4533310439	-0.3328178153	
622.5	-0.4225445611	0.2617226056	
623.125	-0.1638267678	0.3026744678	
623.75	0.5139114148	0.1270714185	
624.375	-0.2150366262	0.02979699603	
625.0	0.4045617222	-0.4187995062	
625.625	-0.1018880822	0.1593239029	
626.25	0.1251472485	-0.5864448885	
626.875	-0.5774143956	0.001487001441	
627.5	0.0507344729	-0.1374324737	
628.125	-0.5524033394	-0.3002084257	
628.75	-0.09260730544	0.0009394273348	
629.375	-0.09370807985	-0.5999594481	
630.0	-0.6273325984	-0.03725262684	
630.625	-0.2470303305	0.03599877821	
631.25	-0.5134074347	0.4080466002	
631.875	0.04676637858	0.6480903868	
632.5	0.3746352057	0.3932162245	
633.125	0.3214045934	0.0901599042	
633.75	0.5946312416	-0.1209117434	
634.375	-0.03896598926	-0.2412852695	
635.0	0.1376722923	-0.3758162746	
635.625	-0.5342244153	-0.1036028488	
636.25	-0.1570123554	-0.07055277466	
636.875	-0.3709615452	0.5092214292	
637.5	0.2633673745	0.1660125501	
638.125	-0.4857424983	-0.07045686409	
638.75	0.002795822148	0.829749668	
639.375	0.1543948244	0.1022107743	
640.0	0.02173413024	0.7699797087	
640.625	0.8884346435	0.2764482128	
641.25	0.3102842395	-0.1278364503	
641.875	0.8532887152	-0.3748432047	
642.5	-0.4083841308	-0.3605265678	
643.125	0.1093497716	-0.2744579798	
643.75	-0.6564103975	-0.3700714026	
644.375	-0.1485394317	0.3682680759	
645.0	-0.4400893271	-0.04237718384	
645.625	0.1421801701	0.794480414	
646.25	0.5424639302	-0.07370517784	
646.875	-0.1291116708	0.1044487085	
647.5	0.6430502895	-0.09382367061	
648.125	-0.1455986625	0.371896417	
648.75	1.083010227	-0.2115431445	
649.375	0.02457694801	-0.8116031989	
650.0	0.4755150211	0.02730578407	
650.625	0.8577616231	-1.349175722	
651.25	-0.3974148544	-0.6109159963	
651.875	0.7395040908	0.2933772563	
652.5	1.071460533	-0.7095389227	
653.125	0.0356934221	-0.3441536126	
653.75	0.9668093517	-0.3762682976	
654.375	-0.5866942061	-0.849179046	
655.0	-0.2357029722	0.05028703201	
655.625	-0.8145261059	0.08619250114	
656.25	0.5048731156	0.7608703462	
656.875	-0.1973143425	-0.1815103614	
657.5	0.2170609639	0.5264602182	
658.125	0.4338658343	0.0869760947	
658.75	0.3159662849	0.3587507038	
659.375	1.13192146	-0.5309809268	
660.0	0.121630889	-0.6621928758	
660.625	0.4687647284	-0.4646741646	
661.25	0.6721803677	-1.053696392	
661.875	-0.2210494811	-0.6611495299	
662.5	0.809712601	0.1518148418	
663.125	0.8421691113	-0.9732332828	
663.75	-0.1130511293	-0.4274912611	
664.375	0.394914123	-0.8836248431	
665.0	-1.059967061	-0.1568192765	
665.625	-0.3613222065	-0.1219001443	
666.25	-0.4978815345	0.8913386987	
666.875	0.5945895181	0.2948881829	
667.5	0.01940302895	0.2288911441	
668.125	0.8444738332	0.0501933662	
668.75	0.2452989935	-0.5313682085	
669.375	0.1697605049	-0.2782262785	
670.0	0.1919848571	-0.666441374	
670.625	-0.295029547	-0.3298535394	
671.25	0.347874079	-0.3625198937	
671.875	0.2462096629	-0.5643792044	
672.5	0.1942914284	-0.2721320406	
673.125	0.7470329388	-0.2063717676	
673.75	0.3173538161	-0.9776431074	
674.375	-0.2517469997	-0.202059984	
675.0	0.2650493159	-0.6977259993	
675.625	-0.9521347546	-0.3968070926	
676.25	0.179643699	0.2044906229	
676.875	-0.8876700579	-0.2667466431	
677.5	0.08595664283	0.3999602339	
678.125	-0.7177099739	-0.07262557181	
678.75	0.5788194841	0.9396821042	
679.375	0.02652609926	-0.1137168259	
680.0	0.470610901	0.1010444036	
680.625	0.3734488728	-0.4585424194	
681.25	-0.218002918	-0.1319701176	
681.875	0.4657855932	0.4647410151	
682.5	0.6574465488	-0.01954231845	
683.125	0.4466117605	0.05675122815	
683.75	0.4706263056	0.4006491108	
684.375	0.9086220867	-0.2029260964	
685.0	0.2165478487	0.1205221675	
685.625	0.9818730818	0.2202066312	
686.25	0.6602515088	-0.746784146	
686.875	0.2817107093	0.4343333364	
687.5	1.332674472	-1.543086665	
688.125	-0.8658497863	-0.1704042947	
688.75	-0.5710536036	-1.160997865	
689.375	-0.7464202969	1.48407973	
690.0	0.1071651175	0.03909920254	
690.625	0.9048957585	1.328153585	
691.25	0.5994967838	-0.01127464452	
691.875	0.7702447005	1.041711076	
692.5	1.722596266	0.4333033196	
693.125	1.196402228	-0.2358008495	
693.75	1.419635555	-0.4921377834	
694.375	0.8154768936	-0.9120984617	
695.0	1.217553733	-0.586818551	
695.625	0.9695320153	-0.6017059567	
696.25	0.8156616744	0.6531915332	
696.875	1.66888343	0.8759413553	
697.5	0.4625306404	0.5007567598	
698.125	1.77120971	1.031640116	
698.75	0.3108059503	-1.663565888	
699.375	-0.006422731013	-0.9244446278	
700.0	-1.044435926	1.456842189	
700.625	0.4211401139	0.01391038947	
701.25	0.589438127	1.181145474	
701.875	0.7202360455	-0.08942766055	
702.5	0.4461477136	0.9105018135	
703.125	1.422768923	0.03584521029	
703.75	0.319046046	-0.03545501726	
704.375	1.137785179	-0.5840537656	
705.0	0.07508007386	-0.526631965	
705.625	0.7094641532	0.6293668639	
706.25	1.114802598	-0.2586649024	
706.875	-0.01381684616	0.6079328299	
707.5	1.019386634	1.27086532	
708.125	0.8309974798	-0.4345911077	
708.75	1.102969403	-0.6053130447	
709.375	-1.231472635	-0.6251432305	
710.0	-0.0569557424	0.2143848024	
710.625	0.1345570103	0.6479714385	
711.25	0.3041611263	0.03324650478	
711.875	0.460884592	0.3702240417	
712.5	0.6735304925	-0.1695072357	
713.125	0.8210009096	-0.2831884416	
713.75	0.01420129011	-0.8308709222	
714.375	0.2880589699	-0.1634707228	
715.0	-0.3072637107	-0.8607116005	
715.625	-0.07876704961	0.004703692925	
716.25	1.041567317	-0.7527888447	
716.875	-0.02483960029	-1.169288514	
717.5	0.9819098046	1.116073541	
718.125	2.991677609	-0.3471604519	
718.75	0.2647255905	-1.661881681	
719.375	3.11177652	0.7699967221	
720.0	0.2172407154	-4.133406615	
720.625	0.4644069366	-1.114953162	
721.25	0.4087626236	-2.937121289	
721.875	-2.172277134	-2.452123185	
722.5	-0.4511878522	-1.771601624	
723.125	-2.63600932	-0.265557808	
723.75	-0.5412271648	1.338317056	
724.375	-0.03323661811	0.7174002233	
725.0	0.1204366663	1.106281716	
725.625	1.033487037	1.127573366	
726.25	0.05918231117	0.7107651384	
726.875	-0.9860536098	2.817606521	
727.5	1.450058564	4.33658777	
728.125	-1.06608123	1.02985936	
728.75	0.4525022511	10.92183483	
729.375	5.485622882	6.472863197	
730.0	-7.524777627	3.54086519	
730.625	3.676452429	21.50478517	
731.25	5.715632577	-0.3166119152	
731.875	-12.11406043	4.829654981	
732.5	-11.39151556	5.977856021	
733.125	-3.213082128	3.969658782	
733.75	-4.361647582	2.32302779	
734.375	3.020161913	-0.1960426385	
735.0	-0.1435691074	-0.8356679028	
735.625	-1.640819348	-0.4481872478	
736.25	1.167330846	1.565660109	
736.875	-0.1844923085	0.812802966	
737.5	3.310810823	1.311717433	
738.125	4.771750977	-2.478350611	
738.75	-0.1896318925	-4.645031823	
739.375	8.333799869	6.277508907	
740.0	13.53119871	-16.34896279	
740.625	-9.333742896	-0.1608673561	
741.25	-0.05210526847	17.40000749	
741.875	15.46556471	6.354110984	
742.5	-0.6706769856	-12.77321173	
743.125	-3.451054352	-7.828443121	
743.75	-1.305522151	0.06552851192	
744.375	-0.6916990367	-1.494999431	
745.0	0.6445158872	0.7979767764	
745.625	-0.08456727921	0.3091304899	
746.25	-0.06271260625	-0.5628645597	
746.875	-0.4097366479	0.2336264932	
747.5	-0.2997656045	0.767401079	
748.125	0.6201082738	1.501450681	
748.75	0.8654333088	0.7963282741	
749.375	0.06168077565	1.260008764	
750.0	-0.6838536461	-1.111856258	
