!Created with skrf (http://scikit-rf.org).
# GHz S RI R (50+0j) 
!freq	ReS11	ImS11	
500.0	-0.3590276616	-0.6089963831	
500.625	0.5663429364	-0.7607397946	
501.25	-0.6986773719	-0.4798893901	
501.875	-0.03979506343	-0.1257363014	
502.5	-0.004109297808	-0.1937904718	
503.125	-0.05782140318	0.05310011758	
503.75	-0.03145414177	0.02643575688	
504.375	0.05165967067	-0.0102082996	
505.0	-0.005175516344	0.01431787851	
505.625	0.01406499682	-0.09223649978	
506.25	-0.0819095258	0.04408419817	
506.875	-0.1665790349	-0.2136947295	
507.5	-0.4204772387	-0.06238933246	
508.125	0.3320859566	-0.2062341819	
508.75	0.4884940004	-1.073933143	
509.375	-0.3785220219	-0.9347726746	
510.0	-0.1568426073	-0.1324494769	
510.625	-0.107459552	-0.2071062924	
511.25	-0.07669773923	0.02382952468	
511.875	-0.08870786618	-0.1150510454	
512.5	-0.007150162681	0.05155165668	
513.125	-0.01716406398	-0.01569933998	
513.75	-0.0149594491	-0.1011639767	
514.375	-0.1097473652	0.08371446773	
515.0	0.286973117	-0.1645976924	
515.625	-0.4622648506	-0.2706938983	
516.25	0.348293764	-0.3213642409	
516.875	-0.3178413033	-0.5571969672	
517.5	-0.1242574452	-0.02566983484	
518.125	0.02083354176	-0.0764752834	
518.75	-0.1367100076	-0.04697392841	
519.375	-0.06087673101	0.02057486327	
520.0	0.09912902502	0.05730139754	
520.625	0.1445889485	-0.09580288042	
521.25	-0.05199909365	-0.1621275093	
521.875	-0.08429385448	-0.02464609174	
522.5	-0.0694029476	0.05611774333	
523.125	-0.009986916915	-0.05145513174	
523.75	-0.1969792381	-0.05075219444	
524.375	-0.01359259853	0.1052283712	
525.0	-0.1375838969	0.03524634411	
525.625	0.1071686923	0.1097373374	
526.25	-0.08327903079	-0.06312316724	
526.875	0.02230470501	0.04266251451	
527.5	-0.08441176072	0.07460319633	
528.125	0.01534190819	0.3070251159	
528.75	0.09454573433	0.128355575	
529.375	0.0810606927	0.08952326401	
530.0	0.04398560439	0.0934669342	
530.625	0.2207229391	0.337864095	
531.25	0.2367117285	0.0741223252	
531.875	0.4032092165	-0.09789832606	
532.5	-0.141637485	-0.03622259967	
533.125	0.1177498197	-0.1123665758	
533.75	0.003558842659	-0.1073040593	
534.375	0.08521197948	-0.2802196791	
535.0	-0.2831726528	-0.02829089014	
535.625	-0.09584180396	0.05949338685	
536.25	-0.0191986583	0.09960141722	
536.875	0.09542741795	-0.02423891983	
537.5	0.0448450217	-0.00205066288	
538.125	0.1094100721	-0.06752710731	
538.75	0.0601495568	-0.09892833838	
539.375	-0.06553701768	-0.1158050259	
540.0	-0.1489131472	-0.1282826957	
540.625	-0.1563129304	0.01384821495	
541.25	-0.06031797001	-0.01276899516	
541.875	-0.08164549451	0.0009103013887	
542.5	-0.002922679238	-0.01434318528	
543.125	-0.1128578415	-0.1201186539	
543.75	-0.06055510223	0.07450467602	
544.375	-0.08430705735	-0.04967021314	
545.0	0.03900465422	0.1006853671	
545.625	0.002281141513	0.01655429794	
546.25	0.1424358398	0.07561913984	
546.875	0.04833787125	-0.07077848606	
547.5	0.1072667211	-0.06935370658	
548.125	-0.0865812341	-0.1915969262	
548.75	-0.08931969578	-0.03668534466	
549.375	-0.06932957448	-0.1067438627	
550.0	-0.09667456643	0.03462611019	
550.625	-0.01598958297	-0.008991568637	
551.25	-0.09559808169	0.02450666685	
551.875	-0.03321318238	0.08264379618	
552.5	-0.05271102637	0.04869794319	
553.125	0.004398796005	0.0659813904	
553.75	0.03308608039	0.03701814389	
554.375	0.09566604265	-0.002783641439	
555.0	0.0744474855	-0.07277933702	
555.625	0.07085953683	-0.09289327945	
556.25	0.05436150942	-0.1308601363	
556.875	-0.04276217344	-0.1372805806	
557.5	-0.08885960271	-0.08255169973	
558.125	-0.1038825138	-0.03609028049	
558.75	-0.1029378394	0.006058329959	
559.375	-0.08818986157	0.02086790885	
560.0	-0.09721595437	0.06413296275	
560.625	-0.03549552557	0.1161106938	
561.25	0.009125658277	0.06149322402	
561.875	0.02384133239	0.07017405639	
562.5	0.02604930357	0.01805621348	
563.125	0.04893018613	0.08944894326	
563.75	0.1467765589	-0.03096540526	
564.375	0.0674212179	-0.06182556109	
565.0	0.1091385762	-0.1514067862	
565.625	-0.08216942239	-0.128263065	
566.25	-0.04919196163	-0.08020081109	
566.875	-0.1793797057	-0.1225184592	
567.5	-0.1360101994	0.001039794009	
568.125	-0.03644795833	-0.1842467076	
568.75	-0.3003046761	-0.04285280896	
569.375	-0.1041870061	0.1042945027	
570.0	-0.1999746468	0.1394727192	
570.625	0.0115962952	0.2318261148	
571.25	-0.03852137942	0.00958354103	
571.875	0.1197778488	0.1341607455	
572.5	0.02400158857	-0.06650718777	
573.125	0.1538957225	-0.01835166736	
573.75	0.03211090068	-0.2043213966	
574.375	-0.06225465105	-0.001972801643	
575.0	0.1121890429	-0.04351547623	
575.625	-0.04882233499	-0.08005264275	
576.25	0.09346175894	-0.02933270657	
576.875	-0.0282504181	-0.2194170714	
577.5	-0.07394217998	-0.07125432103	
578.125	0.05262234735	-0.1238517204	
578.75	-0.1518171642	-0.2306557262	
579.375	-0.1020210666	0.09681818642	
580.0	0.05209036287	-0.1363189498	
580.625	-0.1590832958	0.09465713731	
581.25	-0.02315639252	-0.07224429117	
581.875	-0.08653231377	0.2425930171	
582.5	0.1771169598	0.06671595205	
583.125	-0.06162106809	0.02850741236	
583.75	0.1385971527	0.08055366422	
584.375	-0.05447647911	-0.03577834352	
585.0	0.1695111287	0.1496931065	
585.625	0.1514862504	-0.1090002769	
586.25	0.05814421447	0.007122354126	
586.875	0.1457594673	-0.1361810931	
587.5	-0.09293887172	-0.1272001367	
588.125	0.04321519883	-0.06071687651	
588.75	0.06140441256	-0.2062908759	
589.375	-0.03582007425	-0.110916147	
590.0	0.07101491218	-0.1647506945	
590.625	-0.2899089079	0.007933212581	
591.25	-0.0005402056579	0.08901571709	
591.875	-0.1591139424	0.03832697766	
592.5	0.1207880327	0.1413032355	
593.125	-0.1550008535	-0.03253391445	
593.75	0.1802876197	0.1481467246	
594.375	0.04433810164	0.008698581888	
595.0	0.1850968254	0.1989584059	
595.625	0.2209309994	-0.004198257005	
596.25	0.03588762364	0.0280382619	
596.875	0.2154552833	0.07577062244	
597.5	0.1368454785	-0.009503063208	
598.125	0.06431434936	0.1104343307	
598.75	0.1868867372	0.08524827292	
599.375	0.1634281349	-0.1018028198	
600.0	0.1364965839	-0.08881681738	
600.625	0.1667867989	-0.1755582047	
601.25	-0.01165126972	-0.1867342336	
601.875	0.0190331188	-0.08679830849	
602.5	-0.2337103795	-0.01786262795	
603.125	0.01520378267	0.07581579183	
603.75	-0.1408668809	-0.04387199681	
604.375	-0.07307751383	0.2429272801	
605.0	0.002784101522	-0.0518917331	
605.625	-0.1349735744	0.1590047043	
606.25	0.01136341913	0.05574595534	
606.875	-0.2417304401	0.03077876029	
607.5	-0.1547799041	0.249993072	
608.125	-0.03580240123	0.1464209629	
608.75	0.1208270782	0.1940587396	
609.375	0.1642689742	-0.03556446391	
610.0	0.1461210741	-0.1270544308	
610.625	0.03202185045	-0.1077691685	
611.25	0.02736867569	-0.1920849534	
611.875	-0.1340755814	-0.02305267056	
612.5	-0.1126388831	-0.1303429917	
613.125	-0.2668026984	0.1226027736	
613.75	0.01177944791	0.03293587371	
614.375	-0.01858777052	0.1835968255	
615.0	0.1005466254	-0.0635334039	
615.625	-0.09687466288	0.1388501048	
616.25	0.05849017151	0.2031580859	
616.875	-0.0549402825	0.06783020089	
617.5	-0.09544826721	0.2300692555	
618.125	0.002919237959	0.1076160381	
618.75	0.01249354454	0.1553196213	
619.375	0.08309430688	0.1622573592	
620.0	0.1741058755	0.02475352744	
620.625	-0.01714062624	-0.2136147844	
621.25	-0.003092856493	-0.1378285725	
621.875	-0.2361014868	-0.06175619366	
622.5	-0.1026124499	0.08271549515	
623.125	-0.129937925	0.1494223355	
623.75	0.1939790848	0.01837306455	
624.375	-0.03810715774	-0.01094206463	
625.0	0.1002083751	-0.0876931215	
625.625	-0.0151270964	-0.02577996659	
626.25	0.004467626774	-0.1581048837	
626.875	-0.1872418303	-0.0446693333	
627.5	-0.0843989531	-0.01116636393	
628.125	-0.1192925221	-0.1150028625	
628.75	-0.0679521627	-0.1505237925	
629.375	-0.105678421	-0.1061609805	
630.0	-0.1757016239	-0.1003787624	
630.625	-0.2186532471	0.08871660032	
631.25	-0.06983417489	0.1392373544	
631.875	-0.1156874547	0.2269128067	
632.5	0.2626132549	0.1629992711	
633.125	0.1064679059	0.002891596263	
633.75	0.2790934528	-0.008756879096	
634.375	-0.08115005481	-0.1781899336	
635.0	0.0680889025	-0.07629419485	
635.625	-0.2441021088	-0.10581969	
636.25	-0.0612342352	0.1165122515	
636.875	-0.1029248381	0.01544667872	
637.5	-0.007186165092	0.1963159292	
638.125	-0.03239022956	-0.02113581574	
638.75	-0.1160306674	0.2232282008	
639.375	0.1168575682	0.2087853975	
640.0	0.05726851857	0.1590129207	
640.625	0.2460646707	0.1892112198	
641.25	0.3068463487	-0.09762371657	
641.875	-0.006596853709	-0.1084231235	
642.5	0.1405688541	-0.2263286472	
643.125	-0.3225520944	-0.01532320392	
643.75	0.02658164402	-0.06875352585	
644.375	-0.4097326295	0.03963026353	
645.0	0.112634228	0.1414065816	
645.625	-0.1461606541	0.1873136576	
646.25	0.3661921686	0.06839961645	
646.875	-0.117978199	-0.07754617471	
647.5	0.1937015906	0.1499220443	
648.125	0.1072736816	-0.1210113332	
648.75	0.1535640706	0.1343850158	
649.375	0.3126014736	-0.3900028707	
650.0	-0.06007900833	-0.2478696811	
650.625	0.2344724287	-0.126859915	
651.25	0.2263579918	-0.4100544727	
651.875	0.01752660755	-0.1413136728	
652.5	0.3045131117	0.05020632682	
653.125	0.3208573005	-0.2326875874	
653.75	-0.03308128817	-0.2131977065	
654.375	0.1712855801	-0.240566386	
655.0	-0.4872084017	-0.05587763675	
655.625	0.03686201119	0.1798894001	
656.25	-0.2164337109	0.1383818136	
656.875	0.314255423	0.08916439613	
657.5	-0.2568348614	0.07760715241	
658.125	0.3598864517	0.2109339103	
658.75	0.1634358963	-0.1181321156	
659.375	0.2640554959	0.04009174787	
660.0	0.3061623327	-0.4450447496	
660.625	-0.1110091131	-0.2501107177	
661.25	0.2209160772	-0.1425153465	
661.875	0.2326614856	-0.3563840026	
662.5	0.04892700719	-0.2146333169	
663.125	0.3088702704	-0.05088721701	
663.75	0.09451843071	-0.4002644604	
664.375	-0.08227810064	-0.1629899831	
665.0	-0.1892811573	-0.2549396704	
665.625	-0.3628330164	0.1621497049	
666.25	0.04902154475	0.1721777141	
666.875	-0.01705627037	0.2508218665	
667.5	0.2986602876	0.03121359177	
668.125	0.03749327052	-0.02303721737	
668.75	0.3593038766	-0.1224340593	
669.375	-0.1163660582	-0.27077133	
670.0	0.07738084784	-0.07178884332	
670.625	0.0460030706	-0.314243535	
671.25	-0.1294656989	-0.1071067137	
671.875	0.2242163846	-0.02834657592	
672.5	0.1654526805	-0.3028596602	
673.125	0.06777785458	-0.1338319097	
673.75	0.1902561141	-0.124001087	
674.375	-0.004938785447	-0.3894304912	
675.0	-0.1090073591	-0.04597908009	
675.625	-0.1132780115	-0.2136160233	
676.25	-0.2590272819	0.02784253308	
676.875	-0.0392966948	0.06987741837	
677.5	-0.1973457386	-0.08576795507	
678.125	-0.06255963076	0.2849700249	
678.75	0.02403187303	0.02534006428	
679.375	0.195504815	0.2299313221	
680.0	0.1177037228	-0.3620338214	
680.625	-0.03513163159	0.1830335472	
681.25	0.2862171512	-0.1034941169	
681.875	-0.04484162993	-0.1196587021	
682.5	0.1537104949	0.3429310087	
683.125	0.4856408213	-0.09474963412	
683.75	-0.04750893707	-0.02730706655	
684.375	0.3615886889	0.1456787883	
685.0	0.3583327231	-0.06773676577	
685.625	0.07480021737	-0.0263366676	
686.25	0.4384033548	0.05399781992	
686.875	0.1563016493	-0.2916665916	
687.5	0.1806707281	-0.1426661818	
688.125	-0.04310274598	-0.4478987559	
688.75	-0.4636500819	-0.03301189883	
689.375	-0.1265939082	0.1553691765	
690.0	0.0165394196	0.4461058117	
690.625	0.4144094111	0.07484978837	
691.25	0.02113955578	0.2077332171	
691.875	0.6585922084	0.4103831654	
692.5	0.3625550772	-0.1565580076	
693.125	0.5712008588	0.2035771966	
693.75	0.639710251	-0.5434234988	
694.375	0.04518795094	-0.2723985256	
695.0	0.5684231437	-0.09549032717	
695.625	0.4378805258	-0.3304437471	
696.25	0.3344434818	0.1869477337	
696.875	0.362869068	0.3662722037	
697.5	0.425628545	0.3142701796	
698.125	0.5858093942	0.2082483034	
698.75	0.2718547125	-0.3708410646	
699.375	-0.3647109156	-0.3636130945	
700.0	-0.111049805	0.362997905	
700.625	0.014774078	0.2452729033	
701.25	0.4041080507	0.2141046815	
701.875	0.1507951416	0.03459257943	
702.5	0.28589867	0.3128152846	
703.125	0.5038622913	-0.07859784989	
703.75	0.1745813294	-0.007430411135	
704.375	0.3767365538	-0.175908457	
705.0	0.08893415322	-0.220678576	
705.625	0.1793286621	0.0937718283	
706.25	0.3673254796	0.1537257583	
706.875	0.1323858791	0.3405629719	
707.5	0.3497096322	0.3020199944	
708.125	0.4107667942	0.03646030089	
708.75	0.2463473098	-0.3380072747	
709.375	-0.3301680675	0.02252597071	
710.0	-0.2340249002	0.06289427781	
710.625	0.2017593129	0.1691576433	
711.25	-0.03726527776	0.07559118564	
711.875	0.4276026877	0.1067209182	
712.5	0.09318364339	-0.1542337711	
713.125	0.280238198	-0.06928748208	
713.75	0.09521722357	-0.3366856803	
714.375	-0.07052932554	-0.1205568353	
715.0	0.06135980363	-0.2153874308	
715.625	-0.08530278722	-0.2235552279	
716.25	0.08621307816	-0.1408380035	
716.875	0.373153817	-0.1804917961	
717.5	0.4732167909	-0.1077420924	
718.125	0.4798315969	-0.04010448331	
718.75	0.7075508482	-0.1649444165	
719.375	0.8330009364	-0.6967412356	
720.0	-0.02323656042	-0.4841043042	
720.625	0.6139617721	-0.9598879108	
721.25	-0.6172819744	-0.8806971997	
721.875	0.05461716374	-0.482541175	
722.5	-0.9412339243	-0.9396466019	
723.125	-0.6467161988	0.4024195638	
723.75	-0.3017277603	0.09315209033	
724.375	0.1864113766	0.6914200132	
725.0	0.1700860446	0.04622689745	
725.625	-0.006129888803	0.4677722338	
726.25	0.2659633525	0.7098935572	
726.875	0.2614284231	0.5110165173	
727.5	-0.4005903658	1.086595475	
728.125	0.2730430939	2.111987833	
728.75	0.7998690251	1.55850927	
729.375	-1.162016481	2.629099195	
730.0	0.5164016303	4.564519706	
730.625	1.30460416	2.518530396	
731.25	-1.791302035	2.15081306	
731.875	-2.476718518	4.358062687	
732.5	0.2315719113	1.050844906	
733.125	-2.581347904	-0.3513452714	
733.75	-0.2092292404	1.916083374	
734.375	0.3759190693	-0.1280307543	
735.0	0.4575713062	-0.7473884357	
735.625	-0.3077978426	0.6843927612	
736.25	-0.2690826205	0.09922863788	
736.875	0.587628469	0.7627116078	
737.5	0.8680643981	-0.3910815005	
738.125	0.4632939507	0.0403428016	
738.75	2.680906669	-1.052968923	
739.375	0.8209781322	-2.87047035	
740.0	0.3240834195	0.6311646388	
740.625	4.59889369	1.430713598	
741.25	4.6082736	-1.252067323	
741.875	-2.803529984	-2.675270143	
742.5	-3.140904556	-2.395738538	
743.125	-0.8568543676	-0.5180047757	
743.75	0.9274155801	-0.7332812385	
744.375	-0.8142415719	0.002732616608	
745.0	0.1089297532	-0.1051530321	
745.625	0.1811476431	0.02343632615	
746.25	-0.1059451284	0.0279644421	
746.875	-0.2582487674	-0.1203193329	
747.5	-0.04562912464	0.4112004461	
748.125	0.1749799392	0.3051970265	
748.75	0.1003286149	0.3419602667	
749.375	0.2591990785	0.670815016	
750.0	-0.3902269128	0.2020529907	
