!Created with skrf (http://scikit-rf.org).
# GHz S RI R (50+0j) 
!freq	ReS11	ImS11	
500.0	0.5833556862	-0.9025683167	
500.625	-0.01379661843	-1.039750936	
501.25	-0.01782704078	-0.3522060526	
501.875	-0.3166865325	-0.5734820622	
502.5	-0.07013253525	-0.03540096471	
503.125	-0.05319876642	-0.02960156458	
503.75	0.05444544868	0.1039729852	
504.375	0.0007172458399	-0.002292491357	
505.0	0.03765349707	-0.05132217592	
505.625	-0.03535336375	-0.01248295158	
506.25	0.01756363747	-0.09918211739	
506.875	-0.1560806654	0.1898524213	
507.5	0.2379503946	-0.2923812943	
508.125	0.1474703338	-0.8302118293	
508.75	0.06046230162	-0.5057234526	
509.375	0.2530801821	-0.9568622585	
510.0	-0.5648719674	-0.2942661855	
510.625	-0.09215349037	-0.003166676602	
511.25	-0.04334202967	-0.06005623097	
511.875	-0.1469168444	-0.008529664415	
512.5	0.02262619028	-0.01668734365	
513.125	0.01940292188	-0.08362411271	
513.75	-0.07383194213	0.03226209298	
514.375	0.02395763479	-0.06609264615	
515.0	-0.23101215	-0.08907663308	
515.625	0.3350449013	-0.1709544003	
516.25	-0.8417455401	-0.8046362994	
516.875	-0.08693046974	-0.03750250297	
517.5	0.05829514971	-0.1616035733	
518.125	-0.1015463901	-0.02999135174	
518.75	0.0665626751	-0.06613660139	
519.375	-0.03621756073	0.05020874408	
520.0	0.1003240499	0.006917401659	
520.625	0.07470091278	-0.01208737578	
521.25	0.05594326016	-0.2910107104	
521.875	-0.1479178529	0.00952364812	
522.5	0.003448954612	-0.03000419779	
523.125	-0.1252054353	0.1007879312	
523.75	-0.00124186508	0.05680116421	
524.375	-0.2103906629	-0.08881612445	
525.0	0.05945678864	0.220144166	
525.625	-0.01855641798	-0.03756641119	
526.25	0.02530351298	0.05186775843	
526.875	-0.1055267335	0.01412030603	
527.5	-0.07020161546	0.2569042004	
528.125	0.1607392904	0.1351723653	
528.75	-0.0687270099	0.1293904444	
529.375	0.01801873801	-0.006732175296	
530.0	-0.02292931725	0.02188362107	
530.625	0.06364634234	0.1952092659	
531.25	0.392247822	-0.007049582418	
531.875	0.006655263744	-0.2338209606	
532.5	-0.03235294523	-0.1922258033	
533.125	-0.02123429243	0.0832580278	
533.75	0.1612742576	-0.2546785474	
534.375	-0.2281880748	-0.207887825	
535.0	-0.1294777059	-0.116024581	
535.625	-0.1918080613	0.1310679621	
536.25	0.03133158683	0.06307833919	
536.875	0.06060248346	0.0442984995	
537.5	0.07290353314	-0.06930856091	
538.125	0.04355190685	-0.03932070913	
538.75	0.1729927941	-0.09434028926	
539.375	-0.08393447981	-0.1406188407	
540.0	-0.08406536988	-0.09544143053	
540.625	-0.1341661422	-0.04716570467	
541.25	-0.09202846402	0.04471582017	
541.875	0.01609317254	-0.020425256	
542.5	-0.09555955651	-0.04895732952	
543.125	-0.05461768843	0.03411505543	
543.75	-0.1099907351	-0.05036003769	
544.375	-0.02055626552	0.1484407849	
545.0	-0.04031226116	0.02102523748	
545.625	0.09938652172	0.06861798634	
546.25	0.04025989976	-0.02064668616	
546.875	0.1330567323	0.03538733621	
547.5	0.02303548759	-0.1521166768	
548.125	-0.02644368488	-0.07744000888	
548.75	-0.1067056764	-0.1461620414	
549.375	-0.1533700517	-0.02615252009	
550.0	-0.02527429883	-0.01200622719	
550.625	-0.08404749698	0.03066960555	
551.25	-0.03111376983	0.01911513828	
551.875	-0.08284081817	0.04321172589	
552.5	-0.01496702557	0.08297957792	
553.125	-0.02073258815	0.04198561813	
553.75	0.05288859905	0.040362741	
554.375	0.07340306098	-0.01543294165	
555.0	0.08792262752	-0.06139916715	
555.625	0.07024541115	-0.1036859202	
556.25	0.0475575054	-0.1240281117	
556.875	-0.03291606078	-0.1399045161	
557.5	-0.0973727938	-0.09367182411	
558.125	-0.1082932409	-0.02444352767	
558.75	-0.09296255581	0.0006422268224	
559.375	-0.108306465	0.02050142986	
560.0	-0.07564538556	0.08193116438	
560.625	-0.04402154391	0.08663392356	
561.25	0.004941217762	0.1095377405	
561.875	0.04447510757	0.01064165208	
562.5	-0.006764991101	0.07328036488	
563.125	0.0877664677	0.03242201905	
563.75	0.09875275876	0.02600962789	
564.375	0.1583240492	-0.09658274716	
565.0	0.01960838954	-0.1419899828	
565.625	0.01109373465	-0.1292466611	
566.25	-0.153975794	-0.118103652	
566.875	-0.09877318737	0.00500178175	
567.5	-0.1010787571	-0.1510262175	
568.125	-0.1980647973	-0.1158132226	
568.75	-0.1029602177	-0.03921767323	
569.375	-0.266705481	0.07422107818	
570.0	-0.006938536724	0.2355772648	
570.625	-0.04662047086	0.08145206383	
571.25	-0.01212084068	0.1842746758	
571.875	0.05846972176	-0.0225768537	
572.5	0.1410442846	0.07920429303	
573.125	0.06138186756	-0.1850196957	
573.75	-0.01810104582	-0.009500468017	
574.375	0.09768710587	-0.1034967513	
575.0	-0.06594701464	-0.03597924483	
575.625	0.1057892883	-0.04256621999	
576.25	0.01121971259	-0.1714494963	
576.875	-0.05402022042	-0.04871279754	
577.5	0.0735801623	-0.142712998	
578.125	-0.1141755987	-0.1829290968	
578.75	-0.08504000606	0.01053958093	
579.375	0.005968998859	-0.138022526	
580.0	-0.1697404385	0.01818394098	
580.625	0.04958866835	-0.05915298965	
581.25	-0.2016185088	0.1833646688	
581.875	0.1009251654	0.1031634854	
582.5	-0.08401746481	0.1096582212	
583.125	0.1152617034	0.1645453383	
583.75	0.02095888312	-0.08730136575	
584.375	0.02593056588	0.1406933353	
585.0	0.1254388673	-0.0594007346	
585.625	0.05398042333	0.03995007891	
586.25	0.2314827029	-0.07767674207	
586.875	-0.02425134594	-0.1448107675	
587.5	0.05737886471	-0.1007535306	
588.125	-0.03710608242	-0.197033347	
588.75	-0.05005605813	-0.07948232269	
589.375	0.1363462598	-0.1130690921	
590.0	-0.1556796005	-0.2070651883	
590.625	-0.08553012683	0.0218982359	
591.25	-0.173419341	0.0532659687	
591.875	0.03193938416	0.2103230602	
592.5	-0.05449023982	-0.09994302262	
593.125	0.01210739156	0.1442287152	
593.75	0.0237777446	0.01059702749	
594.375	0.1138569733	0.1682154	
595.0	0.2121601983	-0.04009834843	
595.625	0.05601725018	0.03178891135	
596.25	0.1781682543	0.1011772442	
596.875	0.1432120927	-0.05186247629	
597.5	0.06591062406	0.09921456414	
598.125	0.2006391599	0.1528034815	
598.75	0.1262199191	0.008898552527	
599.375	0.1572465059	0.02759897855	
600.0	0.1559309331	-0.1460812787	
600.625	0.03809429049	-0.1888294104	
601.25	0.090418805	-0.1018912275	
601.875	-0.108109474	-0.1922132166	
602.5	-0.06765066656	0.08249695619	
603.125	-0.1093500644	-0.04728899043	
603.75	-0.1244515322	0.1634553923	
604.375	-0.004157268986	-0.03977907588	
605.0	-0.1599467402	0.07490955993	
605.625	0.1007708359	0.04423940132	
606.25	-0.1104926492	-0.04156433969	
606.875	-0.1448774005	0.170753722	
607.5	-0.02718642868	0.1650513106	
608.125	-0.05452243378	0.2442530086	
608.75	0.2412477131	0.1950033948	
609.375	0.1867580032	-0.0419634837	
610.0	0.163849104	-0.05737919668	
610.625	0.1080570298	-0.1378619667	
611.25	-0.04492996167	-0.06267956868	
611.875	-0.01044348148	-0.139593394	
612.5	-0.2289818888	0.02489856685	
613.125	-0.0440371515	0.02582923486	
613.75	-0.1793820994	0.1311999905	
614.375	0.1511983892	0.1085227328	
615.0	-0.08539242892	0.01028521987	
615.625	0.1215670021	0.1230977296	
616.25	-0.005379862981	0.0427949208	
616.875	-0.1677781808	0.1496029983	
617.5	-0.008666666772	0.2888094521	
618.125	-0.04536723531	0.1962772394	
618.75	-0.04854222078	0.2300833637	
619.375	0.1840955187	0.131195148	
620.0	0.08251287459	0.01945876247	
620.625	0.08206081639	-0.0176771144	
621.25	-0.1613644786	-0.1513499248	
621.875	-0.09365967355	-0.0739350154	
622.5	-0.2596148751	0.01871753367	
623.125	0.0209459843	0.2475479631	
623.75	0.03753657052	0.007222133383	
624.375	0.1261298831	-0.06746290956	
625.0	-0.05205807538	-0.0156968892	
625.625	0.1141615286	-0.07627203392	
626.25	-0.1099650678	-0.1503235796	
626.875	-0.05777964765	-0.01535286896	
627.5	-0.1519008768	-0.0948401413	
628.125	-0.158711948	-0.00412916374	
628.75	-0.07035908949	-0.08078255094	
629.375	-0.1136099338	-0.1936290535	
630.0	-0.178988349	0.009880220021	
630.625	-0.1766292606	8.241759059e-05	
631.25	-0.1756901659	0.2036405091	
631.875	0.03934919272	0.2310678736	
632.5	0.08154184928	0.07790898007	
633.125	0.2655522969	0.07306996763	
633.75	0.1092753172	-0.2023362774	
634.375	0.08030302453	-0.05486236165	
635.0	-0.04667899258	-0.2046466464	
635.625	-0.1052180733	0.03075217603	
636.25	-0.174046441	-0.02882096423	
636.875	-0.05772156611	0.2241726364	
637.5	0.01974850995	0.01015091436	
638.125	-0.137244084	0.111629631	
638.75	0.04432200534	0.1675785231	
639.375	-0.056837044	0.1334664978	
640.0	0.154857093	0.3083860536	
640.625	0.2593322939	0.0273741197	
641.25	0.1579681322	0.02088086232	
641.875	0.2784753703	-0.1169462409	
642.5	-0.104279416	-0.1847306715	
643.125	0.009171636501	-0.01967223512	
643.75	-0.230474277	-0.1006066919	
644.375	-0.03414467352	0.234376143	
645.0	-0.2094977525	0.02869470041	
645.625	0.1523493103	0.2586599546	
646.25	0.0908374445	-0.03946437413	
646.875	0.1113879336	0.1869916416	
647.5	0.08900381601	-0.1367329927	
648.125	0.08917500571	0.1790229551	
648.75	0.3754524682	-0.1786600738	
649.375	0.03104453426	-0.2226125466	
650.0	0.2165653734	-0.1558713424	
650.625	0.1935272998	-0.4160482878	
651.25	-0.0413629007	-0.1945118391	
651.875	0.2998548121	-0.01053658533	
652.5	0.3368716554	-0.2132769807	
653.125	0.1005330869	-0.123141183	
653.75	0.2868180067	-0.104545741	
654.375	-0.1660930634	-0.4079039458	
655.0	-0.1833301344	0.03337180989	
655.625	-0.2535401742	0.07876342247	
656.25	0.1552284333	0.3797766478	
656.875	-0.04931585417	-0.102734694	
657.5	0.1102523481	0.2930822671	
658.125	0.1942016705	-0.01268193811	
658.75	0.1416920636	0.1779087228	
659.375	0.4282092583	-0.2004897079	
660.0	-0.02063351557	-0.2444254865	
660.625	0.1995945786	-0.1910153894	
661.25	0.1894190432	-0.366859072	
661.875	0.03269630088	-0.2636131055	
662.5	0.3152705046	-0.01671686602	
663.125	0.2917558777	-0.2928943774	
663.75	0.02990795822	-0.2082440439	
664.375	0.06102091614	-0.2944205683	
665.0	-0.36450176	-0.1903897755	
665.625	-0.173902858	0.1057845894	
666.25	-0.1776111297	0.2119389256	
666.875	0.2089366967	0.2563794398	
667.5	0.09231243325	0.001200898918	
668.125	0.2612348502	0.06677625072	
668.75	0.1237775775	-0.2631557178	
669.375	0.03685876304	-0.0745256538	
670.0	0.09827094964	-0.2802588207	
670.625	-0.1403420352	-0.1985523098	
671.25	0.1827128941	-0.03552664285	
671.875	0.1683351915	-0.2522558039	
672.5	0.06166412679	-0.1257153821	
673.125	0.1917621303	-0.05435604352	
673.75	0.2009523023	-0.3147825163	
674.375	-0.06657502832	-0.1361312875	
675.0	0.02119531144	-0.2099602791	
675.625	-0.2593818139	-0.1646165715	
676.25	-0.108124221	0.09230584094	
676.875	-0.1404206837	-0.1181213694	
677.5	-0.1819252128	0.1391842581	
678.125	-0.02877393251	0.05630202574	
678.75	-0.09072254279	0.2546697187	
679.375	0.3221333071	0.005676884081	
680.0	-0.09076194173	-0.0130722554	
680.625	0.2240950514	-0.01676593294	
681.25	0.04431906386	-0.1554485315	
681.875	0.0006162816805	0.1800978686	
682.5	0.4721666437	0.04257650565	
683.125	0.02559596042	-0.0725660549	
683.75	0.1656896859	0.2076931826	
684.375	0.4102679259	-0.02699883561	
685.0	0.141654606	-0.1525892408	
685.625	0.3851295175	0.1253457661	
686.25	0.3410927611	-0.1892693831	
686.875	0.1310802225	-0.1076457918	
687.5	0.3562406075	-0.1762015627	
688.125	-0.1579965222	-0.3947412707	
688.75	-0.2049859692	-0.06084497235	
689.375	-0.3921361845	0.2469217796	
690.0	0.24059114	0.3778485711	
690.625	0.07701001795	0.04465876699	
691.25	0.3581776822	0.4410963414	
691.875	0.4871095529	0.07043951092	
692.5	0.3367548	0.2526818557	
693.125	0.8091308953	0.02532596068	
693.75	0.1752772211	-0.3726187657	
694.375	0.3685611035	-0.1008816749	
695.0	0.5353826977	-0.3511712566	
695.625	0.3386741674	-0.205460839	
696.25	0.4999858508	0.2601762361	
696.875	0.5307271815	0.4706487951	
697.5	0.3420882258	0.1687055055	
698.125	0.5102213926	0.1157247879	
698.75	0.4226440879	-0.3446588102	
699.375	-0.4499913423	-0.1768262835	
700.0	-0.2357797354	0.1189018035	
700.625	0.2317613622	0.4119608565	
701.25	0.2298972769	-0.01538891009	
701.875	0.1350497411	0.2898154192	
702.5	0.4765704326	0.2122904675	
703.125	0.2299694646	-0.0303114358	
703.75	0.4017263178	0.03145730174	
704.375	0.2808727544	-0.2995621245	
705.0	0.04432711071	-0.1013347492	
705.625	0.32415218	0.1131374061	
706.25	0.3449519874	0.02789859908	
706.875	0.275949649	0.350380833	
707.5	0.2756035735	0.3914081962	
708.125	0.4906684444	-0.04716108638	
708.75	0.1667730856	-0.1430488516	
709.375	-0.009306426233	-0.169472832	
710.0	-0.1290997515	0.2695581472	
710.625	0.01855760106	0.02189689512	
711.25	0.1747598094	0.2291586545	
711.875	0.1825018482	-0.1706734745	
712.5	0.2549695191	0.08322787286	
713.125	0.2967457817	-0.2383378187	
713.75	-0.006472573405	-0.2143457624	
714.375	0.1066331219	-0.1640609217	
715.0	-0.09735090313	-0.274003758	
715.625	-0.03699856729	-0.08350853598	
716.25	0.2347032114	-0.171052275	
716.875	0.2847015154	-0.3504581143	
717.5	0.3614139006	-0.09512588556	
718.125	0.6943890685	0.1680961627	
718.75	0.7058240348	-0.4275648585	
719.375	0.361523995	-0.4224409522	
720.0	0.6831946688	-0.7030248714	
720.625	-0.3199270962	-1.070576462	
721.25	0.169378906	-0.6422945305	
721.875	-0.2417292202	-1.091990816	
722.5	-1.149112008	-0.4503688767	
723.125	-0.3802839402	-0.144849597	
723.75	-0.4798820376	0.5327251486	
724.375	0.2616120056	0.3266070762	
725.0	-0.04544499526	0.2472300027	
725.625	0.2668850896	0.570599617	
726.25	0.2410921675	0.3628267296	
726.875	-0.2995487375	0.6553373545	
727.5	-0.007437029995	1.46519637	
728.125	0.6701400378	1.39748074	
728.75	-0.7717746852	1.645756341	
729.375	-0.2606196767	4.189967931	
730.0	1.121709236	2.512952642	
730.625	-1.02851964	2.272029393	
731.25	-0.7476167115	5.139806576	
731.875	-0.7266051488	1.657251378	
732.5	-2.805058474	-0.830745174	
733.125	-2.359172511	1.002512817	
733.75	0.0832441469	0.9803690049	
734.375	0.5566147896	0.7107587908	
735.0	-0.3101931014	-0.8551238149	
735.625	0.04312042208	0.05000528938	
736.25	-0.267256721	0.552836996	
736.875	0.6966869886	0.4046006062	
737.5	0.2462162589	0.03072172843	
738.125	1.785088706	0.0290471976	
738.75	1.137943665	-1.934613123	
739.375	0.5131174709	-0.8430210122	
740.0	3.611433986	1.161821226	
740.625	3.384392245	-3.200755418	
741.25	-2.428423759	-1.390868721	
741.875	-4.446485014	0.7812464174	
742.5	-1.398396646	0.06867832375	
743.125	1.142913497	-1.220212044	
743.75	-0.08368085966	-1.75998078	
744.375	-0.3485428805	0.1688063437	
745.0	-0.07727751224	0.03837953226	
745.625	0.07256187591	-0.08939239564	
746.25	0.1006575212	-0.04190218534	
746.875	-0.2750683866	0.01402252434	
747.5	-0.006294139692	0.2993253217	
748.125	0.02020737406	0.2910180731	
748.75	0.218490452	0.468015614	
749.375	0.2340886852	0.2596755398	
750.0	-0.2563245074	0.08199850477	
