!Created with skrf (http://scikit-rf.org).
# GHz S MA R 50.0 
!freq magS11 angS11
500.0 0.0159917852156 112.452351123
500.625 0.0138290799289 163.484183761
501.25 0.010625825431 -176.276051035
501.875 0.041310866349 -169.929570793
502.5 0.00945521841405 129.074085357
503.125 0.0143475242136 88.5543662555
503.75 0.0133142756129 -31.6411453722
504.375 0.0118267606124 -57.5341590731
505.0 0.0247011119481 -66.3315860608
505.625 0.0275515314997 -73.523324235
506.25 0.0282612477488 -117.610783597
506.875 0.0601448499749 -102.291660493
507.5 0.0397349984722 -143.548809661
508.125 0.0450521415692 -96.6432270647
508.75 0.0637333397159 -140.037586834
509.375 0.0693050031303 -127.559059591
510.0 0.0288846054767 -173.861030383
510.625 0.0400958161863 -161.245188418
511.25 0.0632753235895 -174.324317924
511.875 0.0538248513958 146.576442602
512.5 0.0450349200478 108.30105105
513.125 0.053997701373 46.063709465
513.75 0.0533916085744 25.0488234703
514.375 0.0577445170983 30.0318152001
515.0 0.0384815571825 -5.17666882388
515.625 0.0697056045082 44.1990904823
516.25 0.078819603037 23.3275219548
516.875 0.131783215056 68.4966353051
517.5 0.103215058276 14.3759959609
518.125 0.174317204884 62.5840129211
518.75 0.0846930060237 10.9635866516
519.375 0.0816890017697 22.8466737121
520.0 0.0937119656072 -3.76342301263
520.625 0.0932467594913 -9.35098302647
521.25 0.0851379864912 -24.0339968797
521.875 0.0789642884466 0.287250618326
522.5 0.08000062861 -41.8567242434
523.125 0.164963438494 -40.5896112185
523.75 0.210751803916 -62.4122613878
524.375 0.235608481177 -47.4629219342
525.0 0.0703942391315 -54.6128123703
525.625 0.0428867750722 -26.5867816359
526.25 0.0479805043659 -7.50055374845
526.875 0.0582183610006 -21.2972822502
527.5 0.0484610759232 -30.5542306525
528.125 0.0440412964816 -55.658102883
528.75 0.062960358185 -72.3821861383
529.375 0.10413959707 -107.658473618
530.0 0.0456434218914 -134.078114358
530.625 0.0308390764098 -148.846940461
531.25 0.138688763502 -143.407938996
531.875 0.179106664021 -148.594794828
532.5 0.143096745688 -171.233721975
533.125 0.10565022363 175.029257542
533.75 0.11740904042 167.693046178
534.375 0.126525608899 179.474516907
535.0 0.0797118792736 160.135735029
535.625 0.0598333550158 176.496924793
536.25 0.0656099801955 163.076204778
536.875 0.0693885776284 -163.362706599
537.5 0.09404307143 -143.91496852
538.125 0.0985608726342 -176.607687816
538.75 0.109782744266 -179.494712621
539.375 0.0796418661279 -165.583619286
540.0 0.0897144437742 -155.497336748
540.625 0.12747603456 -158.24595756
541.25 0.143208398192 -143.387204808
541.875 0.0864672753491 -140.935925349
542.5 0.107380182827 -141.165329126
543.125 0.147366957304 -168.563215936
543.75 0.137307582967 159.945756269
544.375 0.103775034828 136.249322252
545.0 0.0798244379295 89.4364389069
545.625 0.0934254185308 83.5695996491
546.25 0.0841753736543 66.4251798498
546.875 0.0997389876374 52.5147486627
547.5 0.110530503601 57.5118225815
548.125 0.12241470653 75.3035071117
548.75 0.0969540068708 89.816062262
549.375 0.105359444714 85.2195740839
550.0 0.0823211264953 123.713258219
550.625 0.0466362826869 157.876727731
551.25 0.037081954434 -138.534676566
551.875 0.0702898292561 -169.030724541
552.5 0.109991483582 -165.13046153
553.125 0.0978433342226 -171.684870656
553.75 0.0922761193908 -171.320792715
554.375 0.115161483904 163.008471418
555.0 0.124925200348 162.954281612
555.625 0.0922332986166 160.334554156
556.25 0.0932686146092 162.155507373
556.875 0.129919662789 161.501339318
557.5 0.109917835035 165.149496507
558.125 0.0953060983993 164.794361471
558.75 0.077907151007 175.24124504
559.375 0.0744638815132 -175.222389718
560.0 0.0426988902466 -149.06579274
560.625 0.0552350125691 -133.522858581
561.25 0.0893446125455 -151.401128303
561.875 0.109582291026 -166.585635281
562.5 0.0841140362437 177.782976785
563.125 0.104679482806 144.609209965
563.75 0.130988976969 129.822196643
564.375 0.112624557683 118.394947001
565.0 0.0860286968416 119.562882076
565.625 0.0782870368158 119.622457804
566.25 0.0958422031261 151.774232726
566.875 0.0818192657291 174.484702207
567.5 0.0655960098488 -172.547759772
568.125 0.0782586999469 -170.285825344
568.75 0.0753666481829 -152.85483252
569.375 0.0514816906855 -117.585514165
570.0 0.0593465844874 -107.687354217
570.625 0.0856342802362 -112.810424233
571.25 0.0861663823185 -116.911978908
571.875 0.0900796657618 -133.585124583
572.5 0.10848351955 -151.580371236
573.125 0.139179922738 -173.49802709
573.75 0.10924967834 158.66767977
574.375 0.0888160891105 141.918057143
575.0 0.0953594981865 162.381029249
575.625 0.104872443238 159.191466316
576.25 0.0900302501641 145.568152301
576.875 0.0858970236605 124.80539867
577.5 0.0778695232212 140.508775637
578.125 0.0573046906456 164.302765302
578.75 0.0448107683523 168.189126453
579.375 0.058370498715 149.644825394
580.0 0.0654487463082 -169.354521489
580.625 0.0777952267302 -150.174998949
581.25 0.0863731226794 -161.89910387
581.875 0.114724362289 178.029779368
582.5 0.114680218048 -176.320857016
583.125 0.093506639781 -169.676040218
583.75 0.0831108202672 -171.799333002
584.375 0.104037477816 -159.995071538
585.0 0.0993953246582 -149.295762848
585.625 0.0727072214229 -148.000894857
586.25 0.0708342294046 -144.581054815
586.875 0.0825691687111 -143.974459503
587.5 0.0694072333381 -142.072014894
588.125 0.0600868960321 -176.324240556
588.75 0.0662982283462 -175.244659845
589.375 0.0819972518353 -156.757753196
590.0 0.0917281066295 -173.843676597
590.625 0.103577608551 164.630110966
591.25 0.122840406121 152.884224111
591.875 0.0951039621945 158.094523511
592.5 0.0685830701692 137.409680785
593.125 0.0590655935961 149.360215441
593.75 0.0790682604696 164.441160509
594.375 0.0589704191636 -153.605716313
595.0 0.041608386043 -129.66252003
595.625 0.0642332831515 -98.6992741877
596.25 0.0784042174364 -83.3965538273
596.875 0.0671881014414 -68.4629256309
597.5 0.0544621871127 -75.0538825272
598.125 0.0659579370614 -61.952582637
598.75 0.0757884477827 -58.4187235917
599.375 0.0849898894442 -70.7048555231
600.0 0.100509381893 -66.4019979885
600.625 0.100577425937 -67.5127459597
601.25 0.0863360665036 -79.4339047688
601.875 0.0693600197234 -89.505522127
602.5 0.0622903942185 -98.8138378149
603.125 0.0429273750735 -53.775071297
603.75 0.0374941729313 -23.3563640911
604.375 0.039603533653 -17.641096981
605.0 0.0456231501224 -40.3115809393
605.625 0.0512964503563 -7.96616846621
606.25 0.0258109114121 10.5876808523
606.875 0.0308911153937 47.7787250498
607.5 0.0601708963134 40.2652789194
608.125 0.0837252247132 33.7063656653
608.75 0.0724649442134 25.4532646944
609.375 0.0672184031167 35.8775947999
610.0 0.0520867291438 28.0768389541
610.625 0.068878812225 39.425233084
611.25 0.0554239182326 34.7612540964
611.875 0.0347208408945 48.750616074
612.5 0.0195107692834 81.3240684558
613.125 0.0124446408663 127.666892308
613.75 0.0439647408613 123.471937258
614.375 0.0620155385819 125.097547092
615.0 0.0353664525214 117.884736632
615.625 0.013892018904 145.322077625
616.25 0.0768165818531 134.501314325
616.875 0.0645201443963 129.02410763
617.5 0.0350177394993 115.093308903
618.125 0.0114462292403 120.175452513
618.75 0.0561038475169 144.731765033
619.375 0.0374924380833 149.967824511
620.0 0.00511076856621 97.4151394252
620.625 0.0289935579823 -67.5606358372
621.25 0.042443963454 -100.968614724
621.875 0.0589907035341 -121.164369537
622.5 0.0694699262364 -165.285728528
623.125 0.064418391504 -171.517614453
623.75 0.0849510145882 159.070328097
624.375 0.0593572648526 175.350644954
625.0 0.0525807631886 -148.093840783
625.625 0.0215069480799 -110.867792445
626.25 0.0289167151343 -177.612455132
626.875 0.00211284778124 133.058083958
627.5 0.0295225595279 -34.6028856332
628.125 0.0372398354184 -16.3447130615
628.75 0.0396742269659 -7.3466112724
629.375 0.0490795256028 -7.67237516297
630.0 0.0654691538413 0.0231658829574
630.625 0.0763632788779 14.74339424
631.25 0.0718075504663 -18.9497089419
631.875 0.0677100972255 -6.61473545007
632.5 0.0685167842734 -7.21203681131
633.125 0.0478549534737 7.96515994233
633.75 0.0455695437329 22.4593095365
634.375 0.0450044319945 11.6561650255
635.0 0.032610062404 -4.74064902081
635.625 0.0331263625299 24.3945329187
636.25 0.0745981987278 46.9013494317
636.875 0.0631164562475 28.7816015206
637.5 0.043219449882 41.7964888534
638.125 0.0467273886849 69.3454094716
638.75 0.0833272611359 77.7527732654
639.375 0.104977211709 97.105821238
640.0 0.0717402235198 101.090089911
640.625 0.0578990984027 106.173715325
641.25 0.063898261428 120.848154816
641.875 0.0777368583597 155.181355033
642.5 0.0519193440503 159.188991984
643.125 0.0585754038193 150.379337163
643.75 0.0751966508084 174.905999222
644.375 0.0786157003214 -174.345505373
645.0 0.0795245153982 177.833459202
645.625 0.0944178027126 168.674719923
646.25 0.0913535905708 163.821799602
646.875 0.0840032663112 -179.113088915
647.5 0.0591807084929 174.498425454
648.125 0.0762225560361 -179.280510229
648.75 0.070991056723 -171.118770068
649.375 0.0623176698476 -146.514463504
650.0 0.0281053897617 -134.455034094
650.625 0.0614460820012 -89.5511353444
651.25 0.0639182975294 -71.8550778346
651.875 0.0784495415359 -46.7030333711
652.5 0.0820375419831 -28.0532811042
653.125 0.116819118732 -2.29097366912
653.75 0.102558819856 4.61225794742
654.375 0.11886543071 6.61684994498
655.0 0.116428705269 9.05794831378
655.625 0.0840726204361 20.2373434982
656.25 0.0573455781267 13.4758507302
656.875 0.0846508212585 4.67205430423
657.5 0.0708742523371 16.3507636877
658.125 0.0697087746256 46.2171259236
658.75 0.0651599098295 58.8667748846
659.375 0.0878280754055 37.2598156489
660.0 0.12850510325 22.6767963968
660.625 0.112211212738 15.462787015
661.25 0.112372130423 3.32234130856
661.875 0.121574130384 -14.5255801046
662.5 0.135102285799 -21.9640162266
663.125 0.102620073459 -16.7959003047
663.75 0.110518657716 3.81293316485
664.375 0.107175375344 53.3055382971
665.0 0.0559231252093 86.1387455097
665.625 0.057858332535 111.370609875
666.25 0.0837545178215 130.152285548
666.875 0.127619781162 166.257388957
667.5 0.0841241428615 -167.017330689
668.125 0.0949570598878 -176.853657302
668.75 0.125071584469 166.801166244
669.375 0.147976595799 173.461852476
670.0 0.0697234431381 -172.161077972
670.625 0.0818385442257 -170.548853843
671.25 0.110547878791 173.084820839
671.875 0.117325076991 164.139928991
672.5 0.0818181002596 152.021296893
673.125 0.0803791946435 153.626458298
673.75 0.111137977241 157.249687381
674.375 0.123399253152 164.88420428
675.0 0.107010289032 -175.176333472
675.625 0.117833180614 -149.148041521
676.25 0.125416543719 -126.137432799
676.875 0.125319435329 -124.069813052
677.5 0.108905626656 -127.29188869
678.125 0.121256933747 -118.561715638
678.75 0.0726566090313 -97.9345273454
679.375 0.0584776551327 -80.8248913508
680.0 0.0675800757718 -79.4926341588
680.625 0.12144090007 -79.1721354867
681.25 0.106225718102 -73.6992703606
681.875 0.10140762812 -94.3316279913
682.5 0.143993207341 -126.389925972
683.125 0.144362541354 -118.599431804
683.75 0.133679691169 -106.661291809
684.375 0.117662182949 -83.1887699208
685.0 0.135095986001 -41.6769439377
685.625 0.118139690346 -1.67753094669
686.25 0.111571435564 20.121692953
686.875 0.102589552733 39.4139465927
687.5 0.0868314195582 76.6828182237
688.125 0.0801283590024 112.296362902
688.75 0.100274750255 110.777083908
689.375 0.148700029608 113.91265699
690.0 0.135419426634 130.895871409
690.625 0.126397886418 121.233990057
691.25 0.14196295514 97.0032089819
691.875 0.179088909441 70.3723257283
692.5 0.14347786434 38.470371263
693.125 0.101245024186 -22.4102497988
693.75 0.0844202382991 -38.4193879112
694.375 0.134738738312 -29.6266416874
695.0 0.137242964048 6.23868145856
695.625 0.102919108656 53.2366127138
696.25 0.12082325064 105.126798601
696.875 0.129996904268 178.105401604
697.5 0.141307249819 -144.239561948
698.125 0.132609105452 -131.672047284
698.75 0.141049180933 -137.928642663
699.375 0.11235767277 -126.768187999
700.0 0.101441944644 -119.228187307
700.625 0.118757989524 -97.3336010055
701.25 0.109333409828 -73.0566320181
701.875 0.0810911357098 -61.6431497307
702.5 0.0993786286376 -89.0336844888
703.125 0.169478986354 -124.853042565
703.75 0.199744446642 -163.97869477
704.375 0.119102843048 177.288984065
705.0 0.110485545971 158.438771922
705.625 0.147732262279 -178.794799022
706.25 0.153191811832 -118.99444991
706.875 0.0947265288004 -64.8715744256
707.5 0.0778226484674 -37.1446669791
708.125 0.0929833235248 9.20558726047
708.75 0.112574937971 61.0441943302
709.375 0.106628222204 97.0097850803
710.0 0.100395798669 132.684345398
710.625 0.108634489901 159.286070525
711.25 0.120830450056 170.148278319
711.875 0.135561812494 171.174632823
712.5 0.153277287564 142.028888392
713.125 0.13448556404 92.9398856654
713.75 0.10388698353 44.722504777
714.375 0.114583738045 5.90484125563
715.0 0.112026068146 40.5165773717
715.625 0.0832420396371 53.6133004685
716.25 0.0718099834262 73.0653463503
716.875 0.108165326124 91.7173023496
717.5 0.143470938437 137.539596597
718.125 0.117534894492 167.069780736
718.75 0.101785983333 170.127029259
719.375 0.117653687442 -171.506751303
720.0 0.124431510416 -144.329745836
720.625 0.116710691917 -62.6705022684
721.25 0.0978087198653 -19.9393423289
721.875 0.0874979588311 23.263924302
722.5 0.0753159659201 61.8148250879
723.125 0.0809110686382 68.8636935757
723.75 0.106485863194 35.4617679062
724.375 0.113765655312 -3.39200457997
725.0 0.0840046654807 -53.9902503449
725.625 0.121311160597 -54.7674508758
726.25 0.120782073132 -67.4249763503
726.875 0.100919547852 -49.0233413876
727.5 0.0747670093756 -55.1152009836
728.125 0.0789408011955 -10.766108177
728.75 0.0849457981914 20.8194230915
729.375 0.0833348957059 11.3898368231
730.0 0.0692191627077 2.38254862411
730.625 0.0403410147691 -5.54051117373
731.25 0.103258569365 77.8901015933
731.875 0.0817027605112 117.802260588
732.5 0.0749503200137 154.357262077
733.125 0.0773670519143 166.131511538
733.75 0.105798249867 -171.433302086
734.375 0.0756916698974 169.481115317
735.0 0.054523432666 141.679569396
735.625 0.0291916341959 120.789461224
736.25 0.0742308982222 149.299672493
736.875 0.0696848850408 161.76054228
737.5 0.0816598178272 177.215182113
738.125 0.055039652618 -177.926006835
738.75 0.109814691067 -165.265710084
739.375 0.067859458281 -164.478544575
740.0 0.0459142893208 -128.753794724
740.625 0.0443887848504 -156.905478898
741.25 0.0400528598175 -151.873325091
741.875 0.0409568353372 -102.341590826
742.5 0.0576120380797 -29.3420867996
743.125 0.0298332242972 52.6961160305
743.75 0.0268276197343 133.09024503
744.375 0.0393417242741 129.609104715
745.0 0.0497460033905 166.869294671
745.625 0.0625113281954 132.215568621
746.25 0.0665467247982 100.223187201
746.875 0.0877426250655 29.6568869249
747.5 0.0557818892224 0.608728585236
748.125 0.0322093686206 -8.88541883888
748.75 0.0273949996055 44.2403390055
749.375 0.0341201043499 -15.3197429299
750.0 0.0303596086957 -84.5796970454
