!Created with skrf (http://scikit-rf.org).
# GHz S RI R (50+0j) 
!freq	ReS11	ImS11	
500.0	0.2725751978	-0.9583457179	
500.625	2.034600445	-3.394159216	
501.25	-2.84082902	-1.672108467	
501.875	-0.9610416809	0.1491188301	
502.5	-0.02066241999	-0.6672790192	
503.125	-0.1281047466	0.2412939791	
503.75	-0.1217883942	0.2041814945	
504.375	0.100019681	-0.1093187191	
505.0	0.06461530991	0.09150679787	
505.625	-0.1406645089	-0.3805078241	
506.25	0.04423831753	0.2714825506	
506.875	-0.8900914195	-0.700906547	
507.5	-1.610382377	-0.1740669156	
508.125	1.238174242	-0.7155163877	
508.75	1.753961006	-4.686187259	
509.375	-1.749156917	-1.548196182	
510.0	-1.43560212	-1.886167581	
510.625	-0.8474671256	0.1593982745	
511.25	-0.3112551196	-0.4002196346	
511.875	-0.5138980726	0.01638315675	
512.5	-0.02851029478	0.2015037912	
513.125	-0.08051632987	-0.1670734241	
513.75	-0.2243832403	-0.3868230815	
514.375	-0.4867204753	0.3229237654	
515.0	0.8749355636	-1.006213253	
515.625	-1.588474714	0.2150480537	
516.25	1.472057453	-2.302703968	
516.875	-2.335695506	-1.786774308	
517.5	0.05562705911	0.4238612983	
518.125	-0.3260902033	-0.4276328109	
518.75	0.06277964105	0.2771554108	
519.375	-0.3063845787	0.09227788445	
520.0	0.4912784868	0.02641521385	
520.625	0.2151717474	-0.1390082137	
521.25	0.2082156257	-0.8993297189	
521.875	-0.4124468373	0.2072625135	
522.5	-0.1355864317	-0.0769484039	
523.125	-0.0121149769	0.2235201648	
523.75	-0.3708975287	-0.2226161822	
524.375	-0.1244511413	0.4138177631	
525.0	-0.3150880092	0.149882319	
525.625	0.2714959482	0.2656082503	
526.25	-0.2797093172	-0.06780037599	
526.875	0.06378395882	0.1879594391	
527.5	-0.3825612952	0.2907447265	
528.125	0.4432029708	1.100587744	
528.75	0.227856579	0.1362452468	
529.375	0.1462966822	0.405963983	
530.0	-0.078533237	0.04033632931	
530.625	0.6022124902	1.239699009	
531.25	0.5905693431	-0.1495352836	
531.875	0.8194915014	-0.311088222	
532.5	-0.5386938796	-0.1047437746	
533.125	0.5401238401	-0.3438479893	
533.75	-0.2957968408	-0.258074595	
534.375	0.1833675617	-1.129104702	
535.0	-0.9055450085	0.2682148218	
535.625	-0.2444115587	0.07861154434	
536.25	-0.06117516627	0.3283089738	
536.875	0.23712236	-0.1293516113	
537.5	0.2199249987	0.0324457892	
538.125	0.2421755791	-0.3506935271	
538.75	0.2202360637	-0.08710922806	
539.375	-0.2010674398	-0.5928878836	
540.0	-0.5071234537	-0.07265500761	
540.625	-0.2541530771	-0.1452750743	
541.25	-0.2349212688	-0.02165258265	
541.875	-0.1830351647	-0.0008541846583	
542.5	0.01566840423	-0.0776729186	
543.125	-0.3428812962	-0.1799774851	
543.75	-0.03015868101	0.137812304	
544.375	-0.2658848606	0.06554432371	
545.0	0.16673444	0.08849029035	
545.625	-0.06979862921	0.2756756746	
546.25	0.4550039831	-0.09409585537	
546.875	0.01619246193	0.07297401413	
547.5	0.3930596748	-0.3964840008	
548.125	-0.3492652676	-0.3143406704	
548.75	-0.09387886846	-0.2166043446	
549.375	-0.3674841446	-0.2836037772	
550.0	-0.09537697444	0.1680627632	
550.625	-0.2222875431	-0.108484197	
551.25	-0.07212532831	0.1902532726	
551.875	-0.2088840985	0.05066625057	
552.5	-0.1010062282	0.296011659	
553.125	0.0007523452491	0.1086000795	
553.75	0.106569684	0.1386842461	
554.375	0.2369448209	-0.03329635416	
555.0	0.2093242265	-0.159131385	
555.625	0.2063956822	-0.2624709097	
556.25	0.1304725205	-0.3533427487	
556.875	-0.09562235105	-0.3663816538	
557.5	-0.2341472078	-0.242777221	
558.125	-0.28677105	-0.07693229752	
558.75	-0.2375348666	0.02215975931	
559.375	-0.2479479668	0.02578229774	
560.0	-0.2339641004	0.2229542854	
560.625	-0.04989169468	0.2234846763	
561.25	-0.05305210238	0.2484280235	
561.875	0.1671116265	0.07061466402	
562.5	-0.08715346617	0.1382945637	
563.125	0.2949665665	0.1192014867	
563.75	0.1590597127	0.02289174733	
564.375	0.4345315649	-0.2148243579	
565.0	0.02714006728	-0.4338473172	
565.625	-0.01484214524	-0.2299886659	
566.25	-0.2703303546	-0.3663550476	
566.875	-0.3936286007	-0.01753109136	
567.5	-0.1740170495	-0.2812902568	
568.125	-0.5097748906	-0.4504999273	
568.75	-0.4114468136	0.01123825538	
569.375	-0.6497321791	0.02983783711	
570.0	-0.1941211975	0.7345366034	
570.625	0.07885822543	0.1687745752	
571.25	-0.3302132994	0.4229493021	
571.875	0.3830656755	-0.1412701876	
572.5	0.2064117158	0.3489648762	
573.125	0.2629694229	-0.5879062288	
573.75	-0.1865407592	-0.04455741472	
574.375	0.364984645	-0.2258893081	
575.0	-0.279628817	-0.147324455	
575.625	0.3446770469	-0.02773737732	
576.25	0.06675802657	-0.5464616832	
576.875	-0.1871388863	-0.05837091333	
577.5	0.2745895458	-0.3794476318	
578.125	-0.330064068	-0.5201197814	
578.75	-0.1981328937	-0.04905644293	
579.375	-0.05077149505	-0.3086961563	
580.0	-0.3569166121	0.004519486658	
580.625	0.1018459402	-0.1486696819	
581.25	-0.474753939	0.2737753996	
581.875	0.3343103783	0.3483715098	
582.5	-0.08583994224	-0.002129190301	
583.125	0.1419633819	0.6519176182	
583.75	0.1578296229	-0.4628701366	
584.375	0.03626729342	0.5555020454	
585.0	0.386062267	-0.2960765917	
585.625	0.1516680098	0.3873044408	
586.25	0.6247762806	-0.4469234012	
586.875	-0.1258335359	-0.1330409005	
587.5	0.2555674717	-0.3272331707	
588.125	-0.229183318	-0.5448006454	
588.75	-0.1484000286	-0.07145918945	
589.375	0.4332644961	-0.3418418263	
590.0	-0.3281194879	-0.4448403489	
590.625	-0.2526047228	-0.05702169405	
591.25	-0.4350563446	0.2272897012	
591.875	0.1238386506	0.3309082067	
592.5	-0.1268192033	0.07283709739	
593.125	0.05088098313	0.1652700896	
593.75	0.01195705634	0.1233783228	
594.375	0.3389558424	0.5296973036	
595.0	0.7954506253	0.01960684937	
595.625	-0.06548738774	0.05483496789	
596.25	0.6292690703	0.4252519527	
596.875	0.2851092344	-0.3565000246	
597.5	0.1596272515	0.5115986135	
598.125	0.68423389	0.03702107592	
598.75	0.05504478915	0.1599140601	
599.375	0.8639111833	-0.02573858979	
600.0	0.1127149943	-0.4942382491	
600.625	0.2694493939	-0.1973096548	
601.25	0.2925608571	-0.512683115	
601.875	-0.3280204733	-0.2773591581	
602.5	-0.2360123267	-0.05767293619	
603.125	-0.2276829894	0.09638833784	
603.75	-0.2777249548	0.206776586	
604.375	-0.09376023374	0.1705672403	
605.0	-0.2624666976	0.131793007	
605.625	-0.04983382018	0.2477663899	
606.25	-0.3147889735	-0.07783364968	
606.875	-0.4606734311	0.546308281	
607.5	-0.1095817278	0.1196833915	
608.125	-0.4467357878	0.8178963857	
608.75	0.7120429233	-0.01012181859	
609.375	0.3474836162	0.2854104773	
610.0	0.5602861814	-0.5547095814	
610.625	-0.1339703717	-0.1246084273	
611.25	0.2662033045	-0.6560503122	
611.875	-0.3129454006	0.006382917845	
612.5	-0.254552144	-0.3888317708	
613.125	-0.5684500642	0.3796387499	
613.75	-0.208878182	-0.01080967878	
614.375	0.1825732709	0.5015429642	
615.0	-0.02677786712	-0.1891685349	
615.625	0.07596999889	0.5819510751	
616.25	0.07179742965	-0.004588026481	
616.875	-0.4980643507	0.4335348287	
617.5	0.1301941754	0.7672071178	
618.125	-0.1064070124	0.1214308144	
618.75	0.1132632061	0.6967949791	
619.375	0.2934462086	0.11786794	
620.0	0.4350993646	0.298600001	
620.625	0.10750165	-0.4772654319	
621.25	-0.09548410207	-0.3966641044	
621.875	-0.5757288225	-0.131267191	
622.5	-0.3525586114	0.1159837608	
623.125	-0.1472544024	0.5953583311	
623.75	0.1775176783	-0.1923479073	
624.375	0.4230180187	0.1047021226	
625.0	-0.3164133319	-0.08343845372	
625.625	0.4667649381	-0.1290102921	
626.25	-0.4855333442	-0.4127368549	
626.875	0.1067379424	-0.0702803856	
627.5	-0.6481315539	-0.2736825508	
628.125	-0.2007571159	0.1621024251	
628.75	0.08910652364	-0.5078361818	
629.375	-0.5529401172	-0.2433437982	
630.0	-0.144316786	-0.1868756753	
630.625	-0.6237210793	0.04685706644	
631.25	-0.2864681806	0.6114621988	
631.875	0.0502790845	0.4989485227	
632.5	0.2501971063	0.3749733652	
633.125	0.579350409	0.1777512708	
633.75	0.2804133686	-0.2667684373	
634.375	0.2166192339	-0.2212909611	
635.0	-0.2045027253	-0.4147670454	
635.625	-0.1135016778	-0.1927885221	
636.25	-0.5565405381	0.1961783247	
636.875	0.1015681418	0.4060208329	
637.5	-0.1720655842	-0.1848047225	
638.125	-0.2431157607	0.7483748832	
638.75	0.16614782	-0.01282020355	
639.375	-0.3746193611	0.6357844381	
640.0	0.674901195	0.6268059032	
640.625	0.3392185238	0.04229062346	
641.25	0.8824289001	0.3278808906	
641.875	0.05161102489	-0.6839187203	
642.5	0.2492229786	-0.2170111351	
643.125	-0.4629780785	-0.6366541352	
643.75	-0.2711327728	0.3826488293	
644.375	-0.319560442	-0.4234948288	
645.0	-0.4729139515	0.5591367126	
645.625	0.3818930841	0.4196609095	
646.25	0.02008305072	0.02464654056	
646.875	0.6950632741	0.1490144055	
647.5	-0.3207607541	-0.07051010366	
648.125	0.6920395876	0.3141888279	
648.75	0.3490181837	-0.6227645571	
649.375	0.5562974382	0.1533004202	
650.0	0.706075989	-1.359895978	
650.625	-0.4315708627	-0.6080712548	
651.25	0.7437854108	0.1314240634	
651.875	1.000748086	-1.011322016	
652.5	-0.06258493522	-0.3981559305	
653.125	0.9124899528	0.1457354272	
653.75	0.2990957324	-1.036626598	
654.375	-0.1453960759	-0.1572472912	
655.0	-0.6412904565	-0.7376885507	
655.625	-0.2514851591	0.9605303396	
656.25	0.08711888921	-0.03544688939	
656.875	-0.01880407154	0.5307683268	
657.5	0.3079809413	-0.1113042892	
658.125	-0.03763288048	0.5862278002	
658.75	1.027452885	0.04616612169	
659.375	0.4494735927	-0.442059242	
660.0	0.4929903971	-0.3413108084	
660.625	0.6022567966	-1.202112258	
661.25	-0.3306691104	-0.6246185091	
661.875	0.7740340832	-0.1103894207	
662.5	0.8311403868	-0.9372749331	
663.125	0.01056871763	-0.5189878822	
663.75	0.8928266231	-0.4236088523	
664.375	-0.6977225503	-0.8549932717	
665.0	-0.1341876104	-0.3276709985	
665.625	-1.150117017	0.130890464	
666.25	0.2195246877	0.7676262208	
666.875	-0.06091074616	0.2522734328	
667.5	0.5922897831	0.4345365418	
668.125	0.4852650228	-0.3537365223	
668.75	0.2587858941	-0.07928385569	
669.375	0.4323766301	-0.7061653546	
670.0	-0.2607394003	-0.3345645467	
670.625	0.2032374508	-0.4150748791	
671.25	0.02026352677	-0.6044748569	
671.875	0.1035362271	-0.148700994	
672.5	0.7120576707	-0.3635542198	
673.125	0.3846809502	-0.7012830894	
673.75	-0.01435650605	-0.3391484009	
674.375	0.5032772631	-0.4223720275	
675.0	-0.6209946503	-0.978956563	
675.625	-0.04775319513	0.2994695656	
676.25	-0.8052003246	-0.4981155354	
676.875	-0.2090932994	0.559485442	
677.5	-0.3562117288	-0.5945944416	
678.125	-0.2470883032	1.01247776	
678.75	0.005025437845	-0.05188664204	
679.375	0.404148134	0.511928221	
680.0	0.6593253192	-0.4756419997	
680.625	-0.3529083669	-0.2102235029	
681.25	0.5378870409	0.284753579	
681.875	0.4188178421	-0.1601027365	
682.5	0.3052788579	0.09269005148	
683.125	0.5672841804	0.4182485959	
683.75	0.692979864	-0.1846926628	
684.375	0.4406799323	0.1421319741	
685.0	0.7645699817	0.3019919271	
685.625	0.7827228174	-0.5755525206	
686.25	0.1021139587	0.5260471712	
686.875	1.549152188	-0.8816427391	
687.5	-0.4951647277	-0.5746023752	
688.125	0.6807774689	-0.9868351948	
688.75	-1.869186001	-0.2649321178	
689.375	0.1259500057	0.212875785	
690.0	-0.09174631159	1.579973032	
690.625	0.802599088	-0.0692227929	
691.25	0.2711290822	0.93223344	
691.875	1.652334932	0.6404948318	
692.5	1.00603312	0.2141983576	
693.125	1.567014485	0.06966452656	
693.75	1.317657479	-0.7096800539	
694.375	0.9609936604	-0.8157734188	
695.0	0.9092413642	-0.8597404783	
695.625	0.9372102743	-0.05844187432	
696.25	1.658844566	0.2649643239	
696.875	0.6218048631	0.3623683659	
697.5	0.9063326179	1.67618899	
698.125	1.594837983	-0.448778601	
698.75	1.043813001	-0.2052325553	
699.375	-1.652013291	-1.264281952	
700.0	0.2078116843	0.825830242	
700.625	-0.2727593263	1.260713896	
701.25	0.9101593479	-0.1448650421	
701.875	0.1452759628	0.7407250929	
702.5	1.431487881	0.5319019482	
703.125	0.3750917695	0.07123290631	
703.75	1.321844442	-0.1251797442	
704.375	0.2456742484	-0.7752289684	
705.0	0.7298579349	0.3159798575	
705.625	0.857782132	-0.6712449739	
706.25	0.03274695196	0.3489578271	
706.875	0.9278172795	1.246300195	
707.5	0.7371579561	-0.005803908291	
708.125	1.04177608	0.7891403986	
708.75	0.5627237563	-1.478420318	
709.375	-0.3330999665	-0.1370161581	
710.0	-0.8024930658	0.5698330905	
710.625	0.5924335764	0.1480950532	
711.25	0.03166911314	0.4585245839	
711.875	0.6119192959	0.1000548769	
712.5	0.8321508056	0.06204874117	
713.125	0.4615391968	-0.6191146374	
713.75	0.3324327029	-0.307751869	
714.375	-0.03204858266	-0.8732222277	
715.0	-0.2482533284	-0.07307224316	
715.625	0.5269205966	-0.8188945131	
716.25	-0.3780426682	-0.7938282502	
716.875	0.8443855755	0.3945030487	
717.5	2.400683031	-0.4909639194	
718.125	0.1144385175	-1.31223889	
718.75	2.729664413	1.550962013	
719.375	1.477228279	-3.217924205	
720.0	0.55650663	-1.070421867	
720.625	1.77803608	-3.182091157	
721.25	-1.913338518	-1.892765852	
721.875	0.4945276246	-2.437739779	
722.5	-2.110317379	-2.059007941	
723.125	-1.985729868	0.5280288902	
723.75	-0.7396859792	0.5111003473	
724.375	-0.06610722045	1.498078997	
725.0	0.7625727382	0.5965517655	
725.625	0.2104134965	0.7133864808	
726.25	-0.2632165678	2.014570032	
726.875	1.176337138	2.653593589	
727.5	-1.389405434	1.801240702	
728.125	0.1755787712	7.641952136	
728.75	4.675318072	5.299334825	
729.375	-6.586572148	3.872781113	
730.0	7.503389364	18.07748519	
730.625	4.047839128	0.2175165675	
731.25	-8.374226273	7.905177146	
731.875	-6.132191645	14.63148172	
732.5	-1.193712094	2.066348212	
733.125	-9.159237921	-0.4034945035	
733.75	-0.2710531614	4.154681748	
734.375	1.101792432	0.3394608791	
735.0	0.6657243542	-2.390327388	
735.625	-0.4876013761	1.391491538	
736.25	-0.8136438224	0.7145014098	
736.875	1.349673959	1.901139807	
737.5	3.672219769	-0.4213974783	
738.125	0.7376513717	-1.864777165	
738.75	8.032733338	-0.4827954362	
739.375	4.870533486	-9.530470972	
740.0	-2.815297901	0.6182846057	
740.625	18.76312236	11.36771317	
741.25	14.12243639	-14.60587164	
741.875	-17.16306946	-6.645811715	
742.5	-14.82641449	-1.47995599	
743.125	0.2561815017	2.703901436	
743.75	2.6399702	-4.556546399	
744.375	-1.76659135	0.7770427535	
745.0	0.1140067252	-0.1770690799	
745.625	0.4180097979	-0.01091645774	
746.25	-0.1658459507	-0.03481339069	
746.875	-0.8204573735	-0.05839007847	
747.5	0.07031064331	0.9951673424	
748.125	0.4056174667	0.7547862248	
748.75	0.5711303435	1.409385474	
749.375	-2.145402322	3.340879999	
750.0	-0.495704913	0.8256657291	
