!Created with skrf (http://scikit-rf.org).
# GHz S MA R 50.0 
!freq magS11 angS11
500.0 0.0150469182341 157.160719489
500.625 0.00624795739279 117.561498097
501.25 0.0136407920258 -44.9262212819
501.875 0.0516174000455 -176.740463918
502.5 0.0226836285765 151.796626581
503.125 0.0130418443267 42.6037257445
503.75 0.0145902166778 129.196798996
504.375 0.00187304113491 -53.6397817857
505.0 0.0219798469269 -67.1154859718
505.625 0.0361711533945 -77.0042356009
506.25 0.0526247243422 -100.869880482
506.875 0.0583930097294 -105.550979617
507.5 0.0437565775488 -138.029055205
508.125 0.069594139055 -81.2151385054
508.75 0.0546657014152 -163.327017064
509.375 0.0450112385127 -164.050049659
510.0 0.0319850003838 -127.240871935
510.625 0.0561367675844 -156.385556711
511.25 0.0430953558109 167.888202575
511.875 0.0543473105707 143.269827011
512.5 0.0416014759584 103.802787841
513.125 0.06079202795 55.7565863249
513.75 0.0494097603554 9.54181491585
514.375 0.0439442151582 30.808612798
515.0 0.052004345566 7.34580863634
515.625 0.102599706876 54.8344613363
516.25 0.0779993942416 26.4741240381
516.875 0.0998141205765 70.2135981273
517.5 0.11163204427 17.9355166821
518.125 0.214038802425 75.7448449297
518.75 0.0841326972586 11.7808897472
519.375 0.0762900733728 22.3988656822
520.0 0.104272904597 0.456299749773
520.625 0.110584962677 -1.32201906155
521.25 0.0816837257907 -24.0732099239
521.875 0.062408387575 0.444245115268
522.5 0.0964119550134 -31.3557460893
523.125 0.19185093118 -31.3023053827
523.75 0.196650329008 -67.0073230516
524.375 0.19017151904 -58.4648946548
525.0 0.0676997063948 -43.2266158103
525.625 0.034745651657 -51.9470708166
526.25 0.0407409599245 -11.5346242589
526.875 0.0528030940764 -27.3147364333
527.5 0.0510110217004 -24.4187209901
528.125 0.039712266734 -57.8904273407
528.75 0.0618736075073 -72.0051349848
529.375 0.0949990463464 -108.619361656
530.0 0.0599042548553 -125.923838607
530.625 0.0194346497335 -118.960810731
531.25 0.0998732161744 -128.635681691
531.875 0.164988653928 -150.138230389
532.5 0.156634931264 -169.683914737
533.125 0.0976139740471 175.243119707
533.75 0.115774141236 168.749291827
534.375 0.117169505555 178.878291986
535.0 0.0871517099139 164.133743283
535.625 0.0700185233434 179.658963385
536.25 0.0572298754226 166.453028783
536.875 0.068442783144 -157.426692834
537.5 0.108680897138 -145.908668914
538.125 0.0826301991601 -172.990191106
538.75 0.098591444646 179.962226355
539.375 0.0719775351884 -164.816017471
540.0 0.0998574832507 -155.364356623
540.625 0.100255711153 -151.935324382
541.25 0.112817176203 -139.812209521
541.875 0.0920565036172 -143.662881513
542.5 0.119279764395 -144.890190523
543.125 0.118214814683 -165.080885437
543.75 0.123292979474 160.35995039
544.375 0.0987507303397 135.554211238
545.0 0.0883421088807 92.4622960207
545.625 0.107346592903 84.1539573074
546.25 0.0847526207555 67.5305761596
546.875 0.0839761660684 56.5415347817
547.5 0.116686103007 59.0359531874
548.125 0.0907055855262 76.9908350785
548.75 0.0803663218486 90.7137285447
549.375 0.0967897056841 83.6045244626
550.0 0.0865042766002 127.703715197
550.625 0.0509187919382 158.542705713
551.25 0.0392834253894 -136.247907215
551.875 0.0677219762249 -162.348070742
552.5 0.116938811539 -164.848555031
553.125 0.0876792966839 -163.04135379
553.75 0.0886770180459 -167.381948652
554.375 0.116099796729 165.750815001
555.0 0.129182455554 164.440723463
555.625 0.102206650341 157.18321299
556.25 0.0892962367436 167.430076317
556.875 0.111316449236 168.979763434
557.5 0.106591035753 166.812819325
558.125 0.104489875096 163.671613803
558.75 0.0777149613924 178.594514192
559.375 0.0716910818893 -172.391907088
560.0 0.0477736296423 -147.254372169
560.625 0.0618775626637 -142.281897061
561.25 0.0882332375322 -148.244065614
561.875 0.106428399165 -161.672431138
562.5 0.0946762389762 173.794842346
563.125 0.105721529355 145.610063655
563.75 0.129498801514 131.988148472
564.375 0.105857263688 120.417677014
565.0 0.089524487701 120.022731203
565.625 0.0869120593187 117.102083234
566.25 0.0930243530972 155.976952591
566.875 0.07212122579 -176.728507348
567.5 0.0697732501498 -175.919361917
568.125 0.0878434831704 -173.795428529
568.75 0.0555409541308 -136.171465137
569.375 0.0484486114627 -105.098147793
570.0 0.0601348435758 -103.964698058
570.625 0.095302983128 -119.827511253
571.25 0.0870317250271 -115.968679072
571.875 0.0871054860773 -122.257764799
572.5 0.110860094446 -153.561680487
573.125 0.14743151616 -177.145443879
573.75 0.0919543969433 168.088158596
574.375 0.0788018541302 153.957348056
575.0 0.10664639577 154.582443154
575.625 0.113393439612 152.83362602
576.25 0.0871717845645 147.294736695
576.875 0.0826473958301 127.324109178
577.5 0.0833921993579 137.700676894
578.125 0.0630805701212 157.245829911
578.75 0.0458397208575 171.590095792
579.375 0.054150668247 168.650393467
580.0 0.0655794282023 -169.36650799
580.625 0.0791731587178 -156.547050775
581.25 0.0922081936408 -154.889394815
581.875 0.116095402842 -174.406450366
582.5 0.111440704808 -172.604716012
583.125 0.0957215353226 -170.709495701
583.75 0.0803848552173 -162.760933807
584.375 0.103930014345 -154.618873587
585.0 0.0969550265257 -145.259218738
585.625 0.0747375810005 -152.075138066
586.25 0.067264732848 -123.239559847
586.875 0.0803359844016 -130.63082306
587.5 0.0682356655953 -138.37230374
588.125 0.0603265820521 -178.278532609
588.75 0.0648193173783 -152.659751965
589.375 0.0836000424479 -149.46973194
590.0 0.0917818508645 -171.167666664
590.625 0.10459015949 163.782162788
591.25 0.123806838617 154.575932524
591.875 0.0923203448656 160.186670279
592.5 0.0641966597008 148.066481318
593.125 0.0615468752291 150.231869952
593.75 0.0597257804767 175.990805191
594.375 0.058186176942 -146.888045062
595.0 0.039402215716 -118.88266493
595.625 0.0612540904896 -100.275382274
596.25 0.0732071015275 -88.5173895587
596.875 0.0687676448076 -67.2334158179
597.5 0.0614191517479 -60.1154592836
598.125 0.061333319057 -63.5342938319
598.75 0.0919195401755 -49.9115110026
599.375 0.092094671089 -62.1045140366
600.0 0.101599691554 -62.0030833852
600.625 0.0969536005555 -74.5578024507
601.25 0.0823180414388 -71.0478018101
601.875 0.0667162844005 -84.3747668934
602.5 0.0620405700274 -86.7851479996
603.125 0.0438438641762 -55.2565709714
603.75 0.0273582534312 -52.7872167803
604.375 0.054489985686 -7.79493385218
605.0 0.0702387772002 -7.83950156145
605.625 0.0505174377619 1.81402624095
606.25 0.0186898340253 -19.6536650272
606.875 0.0580115215444 56.5074625635
607.5 0.0668072661753 45.6943974547
608.125 0.0771183663082 35.7570741308
608.75 0.0527978709733 14.5443995334
609.375 0.0826876756301 38.3121363956
610.0 0.0806751848464 50.4732721025
610.625 0.0697184608351 45.3382310565
611.25 0.0415733658053 13.6809703553
611.875 0.0531069400336 78.8312954703
612.5 0.0268462582201 94.7485555452
613.125 0.0191765891572 124.697908111
613.75 0.0394819666733 125.883624445
614.375 0.031478778751 116.036387634
615.0 0.0372233258243 121.153146362
615.625 0.0299174517839 133.920393574
616.25 0.0506873782531 133.968942885
616.875 0.0318115544142 124.262241042
617.5 0.0359711591449 123.367273284
618.125 0.0186720227284 120.724296106
618.75 0.0312407127587 141.16422833
619.375 0.00593080762404 112.255830687
620.0 0.00489342145454 139.503367972
620.625 0.0265784146592 -86.8767983158
621.25 0.0474405836201 -87.8865104017
621.875 0.0613831893326 -101.994825968
622.5 0.0717867262938 -166.404724742
623.125 0.0780422207029 164.317982691
623.75 0.0602882472361 164.290712479
624.375 0.0319826111924 -161.118503886
625.0 0.0644337612036 -158.116257968
625.625 0.0531520868548 -161.027602424
626.25 0.0314540779925 -178.265717352
626.875 0.0253804327887 -7.17206119115
627.5 0.0274954725669 -102.156337916
628.125 0.0330411430795 -29.5120461792
628.75 0.0437992837222 -26.1831896481
629.375 0.0626503299383 1.1219827508
630.0 0.0693338264858 -2.14359524726
630.625 0.0687815373392 2.57738095245
631.25 0.0644067313798 0.741934343416
631.875 0.076583350392 11.7215534057
632.5 0.0737468820508 -30.6748106796
633.125 0.0471601602731 2.38316915682
633.75 0.0414478824808 17.4736278129
634.375 0.0431176371012 22.5526725119
635.0 0.0446551510611 41.4473144169
635.625 0.0257521719379 4.96915714916
636.25 0.0434130648081 29.1130332347
636.875 0.0571950962882 28.6865361543
637.5 0.0504205455103 52.0497672923
638.125 0.0294731026283 56.8758309085
638.75 0.0712474660557 74.8368485305
639.375 0.0993943329177 98.1548436604
640.0 0.0733278435734 108.770300739
640.625 0.0564661949476 99.8678891706
641.25 0.0609305701391 123.99589292
641.875 0.0681929882643 154.172448289
642.5 0.0692087373589 164.420534481
643.125 0.0437617506364 136.765705073
643.75 0.0628046815794 173.655126736
644.375 0.0738007964095 178.753176083
645.0 0.0908050088234 -178.425977267
645.625 0.0900678112609 165.519978807
646.25 0.0912032459081 165.920222204
646.875 0.0733350559245 -176.138292145
647.5 0.0655960623834 -174.501739312
648.125 0.0928250943963 -172.864812161
648.75 0.0691293468771 -167.537561849
649.375 0.0424897142953 -150.152309365
650.0 0.0478172786352 -114.89107593
650.625 0.0814805126627 -87.3693175577
651.25 0.0515137231218 -66.468783799
651.875 0.0565331292029 -40.1819008704
652.5 0.0821979348846 -24.9537591343
653.125 0.137041235941 -0.863995666358
653.75 0.101885903754 6.25366231845
654.375 0.115205308774 8.53358035091
655.0 0.120330692475 15.0042816234
655.625 0.104912522525 31.0912297629
656.25 0.0492331465329 13.6484346547
656.875 0.059083199813 5.24904036388
657.5 0.0685323044236 21.3052929991
658.125 0.0792896605316 51.2651778143
658.75 0.0471232334318 69.8771045773
659.375 0.0815909577076 42.944002302
660.0 0.125294520951 26.6361163548
660.625 0.117938538167 19.228489223
661.25 0.106637281358 3.97003632525
661.875 0.120397224775 -11.1533108467
662.5 0.122304418592 -20.8615287593
663.125 0.117974301163 -15.2562311258
663.75 0.0822239218648 2.07262628042
664.375 0.0937339332809 56.1185001341
665.0 0.0717706999407 93.5478296598
665.625 0.0724302070085 112.354205613
666.25 0.0839155613121 133.56687304
666.875 0.126535586277 170.738031145
667.5 0.100146147603 -168.280245725
668.125 0.110294744722 179.676105584
668.75 0.124275248351 168.902566917
669.375 0.115119146789 178.55356126
670.0 0.0855229381654 -168.052003651
670.625 0.0967074439803 -172.72535188
671.25 0.0872220039422 176.661023255
671.875 0.0913260421415 169.44459571
672.5 0.0718170306824 153.700906253
673.125 0.0932721931296 150.972718863
673.75 0.108684802589 161.527770088
674.375 0.117797535039 169.639010322
675.0 0.116526682409 -173.316595861
675.625 0.138937994742 -151.029350864
676.25 0.121904269939 -124.534156913
676.875 0.115166424554 -118.544948949
677.5 0.126223109689 -127.480530195
678.125 0.141572204811 -116.576246042
678.75 0.049604220843 -90.3313766713
679.375 0.0489833554214 -67.1609986333
680.0 0.0713513802443 -75.6182434902
680.625 0.129789111563 -78.953797457
681.25 0.108368818056 -73.1183010185
681.875 0.101683887608 -91.4146631962
682.5 0.138774031824 -118.937439701
683.125 0.162631673263 -121.259455873
683.75 0.148806911112 -106.684589938
684.375 0.0995500945684 -73.3263560069
685.0 0.130548628678 -38.0781942065
685.625 0.119099733666 -0.31367030206
686.25 0.119203022744 19.8324483369
686.875 0.0705297972544 52.4579598166
687.5 0.0702301111186 84.9278686659
688.125 0.0756379677548 113.969799597
688.75 0.107114940792 110.205498521
689.375 0.130796712219 125.794766944
690.0 0.132557265847 133.665267963
690.625 0.125255990896 124.974232429
691.25 0.14557568664 97.7931295924
691.875 0.200775887956 66.556344658
692.5 0.136556528934 41.8188726762
693.125 0.0812586604518 -11.260416027
693.75 0.0859919431377 -34.2763832677
694.375 0.147574960752 -35.841756392
695.0 0.116569303561 18.1111190173
695.625 0.10368975467 56.0483266493
696.25 0.120653794668 109.231535135
696.875 0.141644397173 173.199319815
697.5 0.149834911061 -149.153292097
698.125 0.128479739205 -125.825938487
698.75 0.136696129529 -132.721006771
699.375 0.114520664477 -127.834096006
700.0 0.0895844566092 -103.151116702
700.625 0.111197696498 -87.4814164899
701.25 0.105996578976 -66.7490135116
701.875 0.0842758685548 -62.2140112952
702.5 0.101340265974 -81.3943548994
703.125 0.170840142673 -119.574475362
703.75 0.176779576136 -150.232869277
704.375 0.129455195595 171.609773298
705.0 0.115439412145 152.962444614
705.625 0.139141728412 -158.472511664
706.25 0.144348527099 -108.180873631
706.875 0.0866245225361 -60.3115152484
707.5 0.0785621573201 -38.9999752286
708.125 0.0914398208391 23.3919729136
708.75 0.112839572024 67.2334657578
709.375 0.103658877901 104.516771086
710.0 0.103862784967 131.75207769
710.625 0.108737818038 149.027248913
711.25 0.122475264614 172.918810684
711.875 0.145924427179 173.499360793
712.5 0.15582320433 139.628006705
713.125 0.115926043552 108.330988715
713.75 0.100968223895 47.5629592318
714.375 0.113629724667 22.3677650138
715.0 0.114548238921 29.7308933847
715.625 0.0850172111138 39.5447271945
716.25 0.0915287401911 92.9464944243
716.875 0.12317743859 110.608530855
717.5 0.141265770836 148.559507117
718.125 0.118417296945 167.928266025
718.75 0.101671592311 169.952144885
719.375 0.116706400288 -168.157808806
720.0 0.136466583341 -119.253147108
720.625 0.115863280721 -73.792769274
721.25 0.100459854718 -28.920919388
721.875 0.0861514647389 36.7770731398
722.5 0.0709407897821 77.3644964425
723.125 0.0696524809966 56.9484727138
723.75 0.105943354953 46.2181851944
724.375 0.114908977418 1.76972872112
725.0 0.0909159631037 -42.2852339953
725.625 0.105755696743 -65.8257893914
726.25 0.10038442851 -81.4478881642
726.875 0.110658669956 -30.2284513009
727.5 0.085842285139 -21.9256671647
728.125 0.0853395011542 4.02635328302
728.75 0.0841127893689 12.784164616
729.375 0.0827978543105 21.6861945266
730.0 0.0715175161998 5.70917777159
730.625 0.0780622878808 33.9509297704
731.25 0.0750267876738 64.6728202798
731.875 0.0556008464309 100.795660879
732.5 0.101596045876 164.406241714
733.125 0.0921343092829 176.762276476
733.75 0.0815310182275 175.936713681
734.375 0.0543154920857 156.468231063
735.0 0.0595965139724 150.44212924
735.625 0.03416596708 126.155791484
736.25 0.0411788758465 144.191503766
736.875 0.0334732793664 -178.274523182
737.5 0.0844832880234 178.611053357
738.125 0.113739587349 -173.095552934
738.75 0.0797767188141 -174.706642298
739.375 0.0246650939703 166.998547044
740.0 0.100076945193 -135.607823601
740.625 0.0620033819816 -148.441611916
741.25 0.0497243862632 -142.562808776
741.875 0.0299504455066 -106.649456358
742.5 0.0152452301641 19.4697970219
743.125 0.0336728108757 65.716865764
743.75 0.0377347611892 112.99176078
744.375 0.0366339525881 168.73264128
745.0 0.0766228450486 108.80099921
745.625 0.0682438847498 112.292668964
746.25 0.0715062600813 97.7265416888
746.875 0.06501848112 40.4755791157
747.5 0.026344120871 26.5695935025
748.125 0.0356906177572 -12.7242715733
748.75 0.0304989992487 -26.8078604392
749.375 0.0392761106608 -33.5392734196
750.0 0.0384936405964 -47.7150408008
