!Created with skrf (http://scikit-rf.org).
# GHz S RI R (50+0j) 
!freq	ReS11	ImS11	
500.0	-0.2698615512	-1.265105222	
500.625	0.5136368684	-0.5114109789	
501.25	-0.6588705963	-1.239090895	
501.875	-0.3287430865	-0.1718119665	
502.5	0.04113054067	-0.1707751422	
503.125	-0.104635772	0.04887917286	
503.75	-0.005945271225	0.02665280583	
504.375	0.05542291608	0.009079049393	
505.0	-0.02223917132	-0.01230916136	
505.625	0.05879015364	-0.05813310546	
506.25	-0.1646755463	0.005633197115	
506.875	0.0711838427	-0.1557359942	
507.5	-0.4302080888	-0.6021092786	
508.125	0.1300794724	-0.2196480608	
508.75	1.103743674	-0.8714029803	
509.375	-0.203341197	-1.672290635	
510.0	-0.4208118878	-0.01892339606	
510.625	-0.06440835089	-0.3355210743	
511.25	-0.1402891409	0.03050901584	
511.875	-0.01069036241	-0.05814994365	
512.5	-0.04564833094	0.05027829583	
513.125	-0.05341633627	-0.03750908606	
513.75	0.01118828868	-0.06054798063	
514.375	-0.1648665269	-0.03006018983	
515.0	0.2172084419	0.1598839813	
515.625	-0.7251507248	-0.3735798571	
516.25	-0.1126019045	-0.07969994526	
516.875	0.2076647572	-0.6101106297	
517.5	-0.2063534048	-0.18191562	
518.125	0.02427334515	-0.08207169347	
518.75	-0.1239064801	-0.207110504	
519.375	-0.03968481293	0.01875218644	
520.0	0.07314170497	0.09349097428	
520.625	0.1404809561	-0.05676257996	
521.25	-0.1103011361	-0.2300943991	
521.875	-0.04402854626	-0.07086693689	
522.5	-0.1393400928	0.04906624461	
523.125	0.05194479508	0.05039472817	
523.75	-0.2180936267	-0.09623165535	
524.375	-0.1090968434	0.1754908024	
525.0	-0.07801614878	-0.009719930624	
525.625	0.04042825206	0.1593829012	
526.25	-0.01852326868	-0.1190539153	
526.875	-0.01991162725	0.1204041805	
527.5	0.03966021119	0.09962343313	
528.125	0.02650558141	0.3416976425	
528.75	0.1276703971	0.3405202688	
529.375	0.002364613763	0.07676209064	
530.0	0.02767305689	0.1764175751	
530.625	0.170404715	0.157301924	
531.25	0.273753548	0.3092528506	
531.875	0.3634696544	-0.08866624487	
532.5	-0.1640609663	-0.05989435797	
533.125	0.2694431241	-0.0456449051	
533.75	-0.006587462604	-0.1515278305	
534.375	0.06897440856	-0.2204832751	
535.0	-0.3389823029	-0.1240590565	
535.625	-0.08766017127	0.1178409966	
536.25	-0.04351339562	0.1001792026	
536.875	0.1360488692	-0.001758741125	
537.5	0.03161226681	-0.01430069614	
538.125	0.1938568754	-0.05968533371	
538.75	0.06373128559	-0.1548914906	
539.375	-0.04245898932	-0.1603378967	
540.0	-0.2005400621	-0.225191299	
540.625	-0.164291182	0.04448745543	
541.25	-0.04614694609	-0.06161042151	
541.875	-0.0941850831	-0.03581902557	
542.5	-0.02785053617	0.02114740086	
543.125	-0.1145354914	-0.1140457494	
543.75	-0.0724489294	0.05770564257	
544.375	-0.03862098668	-0.05071193393	
545.0	0.02997997112	0.1012590678	
545.625	-0.0008381662025	-0.03161695871	
546.25	0.1226829371	0.1093410994	
546.875	0.1005277394	-0.08169289709	
547.5	0.08964931534	-0.06508179519	
548.125	-0.03940038863	-0.2317674591	
548.75	-0.1508313838	-0.06454936142	
549.375	-0.04620733644	-0.08981192602	
550.0	-0.1302591328	0.0124411245	
550.625	-0.01372157612	0.01365098951	
551.25	-0.1215255081	0.0214777213	
551.875	-0.05684708172	0.09264975209	
552.5	-0.06397178625	0.05052459724	
553.125	-0.01270222744	0.08746646895	
553.75	0.03727490328	0.04348427126	
554.375	0.1075977341	0.01523205867	
555.0	0.1031786284	-0.07740288936	
555.625	0.09107178322	-0.1010657655	
556.25	0.07913881469	-0.1467033285	
556.875	-0.02995056209	-0.1731797832	
557.5	-0.09890211417	-0.1100913675	
558.125	-0.1187031932	-0.04938061666	
558.75	-0.1226639071	-0.006849260936	
559.375	-0.109659688	0.0261959039	
560.0	-0.1098135363	0.06393603251	
560.625	-0.06612164821	0.141180457	
561.25	0.02113712539	0.08346235083	
561.875	0.003511119117	0.07165014926	
562.5	0.03869767922	0.03621890134	
563.125	0.031437181	0.09712573047	
563.75	0.1884605726	-0.002601920295	
564.375	0.08956588671	-0.1059305976	
565.0	0.1350798492	-0.1315962661	
565.625	-0.0830314047	-0.2257731166	
566.25	-0.08006421561	-0.07480453112	
566.875	-0.1598164467	-0.1403931976	
567.5	-0.2004330074	-0.05389907015	
568.125	-0.01907857524	-0.1599154394	
568.75	-0.3101644123	-0.1207669629	
569.375	-0.1862819341	0.1454001845	
570.0	-0.1908528336	0.1051493582	
570.625	-0.07909084965	0.3011897662	
571.25	0.05285811396	0.03874077449	
571.875	0.02965112598	0.1624287772	
572.5	0.1324316304	-0.1001839406	
573.125	0.09736707191	0.01561740139	
573.75	0.1200721189	-0.1998766992	
574.375	-0.08078265724	-0.05858878142	
575.0	0.1222583572	-0.0004132287409	
575.625	-0.02770175186	-0.1382199206	
576.25	0.04401563402	-0.01752169636	
576.875	0.07400076394	-0.2306745047	
577.5	-0.08794344709	-0.1735798339	
578.125	0.02769544814	-0.04201391846	
578.75	-0.04725624274	-0.2410152677	
579.375	-0.172304009	-0.000805168124	
580.0	0.08494447985	-0.06882273211	
580.625	-0.2338571515	0.01180800667	
581.25	0.009083096567	0.03827472521	
581.875	-0.1292586528	0.178809143	
582.5	0.2055018543	0.2053019186	
583.125	0.04587314121	-0.03618693431	
583.75	0.05596176989	0.1480159451	
584.375	0.06927271767	-0.05461998326	
585.0	0.04365595613	0.1735061585	
585.625	0.2557459681	-0.05308118839	
586.25	0.06071477761	-0.0805839765	
586.875	0.167570354	-0.08758383132	
587.5	-0.08121333019	-0.2051430114	
588.125	-0.003536002689	-0.04456953129	
588.75	0.1205561723	-0.1987148403	
589.375	-0.02018274915	-0.211444826	
590.0	0.03456769862	-0.09374640937	
590.625	-0.2706964294	-0.1333407159	
591.25	-0.003195616878	0.2085207579	
591.875	-0.07516144874	0.005860261185	
592.5	0.006364812793	0.1640889596	
593.125	-0.02799482912	-0.05999487547	
593.75	0.1636881965	0.2293504738	
594.375	0.1582196636	-0.01593562447	
595.0	0.1009186733	0.1959511752	
595.625	0.2665083533	0.1415592356	
596.25	0.07078900999	-0.01613401148	
596.875	0.1371071612	0.1462782898	
597.5	0.2445676451	0.07232843311	
598.125	0.09913157104	0.05249760653	
598.75	0.1670017201	0.1787220118	
599.375	0.2724656806	-0.1039890743	
600.0	0.1200011133	-0.1086824085	
600.625	0.221377078	-0.15640374	
601.25	0.03746758508	-0.2843587588	
601.875	-0.06056917822	-0.0462084346	
602.5	-0.190754041	-0.1348564549	
603.125	-0.09306908446	0.1437082744	
603.75	-0.1050064953	-0.07393081286	
604.375	-0.2149172273	0.1119674588	
605.0	0.03572846201	0.1304574871	
605.625	-0.2121610221	0.05750869873	
606.25	-0.08061907025	0.1627539291	
606.875	-0.08930293861	0.02688052113	
607.5	-0.2807464184	0.1852213504	
608.125	0.04095330216	0.2742953177	
608.75	0.1692095864	0.214591796	
609.375	0.3237436936	0.04130285855	
610.0	0.1476155102	-0.2223425214	
610.625	0.06135714877	-0.1086268915	
611.25	0.07249478787	-0.2342014806	
611.875	-0.1495847332	-0.0391817908	
612.5	-0.07905743865	-0.1403924323	
613.125	-0.3298609158	0.04448392749	
613.75	0.03460302388	0.161707675	
614.375	-0.1001699816	0.1606957314	
615.0	0.1711160689	0.08095552876	
615.625	-0.08001678553	-0.0185869972	
616.25	-0.0931242588	0.2718303665	
616.875	-0.05727768525	0.1068015577	
617.5	-0.161420961	0.1466635799	
618.125	-0.01922882322	0.2771391702	
618.75	0.1286623288	0.1503736283	
619.375	0.1477833306	0.1094711238	
620.0	0.273549361	0.0673109624	
620.625	0.09570957415	-0.2208426569	
621.25	-0.01063900498	-0.2032463914	
621.875	-0.2946034097	-0.255150679	
622.5	-0.158778627	0.1183616446	
623.125	-0.1442328536	0.1488580664	
623.75	0.2256883349	0.06330932344	
624.375	-0.06156143578	-0.06647742994	
625.0	0.140486112	-0.03572315211	
625.625	-0.04120938481	-0.0836482316	
626.25	0.03935423631	-0.1326704296	
626.875	-0.2126959356	-0.1329094285	
627.5	-0.1289662332	0.04092286884	
628.125	-0.05228224869	-0.1412672803	
628.75	-0.09055387788	-0.1443771519	
629.375	-0.08641195561	-0.1143267261	
630.0	-0.09842815442	-0.111829774	
630.625	-0.2728231806	0.1107562936	
631.25	-0.08563217817	0.1727751642	
631.875	-0.1244937347	0.2222520476	
632.5	0.2080633425	0.2190636518	
633.125	0.1688181676	0.01644336816	
633.75	0.2247651247	0.04564518878	
634.375	0.01519848053	-0.2159713847	
635.0	0.0455032449	-0.01202024905	
635.625	-0.1912786424	-0.1947917317	
636.25	-0.1373494632	0.1421666373	
636.875	-0.04935242536	0.02952007639	
637.5	-0.1149173194	0.1885641128	
638.125	0.04247092667	0.033907691	
638.75	-0.1946601166	0.1665025861	
639.375	0.06140120813	0.3386637748	
640.0	0.09961098396	0.1423419112	
640.625	0.1668249177	0.2609208049	
641.25	0.3709879034	-0.0482784304	
641.875	0.07084643873	-0.1944430795	
642.5	0.1496566847	-0.1714624586	
643.125	-0.2593698395	-0.1376161748	
643.75	-0.00914893542	-0.02137714056	
644.375	-0.3312496709	-0.2020468024	
645.0	-0.04637668981	0.3116746677	
645.625	-0.1307287428	0.01432775726	
646.25	0.2744971228	0.2729974649	
646.875	0.04026088243	-0.1729478778	
647.5	0.05622326101	0.188743244	
648.125	0.2051115892	-0.1047658776	
648.75	0.1099533324	0.0444333246	
649.375	0.4306017784	-0.2693023607	
650.0	0.04135660156	-0.4213288073	
650.625	0.1359657067	-0.08448383673	
651.25	0.3902793058	-0.2639492483	
651.875	0.1688006866	-0.3203168723	
652.5	0.1694167867	0.0601393605	
653.125	0.4646511942	-0.08695726689	
653.75	0.09805131128	-0.2958742312	
654.375	0.1186594795	-0.1873374073	
655.0	-0.4342076904	-0.2101373546	
655.625	-0.02527302079	0.3425337795	
656.25	-0.08632685408	0.05341122716	
656.875	0.1248956164	0.206356212	
657.5	-0.07062943055	-0.1505268172	
658.125	0.1404579285	0.3916030545	
658.75	0.3616294859	-0.08119259636	
659.375	0.2004145364	-0.04968675745	
660.0	0.43866811	-0.2579937773	
660.625	0.05494658136	-0.4851239351	
661.25	0.1719071024	-0.08037738418	
661.875	0.3864549666	-0.2983501007	
662.5	0.2058751675	-0.3189386928	
663.125	0.2098672107	-0.03531188547	
663.75	0.3178846553	-0.3845552093	
664.375	-0.1439928836	-0.3103399996	
665.0	-0.1358585344	-0.2456203909	
665.625	-0.4607317678	0.0002673387172	
666.25	-0.01567912286	0.3379583198	
666.875	-0.03121672563	0.1708079518	
667.5	0.2822081726	0.1746975914	
668.125	0.1004786688	-0.1415052516	
668.75	0.2718582524	0.0260061095	
669.375	0.109213797	-0.3621080536	
670.0	-0.03759632485	-0.08166967477	
670.625	0.1681459887	-0.2692241676	
671.25	0.002280223024	-0.2900473368	
671.875	0.06014536371	-0.04697233977	
672.5	0.4019154483	-0.1852755817	
673.125	0.1312606547	-0.2544584558	
673.75	0.1556018805	-0.1116737546	
674.375	0.1943668052	-0.3215678662	
675.0	-0.2196580528	-0.2517960243	
675.625	-0.02419728678	-0.1866559218	
676.25	-0.2970438941	-0.1178387174	
676.875	-0.1267501842	0.1154179667	
677.5	-0.1020736444	-0.1238689673	
678.125	-0.2933389652	0.2576214094	
678.75	0.1265284417	0.1280250783	
679.375	0.06586671574	0.1924497781	
680.0	0.4106232391	-0.1727131854	
680.625	-0.1557172023	-0.112377018	
681.25	0.43934858	0.1595188709	
681.875	0.2004050998	-0.1592964491	
682.5	0.02105601656	0.08756077032	
683.125	0.4548485669	0.2857397274	
683.75	0.1586729953	-0.2131521083	
684.375	0.1337624596	0.2407772607	
685.0	0.4532722853	0.09552670767	
685.625	0.2581204662	-0.1173250159	
686.25	0.1727889645	0.1832096579	
686.875	0.482238291	-0.2467648305	
687.5	0.0996553592	-0.2647684655	
688.125	0.1542218906	-0.4234634371	
688.75	-0.5533432612	-0.364770351	
689.375	-0.1700603584	0.3683718304	
690.0	-0.1742553823	0.3774687658	
690.625	0.4357926517	0.3339757424	
691.25	0.1903833068	0.140006632	
691.875	0.4715416319	0.7384359463	
692.5	0.8333673236	0.04322400072	
693.125	0.4613069089	0.02441060898	
693.75	0.886190272	-0.1839974635	
694.375	0.3828753585	-0.5928773949	
695.0	0.5022319984	-0.08333133739	
695.625	0.77880397	0.05138652428	
696.25	0.4930356327	0.07248063479	
696.875	0.2127820493	0.3588275949	
697.5	0.3382821086	0.5655472528	
698.125	0.6809241013	0.1180695493	
698.75	0.4401789021	-0.1505199296	
699.375	-0.3290165975	-0.6161571255	
700.0	-0.3676167829	0.4826805979	
700.625	0.01622921646	0.1546329987	
701.25	0.2803212313	0.4209590618	
701.875	0.3042804168	0.05594363921	
702.5	0.1740425828	0.3935793057	
703.125	0.5776328675	0.2402288726	
703.75	0.3317358384	-0.2520113102	
704.375	0.3104334056	-0.005312010251	
705.0	0.3120152473	-0.257717925	
705.625	0.1632892401	0.027849274	
706.25	0.2098110018	0.3675688005	
706.875	0.187910524	0.2621671288	
707.5	0.1325345073	0.2359193606	
708.125	0.2917339182	0.06322553358	
708.75	0.3976529944	-0.3751093978	
709.375	-0.3742335627	-0.2738708833	
710.0	-0.3557919051	0.02592664248	
710.625	0.1095253791	0.4123851969	
711.25	-0.01401111433	0.04635234086	
711.875	0.2641117645	0.3256036807	
712.5	0.3009257709	-0.1467246632	
713.125	0.2524323201	0.01636661431	
713.75	0.2618156319	-0.3237252012	
714.375	-0.08345461508	-0.2327301282	
715.0	0.09432728019	-0.1288096811	
715.625	0.0256782651	-0.3308336181	
716.25	0.02158656909	-0.1991698126	
716.875	0.4199795103	0.0008697304217	
717.5	0.6515122248	-0.01768381703	
718.125	0.4000925993	-0.08768108456	
718.75	0.37556165	0.06176123991	
719.375	0.9489768905	-0.505706223	
720.0	0.2724551037	-0.45865543	
720.625	0.8609970259	-0.7081593783	
721.25	-0.3612665811	-2.053551634	
721.875	-0.03564695908	-0.6559120437	
722.5	-0.2449837043	-1.390041263	
723.125	-1.007615351	-0.09733226176	
723.75	-0.1182144494	0.1507374966	
724.375	-0.2835891804	0.6033102213	
725.0	0.3575478736	0.302651127	
725.625	-0.0404398404	0.3504919499	
726.25	-0.07143710988	0.9252082727	
726.875	0.2206508889	0.9420725677	
727.5	-0.525499452	0.9217989556	
728.125	-0.6029332327	2.58900622	
728.75	0.6659849726	2.505005279	
729.375	-1.09362635	1.99356655	
730.0	-0.9791433616	5.384259419	
730.625	1.548760736	3.486428861	
731.25	-1.877718715	2.028643866	
731.875	-5.491519679	2.496698072	
732.5	-2.372808492	1.80719714	
733.125	-1.744307899	-0.9855379544	
733.75	-1.689943386	1.8600153	
734.375	0.8576613846	-0.07397770099	
735.0	0.3973715423	-0.2777158815	
735.625	-0.9219246554	0.1936972452	
736.25	0.06085720684	0.1710399066	
736.875	0.120556217	1.11418187	
737.5	1.500400754	0.09642680875	
738.125	0.7893984443	-0.5631883719	
738.75	2.301338552	0.4380102221	
739.375	3.701111717	-3.355703947	
740.0	0.1539043419	-1.858035595	
740.625	2.04626663	3.095368016	
741.25	4.841687108	4.47650042	
741.875	0.1477460124	-2.274249727	
742.5	-1.422149024	-5.06810174	
743.125	-0.981761696	-1.879619005	
743.75	0.3318456937	-0.05293950531	
744.375	-0.6467960021	-0.5129118905	
745.0	0.2566040791	0.04659193076	
745.625	0.0705991315	0.118969872	
746.25	-0.09966013881	-0.1762263238	
746.875	-0.1292642637	-0.04464362923	
747.5	-0.3117753565	0.4054742596	
748.125	0.1959752812	0.5963526162	
748.75	0.1587220795	0.3423507964	
749.375	0.01068108259	0.6427665772	
750.0	-0.3709985762	0.3835891525	
