!Created with skrf (http://scikit-rf.org).
# GHz S RI R (50+0j) 
!freq	ReS11	ImS11	
500.0	0.07152729836	-0.3747049406	
500.625	0.8838975592	-1.283549217	
501.25	-0.6687775827	-0.6543842146	
501.875	0.00604840538	-0.4477643614	
502.5	-0.1225748289	-0.2381587511	
503.125	-0.04259652254	0.02339693989	
503.75	-0.05531777351	0.1114269352	
504.375	0.03175399645	-0.03918314445	
505.0	0.03150946399	0.01876379633	
505.625	-0.00881482756	-0.1070673884	
506.25	-0.02323088762	0.04844844934	
506.875	-0.353224871	-0.1317137352	
507.5	-0.285292809	0.004493526058	
508.125	0.515090135	-0.4912116456	
508.75	0.6641621412	-1.473378329	
509.375	-0.247872126	-0.7575265105	
510.0	-0.2333137434	-0.4826665357	
510.625	-0.2631484709	-0.3077083016	
511.25	0.01734685997	-0.01737747864	
511.875	-0.1855035855	-0.1033173522	
512.5	-0.009702296948	0.08478539136	
513.125	0.0314858366	-0.02840386774	
513.75	-0.09376511986	-0.1007538117	
514.375	0.04114392625	0.1505759329	
515.0	0.1247806032	-0.3403048278	
515.625	-0.2448039	0.1462006978	
516.25	0.3863868341	-0.6678189825	
516.875	-0.5601356911	-0.3224270054	
517.5	-0.1146853206	-0.002231991163	
518.125	-0.008831664852	-0.09891966349	
518.75	-0.1187856286	-0.02795257614	
519.375	-0.07253142308	0.01660988424	
520.0	0.1492420246	0.08764738075	
520.625	0.1391362721	-0.07427896366	
521.25	0.04394107104	-0.1402622491	
521.875	-0.1224906289	-0.07246375159	
522.5	-0.01257121751	0.0982447858	
523.125	-0.1051722248	-0.100147348	
523.75	-0.1930623748	0.08915064585	
524.375	0.008650226512	-0.01249819594	
525.0	-0.2116235209	0.1781747503	
525.625	0.1478036472	-0.00118492947	
526.25	-0.08499948599	0.03999570905	
526.875	0.02463544429	0.04208909563	
527.5	-0.156102358	0.1197516505	
528.125	0.1602235558	0.2990487863	
528.75	0.1597573514	0.1067156354	
529.375	0.01700641212	0.09559027703	
530.0	0.1870778034	0.140557743	
530.625	-6.770118909e-05	0.2232032822	
531.25	0.3614071325	0.254749804	
531.875	0.1069295892	-0.2812335574	
532.5	0.09320386603	-0.0646596928	
533.125	0.04773141237	-0.2121087061	
533.75	0.1557223845	-0.03059533489	
534.375	-0.1049510398	-0.4390714248	
535.0	-0.2225103911	-0.02314334156	
535.625	-0.1733801784	0.02598963243	
536.25	-0.004571550849	0.1391593731	
536.875	0.06222595071	-0.01843765827	
537.5	0.105621822	-0.009990230254	
538.125	0.1046959619	-0.1237587362	
538.75	0.1108800715	-0.06466177059	
539.375	-0.06229549817	-0.2401528652	
540.0	-0.2178309692	-0.1010425652	
540.625	-0.1218331767	-0.04130725371	
541.25	-0.09261751733	-0.0485626346	
541.875	-0.02359283998	0.02939290861	
542.5	-0.03413556291	-0.1326648719	
543.125	-0.1637086227	-0.0397561988	
543.75	0.007369777931	0.006184036676	
544.375	-0.1304160157	0.0722372838	
545.0	0.04069328851	0.02850434585	
545.625	-0.008221787501	0.1202063377	
546.25	0.1469954264	-8.70355483e-05	
546.875	0.04267818362	-0.006656431676	
547.5	0.1353582832	-0.1483232094	
548.125	-0.1125423523	-0.1507271154	
548.75	-0.05018169104	-0.1061925034	
549.375	-0.1470206134	-0.1201604394	
550.0	-0.06015748227	0.05313521257	
550.625	-0.06210711561	-0.03687720011	
551.25	-0.07187635995	0.07019879576	
551.875	-0.05575770982	0.04039125633	
552.5	-0.06970822397	0.09574813014	
553.125	0.008740508833	0.06900090682	
553.75	0.0369184648	0.06249234891	
554.375	0.1111235047	-0.008237032523	
555.0	0.1011954426	-0.06694058484	
555.625	0.1006973219	-0.1107659649	
556.25	0.07275030604	-0.1485711842	
556.875	-0.03593380953	-0.1609662295	
557.5	-0.09909326282	-0.1133096843	
558.125	-0.1271416372	-0.04576399568	
558.75	-0.1157431479	-0.0007201841837	
559.375	-0.1126784161	0.01247045421	
560.0	-0.1163003636	0.08627112838	
560.625	-0.03673530638	0.1162057174	
561.25	-0.01719725405	0.09758051265	
561.875	0.06609949952	0.06543442337	
562.5	-0.02118923165	0.03469194161	
563.125	0.1010000438	0.1108911405	
563.75	0.122567682	-0.02866956034	
564.375	0.148171559	-0.04146907077	
565.0	0.09673617848	-0.1995304519	
565.625	-0.06250348455	-0.1133351057	
566.25	-0.08578441799	-0.1622236832	
566.875	-0.2513994171	-0.05764064938	
567.5	-0.07384997282	-0.08250708093	
568.125	-0.1713562541	-0.2276309822	
568.75	-0.2481106778	0.02170975135	
569.375	-0.2069455728	-0.01596095852	
570.0	-0.1896694848	0.2768186979	
570.625	0.02282035547	0.1684176193	
571.25	-0.07896466392	0.09239834397	
571.875	0.16628888	0.08609792237	
572.5	0.02932772914	0.02358395506	
573.125	0.1900673662	-0.132975333	
573.75	-0.05286126092	-0.1718997487	
574.375	0.07303307883	0.03336999753	
575.0	0.0402267162	-0.142581182	
575.625	0.008358763553	0.01466024054	
576.25	0.1311702227	-0.1502230457	
576.875	-0.1124795766	-0.1715658344	
577.5	0.01035627547	-0.06930109416	
578.125	0.04076306373	-0.2566717452	
578.75	-0.1884994089	-0.1111134997	
579.375	0.05877787282	0.03169201669	
580.0	-0.09558553518	-0.1487694063	
580.625	-0.03593165477	0.06746385894	
581.25	-0.1910823606	-0.04107007232	
581.875	0.09372007919	0.2804187988	
582.5	0.09615261758	0.03896834513	
583.125	-0.02700259544	0.1473031786	
583.75	0.1735690053	-0.03625659503	
584.375	-0.0954855324	0.09180164144	
585.0	0.2466819893	0.05131724564	
585.625	0.08703434585	-0.07140370524	
586.25	0.1846337902	0.04220888001	
586.875	0.09008522408	-0.2411865504	
587.5	-0.05511525633	-0.06121212429	
588.125	0.07723920365	-0.1683066138	
588.75	-0.02395350039	-0.2412309472	
589.375	0.02599339681	-0.04370300726	
590.0	0.0008090370697	-0.3338792987	
590.625	-0.2203632558	0.05778437736	
591.25	-0.09418002441	-0.02524570525	
591.875	-0.1208682708	0.1856264868	
592.5	0.1678475815	-0.0888784001	
593.125	-0.1489882694	0.1369024712	
593.75	0.1271202156	0.006090236485	
594.375	0.04440478127	0.1286598846	
595.0	0.2422324219	0.1652894227	
595.625	0.2005268972	-0.0390767049	
596.25	0.1136919612	0.1384360219	
596.875	0.2629562189	0.04129794303	
597.5	0.0754605444	0.05654717101	
598.125	0.1039629203	0.2018241103	
598.75	0.2644390985	0.06227548446	
599.375	0.1458774694	-0.03108765343	
600.0	0.2408011025	-0.09592537007	
600.625	0.14828329	-0.2717940513	
601.25	-0.0347551269	-0.1268204284	
601.875	0.01006054082	-0.2210549125	
602.5	-0.2092540844	0.0995029676	
603.125	-0.02233474262	-0.0144950561	
603.75	-0.2273014734	0.0622329236	
604.375	0.004055177111	0.1518538131	
605.0	-0.1734354161	-0.001832989593	
605.625	-0.1322151369	0.165304519	
606.25	-0.008640629107	0.03403955035	
606.875	-0.279403147	0.0836098191	
607.5	-0.1105457312	0.2673990705	
608.125	-0.03254016661	0.1562980946	
608.75	0.1599284193	0.2697482445	
609.375	0.2901288564	-0.103218332	
610.0	0.1415763461	-0.1117325264	
610.625	0.2050011948	-0.1924068158	
611.25	-0.1068246356	-0.1840153679	
611.875	0.004272120327	-0.09070084987	
612.5	-0.260012734	-0.1467862596	
613.125	-0.09386889574	0.1816853439	
613.75	-0.1510895286	0.03015878437	
614.375	0.08723748581	0.2360979651	
615.0	0.0299487819	-0.0861630799	
615.625	0.08357843057	0.2122397402	
616.25	0.09379057444	0.1226096526	
616.875	-0.1205610991	0.07841472869	
617.5	-0.1655784561	0.3206562795	
618.125	-0.09963304453	0.2443476747	
618.75	-0.05673793254	0.1510723432	
619.375	0.1233451493	0.255253966	
620.0	0.1856289573	-0.006040171522	
620.625	0.08645747827	-0.05208084995	
621.25	-0.1253791155	-0.2709827999	
621.875	-0.2206736882	0.0005259608894	
622.5	-0.2399606663	-0.04225092944	
623.125	-0.1121532226	0.3013972417	
623.75	0.1376142311	-0.03537065316	
624.375	0.08115018076	0.04270606521	
625.0	-0.01410335588	-0.1123546729	
625.625	0.08591198283	-0.01587071783	
626.25	-0.06665057004	-0.2315819701	
626.875	-0.1605094878	0.002874008633	
627.5	-0.09434875865	-0.1107946987	
628.125	-0.1803224173	-0.07933595503	
628.75	-0.07508477449	-0.06764256033	
629.375	-0.04321463657	-0.2178466394	
630.0	-0.2392525418	-0.1504575367	
630.625	-0.1891782274	0.0985010139	
631.25	-0.2027364308	0.1648097211	
631.875	0.003301092886	0.3168265783	
632.5	0.1744420187	0.1274497129	
633.125	0.1600552602	0.1761502174	
633.75	0.2992770371	-0.2043732432	
634.375	0.02156745264	-0.06034151727	
635.0	0.04785524103	-0.2333350145	
635.625	-0.2064405414	-0.0282713014	
636.25	-0.07570817503	-0.007272230438	
636.875	-0.1633050616	0.195787428	
637.5	0.06551905796	0.09732398308	
638.125	-0.1605112181	0.01606123734	
638.75	-0.05575430877	0.2760638604	
639.375	0.03994428351	0.1527947482	
640.0	0.05439541871	0.3383379353	
640.625	0.3383529978	0.1926380085	
641.25	0.1826487299	-0.03009080616	
641.875	0.2533177462	-0.04344590324	
642.5	-0.08994401548	-0.3199200301	
643.125	-0.0762640972	0.01120614037	
643.75	-0.09683239454	-0.264560334	
644.375	-0.198983361	0.1576756552	
645.0	-0.126789391	-0.009012939361	
645.625	-0.004501206951	0.4942446894	
646.25	0.2333924042	-0.06431282259	
646.875	-0.0324988176	0.197217269	
647.5	0.2338229239	-0.01885461134	
648.125	-0.04561350508	0.0705379602	
648.75	0.4422036305	0.008212148249	
649.375	0.1220577026	-0.4232082005	
650.0	0.1304406124	-0.141111454	
650.625	0.3467377367	-0.3385864318	
651.25	0.06458727616	-0.378388032	
651.875	0.1991478289	0.03191508668	
652.5	0.4628644234	-0.1018352039	
653.125	0.1885696649	-0.2177758827	
653.75	0.2506013096	-0.05004854551	
654.375	0.0560227811	-0.5631798704	
655.0	-0.3557859649	0.02800322081	
655.625	-0.1462738729	0.01562877342	
656.25	-0.06665015532	0.3594963613	
656.875	0.1834078441	-0.1968852826	
657.5	-0.05110633191	0.2644841189	
658.125	0.2863223005	0.09537139292	
658.75	0.05191201876	0.1281227855	
659.375	0.5667268278	-0.04792632972	
660.0	0.06170008115	-0.4585207224	
660.625	0.1469754083	-0.1569434925	
661.25	0.3176294823	-0.3446006727	
661.875	0.1738612581	-0.3838695421	
662.5	0.1795348029	-0.03875462083	
663.125	0.4365475591	-0.2010513599	
663.75	0.05182280043	-0.3294587204	
664.375	0.07943010764	-0.2681558845	
665.0	-0.3251277362	-0.3548928543	
665.625	-0.2792783098	0.1850437078	
666.25	-0.1775981735	0.1668250611	
666.875	0.1280979194	0.4023537628	
667.5	0.2136998671	-0.02258963055	
668.125	0.1793277796	0.1397973869	
668.75	0.2811576622	-0.2426354108	
669.375	-0.02323677623	-0.09985272863	
670.0	0.1654605985	-0.2144573363	
670.625	-0.05258158784	-0.3158414635	
671.25	0.05513350515	0.01215408371	
671.875	0.2874099151	-0.2784787196	
672.5	0.1540872341	-0.2157613819	
673.125	0.1591046392	-0.07682993634	
673.75	0.3244530286	-0.2243446732	
674.375	-0.1076821183	-0.2571208553	
675.0	0.04365045375	-0.1751061009	
675.625	-0.2218828958	-0.2690801126	
676.25	-0.2326080495	0.07405122068	
676.875	-0.04436988612	-0.1091705826	
677.5	-0.3208231353	0.04089572231	
678.125	-0.02512421758	0.1345286449	
678.75	-0.1735142865	0.1681882684	
679.375	0.4296415892	0.2049814163	
680.0	-0.01423211903	-0.1730690622	
680.625	0.2134690349	0.07951247004	
681.25	0.1124836078	-0.2435367652	
681.875	-0.05716352661	0.07947293433	
682.5	0.5981532031	0.2042537528	
683.125	0.2518179344	-0.1704976985	
683.75	0.09077364019	0.1636646815	
684.375	0.4329881799	0.1025137067	
685.0	0.3148724433	-0.1576009128	
685.625	0.1067160503	0.2016705711	
686.25	0.5404586455	-0.07024127555	
686.875	0.218740766	-0.131564615	
687.5	0.3881832672	-0.1226808989	
688.125	-0.01243968124	-0.6773066033	
688.75	-0.3086898031	-0.05233415451	
689.375	-0.4222825756	0.1358388953	
690.0	0.1587543877	0.5324553184	
690.625	0.17223664	-0.03033094725	
691.25	0.1996576006	0.5776778064	
691.875	0.689913717	0.2183404332	
692.5	0.4067906832	0.1789076734	
693.125	0.9543637626	0.1834528805	
693.75	0.6982373965	-0.4584471807	
694.375	0.2811908545	-0.1816649857	
695.0	0.6322730678	-0.4772380569	
695.625	0.5206812222	-0.253382988	
696.25	0.6055255307	0.3271928866	
696.875	0.4774305529	0.6533608779	
697.5	0.5498218015	0.285377344	
698.125	0.3888261139	0.3560199239	
698.75	0.5441030804	-0.1654337743	
699.375	-0.5116974576	-0.4473053814	
700.0	-0.1849885338	0.2207561174	
700.625	0.03514827722	0.5202312346	
701.25	0.3202077563	-0.002226056757	
701.875	0.1009004403	0.3167465127	
702.5	0.5417721483	0.3621609834	
703.125	0.3601026901	-0.04819510328	
703.75	0.4709029383	0.07483622248	
704.375	0.4176041714	-0.3041106344	
705.0	0.0967476662	-0.2037605329	
705.625	0.387865175	0.01544823517	
706.25	0.3124294396	0.1409104301	
706.875	0.152377203	0.2564453231	
707.5	0.2072188253	0.4817122642	
708.125	0.4888402666	0.2983935037	
708.75	0.2222270125	-0.2451604585	
709.375	-0.01228849464	-0.2893716275	
710.0	-0.2810304274	0.2726126104	
710.625	0.02847761125	0.0275953396	
711.25	0.08548721529	0.3017216581	
711.875	0.2150360559	-0.02542446318	
712.5	0.2438154279	0.1398394836	
713.125	0.4277277164	-0.1958312585	
713.75	0.05126668289	-0.2866570747	
714.375	0.09891564244	-0.1919903225	
715.0	-0.03132424539	-0.3532048368	
715.625	-0.07113879675	-0.1193024102	
716.25	0.2585870578	-0.166534779	
716.875	0.4013173313	-0.2787568	
717.5	0.417832447	-0.1023705458	
718.125	0.7445164442	0.3029405082	
718.75	1.030805114	-0.0614292565	
719.375	0.4109886252	-0.1995327234	
720.0	0.8750188833	-0.1506861928	
720.625	0.09897588392	-1.211745907	
721.25	0.1276508267	-0.5112306531	
721.875	0.2218841891	-1.35010299	
722.5	-0.9681264103	-0.7856442358	
723.125	-0.4164997314	-0.1846150123	
723.75	-0.8527421211	0.3761836803	
724.375	0.1738214039	0.4761619509	
725.0	-0.05389272651	0.2924940133	
725.625	0.1807986406	0.7240983476	
726.25	0.2728274228	0.5083903904	
726.875	-0.4261410488	0.7285771112	
727.5	-0.3885947733	1.80321894	
728.125	0.5435247171	1.810200907	
728.75	-0.9530406319	1.851079439	
729.375	-2.186599302	4.600523323	
730.0	1.212465347	3.509298265	
730.625	-0.8011274767	1.660741618	
731.25	-2.066078219	4.642351672	
731.875	-1.106211231	2.147417573	
732.5	-3.101587584	-1.530282408	
733.125	-3.660073239	0.464450124	
733.75	-0.3594293201	1.253657389	
734.375	0.1337410948	0.9573707151	
735.0	-0.003595179074	-0.9782779991	
735.625	0.08640716821	0.05635183397	
736.25	-0.4828733059	0.5525170891	
736.875	0.7236929941	0.7091783899	
737.5	0.5124512036	-0.006347416886	
738.125	2.018967142	0.6759016047	
738.75	1.993841159	-2.184106936	
739.375	0.5725677638	-1.035294851	
740.0	4.096613289	1.935960763	
740.625	4.854138483	-3.279053774	
741.25	-2.149009167	-1.575286754	
741.875	-5.969319846	0.1768915728	
742.5	-2.193923101	-0.4564203792	
743.125	1.473608734	-0.9259322949	
743.75	0.2082608152	-2.085988845	
744.375	-0.5105800514	0.1290154621	
745.0	-0.2001376905	-0.06142649188	
745.625	0.1556838875	-0.139849721	
746.25	0.1477193453	-0.005764123871	
746.875	-0.3493112368	-0.0621058826	
747.5	-0.05475631991	0.3787953584	
748.125	0.003106472512	0.4009381798	
748.75	0.20712469	0.6853879565	
749.375	0.250783998	0.4570110041	
750.0	-0.352349592	0.1882911646	
