!Created with skrf (http://scikit-rf.org).
# GHz S RI R (50+0j) 
!freq	ReS11	ImS11	
500.0	0.6172431107	-1.158819741	
500.625	1.643335006	-4.735756282	
501.25	-2.32840177	-2.308811238	
501.875	-1.273001486	-0.1887244717	
502.5	0.1007318386	-0.3822947572	
503.125	-0.3380162814	0.2056225753	
503.75	-0.03842937154	-0.02946765805	
504.375	0.1846936432	-0.04570642704	
505.0	-0.07665316611	0.04108000704	
505.625	0.09473872273	-0.3961204519	
506.25	-0.2195690525	0.3531752376	
506.875	-0.654193724	-0.8698612104	
507.5	-1.756896456	-1.004281777	
508.125	0.1327034713	-0.1190515979	
508.75	2.628419638	-3.648324248	
509.375	-2.988704904	-2.897536594	
510.0	-0.5675686844	-0.8394954277	
510.625	-1.097680251	-0.3123778163	
511.25	-0.08492626805	-0.199989674	
511.875	-0.6316575435	-0.1327504113	
512.5	-0.008459108601	0.1975462621	
513.125	-0.07710895383	-0.2145949739	
513.75	0.02014821724	-0.2795715111	
514.375	-0.6495049217	0.009716847452	
515.0	1.678675016	-0.09391274438	
515.625	-1.92594834	-1.576058399	
516.25	1.17081291	-0.2961513516	
516.875	-1.34034413	-2.747844395	
517.5	-0.6561914868	0.3763870603	
518.125	-0.04572791862	-0.4969961167	
518.75	-0.5308427875	0.1533275041	
519.375	-0.2242071773	-0.007045830227	
520.0	0.5359883932	0.1862768081	
520.625	0.2666733813	-0.2849758779	
521.25	0.28730849	-0.6098899287	
521.875	-0.6243276329	0.09781603473	
522.5	0.002559437285	-0.07887426489	
523.125	-0.1769536008	0.309672232	
523.75	-0.1331255139	-0.2272966229	
524.375	-0.4598121733	0.4969876986	
525.0	-0.1555330937	-0.03517816752	
525.625	0.1201295683	0.3759340597	
526.25	-0.1952868234	-0.2658292057	
526.875	0.01284843446	0.3156533153	
527.5	-0.1439438384	0.1513002135	
528.125	0.02208769223	1.170987299	
528.75	0.4923754047	0.4078074001	
529.375	-0.04708798799	0.35255158	
530.0	0.2206798686	0.04742550213	
530.625	0.1332343688	1.339971106	
531.25	0.9304661084	-0.515424913	
531.875	0.7185166205	0.002694901866	
532.5	-0.6203956369	-0.4506868641	
533.125	0.6817090815	0.00730260983	
533.75	-0.2914826548	-0.666737481	
534.375	0.3001928907	-0.6124252217	
535.0	-1.199988397	-0.1163066229	
535.625	-0.08202303548	0.1396603116	
536.25	-0.1088596877	0.2635767049	
536.875	0.3481928975	-0.02558129774	
537.5	0.06159695871	-0.0122682901	
538.125	0.4425720441	-0.2357193147	
538.75	0.1020806285	-0.2672366762	
539.375	-0.02263661324	-0.4879637618	
540.0	-0.6498323565	-0.2698647138	
540.625	-0.1453554005	-0.03236415166	
541.25	-0.2745874942	-0.05212513608	
541.875	-0.1698687068	-0.01572937495	
542.5	-0.03763952219	0.004003805494	
543.125	-0.2044656063	-0.2907395547	
543.75	-0.2475764844	0.2746540113	
544.375	-0.1672180649	-0.1324684611	
545.0	0.1414866999	0.2846185479	
545.625	-0.1242792485	0.03674765916	
546.25	0.5148315532	0.1616419415	
546.875	-0.01320348584	-0.1380105341	
547.5	0.4071762676	-0.2048355854	
548.125	-0.3080775325	-0.5194439044	
548.75	-0.1950735755	-0.07684867337	
549.375	-0.1996030452	-0.3150275436	
550.0	-0.2578185422	0.1550303214	
550.625	-0.05025344211	-0.1239705216	
551.25	-0.2365781721	0.2199159649	
551.875	-0.09379557838	0.04645827557	
552.5	-0.1797502074	0.2591868221	
553.125	0.02689102418	0.1356496802	
553.75	0.08612857306	0.1290532382	
554.375	0.250920913	-0.005876462918	
555.0	0.2048782969	-0.1771679599	
555.625	0.2024349931	-0.2441575891	
556.25	0.1539347676	-0.3507274217	
556.875	-0.1021856518	-0.3797030557	
557.5	-0.2273867479	-0.2384431797	
558.125	-0.2801076194	-0.09467074015	
558.75	-0.25646842	0.02038615062	
559.375	-0.2253810253	0.02861218118	
560.0	-0.2655539484	0.1825052092	
560.625	-0.05455184217	0.2833337095	
561.25	-0.02338193105	0.1615194227	
561.875	0.1321845172	0.1755360002	
562.5	-0.04344130609	0.02843402177	
563.125	0.2622188679	0.2438133532	
563.75	0.1921211917	-0.1003390698	
564.375	0.3928460046	-0.09664244691	
565.0	0.1273703739	-0.4985591732	
565.625	-0.112407398	-0.2104841186	
566.25	-0.1557062012	-0.3169602678	
566.875	-0.4777164085	-0.1860451137	
567.5	-0.2090782504	-0.08157208199	
568.125	-0.2923341112	-0.5677048628	
568.75	-0.6337565451	0.01070530256	
569.375	-0.4074024968	0.01858604883	
570.0	-0.4366334695	0.6870637934	
570.625	0.1536409531	0.355438716	
571.25	-0.3080138206	0.1371707515	
571.875	0.534272145	0.2140515038	
572.5	-0.06287524308	0.1025309658	
573.125	0.5231106492	-0.3447898827	
573.75	-0.1731844679	-0.4070433429	
574.375	0.2075280997	0.1097745668	
575.0	-0.0444461312	-0.4187729421	
575.625	0.1701363013	0.1384939349	
576.25	0.2722001398	-0.4943256567	
576.875	-0.3049943688	-0.2625171318	
577.5	0.196805925	-0.1300369439	
578.125	-0.04781500993	-0.6200977278	
578.75	-0.4014349893	-0.1745180981	
579.375	-0.004298656348	-0.02510530608	
580.0	-0.2487450393	-0.2949404614	
580.625	0.02083893093	0.1465698237	
581.25	-0.482034011	0.007243605094	
581.875	0.219500977	0.5371855042	
582.5	0.1598613237	-0.03937211201	
583.125	-0.1676928952	0.4399269159	
583.75	0.5553500414	-0.1864964134	
584.375	-0.3408831563	0.355636015	
585.0	0.6269140941	0.04522906439	
585.625	-0.0410006523	-0.06877306388	
586.25	0.6681171827	0.02349678437	
586.875	-0.1456865564	-0.4566873202	
587.5	0.1881462784	-0.1256150037	
588.125	-0.03224174365	-0.6067377005	
588.75	-0.2332395874	-0.2759489051	
589.375	0.3912148056	-0.0800340951	
590.0	-0.2362379084	-0.6037308534	
590.625	-0.3717919902	0.0418657809	
591.25	-0.2684882542	0.1008491531	
591.875	-0.1887366864	0.4134888204	
592.5	0.1080283227	-0.06015773346	
593.125	-0.08451177224	0.250093791	
593.75	0.1320727751	0.1248595708	
594.375	0.1483976096	0.4072478715	
595.0	0.7567375086	0.3607005311	
595.625	0.185392308	-0.2669781982	
596.25	0.2865032621	0.5281670844	
596.875	0.686430448	-0.1811164371	
597.5	-0.01694514475	0.1617031801	
598.125	0.6093936733	0.4902217061	
598.75	0.2440468317	-0.07469134072	
599.375	0.5856486713	0.2529216362	
600.0	0.3312135007	-0.6378090247	
600.625	0.1275510378	-0.2335018374	
601.25	0.3397886889	-0.3824481922	
601.875	-0.3097180792	-0.4190976257	
602.5	-0.2062224316	-0.02619554891	
603.125	-0.2020218708	0.1064006403	
603.75	-0.3429445469	0.09156229482	
604.375	-0.1195880456	0.3376390069	
605.0	-0.2053504122	-0.02889415962	
605.625	-0.196240147	0.3487029628	
606.25	-0.101915786	-0.04706165836	
606.875	-0.731383941	0.2813067761	
607.5	0.05610691999	0.4017375041	
608.125	-0.4655802526	0.3953423958	
608.75	0.917743229	0.4386127916	
609.375	0.09934270684	0.00188980923	
610.0	0.7084392714	-0.2689935268	
610.625	-0.1075388368	-0.4569552431	
611.25	0.3909633005	-0.2600235821	
611.875	-0.5065846274	-0.207522725	
612.5	-0.09616133775	-0.2433179392	
613.125	-0.7101911686	0.1076020265	
613.75	0.135327718	0.1754846359	
614.375	-0.09191250121	0.511006098	
615.0	0.2382070182	-0.1828809043	
615.625	-0.2873461495	0.4318670326	
616.25	0.2997022096	0.2913611644	
616.875	-0.4665941949	0.1847481772	
617.5	-0.1160301854	0.8277313908	
618.125	0.1620294496	0.2145577731	
618.75	-0.1836856279	0.6040081177	
619.375	0.4225872236	0.2707177429	
620.0	0.2835138946	0.2058646319	
620.625	0.2545487426	-0.496892932	
621.25	-0.09951364461	-0.3119625577	
621.875	-0.6052570849	-0.2275191186	
622.5	-0.3404736046	0.1539173297	
623.125	-0.2520283039	0.4265144111	
623.75	0.434168121	-0.1220351697	
624.375	0.1035101388	0.2436760707	
625.0	-0.139749158	-0.4146985088	
625.625	0.2920547339	0.112022821	
626.25	-0.2369438129	-0.6449539771	
626.875	-0.2714328743	0.1758336935	
627.5	-0.2123221178	-0.4394774825	
628.125	-0.4698250255	-0.01143523217	
628.75	0.07058935189	-0.1745523887	
629.375	-0.335257674	-0.5745544733	
630.0	-0.3163772869	0.06184143315	
630.625	-0.5456723894	-0.06258662139	
631.25	-0.415387241	0.5798336801	
631.875	0.09954542173	0.5183393442	
632.5	0.2901802237	0.357242174	
633.125	0.3972232712	0.259452774	
633.75	0.4956532764	-0.3511892519	
634.375	0.05610010708	-0.1159477356	
635.0	0.08015339431	-0.5275888083	
635.625	-0.3528633151	0.1100298798	
636.25	-0.4819666705	-0.09847568571	
636.875	-0.0697959886	0.5491448234	
637.5	0.06674407873	-0.08161010474	
638.125	-0.5922328244	0.4050407282	
638.75	0.4089180992	0.3596895319	
639.375	-0.3768099594	0.2987115193	
640.0	0.3798645688	0.8979244559	
640.625	0.6836966395	0.046827913	
641.25	0.2730494902	0.1545691487	
641.875	0.6112685487	-0.791643373	
642.5	-0.1891444916	-0.1395881991	
643.125	-0.0927420669	-0.599997394	
643.75	-0.7061142157	0.1162127644	
644.375	0.09702101927	-0.2143166038	
645.0	-0.6818137145	0.4320787062	
645.625	0.3531005947	0.569898692	
646.25	0.2936979126	-0.1338894446	
646.875	0.1539108166	0.4384979731	
647.5	0.1870225882	-0.529143586	
648.125	0.3071579985	0.6118928075	
648.75	0.8444544135	-0.5843686521	
649.375	-0.04800987474	-0.2511104859	
650.0	1.158827461	-0.6073130944	
650.625	-0.1591338265	-1.28293811	
651.25	0.04666989484	0.1211381647	
651.875	1.296257887	-0.290953947	
652.5	0.4229151436	-0.8504582692	
653.125	0.2478037014	0.203539872	
653.75	0.7929212846	-0.8311282388	
654.375	-0.5637371961	-0.420888649	
655.0	-0.1946082233	-0.4512785343	
655.625	-0.8736862262	0.7488363536	
656.25	0.4683231219	0.07957328531	
656.875	-0.2576888608	0.2502037989	
657.5	0.4162176448	0.2837427347	
658.125	0.1015766869	0.07525348172	
658.75	0.7543751864	0.6072717884	
659.375	0.7076219614	-0.7141753238	
660.0	0.2750072306	-0.4408736503	
660.625	0.7164508046	-0.6716553725	
661.25	-0.009144847898	-1.197062971	
661.875	0.2703844426	0.02147151646	
662.5	1.143416109	-0.5330450765	
663.125	0.2930189601	-0.8899775172	
663.75	0.2928385422	-0.1035891278	
664.375	-0.04154223552	-1.266995796	
665.0	-0.5807367109	0.04547474748	
665.625	-0.7968243366	-0.2246841599	
666.25	-0.1220172607	1.004195572	
666.875	0.1944066854	0.04514743444	
667.5	0.4274983376	0.5541001762	
668.125	0.6697746379	-0.2687520568	
668.75	0.1415690026	-0.2797891376	
669.375	0.4460973764	-0.3648650553	
670.0	-0.09392144262	-0.7681509766	
670.625	-0.02663938585	-0.1644386668	
671.25	0.2757755347	-0.4783710828	
671.875	0.1091334085	-0.5381834801	
672.5	0.4057031977	-0.03868412274	
673.125	0.6503112633	-0.6399679257	
673.75	-0.01508620696	-0.5842502682	
674.375	0.2722269546	-0.195409865	
675.0	-0.09132435022	-1.019810453	
675.625	-0.8157171191	0.2310978619	
676.25	0.0339820513	-0.5136092312	
676.875	-0.7784832312	0.3534632632	
677.5	0.1596037955	-0.07156064151	
678.125	-0.8878445346	0.5115394898	
678.75	0.6189615489	0.1875986812	
679.375	0.1488183743	0.4178338257	
680.0	0.6888439465	-0.1803712968	
680.625	-0.1130870641	-0.5570575095	
681.25	0.05903849491	0.4808723986	
681.875	0.6926710867	-0.003047761402	
682.5	0.4029298875	0.02457178075	
683.125	0.3178548839	0.1232236584	
683.75	0.8561592058	0.4201737257	
684.375	0.4890687416	-0.3359880504	
685.0	0.4423290313	0.4225423779	
685.625	1.114295708	-0.1389837665	
686.25	-0.04889545676	-0.386436515	
686.875	1.512554201	0.2331026748	
687.5	-0.1132857507	-1.615011297	
688.125	0.4249858525	-0.167081564	
688.75	-1.415222358	-1.040153484	
689.375	-0.0001622164422	1.186757175	
690.0	-0.5369347672	0.6427420624	
690.625	1.234198882	0.4737554502	
691.25	0.2505319936	0.413947317	
691.875	1.267093842	1.127070319	
692.5	1.41007989	-0.02333499752	
693.125	1.324523345	0.1466742731	
693.75	1.405653832	-0.6635216963	
694.375	0.8725978111	-0.8465042185	
695.0	1.146344714	-0.9125850663	
695.625	0.7546026092	-0.3084786327	
696.25	1.459820363	0.8567332694	
696.875	1.276667581	0.1414010451	
697.5	0.2506934882	1.267745532	
698.125	2.258869951	0.2397440335	
698.75	0.2077035546	-0.519252269	
699.375	-0.8656290406	-1.725881349	
700.0	-0.2202323786	1.365820977	
700.625	-0.4005434186	0.3211985469	
701.25	1.201183796	0.4892767624	
701.875	0.1462492033	0.2622620412	
702.5	0.9853852981	1.020603669	
703.125	0.858625402	-0.3432703357	
703.75	0.9268938568	0.2659767813	
704.375	0.6764749882	-0.9165784882	
705.0	0.1037029944	0.02086056257	
705.625	1.376773315	-0.01078246953	
706.25	0.2157562763	-0.1648593112	
706.875	0.2783410494	1.162446058	
707.5	1.396557046	0.5859517162	
708.125	0.4931432613	0.3521402894	
708.75	1.072053314	-1.200538919	
709.375	-0.9133338291	-0.2474249481	
710.0	-0.6002435548	0.2308043702	
710.625	0.4319804533	0.5732152458	
711.25	-0.01732657411	0.1414598706	
711.875	0.6182185396	0.3661675702	
712.5	0.5946474188	-0.03496033774	
713.125	0.7696755752	-0.6174153028	
713.75	-0.02939211409	-0.3797187556	
714.375	0.4379721099	-0.7281723337	
715.0	-0.5313797478	-0.4308977744	
715.625	0.486794889	-0.1072305186	
716.25	0.3769481332	-1.405366066	
716.875	-0.03643168849	0.07708980028	
717.5	2.11657161	0.5415038727	
718.125	2.082541907	-1.712139116	
718.75	0.2060414815	1.402914965	
719.375	3.951793945	-2.429931199	
720.0	-0.4888487024	-1.557558168	
720.625	1.109278256	-1.618439668	
721.25	-0.5206441057	-3.753481457	
721.875	-1.058730667	-1.043596313	
722.5	-1.368434824	-2.644272647	
723.125	-2.330693836	0.1609187901	
723.75	-0.3517008642	0.9117303905	
724.375	-0.3617556235	1.097746824	
725.0	0.8523036366	1.063158984	
725.625	0.5537752702	0.6122749813	
726.25	-0.4818012867	1.387960089	
726.875	-0.0461709689	3.359504867	
727.5	1.790398154	1.863989538	
728.125	-3.635460621	5.288730084	
728.75	5.402194559	10.59210862	
729.375	0.8872458486	1.195928444	
730.0	-7.428866852	18.32245254	
730.625	9.536362994	7.511773866	
731.25	-7.325060568	2.343386449	
731.875	-10.36729918	10.7267477	
732.5	-6.53117483	9.01282226	
733.125	-3.029361999	-1.666685669	
733.75	-3.007111571	5.383647022	
734.375	1.961582962	0.2019033581	
735.0	0.5951700332	-0.7529104056	
735.625	-2.141315811	1.024583029	
736.25	0.12648826	0.03067543533	
736.875	0.6670553707	2.206883753	
737.5	3.487958049	0.1886804844	
738.125	2.925908756	-3.334034315	
738.75	1.067514039	1.226236301	
739.375	14.29520523	-7.216458654	
740.0	-1.232894541	-10.40432918	
740.625	1.707379609	15.39724704	
741.25	24.57453642	14.76709415	
741.875	8.567206806	-15.70340197	
742.5	-13.35769217	-26.22465981	
743.125	-5.919023457	-1.622608794	
743.75	2.488528261	-0.5408628604	
744.375	-2.711510576	-0.7968052649	
745.0	0.8214220609	-0.03975632935	
745.625	0.211747616	0.2361146036	
746.25	-0.2616926728	-0.3843513175	
746.875	-0.2147265663	-0.2532447901	
747.5	-0.5595085671	1.257400778	
748.125	0.8093348733	1.025117651	
748.75	0.3707249642	1.299699443	
749.375	0.5916000907	1.310630909	
750.0	0.5587238764	1.515756573	
