!Created with skrf (http://scikit-rf.org).
# GHz S MA R 50.0 
!freq magS11 angS11
500.0 0.0138589601014 155.079526903
500.625 0.010212370158 95.0380596873
501.25 0.00956199492047 -168.373245909
501.875 0.0102009251101 -146.402491593
502.5 0.0269987476665 163.302396773
503.125 0.0174785475889 117.102451903
503.75 0.0190881750134 -36.0426272533
504.375 0.0134722561241 136.930527311
505.0 0.00984337991808 -48.0801663115
505.625 0.0205481998612 -85.9226651583
506.25 0.0484489641695 -103.860922492
506.875 0.053361022906 -136.500881708
507.5 0.038550105481 -128.636645325
508.125 0.0492004326893 -88.3323238323
508.75 0.077723125343 -114.484199592
509.375 0.0487230398838 -143.962352151
510.0 0.0352536229315 -112.618172744
510.625 0.0337175985382 -156.849715041
511.25 0.0718681050055 -166.653760782
511.875 0.0457267393638 128.894574323
512.5 0.0359685812027 96.1513676148
513.125 0.048139661039 33.7754001739
513.75 0.0650101416313 50.0612950349
514.375 0.0427225849837 23.7955877559
515.0 0.0610936951943 6.4025605937
515.625 0.0983257574367 55.2763387624
516.25 0.102211755602 32.2404542305
516.875 0.110705453622 69.8261052071
517.5 0.112537649421 23.1818989786
518.125 0.19969485999 72.8242939823
518.75 0.07262717505 -3.67678663646
519.375 0.0623755006965 20.9889833847
520.0 0.0840192325125 -4.94814515577
520.625 0.110899425055 -1.33072983772
521.25 0.077324877402 -28.8419414007
521.875 0.0682394876709 2.34597670576
522.5 0.103151396154 -29.4887346875
523.125 0.18202418732 -32.849043634
523.75 0.222056052831 -52.5837200436
524.375 0.205528075115 -53.1540248562
525.0 0.0732389606988 -43.230132357
525.625 0.0473290371891 -20.3916117504
526.25 0.030939039713 -31.0114225287
526.875 0.0440472071326 -24.3642109635
527.5 0.0441211744479 -35.0536486118
528.125 0.0519612058113 -54.196258898
528.75 0.0582380196623 -70.4750278242
529.375 0.077833945332 -109.39770813
530.0 0.0464258673893 -125.080885899
530.625 0.0487373581438 -143.666558772
531.25 0.114212774469 -133.220837708
531.875 0.153813951972 -144.614381912
532.5 0.134606188831 -169.365466131
533.125 0.114479026847 176.145965797
533.75 0.0863072864204 167.703271882
534.375 0.10224827656 179.758447926
535.0 0.087276448455 163.747371507
535.625 0.0724214849899 -179.604686261
536.25 0.0411498236223 162.764678826
536.875 0.0750892767629 -154.879564523
537.5 0.0983497944503 -142.301267518
538.125 0.113911672693 -172.728081466
538.75 0.083251922615 177.864325785
539.375 0.0673447454664 -160.558648952
540.0 0.0815943137806 -154.800722852
540.625 0.145531919523 -156.236833187
541.25 0.119624117433 -139.598262611
541.875 0.0976454620086 -140.234500571
542.5 0.110565628734 -140.223495064
543.125 0.151854659273 -166.870121043
543.75 0.115535154952 158.950540986
544.375 0.0897332003248 135.71466669
545.0 0.0883135099343 89.6111399281
545.625 0.107996996296 85.2121515013
546.25 0.0955781466533 70.1320216229
546.875 0.0885076006806 57.0067893295
547.5 0.103218073274 57.7606425597
548.125 0.127730694762 80.0861980179
548.75 0.0778148086166 93.5470279637
549.375 0.0863088806574 89.9620950529
550.0 0.0825327639639 125.212893714
550.625 0.0583699400253 156.888246157
551.25 0.0416855460147 -137.127870412
551.875 0.0664538494636 -154.249446353
552.5 0.099094461195 -157.511647892
553.125 0.100264135291 -170.901993631
553.75 0.0812127912057 -160.598309258
554.375 0.107511098825 170.274625652
555.0 0.117913065906 165.988814028
555.625 0.100282192765 159.163152514
556.25 0.105302556092 162.158591926
556.875 0.11748629934 167.482960298
557.5 0.108225139384 169.370243098
558.125 0.0957425941205 166.641787516
558.75 0.0834733710727 178.884546644
559.375 0.0605832362266 -169.200784284
560.0 0.0387233598245 -142.198392791
560.625 0.0613092961152 -139.656077912
561.25 0.085151984692 -145.812669378
561.875 0.102418061547 -159.018533387
562.5 0.0969271482371 173.906657194
563.125 0.11094063854 143.355476955
563.75 0.11059397719 138.109565425
564.375 0.0988307795175 124.155603525
565.0 0.077668830634 122.334152207
565.625 0.0869411780095 117.676532283
566.25 0.0825112343847 161.09919435
566.875 0.0744588148719 -177.835070034
567.5 0.0730448845567 -174.22085396
568.125 0.0800801949137 -167.453794853
568.75 0.077294915035 -150.187370906
569.375 0.0460238470784 -97.7193595648
570.0 0.0624909539675 -101.032594023
570.625 0.0930489208429 -112.923970716
571.25 0.0930962097637 -119.717465418
571.875 0.0876121286226 -124.404634011
572.5 0.113782878464 -153.705234608
573.125 0.1385893575 -171.98466575
573.75 0.110950033523 160.305660839
574.375 0.0821304632993 151.286868269
575.0 0.110823735117 152.21363997
575.625 0.108856796771 156.817960203
576.25 0.0858450450671 152.966926609
576.875 0.0750721982598 131.562116501
577.5 0.0827849271764 135.289259006
578.125 0.0617897820262 159.882879447
578.75 0.050292681589 161.611954451
579.375 0.0549403438946 164.677477216
580.0 0.0698064098248 -171.758512712
580.625 0.079386908735 -147.740559716
581.25 0.0901997776664 -166.645920858
581.875 0.113587681742 -167.882210323
582.5 0.11324119722 -169.193265176
583.125 0.0865349547791 -163.320607566
583.75 0.084310004134 -172.99133108
584.375 0.0967676521813 -143.946492865
585.0 0.0935428801767 -138.692326135
585.625 0.0689256156094 -140.798421625
586.25 0.0729708904673 -145.777811276
586.875 0.0786289657875 -125.037901563
587.5 0.0708180232379 -135.67143117
588.125 0.0546654998227 -164.065564452
588.75 0.0680721453661 -176.047656693
589.375 0.0866455681618 -138.095151286
590.0 0.0952202851254 -163.270201508
590.625 0.100492206086 168.585674424
591.25 0.123096377341 147.763418342
591.875 0.0935984806897 161.425790407
592.5 0.0626813648256 148.906240791
593.125 0.0621991754626 157.74583812
593.75 0.0745410231647 159.214137042
594.375 0.0576607691404 -126.876766507
595.0 0.0452708656157 -106.50880947
595.625 0.0559252897228 -96.2625542618
596.25 0.0722721979687 -93.5831772693
596.875 0.0675957271459 -71.2251730879
597.5 0.0591072431047 -58.797708296
598.125 0.0702947132144 -49.0890011109
598.75 0.0752714709286 -68.3889881396
599.375 0.0993303156848 -55.5347673541
600.0 0.108879407585 -59.0484868979
600.625 0.101879697599 -61.7279145832
601.25 0.0832978836663 -85.2030802096
601.875 0.0692130614624 -68.3839420722
602.5 0.0622121438065 -74.7343424198
603.125 0.0424863072577 -50.3353928875
603.75 0.0306421336793 -36.7716936173
604.375 0.0341084494951 -33.9387788714
605.0 0.0602940104016 -15.1911141288
605.625 0.0580253374387 6.17851009654
606.25 0.0291665666926 20.9068568863
606.875 0.0225043275399 43.7220966565
607.5 0.0878441890224 54.0073853412
608.125 0.0760356190897 32.3852707696
608.75 0.057722777982 21.3812599262
609.375 0.0536678567924 24.1814929904
610.0 0.0701886175032 46.1512767447
610.625 0.0723761415562 45.5210992087
611.25 0.0532016998058 36.7500090376
611.875 0.0305514660461 26.5842905978
612.5 0.0433266461734 116.415665976
613.125 0.0332014504045 128.967373576
613.75 0.0514335305661 133.326910954
614.375 0.0391863782683 122.552548208
615.0 0.0362669784312 124.697673593
615.625 0.0337124286766 136.818931656
616.25 0.0395754062705 136.82304259
616.875 0.0496342236359 131.9752656
617.5 0.050105996526 133.9043854
618.125 0.0346358855754 130.726375071
618.75 0.0165280052555 146.568628624
619.375 0.0131643921748 132.72272605
620.0 0.0302823260373 164.714174329
620.625 0.0197264070482 -136.708440886
621.25 0.0471250075522 -120.816147997
621.875 0.063672973301 -95.2904114102
622.5 0.0892419678187 -173.717869776
623.125 0.07508684122 173.639231246
623.75 0.0496445942879 174.998946595
624.375 0.037620056249 -171.32113685
625.0 0.0274635234741 -125.767380212
625.625 0.0384239395158 -153.276333757
626.25 0.0336534467778 174.584907001
626.875 0.00491262964416 63.6445010522
627.5 0.0440443282254 -7.2670459335
628.125 0.0410020759669 -66.2322068351
628.75 0.0303820301443 -40.3524775279
629.375 0.0434224132473 -16.3856883634
630.0 0.0852341456263 11.0098197286
630.625 0.0733487864 -9.40320421202
631.25 0.0672862693059 7.86356308874
631.875 0.064415192627 -4.75273385592
632.5 0.0635710564822 12.8497616533
633.125 0.0596176310264 -20.4434066966
633.75 0.0368037785977 0.511035651222
634.375 0.0534628295745 7.70188204778
635.0 0.0390125678756 34.6766104133
635.625 0.0482504004958 52.4572535504
636.25 0.0520594864553 41.8286347184
636.875 0.0570066506573 29.0941986118
637.5 0.0390835680489 22.6897628755
638.125 0.0592210016025 72.66249321
638.75 0.0531881950609 61.9195581031
639.375 0.0863792489827 91.9831164637
640.0 0.0703800806349 97.4580217986
640.625 0.068192445561 114.28289912
641.25 0.062099045452 115.341706238
641.875 0.0538571243566 146.89520651
642.5 0.0556555448928 162.144474045
643.125 0.0681621219929 165.484891948
643.75 0.0497985805669 154.810472062
644.375 0.0608802466145 -174.974476058
645.0 0.0755703178617 178.860906714
645.625 0.109027234839 172.141852524
646.25 0.0740007276681 149.111938077
646.875 0.0661834326236 179.181580563
647.5 0.0694848235653 -177.605267656
648.125 0.0960239985653 -171.694029907
648.75 0.0795811571484 -159.20801012
649.375 0.0487236993252 -147.02126668
650.0 0.0565192547484 -114.733070306
650.625 0.0663448552499 -84.5712799366
651.25 0.0796570547964 -62.4230481053
651.875 0.0649889423165 -40.7149612371
652.5 0.0795124800751 -20.1925293769
653.125 0.11895966507 1.40550487525
653.75 0.115212714013 7.78163718001
654.375 0.103543136613 8.17994298522
655.0 0.109150777677 10.0640072474
655.625 0.0995113403675 30.7867332177
656.25 0.0685525653137 26.6146233993
656.875 0.0684163652018 9.3792433205
657.5 0.0696114823556 24.7709258534
658.125 0.0549743724383 48.2572355935
658.75 0.0707757007914 60.7873102245
659.375 0.0628663129037 48.1541006927
660.0 0.112019364497 30.339624676
660.625 0.106173630098 18.6331312589
661.25 0.120948960727 4.37611738221
661.875 0.115456726737 -12.8091543526
662.5 0.112169089418 -19.1960689358
663.125 0.104943060656 -13.432911756
663.75 0.114837352261 6.20650282598
664.375 0.0732641190105 52.1107890764
665.0 0.0763189109231 97.5550421639
665.625 0.0692900470079 113.571758539
666.25 0.0651860204376 136.754142206
666.875 0.110210391868 174.489436459
667.5 0.107480833317 -169.537001139
668.125 0.107395155252 -178.45027549
668.75 0.124132905163 167.673813403
669.375 0.124930631579 179.321813864
670.0 0.088886180953 -167.489379282
670.625 0.0888196445248 -168.594860055
671.25 0.124159800374 175.380252612
671.875 0.0951227148789 169.929873342
672.5 0.0667731831975 163.306600893
673.125 0.0835648688883 157.307211502
673.75 0.106758078286 163.902870198
674.375 0.113421134604 171.584947657
675.0 0.113341972173 -173.47631929
675.625 0.129110212479 -147.079817793
676.25 0.106613584757 -121.385069495
676.875 0.114819901001 -118.492559888
677.5 0.132853448686 -127.641088126
678.125 0.124036155659 -112.995413388
678.75 0.0783308523952 -92.314538266
679.375 0.0456151289043 -65.1859652468
680.0 0.0751949184284 -73.7102291216
680.625 0.10749981655 -73.6981721048
681.25 0.113811572719 -74.5248791936
681.875 0.0935391027396 -83.7713928016
682.5 0.13800547169 -118.173105391
683.125 0.169431484052 -120.064271748
683.75 0.137972290617 -102.259836468
684.375 0.125615887292 -79.8449396082
685.0 0.110712805178 -32.3256680483
685.625 0.124659856698 1.51428534827
686.25 0.100589465499 22.5489081174
686.875 0.102293569764 44.0189674442
687.5 0.0690246724832 97.541286002
688.125 0.0795917381254 115.785804924
688.75 0.0996609577808 122.146117927
689.375 0.154504437366 115.414598311
690.0 0.122342887409 140.841935375
690.625 0.119718470953 129.305860764
691.25 0.136148489143 101.50990998
691.875 0.194862876531 69.0661875018
692.5 0.131971723639 42.118992644
693.125 0.0870985194922 -12.6975139211
693.75 0.0918337076565 -31.7970854616
694.375 0.138300285907 -26.2298725268
695.0 0.140858693961 8.20089715105
695.625 0.0943466035113 66.3670173663
696.25 0.116890918929 116.554881805
696.875 0.143703172475 171.180203512
697.5 0.145285919526 -142.423010428
698.125 0.145871919076 -134.369802934
698.75 0.128240305608 -129.006924489
699.375 0.100186299403 -118.832168845
700.0 0.102826106031 -117.996683396
700.625 0.100593821813 -74.8988709099
701.25 0.0967090740617 -58.5225196664
701.875 0.0783334013061 -52.3793953945
702.5 0.100157683908 -89.9813462105
703.125 0.170249109361 -115.503112243
703.75 0.185882981811 -152.119665383
704.375 0.132274114707 170.28599087
705.0 0.111301548316 160.196822607
705.625 0.152256935952 -177.065085567
706.25 0.126180363941 -98.5380460634
706.875 0.0860619157248 -54.1456414495
707.5 0.0707330972498 -28.0607343768
708.125 0.0948586816185 7.03508511425
708.75 0.113610586851 82.0583713559
709.375 0.108389264612 111.889810296
710.0 0.0991072065821 133.100810997
710.625 0.107531557598 155.814247891
711.25 0.122732994182 -173.432883889
711.875 0.148693498986 172.718840787
712.5 0.149843609707 152.933108448
713.125 0.132100377222 94.184504237
713.75 0.0923028152503 61.673371136
714.375 0.106596943211 23.1014785535
715.0 0.114563750988 22.510364832
715.625 0.0857141339659 54.1767150082
716.25 0.0752769210969 69.1842324225
716.875 0.126519605877 112.557245298
717.5 0.148125705884 156.158972384
718.125 0.113626772672 172.33491602
718.75 0.0966714846106 163.926382814
719.375 0.112519537414 -168.132057376
720.0 0.12812995447 -124.662531095
720.625 0.114865760843 -77.4516384138
721.25 0.0945204959685 -30.0113295042
721.875 0.0855067634089 57.2656836519
722.5 0.0812927170321 86.9779818024
723.125 0.0881662808572 79.9812459073
723.75 0.0914575678596 30.0450258593
724.375 0.113961663414 3.83782682619
725.0 0.0973651451806 -38.2901507856
725.625 0.0977262337846 -69.8186637523
726.25 0.117324429605 -66.0323914603
726.875 0.0993647291729 -59.3541589458
727.5 0.0825081147623 -28.6433847391
728.125 0.0963411128332 11.5533848077
728.75 0.0932415196524 32.6671568709
729.375 0.066858998313 0.824694435866
730.0 0.0711691217286 11.8284716525
730.625 0.0634259425136 22.1229014642
731.25 0.0625661924998 59.465947004
731.875 0.0718132436519 115.416085854
732.5 0.0600250048005 144.85773941
733.125 0.113322329601 -169.179280979
733.75 0.0766596980685 170.857566545
734.375 0.0474987601718 143.46831635
735.0 0.0846764048826 169.594369265
735.625 0.0615951990405 148.193292318
736.25 0.0171429560231 140.910966498
736.875 0.0419025662854 173.524219872
737.5 0.0844455302752 -177.288022341
738.125 0.0938549406857 -172.938548199
738.75 0.0728911180477 -179.252056645
739.375 0.0500585394066 -166.280312809
740.0 0.0154280558193 -123.482119555
740.625 0.0949331962901 -144.541886416
741.25 0.0696910542215 -154.825164312
741.875 0.0453422562875 -99.3170951046
742.5 0.0215046837705 -2.50538383187
743.125 0.071122434375 52.8372479411
743.75 0.0528620950723 90.3527842257
744.375 0.0504654485104 109.425571218
745.0 0.0549478872639 177.640939689
745.625 0.0897959832627 99.4426082163
746.25 0.0820578158559 77.3174884269
746.875 0.0621030320049 53.8433564377
747.5 0.0301935428839 23.6241663244
748.125 0.0117514760614 30.6574933359
748.75 0.0327317863105 -6.90542431419
749.375 0.0378055743975 -58.8202440849
750.0 0.0334556077063 -105.315060966
