!Created with skrf (http://scikit-rf.org).
# GHz S MA R 50.0 
!freq magS11 angS11
500.0 0.0137383954732 -173.029611547
500.625 0.0151961858121 33.2469780592
501.25 0.0296501204502 -169.091979664
501.875 0.0410920971662 -165.986486549
502.5 0.0231372077711 149.708615368
503.125 0.0131119319823 91.2451807711
503.75 0.00402285585494 5.22660655463
504.375 0.0125197849903 -61.864176306
505.0 0.0142119793149 -52.4348141148
505.625 0.0403603970051 -77.8473373444
506.25 0.0274998851207 -117.834677429
506.875 0.0675966939772 -97.5055194687
507.5 0.060999279079 -104.096151045
508.125 0.0410149096738 -125.839332955
508.75 0.0554991059762 -130.768391095
509.375 0.0522585074224 -155.338229322
510.0 0.0577969587972 -105.397915732
510.625 0.0343215549489 -169.535183416
511.25 0.0547413993342 -174.634024915
511.875 0.0575511201834 151.418566572
512.5 0.0402555192319 105.205974323
513.125 0.0557270173038 48.5843211876
513.75 0.0512853111962 30.0522897293
514.375 0.0400924548076 23.0945841276
515.0 0.0703320557413 12.7983470321
515.625 0.0695597393232 45.8376326767
516.25 0.0753173016114 26.2926920952
516.875 0.0994314086006 68.603990826
517.5 0.143025762012 23.8414067557
518.125 0.169773901176 58.3715149873
518.75 0.0821864371598 13.1071506185
519.375 0.0703842302527 22.1288960692
520.0 0.107023508828 0.464290152871
520.625 0.0965608902678 -9.92186327078
521.25 0.0791145783161 -25.3268522046
521.875 0.0632124176873 -2.23162849487
522.5 0.111623488148 -29.7589006031
523.125 0.160344497714 -43.4462216306
523.75 0.200628530538 -59.9993972177
524.375 0.201404906902 -57.9323863018
525.0 0.0753639694749 -34.4403146109
525.625 0.0372164611595 -32.3866854932
526.25 0.0534949996464 -2.86922232543
526.875 0.0595724160685 -14.5121733613
527.5 0.0553642080359 -22.1968357786
528.125 0.0389111209522 -54.1061181342
528.75 0.0538077942459 -72.5404631444
529.375 0.0873952961072 -106.474875984
530.0 0.0348504026932 -141.488454757
530.625 0.0360923144954 -132.375628941
531.25 0.10999681452 -135.330255239
531.875 0.188009992712 -145.705473854
532.5 0.134796238141 -169.139338446
533.125 0.098512876758 176.300461226
533.75 0.120875598291 170.748310404
534.375 0.111453319146 -178.494474495
535.0 0.0964593244043 165.859206727
535.625 0.0605751061554 176.33799871
536.25 0.0689854715248 166.281965298
536.875 0.0934064496457 -160.433941587
537.5 0.08221811966 -142.894196126
538.125 0.0997861026264 -170.962996567
538.75 0.108749224301 -177.826749606
539.375 0.0846812929669 -161.029424018
540.0 0.104435109065 -155.285105182
540.625 0.124479269136 -153.052888448
541.25 0.117456613814 -142.577654737
541.875 0.108357772877 -144.43264765
542.5 0.0931353683521 -136.23580341
543.125 0.139495006436 -164.870443144
543.75 0.131572105811 160.68416534
544.375 0.0948511297134 138.075830383
545.0 0.0975098979562 93.0206285046
545.625 0.0912696686582 84.6185719271
546.25 0.0802317371159 70.5329251893
546.875 0.0834230571772 55.534928411
547.5 0.12193888098 59.7105420842
548.125 0.110521457352 80.677901681
548.75 0.0851095209209 89.1977795524
549.375 0.0970564684447 89.5490880831
550.0 0.0979055714519 128.413713768
550.625 0.0460423471354 164.198711132
551.25 0.0375233471365 -126.075156766
551.875 0.0684017394451 -158.532095409
552.5 0.114196107137 -162.33944766
553.125 0.0931809939299 -167.086710775
553.75 0.0946367462513 -171.041641176
554.375 0.11018583616 168.750350198
555.0 0.134065139186 163.721051287
555.625 0.086424842373 161.786569804
556.25 0.0942959301191 167.046705906
556.875 0.110985765439 167.775931107
557.5 0.121347488445 167.140170145
558.125 0.0856127698012 167.113295251
558.75 0.0727481344622 -177.659701002
559.375 0.0639365223145 -169.356340042
560.0 0.0499152872555 -147.992439435
560.625 0.0543967350769 -129.259156023
561.25 0.0870803327883 -144.745087915
561.875 0.104736824333 -160.142369654
562.5 0.099338970416 171.112414704
563.125 0.10357208352 147.565362217
563.75 0.131557380591 133.021395016
564.375 0.10412179921 123.268681715
565.0 0.0896694415265 120.818904877
565.625 0.075539006173 122.38999408
566.25 0.0896640094995 158.712838231
566.875 0.0697326680392 -177.689251373
567.5 0.0794107510286 179.250803162
568.125 0.0649831362175 -160.385141104
568.75 0.0686036218029 -144.445114312
569.375 0.0503464355055 -109.466677868
570.0 0.0641990706866 -112.28592285
570.625 0.0832575724145 -103.482636608
571.25 0.0875210538449 -112.505501309
571.875 0.0857045266593 -124.003999443
572.5 0.116625822517 -160.291646546
573.125 0.124444269432 -165.991458581
573.75 0.102828962536 163.388203918
574.375 0.0781780726205 154.829626973
575.0 0.113447443309 149.047942498
575.625 0.0975432613958 164.473771011
576.25 0.0839345700207 148.794577312
576.875 0.080263059567 131.473502675
577.5 0.0896499429718 132.862015041
578.125 0.0544039790587 168.7354416
578.75 0.0455683212771 174.533119987
579.375 0.0519867653826 171.339143036
580.0 0.0724562136801 175.170230337
580.625 0.0779129539261 -137.446179017
581.25 0.0929363283236 -160.053084974
581.875 0.114232413983 -178.617504995
582.5 0.119747531618 -176.929945203
583.125 0.0960291001469 -170.722297741
583.75 0.0823896160932 -165.208153224
584.375 0.10399598887 -158.963894641
585.0 0.0941761793693 -141.248423497
585.625 0.0709764045566 -143.632696379
586.25 0.0704246037268 -135.604822446
586.875 0.0805651625253 -135.869172882
587.5 0.0746031974583 -147.525032457
588.125 0.0599001114786 -174.437269797
588.75 0.0672049807819 -161.987103324
589.375 0.0832316036847 -155.813906999
590.0 0.0943679257905 -165.42084025
590.625 0.104202043625 161.166455079
591.25 0.120317696377 156.724307207
591.875 0.0891375944917 166.242104923
592.5 0.0629642339075 150.312854051
593.125 0.0644880042993 144.97141147
593.75 0.0702012819994 174.46189735
594.375 0.0586436135154 -150.924364524
595.0 0.0443802847372 -114.714078674
595.625 0.055239274451 -109.100456486
596.25 0.0748922982921 -80.7286081139
596.875 0.0725485214164 -60.2097958363
597.5 0.0616437165549 -56.955177922
598.125 0.0641059752047 -62.5786654189
598.75 0.0828361478257 -56.7402778979
599.375 0.0858236787916 -66.1268253918
600.0 0.0971326450991 -69.2892835542
600.625 0.0979876747318 -59.497452005
601.25 0.0810258380952 -73.8762739891
601.875 0.0687234673792 -91.8616304803
602.5 0.0629367248507 -81.0566339589
603.125 0.0442466965396 -71.8018850595
603.75 0.040482187375 -9.03895660587
604.375 0.0437968108706 -14.6373804424
605.0 0.0624549891086 -7.02739873733
605.625 0.0456726187428 -16.4161252035
606.25 0.0321370286648 25.4339087286
606.875 0.0419439258114 50.5942641651
607.5 0.0527388921575 42.0905017305
608.125 0.0528036032267 19.9032964278
608.75 0.0773425564832 31.5882538729
609.375 0.0750145272706 34.8043931476
610.0 0.0772100864972 51.9604433978
610.625 0.0545844180947 28.9131817783
611.25 0.0585519675219 49.3717230212
611.875 0.0398272440093 59.9162881337
612.5 0.0119664535697 59.2331622758
613.125 0.0307492583046 125.986795954
613.75 0.0298564229083 126.101018107
614.375 0.0677564449126 133.142002208
615.0 0.0498725389442 122.827834591
615.625 0.0354290109088 133.196881027
616.25 0.0238291546174 154.943225759
616.875 0.078171809119 138.848182802
617.5 0.042071191652 119.260806233
618.125 0.0297979881756 129.632671783
618.75 0.0071701966304 171.736913645
619.375 0.0449108756286 155.716073493
620.0 0.00345075205706 61.1581035531
620.625 0.0156066818242 -96.8956181431
621.25 0.0475619386659 -90.952766244
621.875 0.0686929312156 -114.323963274
622.5 0.0734787233311 -170.448918189
623.125 0.0788186286006 168.175268421
623.75 0.0450789914449 -176.123389279
624.375 0.0668235110752 -179.366252035
625.0 0.0532335253709 -152.391276001
625.625 0.0511720652996 -154.144470422
626.25 0.00671911248945 172.372960268
626.875 0.0119760048125 -162.776783795
627.5 0.0234754875212 -40.5224222327
628.125 0.046727026543 -5.3030809546
628.75 0.0386681567502 -6.2933171185
629.375 0.0492219266717 -11.7487143012
630.0 0.066503689712 -5.35268152319
630.625 0.0738924854336 13.7933213488
631.25 0.0764457506031 16.482344162
631.875 0.0736702947174 -15.8431697568
632.5 0.0607544661495 -11.8462644964
633.125 0.0467003501869 23.9664064531
633.75 0.0390041932673 5.06702555328
634.375 0.0496195288027 33.7924150151
635.0 0.0362104039069 -13.912021015
635.625 0.0306135106935 26.0926033019
636.25 0.0471708778867 30.5064816849
636.875 0.0743429278609 50.5234055613
637.5 0.0472616545655 49.8340164559
638.125 0.0421121942503 67.8282855756
638.75 0.0915461366472 80.5018563038
639.375 0.0898053986196 94.3317299132
640.0 0.0769834496293 111.480479148
640.625 0.054336803566 101.983165026
641.25 0.0500948342414 116.599761728
641.875 0.0629116482992 153.295616401
642.5 0.050797781784 142.705372072
643.125 0.0529178303385 157.890440579
643.75 0.0827036928193 179.591925521
644.375 0.0830296886876 -167.508740702
645.0 0.0731474098699 177.86685069
645.625 0.0875698017335 168.179234522
646.25 0.0929865831345 168.761040774
646.875 0.0673438388648 -177.832770672
647.5 0.078513514127 -171.566282708
648.125 0.0775443618262 -176.225367476
648.75 0.0631910099842 -170.152099195
649.375 0.0439159951836 -151.635363526
650.0 0.063209699342 -115.513500761
650.625 0.042958466553 -95.2388187218
651.25 0.0620828188482 -62.0690607101
651.875 0.0578702857491 -43.1249660003
652.5 0.101483995968 -22.9172424829
653.125 0.10467231885 -3.74540056504
653.75 0.0988342889161 5.82154515543
654.375 0.108044162045 8.46245431366
655.0 0.127210269181 16.0451092746
655.625 0.0768975765051 19.1163914777
656.25 0.0529149134417 18.9373428697
656.875 0.0573522529885 3.66551318483
657.5 0.0945461962873 26.9583362633
658.125 0.0717427491338 50.763111553
658.75 0.0601517530014 65.4118028279
659.375 0.0945003797801 38.2240153506
660.0 0.116743616672 27.9908135928
660.625 0.122756831713 19.1200293001
661.25 0.105615247938 4.97674280414
661.875 0.110010115606 -10.2935427465
662.5 0.123283865517 -18.2246092485
663.125 0.0874187835485 -19.7018021672
663.75 0.099720123317 7.20267210975
664.375 0.106787271537 57.6296363513
665.0 0.0864938894374 92.2331357259
665.625 0.0551208442534 113.419795931
666.25 0.0796179078199 136.978778043
666.875 0.113299408468 173.820909771
667.5 0.10885521623 -170.393330439
668.125 0.0892039504943 -174.391955657
668.75 0.116163066788 172.208569123
669.375 0.11444354532 178.745950066
670.0 0.0973787211097 -169.608012046
670.625 0.0685402554058 -167.038797374
671.25 0.106571486987 176.092308272
671.875 0.0961446873213 168.842583078
672.5 0.081850415343 157.050964616
673.125 0.0637266351315 163.50150665
673.75 0.104046694329 164.182176724
674.375 0.116193121075 171.60391058
675.0 0.124955562546 -175.41832988
675.625 0.102118346971 -144.300645132
676.25 0.122572710073 -121.735247396
676.875 0.111857373047 -118.884062038
677.5 0.136357711999 -129.254180755
678.125 0.093115691352 -114.248115493
678.75 0.0661061815483 -90.912331639
679.375 0.0501067578605 -73.1531939189
680.0 0.0872244026624 -82.7661935877
680.625 0.123690021221 -73.4720636631
681.25 0.102506460345 -70.3360075527
681.875 0.10265944359 -89.5011760483
682.5 0.135045273016 -117.17405916
683.125 0.179370250726 -123.920475823
683.75 0.114953471957 -99.4740858332
684.375 0.115530253196 -76.574211171
685.0 0.140368575269 -39.959036388
685.625 0.140787970522 -3.31724237103
686.25 0.106109885077 22.5452271353
686.875 0.0901978459031 47.3794183789
687.5 0.0767553266635 82.1285038769
688.125 0.0857509952258 105.173004768
688.75 0.105388310073 114.424067055
689.375 0.143889119163 121.465383259
690.0 0.13442244609 136.326147684
690.625 0.12140153485 128.128468184
691.25 0.147630242921 96.2398070196
691.875 0.167856968563 75.1883499999
692.5 0.127014221035 44.1795702086
693.125 0.0782840289778 -12.0847002954
693.75 0.10327417922 -42.9056890672
694.375 0.123019058023 -18.7967817305
695.0 0.129188224244 14.1458501506
695.625 0.102961485257 57.4168380753
696.25 0.117131182484 114.611182649
696.875 0.146621835761 168.090038846
697.5 0.13098939221 -133.927118337
698.125 0.131823762851 -127.755388251
698.75 0.133543640381 -129.999525378
699.375 0.107229313356 -122.379617288
700.0 0.0959442707854 -111.853468147
700.625 0.117917505771 -93.1674599143
701.25 0.0997723748 -61.6270272344
701.875 0.0845180790847 -62.4245975388
702.5 0.0996812589978 -81.1756899104
703.125 0.172310760704 -114.56056309
703.75 0.169794322781 -149.431073471
704.375 0.135560840905 166.970387458
705.0 0.103913826864 169.843195375
705.625 0.145970423758 -169.565264555
706.25 0.151386809447 -114.437760278
706.875 0.0957978512646 -65.2228266827
707.5 0.0794525846072 -41.1669550352
708.125 0.0944245627693 20.9512335763
708.75 0.112771313025 64.7177322383
709.375 0.10628792869 106.810100809
710.0 0.104039025277 125.71207985
710.625 0.107730409213 168.8074072
711.25 0.120708894254 172.040435396
711.875 0.145096210205 160.844296301
712.5 0.150707756095 145.330471243
713.125 0.124603719628 101.352929126
713.75 0.102225917514 50.0713821858
714.375 0.109408029361 28.3294422456
715.0 0.117559831292 17.9660054971
715.625 0.0880232876203 72.8477309825
716.25 0.0836378782224 81.839029167
716.875 0.108262817542 107.222640856
717.5 0.147462859408 146.500823969
718.125 0.117599358653 161.719200495
718.75 0.103407291923 175.028873277
719.375 0.124432154963 -160.544640623
720.0 0.127185223398 -120.438310073
720.625 0.113334398245 -85.4989664722
721.25 0.0932501862275 -17.8330353117
721.875 0.085680861089 20.7565256059
722.5 0.0690091954455 65.4880125143
723.125 0.0871385701658 77.4986048267
723.75 0.114594929765 45.2110397105
724.375 0.122111846063 8.2128226817
725.0 0.0972483882441 -39.1142895495
725.625 0.08599115881 -77.7528817033
726.25 0.122430556056 -52.0042174117
726.875 0.102432380663 -43.8885421613
727.5 0.0791037237186 -26.6271494996
728.125 0.0740715553537 -11.287933257
728.75 0.076977415358 8.99844712421
729.375 0.0859271981484 22.6542004279
730.0 0.0804220705022 14.209549538
730.625 0.0768426586331 32.5978046479
731.25 0.0454470895073 47.0808912262
731.875 0.0982542865921 129.442688966
732.5 0.0836920082026 153.218493671
733.125 0.0677165886161 166.208759501
733.75 0.0528829127566 147.695681471
734.375 0.0754036005735 171.579004171
735.0 0.0686540483822 156.149878103
735.625 0.0555608886861 146.416860534
736.25 0.011188533342 149.455635213
736.875 0.0808366302643 166.599033977
737.5 0.101895836903 176.956407835
738.125 0.105586030894 -167.455235158
738.75 0.0443469671797 169.922280723
739.375 0.0928090129656 -148.85031269
740.0 0.0565548458923 -137.384537022
740.625 0.0351719358464 -141.20271575
741.25 0.0379544813095 -154.42292074
741.875 0.0142340350918 -90.2334006928
742.5 0.0670296524732 -21.7745363799
743.125 0.0258209219794 71.886644334
743.75 0.0298649287061 90.6776125651
744.375 0.0389991018426 118.259302446
745.0 0.0547365728672 142.25428833
745.625 0.0666867641706 132.462391883
746.25 0.071233670203 84.3699342793
746.875 0.0514758545055 62.0522852343
747.5 0.0544337806105 3.69982486315
748.125 0.0371574373404 -11.4105615507
748.75 0.0313653477792 7.54958431888
749.375 0.0266726827669 -14.9274163799
750.0 0.0322443868048 -84.2348012038
