!Created with skrf (http://scikit-rf.org).
# GHz S MA R 50.0 
!freq magS11 angS11
500.0 0.0165400612232 178.926168779
500.625 0.0101812115131 59.7426495867
501.25 0.00782298692562 -144.668628681
501.875 0.0224808199893 -152.786778782
502.5 0.0282617158267 161.295955238
503.125 0.0179156659407 102.118065453
503.75 0.015476772699 -29.5743119796
504.375 0.00443261342089 146.23440312
505.0 0.00604784049952 -32.9075760065
505.625 0.0192117023659 -69.6665387454
506.25 0.0561467954534 -103.753060892
506.875 0.0502193462978 -137.092606205
507.5 0.0437726558872 -118.094620267
508.125 0.048912950717 -93.2649860552
508.75 0.077747422722 -118.575900748
509.375 0.0479698978685 -140.58035509
510.0 0.0457118641103 -111.711633473
510.625 0.0383091135693 -155.368039396
511.25 0.0700854320239 -169.746718891
511.875 0.0449170121142 128.799410332
512.5 0.035938547531 93.7580484463
513.125 0.0510732613924 41.2899012641
513.75 0.0656158651915 46.2065649341
514.375 0.0395687303844 18.1057426042
515.0 0.053191441027 -6.0431171784
515.625 0.109849308659 50.330853593
516.25 0.0901392537232 26.8018008047
516.875 0.112695373081 67.7278441757
517.5 0.12375225158 21.7858381621
518.125 0.215737953503 71.0851352781
518.75 0.0724446003825 -6.13312600746
519.375 0.0588210996075 16.0661848706
520.0 0.0882823419452 -8.12392777049
520.625 0.11950196507 -3.73037330686
521.25 0.0704312052366 -37.0735762354
521.875 0.0684405128652 -1.66396405501
522.5 0.101712829166 -35.2625732671
523.125 0.190518246587 -34.2712424126
523.75 0.220935127412 -55.6186104802
524.375 0.209874354239 -52.6818067472
525.0 0.0719349222244 -50.7010201803
525.625 0.047026743578 -22.9433494189
526.25 0.0364926588608 -24.1584971094
526.875 0.0451655515531 -23.084723441
527.5 0.0410647661993 -36.6238640966
528.125 0.0526028552829 -57.0401863199
528.75 0.0516160571638 -80.0422039101
529.375 0.0745721443207 -115.746111595
530.0 0.0472814120283 -130.10546637
530.625 0.0472888926963 -147.396977781
531.25 0.116509078748 -135.8733561
531.875 0.159909719188 -147.4092815
532.5 0.141471447438 -170.444765486
533.125 0.115156573318 173.586717516
533.75 0.0865891635661 165.364480051
534.375 0.0987833306479 178.123181627
535.0 0.084154737204 158.497792576
535.625 0.0759019319916 177.830825691
536.25 0.0491410081826 163.947794851
536.875 0.082990225932 -158.958733822
537.5 0.0977586059699 -143.439607523
538.125 0.11345786194 -173.992439108
538.75 0.091931224848 179.900566259
539.375 0.0720696445308 -161.415859895
540.0 0.0795951434017 -154.037579188
540.625 0.143456891338 -157.649999707
541.25 0.125125989776 -140.997530874
541.875 0.102394486715 -142.810087884
542.5 0.110551517349 -140.959397688
543.125 0.149715023641 -167.199700072
543.75 0.124592909287 160.099040503
544.375 0.0881464288624 136.385334536
545.0 0.0828688766313 89.6699775276
545.625 0.11306551059 83.0056143855
546.25 0.0898589199427 67.2407805015
546.875 0.0888562347666 55.3546696892
547.5 0.100653056842 57.4433864135
548.125 0.128266291973 78.1901235602
548.75 0.0882564693645 89.8195961289
549.375 0.0859775255182 88.931149568
550.0 0.0803029220647 122.035546055
550.625 0.061030690568 152.000497795
551.25 0.0376024193659 -132.470810008
551.875 0.0622939841482 -152.39217042
552.5 0.103382413097 -163.5571337
553.125 0.098906495657 -172.553806334
553.75 0.0840046193497 -167.026315942
554.375 0.103901665709 168.350121058
555.0 0.116975059191 163.794117276
555.625 0.102078727713 156.231556213
556.25 0.102685867652 162.246646367
556.875 0.120362440666 165.31676873
557.5 0.115012962791 167.469933375
558.125 0.0964776683534 165.433569511
558.75 0.0785932576335 -179.998598472
559.375 0.0585410842355 -170.577614973
560.0 0.0379287329452 -144.043218198
560.625 0.0610083257255 -146.142004296
561.25 0.0815448307308 -143.607717538
561.875 0.102402244698 -161.266064794
562.5 0.0962594857621 171.668082268
563.125 0.111072401446 141.189412207
563.75 0.111614513199 136.117274594
564.375 0.0979489376703 123.68364668
565.0 0.0817678842552 120.642534877
565.625 0.090454006874 113.340399171
566.25 0.0763211634776 161.58425273
566.875 0.0748152250032 179.380686604
567.5 0.0764540946235 -178.945982537
568.125 0.0806347692053 -170.081882503
568.75 0.0770559120791 -152.323602615
569.375 0.0479757595766 -107.946351905
570.0 0.0611959718813 -108.498564579
570.625 0.0937950406408 -118.925006557
571.25 0.0884911328473 -119.207925084
571.875 0.0877230592934 -127.467671483
572.5 0.114399747067 -158.371066436
573.125 0.140992587798 -174.364890235
573.75 0.111214620788 158.854996892
574.375 0.084101173411 147.934676224
575.0 0.108984853593 149.631083668
575.625 0.111405459149 152.553358569
576.25 0.0801874950737 153.54478781
576.875 0.0759729408517 132.995113474
577.5 0.0766472260715 133.941903601
578.125 0.0652998015845 153.938381619
578.75 0.0467951383444 163.055896167
579.375 0.0550596522862 160.076174844
580.0 0.0709020572324 178.598270451
580.625 0.0782202106621 -150.434126474
581.25 0.0888417042554 -168.170394426
581.875 0.113358561926 -174.214120807
582.5 0.115920179755 -173.085910243
583.125 0.0891857333412 -165.964825843
583.75 0.0842997378548 -175.005703797
584.375 0.0982049499394 -148.53835375
585.0 0.0944160706015 -140.780493356
585.625 0.0714772764976 -146.557762242
586.25 0.0729997593944 -147.707069304
586.875 0.0802954450051 -135.507052818
587.5 0.0741114426098 -142.920319395
588.125 0.0576069701043 -172.282602329
588.75 0.0676429435203 -177.675993684
589.375 0.0840913711344 -143.85505168
590.0 0.0934398999206 -163.324389628
590.625 0.104150221057 168.912904107
591.25 0.123031734918 144.927994712
591.875 0.0889181949512 163.919323225
592.5 0.0643219358427 149.399377119
593.125 0.0604052088802 158.398465788
593.75 0.0737825509408 156.342176134
594.375 0.0583475722691 -132.091025539
595.0 0.0478502717349 -108.506506347
595.625 0.057986671342 -94.9414446165
596.25 0.0691637676184 -99.1364842516
596.875 0.0667969703379 -66.8768805527
597.5 0.0598399484717 -58.2386112643
598.125 0.0643976511317 -54.0075307319
598.75 0.0742371579993 -70.1855097414
599.375 0.0946931487303 -62.5674113193
600.0 0.107660751563 -64.6841032701
600.625 0.101549054309 -66.3264283507
601.25 0.0841178812906 -86.8944355058
601.875 0.0708030379795 -72.6482608933
602.5 0.0645884917201 -77.846780439
603.125 0.0420039808364 -48.7591383458
603.75 0.0277645311115 -49.2985805253
604.375 0.0343169034145 -35.6395623061
605.0 0.0581342957815 -19.9928523288
605.625 0.054268156391 -3.77734166482
606.25 0.0257439373588 11.0504186862
606.875 0.0225354821951 39.3430034646
607.5 0.0833660889352 50.2627445715
608.125 0.0689487727178 24.2217484727
608.75 0.052666328828 14.8997349113
609.375 0.0586101955648 25.0568567952
610.0 0.0694031527626 40.5275073826
610.625 0.0673409802689 35.7612965551
611.25 0.0544429859497 32.4321064024
611.875 0.0322390967318 24.2951402398
612.5 0.0373894080523 104.236769333
613.125 0.0370173397853 125.955665413
613.75 0.0567068578216 125.072872758
614.375 0.0302310382334 123.383254738
615.0 0.0482678605385 127.638425825
615.625 0.0375674882991 130.447168185
616.25 0.0295418850294 140.021750053
616.875 0.0377979910156 129.154715029
617.5 0.0608462757302 131.157741047
618.125 0.0380988060689 137.48969193
618.75 0.0279137306009 160.866266251
619.375 0.00656688563469 125.771141609
620.0 0.0303629421914 158.342127291
620.625 0.0168902365725 -156.340035806
621.25 0.0425511147639 -110.169192233
621.875 0.0676487827858 -91.9390536155
622.5 0.090452979148 178.287168827
623.125 0.073802245242 169.434214884
623.75 0.0590194307586 172.121148927
624.375 0.0317444119741 -163.761267619
625.0 0.0341015122984 -136.753735726
625.625 0.0347277484061 -151.488086459
626.25 0.0238527792119 162.025269476
626.875 0.00505352532157 65.6774067867
627.5 0.0424160937735 -9.91794304553
628.125 0.0359610117863 -57.8747345083
628.75 0.0290846496305 -36.5838741042
629.375 0.0435237244088 -9.48841425889
630.0 0.0875484096251 8.99976950324
630.625 0.0755164462291 -1.391300444
631.25 0.0700967392137 11.6321053685
631.875 0.0648917595622 -5.75057261668
632.5 0.0643256275619 8.42208339332
633.125 0.0549524921507 -17.3876367603
633.75 0.0396235483109 -8.47230349751
634.375 0.0499678817735 -2.18516598302
635.0 0.0440569329061 35.8871243314
635.625 0.0416125060669 46.2056094677
636.25 0.0572039529732 40.6732509894
636.875 0.0614468106481 38.5733601697
637.5 0.0392397001626 34.7912653401
638.125 0.0565649035035 70.9938094474
638.75 0.0584854917602 71.3973162444
639.375 0.0849995738361 84.9093674511
640.0 0.0654533050144 93.9475210723
640.625 0.0690340559292 111.386700906
641.25 0.0528554514618 100.190471509
641.875 0.0527068149419 139.902332153
642.5 0.0558039247049 158.857050416
643.125 0.0676878704531 163.851032726
643.75 0.053474909376 164.650839809
644.375 0.0652357096415 -176.490747122
645.0 0.0777979574372 -178.979747488
645.625 0.109748468255 169.736984498
646.25 0.074643812528 147.428151812
646.875 0.065886678856 176.099215952
647.5 0.062829110584 177.330597247
648.125 0.101652189962 -174.375349163
648.75 0.0751100321702 -168.058896027
649.375 0.0494968849176 -151.225763765
650.0 0.0513092943128 -125.345484288
650.625 0.0662973238518 -86.7583205404
651.25 0.075297823316 -65.2204022898
651.875 0.0671470547068 -42.5161358097
652.5 0.0885358399626 -21.9477028639
653.125 0.120175114163 -1.5217161726
653.75 0.108946410463 3.88610413432
654.375 0.100648583277 4.29547526154
655.0 0.106832104069 7.43822733134
655.625 0.10743893057 27.9909118799
656.25 0.063864566377 21.947260883
656.875 0.070968280667 5.22225756839
657.5 0.0822934725096 23.7715860369
658.125 0.0643002521799 47.2766140307
658.75 0.0691056936272 58.5614332945
659.375 0.0695710919597 43.1449357638
660.0 0.103980931681 25.8557993492
660.625 0.102556573946 16.7252734274
661.25 0.121266923884 1.81155236724
661.875 0.103680515015 -12.8627518497
662.5 0.111221489249 -21.4954789382
663.125 0.105453319905 -15.7528061546
663.75 0.113821058895 3.9556579953
664.375 0.0869696153425 50.9080562759
665.0 0.0817158352884 92.5538934662
665.625 0.0749965489466 109.725672563
666.25 0.0570209874558 136.619412474
666.875 0.10396888826 170.369245645
667.5 0.0996671002007 -170.340215803
668.125 0.108738190219 178.621979218
668.75 0.113403072284 168.164157095
669.375 0.130377891111 176.341384668
670.0 0.0945226284598 -170.265841492
670.625 0.0921490939148 -172.597256623
671.25 0.124256349772 172.528142474
671.875 0.102167215527 168.800567131
672.5 0.0698625465927 157.056728626
673.125 0.0838484826083 154.24729704
673.75 0.0971473283396 163.621608019
674.375 0.1140419724 170.16265025
675.0 0.108841573947 -173.806074999
675.625 0.135570807374 -151.364615912
676.25 0.102872478772 -122.447959319
676.875 0.112564260576 -119.975753867
677.5 0.122946665402 -130.63949911
678.125 0.128844145381 -116.487224527
678.75 0.0792856268354 -95.019152375
679.375 0.050004066109 -75.7335755895
680.0 0.0806209592421 -79.1924191459
680.625 0.117171793513 -75.0737103189
681.25 0.115191964975 -78.3082817709
681.875 0.0898938814029 -84.1341896214
682.5 0.134630831279 -119.237623425
683.125 0.173665137424 -124.386198634
683.75 0.141060594274 -105.982234255
684.375 0.125580241481 -81.6361971865
685.0 0.114600880098 -35.702918472
685.625 0.133827350774 -1.89826151085
686.25 0.109858501701 21.5898121871
686.875 0.101813968013 41.2204887133
687.5 0.0781655664816 87.5863516328
688.125 0.0838118049035 107.847712986
688.75 0.101789525869 115.386918658
689.375 0.151462369222 113.208689731
690.0 0.118627768797 139.799435021
690.625 0.115985120433 128.006693103
691.25 0.131962420651 99.6180184909
691.875 0.201947300083 64.39780531
692.5 0.12541768341 41.5086642927
693.125 0.0903325102892 -16.3807110447
693.75 0.0978956179498 -40.4953688734
694.375 0.138967539896 -29.3970948832
695.0 0.141762854165 5.85850038589
695.625 0.0920345974142 66.3363095121
696.25 0.111942475906 116.619843273
696.875 0.1318505947 171.744255331
697.5 0.143619060453 -145.815354724
698.125 0.139805650741 -134.218974866
698.75 0.132536562467 -129.793440304
699.375 0.107949951768 -123.606716188
700.0 0.102265502583 -119.71228294
700.625 0.104624155325 -83.9993851962
701.25 0.0939545330593 -60.4131244305
701.875 0.0758605156013 -55.2287735098
702.5 0.0983860767318 -92.5655017056
703.125 0.166646951005 -112.33790404
703.75 0.184350907343 -156.697475498
704.375 0.133642813275 167.604596977
705.0 0.111819395154 158.519678928
705.625 0.152468224099 -178.817313361
706.25 0.136105924004 -107.562218399
706.875 0.0899112725974 -60.1461566801
707.5 0.0662459101773 -31.7195057784
708.125 0.0942064372461 2.95059540205
708.75 0.112512094446 77.6114461262
709.375 0.10770101629 110.941826719
710.0 0.0998600123197 134.033329312
710.625 0.105572278128 149.803703939
711.25 0.122142578347 -176.038294651
711.875 0.145890629619 165.726224431
712.5 0.149935378126 145.446699052
713.125 0.13301911349 92.8195405806
713.75 0.0935459175332 61.0858816368
714.375 0.112743207456 24.8178497778
715.0 0.108015185366 27.6803050495
715.625 0.0850859587388 47.9968803875
716.25 0.0758781180655 67.5171067461
716.875 0.118140285742 103.305619618
717.5 0.153253264268 153.459823898
718.125 0.117845659672 171.845003384
718.75 0.0959579755283 159.939596335
719.375 0.116610660594 -164.060911415
720.0 0.129264524606 -130.855265302
720.625 0.115639391621 -83.6300213283
721.25 0.0976290669526 -35.9340433933
721.875 0.0842955910994 46.6142445316
722.5 0.079090679627 80.0895678831
723.125 0.0856773840533 70.4488433671
723.75 0.088790932211 25.8126390364
724.375 0.124343388666 8.03031061249
725.0 0.0967981580315 -38.1174553567
725.625 0.0894630634809 -75.9499283784
726.25 0.117745754811 -68.2127188578
726.875 0.0993692997966 -61.4965591825
727.5 0.0812476037131 -33.3585529049
728.125 0.090956944058 5.64810491361
728.75 0.104911960528 34.2429147659
729.375 0.0655993316028 -3.70869748736
730.0 0.0812481115704 17.3157008324
730.625 0.0621656109144 21.2455590521
731.25 0.0536249515085 49.5910904645
731.875 0.0608012482186 107.971661431
732.5 0.0596679756511 142.704558571
733.125 0.100953951611 -175.768747155
733.75 0.066528138811 160.147192964
734.375 0.0391238650232 135.567405823
735.0 0.0981248994271 169.108565514
735.625 0.0661649353227 153.830819707
736.25 0.03308309264 153.734785118
736.875 0.0306442100814 -179.294701305
737.5 0.0997942259746 -178.85825004
738.125 0.0875444203728 -176.236476243
738.75 0.0625594331862 173.081050103
739.375 0.0387663039453 -177.795057028
740.0 0.0160275221673 -128.981898509
740.625 0.081941393586 -151.290810283
741.25 0.0657710195301 -157.568769035
741.875 0.0547929537792 -103.932357803
742.5 0.0167105797254 25.2380260837
743.125 0.0701671626805 49.7351559303
743.75 0.0501950674165 77.4371749571
744.375 0.0352245885484 109.264240787
745.0 0.050479765896 171.496136658
745.625 0.0827883859643 110.017147545
746.25 0.0818138212686 70.6635970246
746.875 0.072271707777 43.4908244385
747.5 0.0262253857471 40.7153795524
748.125 0.0217194733581 1.91312095793
748.75 0.024071811919 -3.45130586731
749.375 0.0388980452534 -55.2846064267
750.0 0.028270391766 -91.5887675695
