!Created with skrf (http://scikit-rf.org).
# GHz S RI R (50+0j) 
!freq	ReS11	ImS11	
500.0	0.1067423861	-0.8407491239	
500.625	0.2560601593	-0.8105594348	
501.25	-0.3214270531	-0.5159683777	
501.875	-0.1642615529	-0.3728215537	
502.5	-0.03035133832	-0.1076759597	
503.125	-0.05569193967	0.003436459145	
503.75	0.009827320685	0.06872837008	
504.375	0.02249700166	-0.004411754547	
505.0	0.01433315326	-0.0166913485	
505.625	-0.0007273007077	-0.04319634205	
506.25	-0.04618645653	-0.04195879179	
506.875	-0.09546121205	0.0004792348121	
507.5	-0.05694536776	-0.2693524332	
508.125	0.134584396	-0.5264640063	
508.75	0.4653672743	-0.7239057353	
509.375	-0.06786111567	-0.9193149726	
510.0	-0.363117108	-0.284397503	
510.625	-0.1103045923	-0.09993632736	
511.25	-0.08520858946	-0.0449087119	
511.875	-0.07661643636	-0.04175926907	
512.5	-0.02030938935	0.0377238713	
513.125	-0.004034377629	-0.05207566696	
513.75	-0.03329993232	-0.03788678576	
514.375	-0.04229144862	-0.0125387445	
515.0	0.0106460739	-0.03529526857	
515.625	0.02796522978	-0.3124574159	
516.25	-0.16538218	-0.4887748843	
516.875	-0.1497739041	-0.3356813955	
517.5	-0.028367986	-0.1209340584	
518.125	-0.01844470459	-0.02406988684	
518.75	-0.04114983415	-0.122646574	
519.375	-0.04796516734	0.02839132302	
520.0	0.0778000208	0.04183665594	
520.625	0.1234556727	-0.04995373554	
521.25	-0.02687723864	-0.2109298176	
521.875	-0.1194711459	-0.01698674031	
522.5	-0.03594452058	0.01770561413	
523.125	-0.05560126058	0.01698501228	
523.75	-0.08654167796	-0.00296169115	
524.375	-0.1240696587	0.02034423661	
525.0	-0.04174565459	0.1095314077	
525.625	0.03215052014	0.04026818856	
526.25	-0.01256268831	-0.01448477696	
526.875	-0.04550140903	0.04771271769	
527.5	-0.03343391649	0.1502115596	
528.125	0.03386880478	0.2062635507	
528.75	0.02101107872	0.1841883875	
529.375	0.04629445298	0.05730497684	
530.0	0.02536209291	0.1312429516	
530.625	0.07552498633	0.2670187494	
531.25	0.3514190608	0.08945887007	
531.875	0.1797492246	-0.1614983453	
532.5	-0.04160691284	-0.08246673184	
533.125	0.05118792374	-0.05142832984	
533.75	0.07314021589	-0.1538829051	
534.375	-0.07973573717	-0.2207817153	
535.0	-0.2041279663	-0.08056695392	
535.625	-0.1325413304	0.09947933748	
536.25	0.0006416736154	0.08084911474	
536.875	0.07685904798	0.01478462975	
537.5	0.05780392801	-0.03293164765	
538.125	0.09759060021	-0.0486244402	
538.75	0.1080249229	-0.101736983	
539.375	-0.06292924519	-0.1396534208	
540.0	-0.1351008989	-0.123505752	
540.625	-0.1367181172	-0.01933545884	
541.25	-0.07443284574	0.004610265633	
541.875	-0.03572421568	-0.01645532357	
542.5	-0.04091444076	-0.04470759363	
543.125	-0.0715904336	-0.03343863098	
543.75	-0.07070222208	0.0009813536257	
544.375	-0.03881202096	0.03432979687	
545.0	-0.001290235023	0.05164477042	
545.625	0.04573066997	0.05009180108	
546.25	0.08325532031	0.0326386034	
546.875	0.1032942349	-0.02622224042	
547.5	0.05592396264	-0.1044982979	
548.125	-0.02904699028	-0.1384854401	
548.75	-0.1017005656	-0.1048012248	
549.375	-0.09559444482	-0.05852825002	
550.0	-0.06215853706	0.004170521002	
550.625	-0.0496929498	0.006107971262	
551.25	-0.06382254248	0.02446485558	
551.875	-0.06531944601	0.05570901092	
552.5	-0.03970303386	0.06733489933	
553.125	-0.01026338618	0.05207821277	
553.75	0.04166502286	0.04036846193	
554.375	0.0830330028	-0.0062954079	
555.0	0.08393952413	-0.06233125607	
555.625	0.07442800348	-0.0960741961	
556.25	0.05411799649	-0.126360225	
556.875	-0.03521469927	-0.1373971909	
557.5	-0.08799932216	-0.09199992476	
558.125	-0.105368437	-0.0344724203	
558.75	-0.09735000275	-0.0002198035585	
559.375	-0.09802066372	0.01736882293	
560.0	-0.09005213309	0.06648709181	
560.625	-0.04556366426	0.09997187278	
561.25	0.007060346058	0.08631490384	
561.875	0.0245687739	0.04186569128	
562.5	0.01485629312	0.04760402148	
563.125	0.06273964337	0.06037979633	
563.75	0.1230581314	0.003955643418	
564.375	0.1149039711	-0.08820793829	
565.0	0.05924729442	-0.1349642776	
565.625	-0.03270663677	-0.1349799317	
566.25	-0.09966297113	-0.09569379649	
566.875	-0.123676804	-0.07017991991	
567.5	-0.1218097907	-0.09561357054	
568.125	-0.1189071538	-0.138244577	
568.75	-0.1931018309	-0.07186318064	
569.375	-0.2058834325	0.08223942419	
570.0	-0.1103539755	0.1711643089	
570.625	-0.05737934448	0.1443970537	
571.25	-0.006513930549	0.09910504168	
571.875	0.05175627188	0.06698806195	
572.5	0.1075272229	-0.004976261822	
573.125	0.0754891568	-0.09120627009	
573.75	0.0449490584	-0.09476617887	
574.375	0.0126389495	-0.06329551925	
575.0	0.02325858963	-0.0327313569	
575.625	0.03870798466	-0.06162842068	
576.25	0.04338931305	-0.09860652881	
576.875	-0.004114278497	-0.1245667405	
577.5	0.000209117096	-0.1356404994	
578.125	-0.03249998391	-0.1384553976	
578.75	-0.07165825807	-0.1118478283	
579.375	-0.07628762781	-0.05990151392	
580.0	-0.04158507608	-0.02679463238	
580.625	-0.06341522209	-0.02904413201	
581.25	-0.08944537324	0.06816057324	
581.875	0.002299746903	0.1329821178	
582.5	0.036487343	0.1236417427	
583.125	0.06178704654	0.07492883403	
583.75	0.03698865811	0.01619613823	
584.375	0.02694798435	0.05077256647	
585.0	0.09795643563	0.0539651036	
585.625	0.1357062504	0.0003864403802	
586.25	0.1308395369	-0.04936800296	
586.875	0.06821077423	-0.1157728826	
587.5	-0.01070396336	-0.1252424309	
588.125	-0.01064616876	-0.120694086	
588.75	0.0401066546	-0.1227340855	
589.375	0.06934496464	-0.1321369559	
590.0	-0.04690157006	-0.152933517	
590.625	-0.1566179144	-0.04036485938	
591.25	-0.1202641648	0.08983718287	
591.875	-0.04206052264	0.102024379	
592.5	0.002379535719	0.04154491914	
593.125	-0.02940212815	0.04483532655	
593.75	0.04766835491	0.1032509838	
594.375	0.124814899	0.09192979367	
595.0	0.1381470629	0.1003590526	
595.625	0.1451388128	0.08030758966	
596.25	0.135435721	0.04112155046	
596.875	0.1335655722	0.04000084429	
597.5	0.1258348861	0.0783657271	
598.125	0.1251563155	0.101340681	
598.75	0.1490567427	0.07659892338	
599.375	0.1861761723	-0.02375300885	
600.0	0.1497761259	-0.1203880909	
600.625	0.1304131164	-0.1424790993	
601.25	0.07388185755	-0.1576113941	
601.875	-0.06423065557	-0.1279834292	
602.5	-0.1109970558	-0.01282382499	
603.125	-0.09410753974	0.03673088298	
603.75	-0.09726163304	0.05689933738	
604.375	-0.08658862893	0.06058399074	
605.0	-0.06188393737	0.06258528485	
605.625	-0.06668086009	0.05202045537	
606.25	-0.1002722161	0.05220041352	
606.875	-0.1514673267	0.06530671508	
607.5	-0.1523182084	0.14910757	
608.125	-0.02587169273	0.217203118	
608.75	0.1575312552	0.1472728483	
609.375	0.2059642366	-0.02276942057	
610.0	0.1537753908	-0.1007522712	
610.625	0.07756297216	-0.1392282707	
611.25	0.005688656687	-0.1368533833	
611.875	-0.07385868335	-0.1124812663	
612.5	-0.1442824282	-0.05968959323	
613.125	-0.1664037949	0.02424134144	
613.75	-0.08412785843	0.1209225641	
614.375	0.03948035763	0.1001929478	
615.0	0.03928013755	0.03841220548	
615.625	-0.003900986628	0.07225481569	
616.25	-0.04268254331	0.1260702446	
616.875	-0.07192808775	0.1687086907	
617.5	-0.05229769272	0.1970266866	
618.125	-0.008701331922	0.1843538287	
618.75	0.02172705636	0.1667246707	
619.375	0.08220291078	0.1482049253	
620.0	0.1709597077	0.03813210175	
620.625	0.09347374023	-0.1395843534	
621.25	-0.07665744039	-0.1613775422	
621.875	-0.1786838344	-0.0819685078	
622.5	-0.1934351504	0.04954315066	
623.125	-0.02961231081	0.1649510079	
623.75	0.1147924911	0.0331286938	
624.375	0.03546275864	-0.04486810345	
625.0	0.03748053769	-0.02541843632	
625.625	0.04507914501	-0.07725593661	
626.25	-0.04202382093	-0.1219578536	
626.875	-0.125329046	-0.07500855445	
627.5	-0.1312775413	-0.03531164004	
628.125	-0.09556426336	-0.0599835454	
628.75	-0.06229224581	-0.1099754779	
629.375	-0.0862555187	-0.1332740529	
630.0	-0.1672826766	-0.08237114206	
630.625	-0.1956305046	0.05632215211	
631.25	-0.1266751307	0.1756821277	
631.875	-0.01536630521	0.2180812838	
632.5	0.132276456	0.1676806983	
633.125	0.18734607	0.04200725254	
633.75	0.1466359082	-0.0680321301	
634.375	0.05022967692	-0.1214404695	
635.0	-0.01625022039	-0.1313371357	
635.625	-0.1346163755	-0.07338093117	
636.25	-0.1335841986	0.06869303478	
636.875	-0.05370495389	0.11326639	
637.5	-0.02807176521	0.08062109635	
638.125	-0.05286539019	0.07899971713	
638.75	-0.05734284009	0.1494778827	
639.375	0.009949840677	0.221889471	
640.0	0.1311123627	0.2084642916	
640.625	0.2135438974	0.1226200495	
641.25	0.2448453896	-0.01541242346	
641.875	0.13956663	-0.1739399656	
642.5	-0.01792069786	-0.1852169008	
643.125	-0.1101165207	-0.1043633201	
643.75	-0.1225735792	-0.05983935208	
644.375	-0.1559273302	0.006286602343	
645.0	-0.1260277494	0.1430349794	
645.625	0.060325109	0.1907054164	
646.25	0.1508970815	0.0573447032	
646.875	0.08480966455	-0.01936946897	
647.5	0.05266798801	0.02826389986	
648.125	0.1437481937	0.0382554744	
648.75	0.2283280247	-0.07248341581	
649.375	0.1863446199	-0.2213705363	
650.0	0.1299954502	-0.2734678284	
650.625	0.1180338858	-0.2581169267	
651.25	0.1561654075	-0.2143414302	
651.875	0.2119792736	-0.1567371781	
652.5	0.2370587899	-0.1034441625	
653.125	0.2295500851	-0.1184116	
653.75	0.1517822118	-0.2137601206	
654.375	-0.0697224768	-0.2647016873	
655.0	-0.2603306518	-0.0704442175	
655.625	-0.1453154967	0.1751236019	
656.25	0.041193932	0.1478601884	
656.875	0.04578512588	0.05830501949	
657.5	0.04185623854	0.09059548549	
658.125	0.1348449231	0.1285323128	
658.75	0.2606156005	0.05223181112	
659.375	0.2797379219	-0.1455331329	
660.0	0.1745937722	-0.2778402035	
660.625	0.0923246972	-0.291179831	
661.25	0.1214029754	-0.2615904942	
661.875	0.1712919582	-0.2362652794	
662.5	0.2062139875	-0.197597051	
663.125	0.2104675021	-0.1853436346	
663.75	0.1246311585	-0.2593307731	
664.375	-0.06083558948	-0.286883663	
665.0	-0.2417848723	-0.1623963963	
665.625	-0.2725249534	0.09048067743	
666.25	-0.07434660358	0.2477543123	
666.875	0.1180257019	0.1708167765	
667.5	0.1616032605	0.07232495786	
668.125	0.1963605939	-0.02416330471	
668.75	0.1556137383	-0.1437615644	
669.375	0.06473495858	-0.1969340402	
670.0	-0.003346731392	-0.1912699688	
670.625	-0.006385314468	-0.1734106394	
671.25	0.03304947091	-0.1601276725	
671.875	0.1024849038	-0.1532529965	
672.5	0.1684229923	-0.1429311125	
673.125	0.1720169292	-0.1717555019	
673.75	0.1172791594	-0.2083510529	
674.375	0.02098284359	-0.2262312165	
675.0	-0.08803879914	-0.2000546326	
675.625	-0.1728830243	-0.1092373033	
676.25	-0.1660997984	-0.008591188098	
676.875	-0.1256519229	0.02326849392	
677.5	-0.1284741366	0.03298703764	
678.125	-0.1143493464	0.1351966149	
678.75	0.05490569569	0.2001558137	
679.375	0.1898217902	0.04088475455	
680.0	0.116500981	-0.08690935845	
680.625	0.06050263575	-0.07099104604	
681.25	0.08262598567	-0.02362529874	
681.875	0.1282336651	0.02865992532	
682.5	0.1804835166	0.07129429542	
683.125	0.2269340231	0.05676430967	
683.75	0.2370543897	0.03760381723	
684.375	0.2349900652	0.01979474483	
685.0	0.2541545903	0.02683414852	
685.625	0.2620977421	-0.02097518256	
686.25	0.2505994201	-0.0652483864	
686.875	0.2532843614	-0.145773275	
687.5	0.1991628914	-0.2889469891	
688.125	-0.07664431022	-0.3775638167	
688.75	-0.3715070518	-0.1234721292	
689.375	-0.2301295841	0.3008534299	
690.0	0.1271921605	0.3049226298	
690.625	0.2216723326	0.1915618346	
691.25	0.2966637201	0.2203708009	
691.875	0.4311158418	0.2269037122	
692.5	0.5349495553	0.1248173591	
693.125	0.5711092472	-0.06532142762	
693.75	0.5009974423	-0.2594979879	
694.375	0.3413351743	-0.3766724735	
695.0	0.3619284716	-0.2719973738	
695.625	0.4369772349	-0.1090141053	
696.25	0.4431258129	0.08646311162	
696.875	0.3704949089	0.2819525732	
697.5	0.383228889	0.341357072	
698.125	0.5192229192	0.1144357591	
698.75	0.3212502846	-0.3906946488	
699.375	-0.3710384054	-0.3010046634	
700.0	-0.2080868142	0.3232509628	
700.625	0.1391979625	0.2397596691	
701.25	0.2015419625	0.1486305238	
701.875	0.249049545	0.182164816	
702.5	0.3113104011	0.1747055562	
703.125	0.3680305192	0.07546787447	
703.75	0.3343462733	-0.1137356863	
704.375	0.2257766005	-0.1869860072	
705.0	0.196506905	-0.1262462191	
705.625	0.2281761746	-0.007347589576	
706.25	0.2366631099	0.1304883765	
706.875	0.2198417597	0.2266311148	
707.5	0.2575827518	0.2653823435	
708.125	0.3957809448	0.05523991439	
708.75	0.198987759	-0.3345806067	
709.375	-0.260899603	-0.1970449298	
710.0	-0.1348095621	0.1919842099	
710.625	0.07414813514	0.1273424856	
711.25	0.09753437934	0.08296405781	
711.875	0.1862796929	0.07442815902	
712.5	0.2671131815	-0.04913506465	
713.125	0.2127415969	-0.1798830214	
713.75	0.0894960763	-0.2287882648	
714.375	-0.007795699831	-0.2034681649	
715.0	-0.03292366179	-0.1770040885	
715.625	-0.002608429252	-0.1926173822	
716.25	0.1111368918	-0.2106881349	
716.875	0.2681342387	-0.166665998	
717.5	0.4306476667	-0.07392883514	
718.125	0.5539960405	-0.04543675878	
718.75	0.6030404976	-0.1715470273	
719.375	0.5800692945	-0.4084413126	
720.0	0.3186964551	-0.7411136831	
720.625	0.04445711022	-0.7917756794	
721.25	-0.1459274236	-0.7953236362	
721.875	-0.3245962917	-0.8040073995	
722.5	-0.6265170172	-0.5432332937	
723.125	-0.6643490452	0.009023567257	
723.75	-0.2765406342	0.4177422584	
724.375	0.07987698761	0.3915047282	
725.0	0.1843542409	0.2964119452	
725.625	0.1765657289	0.3606082659	
726.25	0.0755159561	0.5508535006	
726.875	0.02275386361	0.794521222	
727.5	0.02923796216	1.122359205	
728.125	0.09729032585	1.580044425	
728.75	-0.08165679658	2.179610471	
729.375	-0.2377289754	2.88901401	
730.0	0.2448648174	3.015455372	
730.625	0.4401230979	3.203596195	
731.25	-0.1983728911	2.889349998	
731.875	-1.658008436	2.46818338	
732.5	-2.414706857	1.199277993	
733.125	-1.847901191	0.6980338761	
733.75	-0.5118228293	1.208165235	
734.375	0.7600546097	0.2468605548	
735.0	-0.08354846639	-0.5034536926	
735.625	-0.3897229929	0.1159909235	
736.25	-0.001777860885	0.455503269	
736.875	0.4107479259	0.4035895982	
737.5	0.8402790011	0.05865280307	
738.125	1.137228746	-0.4231259183	
738.75	1.307051613	-1.081458058	
739.375	1.717852024	-1.36733647	
740.0	2.126428702	-1.120764679	
740.625	1.915976957	0.1428487377	
741.25	0.6946011346	1.877212248	
741.875	-1.709959175	0.2693222682	
742.5	-0.8631553263	-2.047787424	
743.125	-0.05288022286	-1.548011575	
743.75	-0.1584063252	-0.7929888471	
744.375	-0.3183098808	-0.0502422136	
745.0	0.04190266036	0.1103142619	
745.625	0.04326553073	-0.003755635435	
746.25	-0.01095154405	-0.1173174423	
746.875	-0.1479078855	0.0004179918298	
747.5	-0.04313833247	0.314630796	
748.125	0.170227659	0.4292890148	
748.75	0.2118505813	0.3394986997	
749.375	0.121652301	0.362057667	
750.0	-0.2653041413	0.1629693189	
