!Created with skrf (http://scikit-rf.org).
# GHz S MA R 50.0 
!freq magS11 angS11
500.0 0.0141021520793 128.490682288
500.625 0.00951882960083 155.731234327
501.25 0.0189241142235 176.41464684
501.875 0.0264518409377 -175.85974584
502.5 0.0199356422271 154.438252977
503.125 0.0175434206957 115.658767239
503.75 0.00608808922174 106.376241194
504.375 0.0239983371334 -64.9308083708
505.0 0.00600193575172 -72.1490691666
505.625 0.0235171757049 -70.9077232782
506.25 0.0494913454774 -101.371823322
506.875 0.0771906596046 -92.5601477865
507.5 0.0388843394216 -149.91828559
508.125 0.0372781089852 -108.516465046
508.75 0.0598006036914 -130.842231036
509.375 0.0635172415935 -128.133050614
510.0 0.0299076068623 -144.48833643
510.625 0.0262696022393 -165.119196355
511.25 0.0491777373806 178.544672111
511.875 0.0612148580082 152.05303641
512.5 0.03472445868 87.6355282003
513.125 0.0483969105051 41.5842811663
513.75 0.0518056125936 32.55004698
514.375 0.0503042917803 26.0054497391
515.0 0.0553050417413 4.83812059512
515.625 0.102336384669 50.8248618773
516.25 0.0904575686295 29.9788114824
516.875 0.12441930439 69.5559700793
517.5 0.101995137616 14.5441536375
518.125 0.197560641461 70.3213399769
518.75 0.0934365348244 14.6867166799
519.375 0.0602194408503 15.6122374806
520.0 0.0883964298332 -5.5144152725
520.625 0.113746201865 -2.27112055209
521.25 0.087651969842 -22.1859040439
521.875 0.0761606590729 1.12863961801
522.5 0.0938282501287 -34.2686522679
523.125 0.180904659269 -34.7896426486
523.75 0.211291502467 -58.4938553874
524.375 0.226411405547 -47.5426794851
525.0 0.0723660317095 -44.7742788981
525.625 0.0390056487953 -45.0051800749
526.25 0.0583769166264 -6.64829885434
526.875 0.0404257654915 -37.3683474745
527.5 0.0474840716012 -30.1663130343
528.125 0.0416695914776 -60.8214903281
528.75 0.0642159520052 -71.2983207429
529.375 0.0734464134478 -116.469000082
530.0 0.0386216913568 -139.827794912
530.625 0.034423737038 -141.826841685
531.25 0.138722419419 -142.369245868
531.875 0.136774866122 -149.50350208
532.5 0.129121078244 -171.83810981
533.125 0.0993645829888 172.813239132
533.75 0.131117302467 165.576171668
534.375 0.0972566793646 176.811370429
535.0 0.0894326389361 161.685775852
535.625 0.0732075979997 177.258971537
536.25 0.0735583209767 160.988203432
536.875 0.0617611428386 -159.022149217
537.5 0.0876523058774 -142.038560797
538.125 0.100227527607 -173.209246387
538.75 0.118045069857 179.659170224
539.375 0.0587510761752 -166.367543273
540.0 0.0891375176509 -155.68678323
540.625 0.117390717117 -157.61835624
541.25 0.143348401993 -143.657616441
541.875 0.0862848669929 -142.140906028
542.5 0.102423806816 -139.724478397
543.125 0.129160418954 -167.487374133
543.75 0.143634882176 159.024973895
544.375 0.0881708713103 133.844071708
545.0 0.0898950425754 90.0422367955
545.625 0.109844168482 82.1804774559
546.25 0.0926045098045 67.9192270069
546.875 0.097117629537 53.2382477327
547.5 0.110671561861 58.1335105809
548.125 0.105656765657 76.1255094618
548.75 0.101588165701 88.7322106152
549.375 0.0800768219358 84.7572762952
550.0 0.0906759151638 123.707960615
550.625 0.0547562674566 151.694852503
551.25 0.040437565708 -142.589644796
551.875 0.0620471784546 -155.000656368
552.5 0.106089463493 -162.886639144
553.125 0.0866264952685 -169.261638054
553.75 0.0955267885924 -174.956263835
554.375 0.106597088547 167.497374812
555.0 0.125203912691 162.824837832
555.625 0.101087987743 156.712690158
556.25 0.0998976907356 161.515232714
556.875 0.127926032023 162.662035244
557.5 0.100456090397 167.762472946
558.125 0.0897168228788 165.082327332
558.75 0.083691804563 177.735716772
559.375 0.0595244209517 -174.852264329
560.0 0.0437009001627 -146.353846736
560.625 0.0605907319224 -144.491706371
561.25 0.0894305889611 -152.367992335
561.875 0.104300303045 -164.560418334
562.5 0.0923772968172 172.539869109
563.125 0.105733166007 143.985603961
563.75 0.137797044171 127.874306496
564.375 0.0980588851485 122.159599934
565.0 0.0839803953238 120.8065522
565.625 0.0883485585136 114.160796902
566.25 0.0982305716653 150.141049652
566.875 0.0805816878247 175.75078222
567.5 0.0669248436737 -174.144038787
568.125 0.0748221825883 -167.356693696
568.75 0.0622837049989 -145.71535458
569.375 0.0537232212086 -121.410878785
570.0 0.0590268293272 -97.8274610361
570.625 0.0922187069797 -116.486412383
571.25 0.0905505623554 -120.749390779
571.875 0.0902555459765 -133.368359461
572.5 0.109196010784 -152.259447114
573.125 0.1352893445 -171.63405421
573.75 0.0983891514298 162.463980177
574.375 0.0881334937294 143.508637952
575.0 0.108450665885 153.506257756
575.625 0.11167874234 154.20870064
576.25 0.0900333960843 143.944452491
576.875 0.0723837497298 130.785698559
577.5 0.084442524551 133.940844676
578.125 0.0634495643188 156.250752571
578.75 0.048766915226 161.777654937
579.375 0.0577194131153 153.05170872
580.0 0.0649300400735 -167.648919362
580.625 0.0790934834578 -145.765221525
581.25 0.0892002305475 -164.084104296
581.875 0.115924620802 174.704633824
582.5 0.109290840715 -168.217575337
583.125 0.0927118562327 -167.98494516
583.75 0.0809147567506 -166.006863989
584.375 0.105989072103 -167.004768505
585.0 0.0952686460694 -144.192743074
585.625 0.0722517115717 -142.807583597
586.25 0.0673010515643 -133.966277551
586.875 0.0850981422219 -147.531408598
587.5 0.0691984038234 -133.526847259
588.125 0.0603527548241 -171.870439267
588.75 0.0663535702402 -160.598546434
589.375 0.0807797703188 -164.251117
590.0 0.0930863572273 -165.900386017
590.625 0.105054207219 164.605488486
591.25 0.117275108826 151.078502176
591.875 0.0973033299769 157.892007603
592.5 0.0671281727153 142.717125047
593.125 0.0627873696626 148.81527068
593.75 0.058822299454 170.967448901
594.375 0.0596276127012 -165.324321583
595.0 0.0472506024002 -104.64125221
595.625 0.0570225541253 -102.672568318
596.25 0.0706962744008 -93.7484957362
596.875 0.0681835630835 -72.4840667343
597.5 0.0564136838635 -69.3995572634
598.125 0.0678217286624 -57.9792961036
598.75 0.080668542032 -62.4740271876
599.375 0.0790897614893 -74.8617772922
600.0 0.11152955994 -56.5728443305
600.625 0.102983289935 -59.7295942979
601.25 0.0824646693149 -74.6318798087
601.875 0.0687482861606 -100.269065709
602.5 0.0607458381789 -85.0899191372
603.125 0.0432146032279 -62.184839646
603.75 0.0322712979929 -39.7767851458
604.375 0.0409933721707 -23.3672614322
605.0 0.0503277901333 -35.7073387165
605.625 0.063077270825 11.5614005477
606.25 0.0341997160186 25.7605414113
606.875 0.0434171301372 51.2236667109
607.5 0.0405126668256 37.864401955
608.125 0.0843677813516 35.4112716499
608.75 0.0595326093397 18.8491604932
609.375 0.064743533141 28.841434535
610.0 0.0587712109836 31.4899045243
610.625 0.0796013809541 50.4538778457
611.25 0.0630526798852 44.4046394002
611.875 0.0384809513786 55.7879360623
612.5 0.0116517502618 10.6007792519
613.125 0.0301637641476 128.940283606
613.75 0.0437607179657 123.443637519
614.375 0.0415724644255 118.624706649
615.0 0.0354431507232 114.619141879
615.625 0.0227112747677 134.693571228
616.25 0.0517326261631 135.902326804
616.875 0.0474629691649 125.089501258
617.5 0.0285872059243 110.361281981
618.125 0.0314642909367 137.559915494
618.75 0.0311688557267 145.990191296
619.375 0.0172206663477 135.284969859
620.0 0.0137409672597 -23.2926970911
620.625 0.0188169598691 -154.547932154
621.25 0.0409449488328 -110.613850148
621.875 0.0640676337105 -97.1887752669
622.5 0.0690661753492 -159.392582378
623.125 0.0632355533483 -178.24075775
623.75 0.0618576081013 162.697562688
624.375 0.0399531675402 -175.596912586
625.0 0.0392435678825 -151.255402084
625.625 0.0218876950128 -130.110466591
626.25 0.0479047715025 -177.84983363
626.875 0.0153361985377 165.759517863
627.5 0.0247291339702 -43.8392717239
628.125 0.0559298986738 -3.87494646667
628.75 0.0337072994946 -58.3983311161
629.375 0.0397778400691 -16.7227685585
630.0 0.0715642525209 -1.62144612514
630.625 0.0853219934954 21.330750252
631.25 0.0671841397265 -3.74823569712
631.875 0.0670730953959 -21.0232160956
632.5 0.0664209533394 -12.0533166305
633.125 0.0549830791213 27.9600116554
633.75 0.0397461763436 -2.37397058312
634.375 0.0484411100699 11.4221576252
635.0 0.0365131959535 29.7497229191
635.625 0.0350148799981 44.9841775722
636.25 0.0686416805387 47.8368478275
636.875 0.0559172798768 11.5702367251
637.5 0.0393367138445 36.969016861
638.125 0.0349471120421 60.6281139344
638.75 0.0993855525694 77.722367391
639.375 0.0908429264709 84.8148017487
640.0 0.0690683646635 101.253403133
640.625 0.0599175455643 99.1364605529
641.25 0.0654993700074 122.572753283
641.875 0.0563981287987 134.030452933
642.5 0.0456722483925 151.090548522
643.125 0.0561272017435 155.659780034
643.75 0.0897570306939 175.845304216
644.375 0.0550484431023 171.609837249
645.0 0.0697926386476 174.251567647
645.625 0.0941445384414 163.502858532
646.25 0.105264078641 168.860603771
646.875 0.0763351023609 178.274557543
647.5 0.0681235933902 -176.374001932
648.125 0.0971164662689 -173.723423529
648.75 0.0757033304819 -162.007800689
649.375 0.0586593775589 -145.701438505
650.0 0.0456683580818 -122.948855559
650.625 0.0555737600195 -90.3464457012
651.25 0.0700003191907 -64.1923188132
651.875 0.0763516890729 -44.3964700805
652.5 0.064910243123 -24.5831960646
653.125 0.103689146675 -2.772128273
653.75 0.111320616477 5.92470159017
654.375 0.103934394469 4.38931691731
655.0 0.113299610544 11.5048706185
655.625 0.100702941851 27.4135697823
656.25 0.0624796439803 22.1122744481
656.875 0.0810275074771 6.89148383254
657.5 0.059483923848 12.1832584496
658.125 0.0645401853064 46.6415080011
658.75 0.050645537566 59.0025585369
659.375 0.0951577096114 33.5126886206
660.0 0.107537382952 24.0121628533
660.625 0.110928136334 17.5004148746
661.25 0.106333086263 1.26366526603
661.875 0.122564664829 -12.3621950137
662.5 0.105884683568 -22.4580483888
663.125 0.0958123535749 -17.036324425
663.75 0.0928380074736 0.323705526069
664.375 0.117703061061 53.2832670149
665.0 0.0670120467456 91.670119158
665.625 0.0707245235547 110.1317641
666.25 0.088157072339 128.846074931
666.875 0.107564054724 167.483743574
667.5 0.0982013846466 -170.689040265
668.125 0.107224403049 179.662851488
668.75 0.127810444477 166.599906046
669.375 0.143743210938 175.168180981
670.0 0.0827545773564 -170.637015514
670.625 0.0854196222948 -171.831863477
671.25 0.108016467067 174.092137966
671.875 0.118206651082 165.058440129
672.5 0.059137362215 158.282274112
673.125 0.0768741349283 155.719813514
673.75 0.112510182142 158.391656152
674.375 0.117437701557 167.224108429
675.0 0.115987903045 -176.180575773
675.625 0.127965398821 -150.85414688
676.25 0.129397836054 -127.184335274
676.875 0.123296413977 -122.877977199
677.5 0.125742707836 -129.365943424
678.125 0.120499316599 -115.415361682
678.75 0.0630086367393 -95.2604475114
679.375 0.0617932442467 -82.8030285751
680.0 0.0647865386138 -70.1377449397
680.625 0.119098213397 -74.5680931311
681.25 0.110607464521 -75.7996468408
681.875 0.102921839167 -95.9053453752
682.5 0.143658376169 -124.460163062
683.125 0.153681228642 -121.170050821
683.75 0.135067142769 -103.504234845
684.375 0.109549225029 -77.8519002199
685.0 0.145642617068 -44.0706524658
685.625 0.115061226843 0.108167260589
686.25 0.103288341439 21.6107826321
686.875 0.0801918730084 44.5673222679
687.5 0.0895766411268 73.9853302787
688.125 0.0728022959678 118.768522977
688.75 0.100542022626 114.471264722
689.375 0.131931324176 119.000713496
690.0 0.139724862268 130.379852279
690.625 0.118498869217 126.641926406
691.25 0.141192290191 97.5728773858
691.875 0.196477798486 66.122117604
692.5 0.14369610225 38.7295272117
693.125 0.0985858063623 -20.3645132263
693.75 0.0818808689532 -29.5841477676
694.375 0.126952523271 -24.3410059258
695.0 0.121062813028 12.4761402052
695.625 0.105094386935 50.9615802834
696.25 0.113382883826 114.624957929
696.875 0.138561257337 171.503624851
697.5 0.143073778658 -142.803776826
698.125 0.141863417034 -133.820263302
698.75 0.13242216152 -133.874499197
699.375 0.104757369656 -123.343537222
700.0 0.0913995442839 -112.182048179
700.625 0.122144958755 -101.486486246
701.25 0.0944618696618 -62.7021846782
701.875 0.0824776378957 -58.4934964396
702.5 0.092402159258 -83.5779363688
703.125 0.16930855524 -124.688433859
703.75 0.19689182278 -160.671126967
704.375 0.128108698724 169.917053079
705.0 0.1083973552 163.242789167
705.625 0.135088603319 -167.992836441
706.25 0.159006609326 -122.602231063
706.875 0.082743201974 -52.7325458106
707.5 0.0725142084782 -36.1649161271
708.125 0.0875413018742 16.8794687396
708.75 0.111298545513 53.7180692785
709.375 0.106406558131 112.183698787
710.0 0.101168921266 128.677782576
710.625 0.108434019255 152.253797456
711.25 0.118004536749 165.862087824
711.875 0.145591816928 175.560561253
712.5 0.152122021634 145.696408196
713.125 0.117121205615 101.427182317
713.75 0.105456703172 40.6590503554
714.375 0.114738035398 10.2507489721
715.0 0.11074229161 25.0725791321
715.625 0.0852086702189 54.078562475
716.25 0.0800199594536 82.2316905751
716.875 0.103989580229 88.8234898558
717.5 0.151513595323 157.834065285
718.125 0.115618598854 164.6768316
718.75 0.0971460681299 167.116008186
719.375 0.119719763226 -172.813650441
720.0 0.126564686202 -140.390934619
720.625 0.115506907625 -72.9248619553
721.25 0.0969299471536 -32.6819634636
721.875 0.0879688881781 11.1527647853
722.5 0.084152342252 91.7045074925
723.125 0.0924536490707 79.2653587874
723.75 0.0992787682235 42.6943273069
724.375 0.1116121067 -3.03912202251
725.0 0.0913424488543 -46.5694859208
725.625 0.0988410721512 -64.8016990884
726.25 0.127038413411 -59.4658826623
726.875 0.101497897727 -48.6088434699
727.5 0.0755804556304 -53.4668880227
728.125 0.104652196472 15.1730408609
728.75 0.0923629194108 24.669149749
729.375 0.0762188064058 17.5611518155
730.0 0.0698397531303 0.113437528422
730.625 0.0483167148012 4.16976825202
731.25 0.072974484257 63.3822345265
731.875 0.0717073952845 111.685348414
732.5 0.0763018078599 155.213624568
733.125 0.0584940002415 156.029488606
733.75 0.0870488394677 177.123139352
734.375 0.0523715244635 149.801523859
735.0 0.0454948074919 134.895475456
735.625 0.0552503733205 152.923621482
736.25 0.0386853568623 150.15433538
736.875 0.0393764017245 169.4216836
737.5 0.0763084407485 174.803753278
738.125 0.0658706969368 179.212064388
738.75 0.0812384148091 -169.672190242
739.375 0.0615502636337 -171.727824428
740.0 0.0563956279924 -149.840281257
740.625 0.0213141795622 -117.355774831
741.25 0.0834569921355 -153.84285648
741.875 0.0370082851413 -112.406352646
742.5 0.0218463210669 -10.7025188548
743.125 0.0221319739001 105.651588882
743.75 0.0600106175845 82.8464213758
744.375 0.0451650017868 101.283755573
745.0 0.0612135745594 125.413961475
745.625 0.0703189730106 148.09562763
746.25 0.0825924885453 76.5923960174
746.875 0.0653663877781 43.0835084255
747.5 0.0300677225591 22.7370027426
748.125 0.0197111268055 -7.57124521144
748.75 0.0288123300829 58.7959933453
749.375 0.0523891158232 -66.2474608545
750.0 0.0348930591461 -106.4315134
