!Created with skrf (http://scikit-rf.org).
# GHz S RI R (50+0j) 
!freq	ReS11	ImS11	
500.0	2.64821307	-1.93848524	
500.625	0.03189666719	-4.304117045	
501.25	-0.937389359	-0.7873269294	
501.875	-1.342588705	-2.347552363	
502.5	-0.4459547525	-0.2641439923	
503.125	-0.1261135622	-0.07006068261	
503.75	0.1025649568	0.4631564994	
504.375	-0.06407385318	-0.05082793154	
505.0	0.2442391779	-0.09285111065	
505.625	-0.2276964135	-0.04443453227	
506.25	0.265426362	-0.433992214	
506.875	-0.3802042924	0.9728159127	
507.5	0.9813053719	-0.9446827414	
508.125	0.09927077711	-3.165963887	
508.75	-0.7503330751	-2.574628008	
509.375	1.78993235	-4.261284699	
510.0	-2.136149226	-0.0791328796	
510.625	-0.08771824862	-0.1369315369	
511.25	-0.6740904931	-0.3083594603	
511.875	-0.5115229211	0.03324979972	
512.5	-0.08391980787	0.05701055967	
513.125	-0.007658559842	-0.2828132377	
513.75	-0.435292363	-0.1148203391	
514.375	0.1715192695	-0.06422101467	
515.0	-1.139513046	-0.7194676915	
515.625	2.129051195	-0.2275632689	
516.25	-3.056470232	-4.662009923	
516.875	-0.858136006	0.6553749478	
517.5	0.5270148143	-0.8276917776	
518.125	-0.3687226286	0.3040991471	
518.75	0.3166157851	-0.8976111264	
519.375	-0.2013975574	0.2790555861	
520.0	0.2137054339	0.05593055678	
520.625	0.6566370053	-0.01648866073	
521.25	-0.3869945412	-0.8201837351	
521.875	-0.1570815275	-0.05450442579	
522.5	-0.2621965382	0.1273397527	
523.125	-0.04688338894	-0.1596598194	
523.75	-0.4304936276	0.1761483172	
524.375	-0.1489491293	-0.09139689239	
525.0	-0.2796227306	0.6101367407	
525.625	0.1636853458	-0.1533955002	
526.25	0.02547604784	0.1816005166	
526.875	-0.1485202916	-0.08999677213	
527.5	-0.2774985361	0.9359072202	
528.125	0.4443003339	0.384917211	
528.75	-0.3654985485	0.7373331827	
529.375	0.3608146161	0.08402359232	
530.0	-0.3702510187	0.73795152	
530.625	0.6582563789	0.585214568	
531.25	0.824297513	0.7334280098	
531.875	0.6612543687	-1.06926821	
532.5	0.2031046126	0.05024191031	
533.125	-0.2968728463	-0.7040080625	
533.75	0.8968606007	0.01491617639	
534.375	-0.9262585745	-1.060574277	
535.0	-0.237603098	-0.0507125774	
535.625	-0.7234574448	0.1721500225	
536.25	0.1719331251	0.2409697407	
536.875	0.1089558196	0.1658114616	
537.5	0.2630650645	-0.1863002186	
538.125	0.07869071271	-0.14893827	
538.75	0.5356059038	-0.1788246778	
539.375	-0.370627629	-0.3902545586	
540.0	-0.2184953074	-0.285460732	
540.625	-0.4583780855	-0.1553502593	
541.25	-0.2172007965	0.0980115772	
541.875	-0.04968419666	-0.04412559104	
542.5	-0.1723091762	-0.2112860327	
543.125	-0.2060667021	0.03559676541	
543.75	-0.1390180471	-0.1956250923	
544.375	-0.1403824311	0.303850592	
545.0	-0.07784607757	-0.08788222263	
545.625	0.2943238029	0.3749576402	
546.25	0.06124717334	-0.1657004181	
546.875	0.4034325154	0.2292935709	
547.5	-0.01585229483	-0.5187128594	
548.125	0.05762263784	-0.1901513188	
548.75	-0.3004757218	-0.4856551586	
549.375	-0.4034586485	-0.03480201193	
550.0	-0.03293331479	-0.09928186452	
550.625	-0.2623463118	0.1088445432	
551.25	-0.0538175267	-0.002804564725	
551.875	-0.3030409627	0.1884935276	
552.5	-0.007737855742	0.2111322379	
553.125	-0.09453791775	0.1338249919	
553.75	0.1477872972	0.1213170108	
554.375	0.2029272822	0.003479041144	
555.0	0.2614600044	-0.1567932072	
555.625	0.2063953343	-0.2771021005	
556.25	0.1543427357	-0.3385284639	
556.875	-0.06984362721	-0.3919659145	
557.5	-0.2405909027	-0.2625967758	
558.125	-0.2802290389	-0.08048362488	
558.75	-0.2382248563	-0.03069858361	
559.375	-0.2980847574	0.04617358176	
560.0	-0.1736159295	0.1885471229	
560.625	-0.1734056479	0.2161853303	
561.25	0.05722493326	0.309313265	
561.875	0.04944311392	0.0008124158565	
562.5	0.02296345198	0.2504752433	
563.125	0.1532079498	0.02845094865	
563.75	0.3133429777	0.1627468273	
564.375	0.3507635947	-0.3668100562	
565.0	0.05917403021	-0.2201825893	
565.625	0.05507625989	-0.4518178864	
566.25	-0.3933937202	-0.1939231955	
566.875	-0.1801175952	-0.1595857996	
567.5	-0.3882057631	-0.4087865473	
568.125	-0.476033085	-0.2341141671	
568.75	-0.3022007173	-0.3142063579	
569.375	-0.8282545824	0.2852702919	
570.0	-0.0123058777	0.5078280684	
570.625	-0.3619537139	0.1284226588	
571.25	0.1484806714	0.671925444	
571.875	-0.1836360372	-0.05247191158	
572.5	0.6373162239	0.1207546232	
573.125	-0.1499706634	-0.3754762371	
573.75	0.3175592117	0.04671911344	
574.375	0.03002325493	-0.527054585	
575.0	-0.0637991548	0.1949065205	
575.625	0.3265067795	-0.3778918206	
576.25	-0.2160299343	-0.3008895723	
576.875	0.2905928756	-0.1550763894	
577.5	-0.03149355579	-0.6656861517	
578.125	-0.2812673656	-0.2026745882	
578.75	0.03695459308	-0.2485146526	
579.375	-0.3091840955	-0.374202168	
580.0	-0.1559189476	0.2003518438	
580.625	-0.126313414	-0.3528948771	
581.25	-0.2776339098	0.4584463216	
581.875	0.07598484405	0.01648421568	
582.5	-0.2368219712	0.534380166	
583.125	0.6510930941	0.1740168357	
583.75	-0.3488888351	-0.01409142505	
584.375	0.5454785659	0.2753246996	
585.0	-0.1881147017	-0.06024804725	
585.625	0.6234250894	0.3134808149	
586.25	0.2860234943	-0.472272763	
586.875	0.119373216	-0.007714348739	
587.5	0.1149950884	-0.5891201932	
588.125	-0.3357321192	-0.2114802356	
588.75	0.3670052602	-0.1591051495	
589.375	0.1776815299	-0.6352718165	
590.0	-0.1261109157	-0.1323079854	
590.625	-0.4012989073	-0.3419632765	
591.25	-0.3590492866	0.4421093732	
591.875	0.02964909931	0.1656904156	
592.5	-0.1664038529	0.1025910258	
593.125	0.1377757201	0.1483551616	
593.75	-0.1981034928	0.2785571747	
594.375	0.7011464473	0.3748982245	
595.0	0.2383315433	-0.1132340344	
595.625	0.214343477	0.5525817626	
596.25	0.8042507691	-0.1609758296	
596.875	-0.1130160901	0.2068574111	
597.5	0.662674837	0.4741248692	
598.125	0.3644399369	-0.07636255108	
598.75	0.1965008212	0.4859028962	
599.375	0.6861809248	-0.220267532	
600.0	0.1788472919	-0.2703366377	
600.625	0.4801487241	-0.2651835858	
601.25	0.1430222201	-0.6344592462	
601.875	-0.09868062714	-0.1514923917	
602.5	-0.3580195159	-0.1646220655	
603.125	-0.2150784392	0.1528162372	
603.75	-0.259293679	0.1850146452	
604.375	-0.2145917767	0.07837932316	
605.0	-0.288813591	0.2855639386	
605.625	0.07973918974	0.01944798374	
606.25	-0.6305297658	0.1309159223	
606.875	-0.09714217828	0.4196697618	
607.5	-0.5727400298	-0.04989289584	
608.125	0.07846639021	1.078367133	
608.75	0.1071311073	0.04405787568	
609.375	0.8044619792	0.2660313966	
610.0	0.2289888438	-0.644714891	
610.625	0.4064549445	0.02661604775	
611.25	-0.1438003444	-0.6532126503	
611.875	-0.01239911892	-0.07876159961	
612.5	-0.586730387	-0.390517796	
613.125	-0.15772817	0.2464047417	
613.75	-0.4756968416	0.2302758037	
614.375	0.393661746	0.2984805824	
615.0	-0.2868536935	0.1207168429	
615.625	0.3439839735	0.2549418123	
616.25	-0.3074313723	0.04490281493	
616.875	-0.3254444282	0.7534356382	
617.5	0.1918332345	0.3166635555	
618.125	-0.4086834201	0.5055082445	
618.75	0.3041398138	0.5638325645	
619.375	0.02109840016	0.2360390201	
620.0	0.6152860483	0.1851441709	
620.625	0.1419726563	-0.2794942522	
621.25	-0.1252251149	-0.5581081724	
621.875	-0.4340315425	-0.06881113417	
622.5	-0.5422574757	-0.08284386219	
623.125	0.05946830147	0.6250469795	
623.75	-0.05643022006	0.07293345886	
624.375	0.3933768863	-0.3643895489	
625.0	-0.09506798216	0.2369261189	
625.625	0.3898681809	-0.5099939312	
626.25	-0.3266660318	0.1092827129	
626.875	-0.08773567001	-0.5690896509	
627.5	-0.6289647023	0.02633295771	
628.125	-0.004497108022	-0.01184939286	
628.75	-0.09238547462	-0.5729256836	
629.375	-0.4150153576	-0.1686752017	
630.0	-0.2202458599	-0.3261757663	
630.625	-0.68649404	0.09464920254	
631.25	-0.1689290646	0.518730641	
631.875	-0.2040416444	0.4124157282	
632.5	0.4151209254	0.5951750476	
633.125	0.4692734617	0.06116808112	
633.75	0.3118691624	-0.101709797	
634.375	0.3314356852	-0.3153701073	
635.0	-0.3091173882	-0.3108238171	
635.625	-0.02430800921	-0.3489062984	
636.25	-0.6622965983	0.271397531	
636.875	0.1997701903	0.2903922582	
637.5	-0.5581336468	-0.06697094154	
638.125	0.2798929799	0.5188606938	
638.75	-0.4257514378	-0.05873373287	
639.375	-0.05271344187	1.046640262	
640.0	0.5644186092	0.200852234	
640.625	0.1068929451	0.541728149	
641.25	1.021746932	-0.003682947447	
641.875	0.05203112987	-0.5321937406	
642.5	0.3138301969	-0.2621545059	
643.125	-0.6308624826	-0.5970112883	
643.75	0.04775044411	0.1975315632	
644.375	-0.6268393764	-0.3057689942	
645.0	-0.246349116	0.5987691695	
645.625	0.1276278314	0.1989095625	
646.25	0.205206869	0.5563891182	
646.875	0.4521218829	-0.3853098841	
647.5	-0.2164713944	0.2779374226	
648.125	0.8158648184	0.1270071874	
648.75	0.02731458081	-0.4469785823	
649.375	1.099327794	0.04003905377	
650.0	0.2718522099	-1.460500935	
650.625	-0.1992339001	-0.1261765812	
651.25	1.200304471	-0.3067265446	
651.875	0.4164227077	-1.19047918	
652.5	0.1427477189	0.2635386788	
653.125	1.192452693	-0.1766755943	
653.75	0.050912217	-0.8327166381	
654.375	0.2262290414	-0.2793883688	
655.0	-1.070210473	-0.670839604	
655.625	-0.07352627968	0.6784119932	
656.25	-0.2027722263	0.04082547338	
656.875	0.261741808	0.5656918607	
657.5	-0.008248849092	-0.2047011563	
658.125	0.2374202303	0.8160636817	
658.75	0.8817759912	-0.02823893228	
659.375	0.4655470069	-0.3528833311	
660.0	0.7912279054	-0.2638652829	
660.625	0.2788093046	-1.394126291	
661.25	-0.02190201931	-0.1982106513	
661.875	1.034226735	-0.4743113234	
662.5	0.5375397481	-0.9747036402	
663.125	0.1439012848	0.001392796532	
663.75	0.9420181079	-0.9798731717	
664.375	-0.566926046	-0.5358416642	
665.0	-0.1356985801	-0.5894731354	
665.625	-1.126882913	0.1961493372	
666.25	0.1564177972	0.6231350705	
666.875	-0.1034722299	0.5020103486	
667.5	0.7024716648	0.317301161	
668.125	0.2385824769	-0.2410783781	
668.75	0.6695414941	0.01627392046	
669.375	0.07893011574	-0.8495373109	
670.0	-0.001819591999	-0.2477408491	
670.625	0.211437185	-0.4819957806	
671.25	0.03299267653	-0.6271423245	
671.875	0.06256394392	-0.1343145919	
672.5	0.8282746663	-0.2666227759	
673.125	0.3396627017	-0.7210207818	
673.75	0.1650516652	-0.1692453961	
674.375	0.6126063343	-0.7899195851	
675.0	-0.8508317062	-0.4482823531	
675.625	0.255394292	-0.3723489896	
676.25	-0.9677573002	-0.1998556622	
676.875	-0.00799397185	0.4568885306	
677.5	-0.5459295247	-0.5166368135	
678.125	-0.1657368829	0.856601893	
678.75	-0.03562511956	0.1392639308	
679.375	0.4182317023	0.5598154158	
680.0	0.5287838817	-0.6171474042	
680.625	-0.1858679856	0.1952970706	
681.25	0.5946916819	-0.09828354906	
681.875	0.2298350975	-0.1371836251	
682.5	0.2082908582	0.3600389589	
683.125	0.8383245529	0.3362205376	
683.75	0.5898545733	-0.1459938296	
684.375	0.3300296146	0.1863438309	
685.0	1.013480618	0.5046971009	
685.625	0.599188252	-0.7843214337	
686.25	0.4009018432	0.8773037883	
686.875	1.217064299	-1.2239353	
687.5	-0.09634830402	-0.01561242487	
688.125	0.7264124867	-1.451600869	
688.75	-1.767395257	0.10884481	
689.375	-0.3612634573	-0.1828272114	
690.0	0.3058473028	1.621747665	
690.625	0.5850464704	0.06203430876	
691.25	0.398556851	1.053256568	
691.875	1.472459778	0.5489430573	
692.5	1.073834192	0.4299089862	
693.125	1.652678652	0.06154484809	
693.75	1.328249929	-0.6870828796	
694.375	1.046248703	-0.8209582624	
695.0	0.9419449183	-0.7775391787	
695.625	1.15104597	0.1703097778	
696.25	1.609295508	0.05558200604	
696.875	0.382710458	0.6021555824	
697.5	1.331741072	1.902374526	
698.125	1.227441025	-0.392870094	
698.75	1.541210758	-0.181589427	
699.375	-1.657022777	-1.241731896	
700.0	0.06986659249	0.4292735243	
700.625	0.1571285678	1.552102068	
701.25	0.5952232521	-0.1440635164	
701.875	0.1869531148	0.9974553396	
702.5	1.386756362	0.2774761287	
703.125	0.4493164285	0.4613562307	
703.75	1.374889798	-0.2823219236	
704.375	0.1245607577	-0.6132778304	
705.0	1.053300379	0.1617532172	
705.625	0.6038810194	-0.6421142601	
706.25	0.03173282124	0.6432624664	
706.875	1.213371845	1.131861262	
707.5	0.3882705889	0.09623535464	
708.125	1.270267291	0.9114387848	
708.75	0.5413400504	-1.342365411	
709.375	-0.2691452673	-0.471151949	
710.0	-0.8989453455	0.5415921281	
710.625	0.3933978703	0.2021603575	
711.25	0.1131719862	0.439949174	
711.875	0.5067850099	0.1518233964	
712.5	0.8535290403	0.04020992437	
713.125	0.5070310815	-0.4715278361	
713.75	0.4707534192	-0.3863731313	
714.375	-0.07845441189	-0.84155535	
715.0	-0.1324433864	0.001619337489	
715.625	0.5113125621	-1.058535124	
716.25	-0.4679130392	-0.6436884581	
716.875	1.099025895	0.4405868489	
717.5	2.456612037	-0.6294724993	
718.125	-0.1798807499	-0.7560804739	
718.75	3.644295838	1.259952461	
719.375	1.172027516	-2.771214165	
720.0	0.9501908301	-0.6038833209	
720.625	1.942438383	-3.952454224	
721.25	-1.398436274	-1.812873555	
721.875	0.5280560557	-2.381952225	
722.5	-1.874494801	-2.3423371	
723.125	-1.960017038	0.2324432008	
723.75	-0.9001710562	0.5080101538	
724.375	0.01912064848	1.60805177	
725.0	0.5638587877	0.53915453	
725.625	0.1311062437	0.9035392172	
726.25	-0.07905666879	2.226625345	
726.875	1.351769117	2.246297074	
727.5	-1.931375493	1.850037432	
728.125	-0.0523600546	8.663965499	
728.75	7.190829558	5.622980095	
729.375	-8.041097812	2.811049366	
730.0	3.194922112	22.40088307	
730.625	3.567991591	1.238413466	
731.25	-12.7822615	9.112251586	
731.875	-3.466590301	16.62967244	
732.5	-2.346512675	-2.386772959	
733.125	-10.29445678	0.1010629631	
733.75	-1.270366135	4.045561648	
734.375	1.243746432	0.2608043297	
735.0	1.284478769	-2.021571383	
735.625	-0.9618033484	1.385408641	
736.25	-0.8466367557	0.6188239822	
736.875	1.245987434	2.034146427	
737.5	3.325267997	-0.6281588705	
738.125	1.125587348	0.007562225778	
738.75	9.054164735	-3.258815319	
739.375	3.713910336	-10.47913835	
740.0	-2.298254616	2.854795011	
740.625	25.89272685	4.465707706	
741.25	28.09388879	-6.211762609	
741.875	-16.39089339	-18.81094597	
742.5	-11.37639608	-9.034423715	
743.125	-0.08223507998	2.294531744	
743.75	2.75079274	-5.086299249	
744.375	-1.700771235	0.9479292441	
745.0	-0.2340529919	-0.136198307	
745.625	0.4906086285	-0.03055525323	
746.25	-0.1994750366	-0.02431743711	
746.875	-0.8132559534	-0.3680444527	
747.5	-0.1169239041	1.142356558	
748.125	0.6225079266	1.02118318	
748.75	0.3176333069	1.477488074	
749.375	1.6020821	1.839516351	
750.0	0.7802959918	-0.1814538786	
