!Created with skrf (http://scikit-rf.org).
# GHz S RI R (50+0j) 
!freq	ReS11	ImS11	
500.0	-0.2769866148	-0.6542318359	
500.625	0.6327271166	-0.5471659859	
501.25	-0.6524755421	-0.5192117106	
501.875	-0.09630303406	-0.1100606721	
502.5	-0.01839068661	-0.1933539099	
503.125	-0.05528179861	0.04862954923	
503.75	-0.04995454985	0.03523743848	
504.375	0.05075801769	-0.02385659648	
505.0	-0.007953357198	0.01237894562	
505.625	0.02111165703	-0.08659715521	
506.25	-0.08280906689	0.04746822327	
506.875	-0.09988515642	-0.2142893207	
507.5	-0.4374382607	-0.1536924213	
508.125	0.2291597472	-0.1921523897	
508.75	0.7528225088	-0.9628530163	
509.375	-0.5358805592	-0.7752339818	
510.0	-0.09294838711	-0.2622011599	
510.625	-0.1187397289	-0.198940769	
511.25	-0.06413122184	0.01045072266	
511.875	-0.07860508832	-0.06640261285	
512.5	-0.01190470569	0.05923294358	
513.125	-0.02378437313	-0.002345075917	
513.75	-0.01108025617	-0.08067006569	
514.375	-0.1194373477	0.1255553123	
515.0	0.3270116834	-0.1912562607	
515.625	-0.5201138451	-0.01217503478	
516.25	0.3035418965	-0.2858019437	
516.875	-0.4834655022	-0.5880277783	
517.5	-0.1152284322	0.002742074483	
518.125	0.00496589053	-0.07428946768	
518.75	-0.08912850016	-0.06427386759	
519.375	-0.04162045023	0.01520844845	
520.0	0.09543027072	0.06501466631	
520.625	0.1030625742	-0.06364687493	
521.25	-0.04620541098	-0.1616239351	
521.875	-0.07724376311	0.01435450774	
522.5	-0.06390763371	0.03780235661	
523.125	0.01232589902	-0.02810768746	
523.75	-0.1805664963	-0.01872992527	
524.375	-0.01680563298	0.1227498041	
525.0	-0.1285439991	0.03245683731	
525.625	0.1219868905	0.09467254001	
526.25	-0.09049960905	-0.03156359121	
526.875	0.008577379878	0.08203212453	
527.5	-0.08231827881	0.07572906658	
528.125	0.1296050106	0.2725889325	
528.75	0.1140686347	0.1406663415	
529.375	0.006763298168	0.07226037089	
530.0	0.08547864628	0.1526577503	
530.625	0.1388017993	0.2575835069	
531.25	0.1876969485	0.0557549427	
531.875	0.240804921	-0.2053544238	
532.5	-0.07982809298	-0.02013018113	
533.125	0.2171155139	-0.1271293591	
533.75	-0.04570076768	-0.1065931069	
534.375	0.0149913137	-0.2777107443	
535.0	-0.2955150408	-0.04307260817	
535.625	-0.07027664066	0.06349764348	
536.25	-0.02590187714	0.09479708785	
536.875	0.09789020916	-0.02058894161	
537.5	0.04360804536	-0.001805628181	
538.125	0.129215842	-0.08223342783	
538.75	0.07469953567	-0.09801580844	
539.375	-0.03495205637	-0.1544046389	
540.0	-0.1599459133	-0.1320100657	
540.625	-0.1528735512	0.007875314198	
541.25	-0.02180255457	-0.005596956867	
541.875	-0.09430442615	-0.03820024007	
542.5	-0.0055255948	-0.02296984058	
543.125	-0.1073066569	-0.1234503372	
543.75	-0.03762325749	0.106881702	
544.375	-0.08169710182	-0.01878117028	
545.0	0.05251857159	0.09552092355	
545.625	-0.03255312115	0.02115722616	
546.25	0.1382495195	0.06988775969	
546.875	0.04900898903	-0.07625243627	
547.5	0.09590831718	-0.05859652967	
548.125	-0.06684042191	-0.201272639	
548.75	-0.09541159827	-0.03248559959	
549.375	-0.06639302145	-0.09725288917	
550.0	-0.09821456784	0.03608210819	
550.625	-0.01368328897	-0.008767945143	
551.25	-0.09436829221	0.03733864866	
551.875	-0.03623897516	0.06555531699	
552.5	-0.05288333506	0.04962957068	
553.125	0.002473606626	0.07610169293	
553.75	0.02917596008	0.03095168016	
554.375	0.09468853704	6.056594509e-05	
555.0	0.0770478614	-0.07303537971	
555.625	0.07233335363	-0.08986203737	
556.25	0.05506326139	-0.1291774184	
556.875	-0.0432651118	-0.135558962	
557.5	-0.08712639733	-0.08663039687	
558.125	-0.1040640513	-0.03723445148	
558.75	-0.1034316008	0.004730747946	
559.375	-0.08894787286	0.02240711794	
560.0	-0.09621362954	0.06063579464	
560.625	-0.03639635728	0.119229306	
561.25	0.01112361331	0.06350392944	
561.875	0.02463414606	0.07174234718	
562.5	0.02348221301	0.01404753191	
563.125	0.04987756258	0.09517920968	
563.75	0.1484258611	-0.03291257696	
564.375	0.07140465644	-0.0651650424	
565.0	0.1123504157	-0.1377096762	
565.625	-0.09852170814	-0.1440387782	
566.25	-0.04609144287	-0.06882202551	
566.875	-0.1775282482	-0.1389776743	
567.5	-0.1385320233	0.005536103631	
568.125	-0.04773816669	-0.1831743386	
568.75	-0.2971826614	-0.03354154976	
569.375	-0.09726829387	0.07506770013	
570.0	-0.1988980885	0.1391100344	
570.625	-0.002309130123	0.2372588492	
571.25	-0.009004737407	0.00940436949	
571.875	0.0951577329	0.1491126013	
572.5	0.04083276192	-0.08371110288	
573.125	0.1341255682	-0.01275902434	
573.75	0.03338041003	-0.2055711919	
574.375	-0.05033440644	0.0212609093	
575.0	0.1131747191	-0.07556692604	
575.625	-0.05256818897	-0.0652246427	
576.25	0.09675016799	-0.02602864246	
576.875	-0.009931253941	-0.2183820231	
577.5	-0.09669981311	-0.09365728681	
578.125	0.0633228355	-0.08852159881	
578.75	-0.1101405404	-0.2335516903	
579.375	-0.1100294772	0.108986215	
580.0	0.05229780842	-0.136513042	
580.625	-0.1451566672	0.08010362581	
581.25	-0.02399920355	-0.065311949	
581.875	-0.0656836285	0.2774489098	
582.5	0.1714764598	0.09150618737	
583.125	-0.05308159317	0.01479238693	
583.75	0.1311010087	0.0920203639	
584.375	-0.04288033823	-0.05448237306	
585.0	0.1490878783	0.1659988584	
585.625	0.1651278604	-0.09441138635	
586.25	0.05902187219	0.01489602967	
586.875	0.1379086242	-0.1589239885	
587.5	-0.09784939332	-0.1156712734	
588.125	0.05203217172	-0.06538610439	
588.75	0.07142929706	-0.2028092498	
589.375	-0.04077621601	-0.1300503753	
590.0	0.08093531677	-0.1346730036	
590.625	-0.3060689558	-0.02238829077	
591.25	0.02643092739	0.08406365292	
591.875	-0.142449582	0.03692882035	
592.5	0.1421084263	0.1476458224	
593.125	-0.1690872006	-0.02724813417	
593.75	0.2048309009	0.08740603941	
594.375	0.02494649965	0.02329569334	
595.0	0.1291691366	0.1965705288	
595.625	0.2268708459	0.01771332288	
596.25	0.03628714119	0.03955120241	
596.875	0.1879540185	0.1029208645	
597.5	0.1224426565	-0.008779082141	
598.125	0.05801440467	0.1092754739	
598.75	0.1994383702	0.1100242092	
599.375	0.1588345229	-0.07393670348	
600.0	0.138912052	-0.05889703681	
600.625	0.1888091456	-0.1736520161	
601.25	0.003191960747	-0.2195080566	
601.875	0.02602418051	-0.05479315241	
602.5	-0.2502444438	-0.03869773095	
603.125	0.01521751128	0.08430455874	
603.75	-0.1486055573	-0.0488096263	
604.375	-0.1136220968	0.1954454043	
605.0	-0.01960863608	-0.07723493758	
605.625	-0.1637868398	0.1002131355	
606.25	-0.001077191342	0.08741841864	
606.875	-0.2271869451	0.01717702174	
607.5	-0.1249078913	0.2239646932	
608.125	-0.009963591513	0.165909279	
608.75	0.1448544599	0.1672753993	
609.375	0.2406201135	-0.03754711336	
610.0	0.1590253284	-0.130737651	
610.625	0.09764142422	-0.09421432312	
611.25	-0.009984153423	-0.2054500186	
611.875	-0.1020545014	-0.03567917772	
612.5	-0.1029957476	-0.1409619047	
613.125	-0.2679737687	0.1194966211	
613.75	0.0134327802	0.03696877503	
614.375	-0.02311413673	0.1885243488	
615.0	0.124115326	-0.0336316279	
615.625	-0.08159857462	0.1682121609	
616.25	0.06755261543	0.1724448735	
616.875	-0.05373270913	0.08006966414	
617.5	-0.1066894587	0.2413927431	
618.125	-0.01475223706	0.1096788863	
618.75	0.003302494095	0.2100824278	
619.375	0.08432053666	0.1121953454	
620.0	0.1860699878	0.09832468941	
620.625	0.02455904236	-0.1666708287	
621.25	-0.006605420074	-0.145399274	
621.875	-0.2944933841	-0.1226130549	
622.5	-0.1139791979	0.08532786796	
623.125	-0.1593499713	0.1462635739	
623.75	0.2070747939	0.02152044635	
624.375	-0.03828697723	-0.003181189152	
625.0	0.1022578004	-0.08160284773	
625.625	-0.01028430659	-0.03066661988	
626.25	0.01118909391	-0.1606649524	
626.875	-0.1892272788	-0.05651164733	
627.5	-0.08761012594	-0.01040769	
628.125	-0.1043578352	-0.09336316373	
628.75	-0.09620837574	-0.09831188454	
629.375	-0.08207935677	-0.1114175662	
630.0	-0.1097642505	-0.1267979611	
630.625	-0.2558260318	0.1044294488	
631.25	-0.02946839437	0.1510289946	
631.875	-0.08407136914	0.2271409508	
632.5	0.2460242227	0.1830001509	
633.125	0.0799135687	0.001132733272	
633.75	0.2798378036	0.004364152781	
634.375	-0.07936199336	-0.1817144264	
635.0	0.08133611284	-0.07990579207	
635.625	-0.2276419405	-0.1145184104	
636.25	-0.06156940676	0.1033257697	
636.875	-0.112837079	0.03047016443	
637.5	-0.01143966274	0.1943346052	
638.125	-0.0150131742	-0.02623588161	
638.75	-0.1272365337	0.2106899542	
639.375	0.1025248606	0.2302677333	
640.0	0.07634770538	0.1426294958	
640.625	0.2019991925	0.211952075	
641.25	0.2869962834	-0.09471596434	
641.875	0.04902624668	-0.1109355133	
642.5	0.09348379016	-0.2421135458	
643.125	-0.281011902	-0.01871224106	
643.75	0.05580039668	-0.08488524313	
644.375	-0.3317382947	-0.004298687747	
645.0	0.07991323352	0.1827038884	
645.625	-0.2191568967	0.1761013396	
646.25	0.3881360956	0.08020374626	
646.875	-0.1315886041	-0.08529668105	
647.5	0.1998829197	0.1492421466	
648.125	0.09509324971	-0.1187365229	
648.75	0.1947330634	0.1286806188	
649.375	0.3036662886	-0.4091333783	
650.0	-0.06437249555	-0.2395911008	
650.625	0.2109816502	-0.1297508638	
651.25	0.2549926416	-0.3604001663	
651.875	0.02849828923	-0.1939611197	
652.5	0.2637570908	0.05130140381	
653.125	0.335130048	-0.2206393204	
653.75	0.0004467600402	-0.1946095582	
654.375	0.1580463157	-0.2604185367	
655.0	-0.472051702	-0.03642528256	
655.625	0.04701350889	0.158779365	
656.25	-0.168129457	0.1281419394	
656.875	0.305299143	0.1052745506	
657.5	-0.2062982587	0.02926869824	
658.125	0.3378564098	0.2439014878	
658.75	0.1530540672	-0.1209470067	
659.375	0.2534034399	0.02771654157	
660.0	0.3193700121	-0.4291819107	
660.625	-0.1082231145	-0.2445398178	
661.25	0.2530972676	-0.1591446299	
661.875	0.2211634766	-0.3516230654	
662.5	0.06793941402	-0.2217319538	
663.125	0.2833605845	-0.05219671313	
663.75	0.09615807159	-0.4023877892	
664.375	-0.08994722686	-0.1668021677	
665.0	-0.1780182583	-0.248691537	
665.625	-0.3779650284	0.1565308956	
666.25	0.04688751917	0.1734119111	
666.875	-0.02682047196	0.2530920432	
667.5	0.3091930639	0.02629818562	
668.125	0.02944282299	-0.02661836026	
668.75	0.3378756521	-0.1012861949	
669.375	-0.1146918962	-0.2715895176	
670.0	0.08910136365	-0.0617596887	
670.625	0.05557561694	-0.2922227902	
671.25	-0.1330203841	-0.1219552167	
671.875	0.2412330721	-0.03832879167	
672.5	0.2053759376	-0.2879221701	
673.125	0.06362066224	-0.1485853207	
673.75	0.1803514008	-0.1220888645	
674.375	0.003519835641	-0.3949914273	
675.0	-0.113260538	-0.0487153138	
675.625	-0.1056537627	-0.2051642265	
676.25	-0.25859886	0.02342643505	
676.875	-0.0426661153	0.05255230145	
677.5	-0.2120745465	-0.07877297351	
678.125	-0.05376331836	0.2739824409	
678.75	0.02404555186	0.02776355822	
679.375	0.1908286149	0.2494532721	
680.0	0.1653661881	-0.3168772505	
680.625	-0.06466099615	0.1719402423	
681.25	0.3292169295	-0.1435552033	
681.875	-0.01973407138	-0.1227039386	
682.5	0.1546905051	0.37121868	
683.125	0.4834185439	-0.09491821301	
683.75	-0.005451615135	-0.06081946055	
684.375	0.387793304	0.1381010395	
685.0	0.3313617656	-0.08628091403	
685.625	0.07512504088	-0.05146909317	
686.25	0.416425472	0.06712289327	
686.875	0.146374637	-0.2322450387	
687.5	0.1824111463	-0.1868582829	
688.125	0.03968913946	-0.4504564446	
688.75	-0.5041949549	-0.04600462165	
689.375	-0.1212139515	0.2167215734	
690.0	0.02775518472	0.4531211902	
690.625	0.4175454012	0.07588598643	
691.25	0.03759829917	0.2210355663	
691.875	0.6824157221	0.385780772	
692.5	0.4281004248	-0.1308784286	
693.125	0.5909819291	0.2111416518	
693.75	0.6873734851	-0.383761749	
694.375	0.09604320584	-0.3886837294	
695.0	0.6804568489	-0.2499220052	
695.625	0.4779535502	-0.3050360621	
696.25	0.3421365085	0.2351088353	
696.875	0.4446012942	0.3448879619	
697.5	0.487912272	0.3403023036	
698.125	0.4728457255	0.09967061515	
698.75	0.1719570369	-0.390548384	
699.375	-0.3864826875	-0.3795784671	
700.0	-0.143412223	0.4481498096	
700.625	0.003542736392	0.1883723672	
701.25	0.4179685676	0.2253207074	
701.875	0.1561820199	0.05103744668	
702.5	0.3004094606	0.3583599931	
703.125	0.5034345567	-0.02732802018	
703.75	0.2031752478	-0.01303349284	
704.375	0.3846870395	-0.2009679623	
705.0	0.1379453951	-0.2447777076	
705.625	0.2965421804	0.09827298386	
706.25	0.2953255265	0.07839824945	
706.875	0.17951709	0.1745038239	
707.5	0.346278824	0.2942439416	
708.125	0.1883399319	0.1006413581	
708.75	0.3019997181	-0.387716284	
709.375	-0.3140672715	-0.05683827275	
710.0	-0.2351488345	0.02522000423	
710.625	0.186264004	0.1462081119	
711.25	-0.05320729565	0.08044131763	
711.875	0.3224301024	0.1247453042	
712.5	0.1239897743	-0.1464975156	
713.125	0.3019545603	-0.0625425551	
713.75	0.1018335599	-0.3320024059	
714.375	-0.05891813623	-0.1224445869	
715.0	0.04776531343	-0.2101775665	
715.625	-0.09389156272	-0.2407093107	
716.25	0.07814556767	-0.1538245155	
716.875	0.3334059067	-0.1335119073	
717.5	0.4438794778	-0.1575256856	
718.125	0.4834939906	-0.1247768685	
718.75	0.548787498	0.07666732689	
719.375	0.6970902516	-0.5724680182	
720.0	-0.1199381353	-0.3733569706	
720.625	0.760300702	-0.8752456356	
721.25	-0.9067510357	-0.8517477509	
721.875	0.2261759468	-0.5125369184	
722.5	-0.7853692587	-0.8951998154	
723.125	-0.6783434146	0.3479857982	
723.75	-0.3647198666	0.03112995611	
724.375	0.1080324264	0.6695354876	
725.0	0.1892762152	0.04867058465	
725.625	-0.0134148743	0.4472698829	
726.25	0.2189716459	0.7577191398	
726.875	0.2493639526	0.5517492744	
727.5	-0.4406064268	1.038467576	
728.125	0.3368749372	2.035266019	
728.75	0.5798001024	1.726218154	
729.375	-1.333663354	2.17492052	
730.0	0.6691888627	4.293603469	
730.625	1.657050058	2.28539814	
731.25	-2.058096214	1.855768398	
731.875	-2.278865434	4.020735364	
732.5	0.09632910253	1.386701237	
733.125	-2.847921169	-0.4369046203	
733.75	-0.1655850975	1.947097042	
734.375	0.3175515429	-0.1622695432	
735.0	0.4508874696	-0.6912050467	
735.625	-0.2930339117	0.708337644	
736.25	-0.3167554939	0.08155869615	
736.875	0.5614138257	0.7640694233	
737.5	0.9382253578	-0.4083381628	
738.125	0.4072709679	-0.05843940161	
738.75	2.649956911	-0.9242103611	
739.375	0.8297015278	-2.76277201	
740.0	0.3125634628	0.4016132003	
740.625	4.786072333	2.185167623	
741.25	3.896491943	-0.7305196025	
741.875	-2.619547219	-3.081663623	
742.5	-3.200614655	-2.687863581	
743.125	-1.074008527	-0.4816208855	
743.75	0.776184352	-0.7898671591	
744.375	-0.8215650492	0.04634394991	
745.0	0.07515626347	-0.1506343962	
745.625	0.1840227802	0.02650791313	
746.25	-0.1130556049	0.03011092417	
746.875	-0.1509384067	-0.1133651598	
747.5	-0.03174079313	0.4353954339	
748.125	0.2443565544	0.2662548635	
748.75	0.1351697366	0.373283918	
749.375	0.08484429404	0.4887471847	
750.0	-0.01733745363	0.3162141615	
