!Created with skrf (http://scikit-rf.org).
# GHz S RI R (50+0j) 
!freq	ReS11	ImS11	
500.0	-0.2440902069	-1.844216015	
500.625	0.1937774075	-0.554526552	
501.25	-0.7634778962	-1.463085111	
501.875	-0.7107588412	-0.2879253225	
502.5	0.006341974151	-0.1545742646	
503.125	-0.1704725141	0.04465303411	
503.75	0.05430992955	0.02226736614	
504.375	0.06308116814	0.02357480445	
505.0	-0.01721219602	-0.0602049448	
505.625	0.08262661927	-0.05310241178	
506.25	-0.2000858166	-0.1424679215	
506.875	0.1677240411	-0.1159104369	
507.5	-0.1755389936	-0.887896176	
508.125	-0.3726236021	-0.553995894	
508.75	1.361204092	-0.9209952749	
509.375	0.02186861262	-2.230146109	
510.0	-0.6084617314	-0.06820230787	
510.625	-0.07405263156	-0.3557931095	
511.25	-0.2767080494	-0.1036003638	
511.875	-0.08555579755	-0.0699842197	
512.5	-0.04136360012	0.07278371377	
513.125	-0.06284147031	-0.1132209166	
513.75	0.0002873231293	-0.03560948518	
514.375	-0.186169557	-0.09505356179	
515.0	0.1531926444	0.332887552	
515.625	-0.04580247581	-1.31488363	
516.25	-0.3024577947	0.09486203344	
516.875	0.2420037767	-0.598951929	
517.5	-0.1516950347	-0.412570884	
518.125	0.02407995864	0.06982765701	
518.75	-0.211325682	-0.2254407927	
519.375	-0.03664473833	0.08194154	
520.0	0.1175905754	0.1025247067	
520.625	0.3031024793	-0.04872729696	
521.25	0.01426779616	-0.2835753374	
521.875	-0.07131951918	-0.008406830145	
522.5	-0.1637296923	-0.004850459267	
523.125	0.11031684	0.09434261432	
523.75	-0.1150227777	-0.1506697754	
524.375	-0.2588577573	0.2399511524	
525.0	0.03137471629	0.006930261026	
525.625	-0.03897351177	0.1482322487	
526.25	0.02347212348	-0.1330250469	
526.875	-0.1448333021	0.1509640838	
527.5	0.07519354272	0.171230927	
528.125	-0.08242040984	0.2218709285	
528.75	0.2106468488	0.3218149965	
529.375	0.07139623773	-0.03925051015	
530.0	0.05810272203	0.271248854	
530.625	0.1993100146	0.3687572258	
531.25	0.3020885328	0.1475178603	
531.875	0.4436790754	-0.2905328793	
532.5	-0.2139203373	-0.2684929442	
533.125	0.2751576267	-0.113409774	
533.75	-0.04559825105	-0.4574681873	
534.375	-0.02527768526	-0.2595720946	
535.0	-0.4408832351	-0.1924684877	
535.625	-0.1080176632	0.2037283794	
536.25	-0.04017445918	0.09401309985	
536.875	0.1791881323	0.02488926051	
537.5	0.02920576562	-0.07236348128	
538.125	0.2086409148	-0.00651079814	
538.75	0.1300035482	-0.2351359243	
539.375	-0.04381175798	-0.1406167977	
540.0	-0.2021385528	-0.2450847681	
540.625	-0.2524569637	0.01844998086	
541.25	-0.03013455992	-0.01451904852	
541.875	-0.1467412855	-0.05565333556	
542.5	-0.06024871029	0.00490070275	
543.125	-0.05998738018	-0.1167639301	
543.75	-0.174749508	0.07684468863	
544.375	-0.01678973376	-0.005806953948	
545.0	-0.007860870935	0.1433243109	
545.625	0.05561811282	-0.001300708657	
546.25	0.07388009354	0.1594637582	
546.875	0.1867210841	-0.1150407973	
547.5	0.03980587941	-0.08198955055	
548.125	0.009590023849	-0.2590863105	
548.75	-0.2328875293	-0.113818393	
549.375	-0.07389920477	-0.04864767623	
550.0	-0.1573526946	-0.02179597364	
550.625	-0.01789640555	0.0416171406	
551.25	-0.1258264751	-0.001260511616	
551.875	-0.06905078662	0.1358534826	
552.5	-0.03905089522	0.06984239852	
553.125	-0.02273550655	0.1101674123	
553.75	0.06653122985	0.03805035374	
554.375	0.1215724128	0.004644238357	
555.0	0.1283779094	-0.1068885841	
555.625	0.100162388	-0.1399539957	
556.25	0.08599073612	-0.1824223352	
556.875	-0.05144541829	-0.212661946	
557.5	-0.1322803018	-0.1265677144	
558.125	-0.1468901702	-0.04801670198	
558.75	-0.149808539	-0.008228180169	
559.375	-0.1418165532	0.04353584251	
560.0	-0.1151724006	0.08347770831	
560.625	-0.08311445306	0.1598861073	
561.25	0.05741960556	0.1239227707	
561.875	-0.002747610172	0.05782000424	
562.5	0.06239509915	0.07014048637	
563.125	0.04298109894	0.08588598406	
563.75	0.2359922506	0.01656984096	
564.375	0.1103175719	-0.1635477257	
565.0	0.1059348648	-0.1237273903	
565.625	-0.07139770219	-0.2599806705	
566.25	-0.169452181	-0.03545261206	
566.875	-0.1370388919	-0.1563442855	
567.5	-0.2607058884	-0.1199683014	
568.125	-0.1124202943	-0.09901008989	
568.75	-0.3468383606	-0.2124400575	
569.375	-0.2679512307	0.2544649307	
570.0	-0.1208011624	0.1500674618	
570.625	-0.1665822615	0.3039917775	
571.25	0.1477921669	0.09602952522	
571.875	-0.01717076474	0.1543490945	
572.5	0.2368293074	-0.09239359088	
573.125	0.00378358966	-0.04879203761	
573.75	0.2063313898	-0.1578470197	
574.375	-0.1009016026	-0.1654282399	
575.0	0.09160444402	0.05423256362	
575.625	0.02549907004	-0.2138387077	
576.25	-0.01536743624	-0.04436876016	
576.875	0.1055366756	-0.2153521634	
577.5	-0.08644438606	-0.2809468778	
578.125	-0.07100332576	-0.08740517303	
578.75	0.02692766232	-0.2336719163	
579.375	-0.2590477739	-0.1184769205	
580.0	0.05582794202	0.04550084326	
580.625	-0.2506397071	-0.1330566175	
581.25	0.06480557219	0.1744718969	
581.875	-0.1408484761	0.1158083782	
582.5	0.1039257485	0.344772032	
583.125	0.1446109832	-0.08011616392	
583.75	-0.05449510364	0.1265755476	
584.375	0.1466473672	-0.05050766069	
585.0	0.0003764923389	0.1066120335	
585.625	0.3586051776	-0.006715098452	
586.25	0.09338738386	-0.1826161508	
586.875	0.1381228127	-0.06197724617	
587.5	-0.02741410118	-0.2985459102	
588.125	-0.09393647248	-0.08088414781	
588.75	0.1600531856	-0.1543007707	
589.375	0.04895203955	-0.3164116601	
590.0	-0.0762393067	-0.09204521087	
590.625	-0.2485456058	-0.1902453507	
591.25	-0.1447195791	0.2860138654	
591.875	0.01094485011	-0.03665362262	
592.5	-0.09755860283	0.1723671832	
593.125	0.03434501561	-0.06207291324	
593.75	-0.02243633048	0.2630704177	
594.375	0.2891529627	-0.06722904137	
595.0	0.07491165116	0.08471563082	
595.625	0.2551482759	0.2274028244	
596.25	0.2717460823	-0.0535798397	
596.875	0.1121964319	0.1401676689	
597.5	0.2991250146	0.1587918053	
598.125	0.1577037911	0.04885490776	
598.75	0.1970494727	0.1805048428	
599.375	0.330975617	-0.09802740327	
600.0	0.09572865326	-0.2078029321	
600.625	0.2027636261	-0.1642644467	
601.25	0.1216850282	-0.3438667866	
601.875	-0.1912388971	-0.1073903794	
602.5	-0.08795940896	-0.1331766497	
603.125	-0.2035095606	0.1933564051	
603.75	-0.006291375513	0.04272163551	
604.375	-0.2849094563	0.05468821941	
605.0	-0.02408298722	0.2330767881	
605.625	-0.08732900739	-0.09439923804	
606.25	-0.1276816261	0.2551470642	
606.875	-0.07753666914	0.07578553059	
607.5	-0.2984540765	0.320675106	
608.125	0.01844215853	0.4479539961	
608.75	0.2137707569	0.05051559914	
609.375	0.3217567288	-0.03604831633	
610.0	0.25609819	-0.2683288758	
610.625	-0.003910685873	-0.1458539123	
611.25	0.05892733613	-0.1633365561	
611.875	-0.2192232213	-0.1582923176	
612.5	-0.08271640632	0.01237320049	
613.125	-0.3544982893	-0.022575421	
613.75	-0.01655976896	0.3101828098	
614.375	-0.0455897394	0.01261623771	
615.0	0.1804739077	0.1817986368	
615.625	0.02608030314	-0.0549073562	
616.25	-0.2074471097	0.2020357558	
616.875	0.008741816429	0.3668903976	
617.5	-0.2033505809	0.2865298512	
618.125	-0.1017077668	0.3576013066	
618.75	0.1864377057	0.2874499801	
619.375	0.03724046417	0.1040143755	
620.0	0.09064149178	0.05589901256	
620.625	0.05639266655	-0.2454139281	
621.25	-0.1414075584	-0.1287098217	
621.875	-0.3404284001	-0.1669186702	
622.5	-0.4141523261	0.2567378078	
623.125	-0.03835137031	0.122699249	
623.75	0.2459154613	0.1394169996	
624.375	-0.04083941832	-0.1433539963	
625.0	0.1302528108	0.05483626845	
625.625	-0.01432138373	-0.2072461816	
626.25	5.916249768e-06	-0.07075376631	
626.875	-0.1948479833	-0.2027128958	
627.5	-0.2414332085	0.03501291983	
628.125	-0.05501860649	-0.07026527561	
628.75	-0.1524903362	-0.2583844684	
629.375	-0.145536284	-0.1486968416	
630.0	-0.1750119322	-0.1767365046	
630.625	-0.3388197953	0.07595916473	
631.25	-0.05735026928	0.2792477779	
631.875	0.02489135317	0.170795262	
632.5	0.2328113122	0.3495043577	
633.125	0.3161880806	-0.1253860084	
633.75	0.165099667	-0.01845698979	
634.375	0.09973998377	-0.3110848482	
635.0	-0.06524662325	-0.05801042945	
635.625	-0.145389559	-0.2679504293	
636.25	-0.2154214703	0.2275639016	
636.875	0.00812777266	0.07490628083	
637.5	-0.1810008197	0.1199098295	
638.125	0.06554826056	0.154427774	
638.75	-0.170230234	0.09050323784	
639.375	0.03100089832	0.4563297333	
640.0	0.294665181	0.1769739952	
640.625	0.1783212639	0.2281484258	
641.25	0.4748768865	0.007090693244	
641.875	0.0646305024	-0.2919038618	
642.5	0.04963889181	-0.130456219	
643.125	-0.2597270765	-0.2922974446	
643.75	-0.1121884575	0.1786406236	
644.375	-0.2509053744	-0.1508682405	
645.0	-0.2331406676	0.4879320482	
645.625	0.09214827724	0.09270732705	
646.25	0.06227028302	0.4459238052	
646.875	0.2828538065	-0.2441470447	
647.5	-0.07691930713	0.1732176048	
648.125	0.3842198882	-0.01572786636	
648.75	0.09574662567	-0.134717099	
649.375	0.4534984524	-0.1495772239	
650.0	0.1446769456	-0.6227929843	
650.625	-0.02708489801	-0.2081878132	
651.25	0.4534107123	-0.1953870196	
651.875	0.3338088147	-0.4705246102	
652.5	0.1097042926	-0.09599587282	
653.125	0.4951015034	-0.04661545635	
653.75	0.1343785583	-0.5373311652	
654.375	-0.1137873525	-0.1841956208	
655.0	-0.4096470602	-0.2926109683	
655.625	-0.1236733826	0.4439977117	
656.25	0.08283012629	-0.04215888242	
656.875	0.0302252817	0.2728078144	
657.5	0.1468763154	-0.08499638606	
658.125	-0.02274484999	0.4557133987	
658.75	0.5900816097	-0.02510265094	
659.375	0.1240735248	-0.2173337267	
660.0	0.3900703723	-0.2210315837	
660.625	0.1806993411	-0.6590438174	
661.25	-0.03214473691	-0.3067154918	
661.875	0.4605279192	-0.2316075044	
662.5	0.3196798797	-0.4555402501	
663.125	0.1234067584	-0.2165426275	
663.75	0.3410426819	-0.3445146593	
664.375	-0.2887804851	-0.4423931959	
665.0	-0.2308235117	-0.1413558841	
665.625	-0.4861007125	0.0529200786	
666.25	-0.0338756203	0.4976548428	
666.875	0.1199221719	0.09385432855	
667.5	0.2862069525	0.2270937782	
668.125	0.2837096215	-0.189025272	
668.75	0.120456848	0.008128589401	
669.375	0.2514408381	-0.3983528507	
670.0	-0.1797595301	-0.2402268543	
670.625	0.17509567	-0.157839433	
671.25	0.04287191496	-0.4181994345	
671.875	-0.01097377617	-0.1676913134	
672.5	0.3926452952	-0.05553424551	
673.125	0.1968775546	-0.4511831499	
673.75	0.09060808997	-0.1560395991	
674.375	0.1487601271	-0.320200456	
675.0	-0.2587379707	-0.3996517483	
675.625	-0.1411482623	0.03676576677	
676.25	-0.3466597713	-0.1612838871	
676.875	-0.2398391455	0.1903007877	
677.5	-0.04589413032	-0.0217666125	
678.125	-0.3178262231	0.2652011697	
678.75	0.2809986017	0.2390476335	
679.375	0.07352284534	0.06609326021	
680.0	0.3771166504	-0.04819048408	
680.625	-0.1239285829	-0.3657165081	
681.25	0.05396974271	0.2400356509	
681.875	0.5314066749	-0.2552897779	
682.5	0.05209617934	-0.0666500078	
683.125	0.2364454849	0.3134637924	
683.75	0.6203411752	-0.1616135536	
684.375	0.0001941398861	0.03280661501	
685.0	0.7009313656	0.01441854524	
685.625	0.4293644254	-0.2226231578	
686.25	0.2061548015	0.008649121578	
686.875	0.6476836146	-0.1779737549	
687.5	0.07181089084	-0.4876539535	
688.125	0.03097360867	-0.3807149253	
688.75	-0.6641438255	-0.2590465039	
689.375	-0.1672807891	0.6686422736	
690.0	0.1149911114	0.268587348	
690.625	0.4660591364	0.5261636076	
691.25	0.4670974843	0.0648197173	
691.875	0.345287565	0.4863046357	
692.5	1.217501667	0.2565163773	
693.125	0.601309525	-0.3135345303	
693.75	0.7705365396	-0.06391550858	
694.375	0.5385000189	-0.8864416247	
695.0	0.2525744716	-0.5099435618	
695.625	1.095452534	-0.1346599814	
696.25	0.9014844086	-0.08044670902	
696.875	0.4242073952	0.1819898147	
697.5	0.6091049773	0.5393412104	
698.125	0.8168536271	0.1135609625	
698.75	0.1854607169	-0.5348809331	
699.375	-0.5366420455	-0.3423175452	
700.0	-0.2886171217	0.6827045064	
700.625	0.3848847482	0.202256589	
701.25	0.2121485798	0.4275431364	
701.875	0.58672267	0.191657917	
702.5	0.2279726298	0.2062891205	
703.125	0.6265154891	0.3231701364	
703.75	0.5600176789	-0.349864543	
704.375	0.1340286001	-0.1410982804	
705.0	0.488736529	-0.2614031427	
705.625	0.306134688	-0.2209465505	
706.25	0.3085737353	0.3077481081	
706.875	0.5132872215	0.4749981007	
707.5	0.4132185297	0.21850498	
708.125	0.5052120296	0.2282551702	
708.75	0.3011255841	-0.2315625972	
709.375	-0.4898518459	-0.1735309997	
710.0	-0.1856949394	0.1032267333	
710.625	0.125899891	0.3723597656	
711.25	0.3168619229	-0.2985896783	
711.875	0.2632651983	0.276689647	
712.5	0.6023477524	-0.1970355813	
713.125	0.1376128735	-0.1861031315	
713.75	0.3709760497	-0.2742725995	
714.375	-0.1119426953	-0.4153179163	
715.0	-0.02833141528	-0.09809190534	
715.625	0.1513125938	-0.3938590462	
716.25	0.02714495599	-0.4229720929	
716.875	0.3223002215	-0.07722450917	
717.5	0.9116309243	-0.04325501839	
718.125	0.7677186867	-0.4624368669	
718.75	0.7350500712	0.1857348839	
719.375	1.161468814	-0.5895682778	
720.0	-0.06954359344	-1.110673807	
720.625	0.5268726	-1.014954143	
721.25	-0.5303080517	-1.784858172	
721.875	-1.495108597	-0.604610466	
722.5	-0.5308420242	-1.022194641	
723.125	-1.566904981	-0.002034769611	
723.75	-0.1699562272	0.6414494826	
724.375	-0.3646770102	0.3905164704	
725.0	0.5350333455	0.6950370293	
725.625	0.1492172099	0.2780778094	
726.25	-0.248204637	1.027040049	
726.875	0.2730468696	1.533305005	
727.5	0.2546374024	1.158344222	
728.125	-0.593440045	2.765950262	
728.75	1.418076301	4.611442725	
729.375	0.5517106193	2.703828031	
730.0	-1.205407794	6.25019618	
730.625	2.714982391	5.366043077	
731.25	-0.2393092925	2.41226326	
731.875	-4.538456381	3.884858541	
732.5	-4.16918549	4.452155674	
733.125	-0.3336604217	0.826993762	
733.75	-1.206326572	2.320183351	
734.375	1.366897955	-0.2335654385	
735.0	-0.0386435535	-0.08906378346	
735.625	-1.006981443	-0.04169944694	
736.25	0.4941164592	0.6091236068	
736.875	-0.03171218398	0.7543162985	
737.5	2.335870751	0.1809534468	
738.125	1.362631867	-1.57705396	
738.75	1.486805538	-0.1750743519	
739.375	5.940883369	-2.540158359	
740.0	1.330673817	-5.511869715	
740.625	-0.1192078583	3.220014412	
741.25	2.945756237	8.326280204	
741.875	1.640159036	0.6638950607	
742.5	-0.5813555612	-5.210370783	
743.125	-1.933544816	-3.531006049	
743.75	-0.5704276035	-0.3540717081	
744.375	-0.4414049846	-0.5993867943	
745.0	0.3648959743	0.1756005307	
745.625	0.03396226715	0.1632386764	
746.25	-0.1064609571	-0.2652638994	
746.875	-0.1778291313	0.1509162629	
747.5	-0.2223211439	0.3750503616	
748.125	0.4198636556	0.8899814627	
748.75	0.4286447059	0.3706346394	
749.375	-0.03517098118	0.6507661316	
750.0	-0.402937066	0.6173865089	
