!Created with skrf (http://scikit-rf.org).
# GHz S MA R 50.0 
!freq magS11 angS11
500.0 0.0186773094306 152.37461658
500.625 0.00872516466093 116.773265127
501.25 0.0122739553149 -64.734437395
501.875 0.0457338652783 -172.268182199
502.5 0.0167809322788 145.211999214
503.125 0.0137389260194 26.8251129842
503.75 0.0186879314407 130.508947261
504.375 0.00318148855163 122.472822463
505.0 0.0142617919766 -75.9030279512
505.625 0.0389368433833 -79.7306904419
506.25 0.044100751853 -106.747082977
506.875 0.0513645434383 -107.402220563
507.5 0.043870387769 -130.385932362
508.125 0.0667378971144 -80.3896603887
508.75 0.0534780808481 -150.413260483
509.375 0.0478356489698 -159.394330031
510.0 0.0339284368326 -118.680316957
510.625 0.056340345386 -155.804123087
511.25 0.0427510167716 167.826583084
511.875 0.0489473615861 141.663110517
512.5 0.0391588438745 98.7189420778
513.125 0.0642812419702 57.6455081252
513.75 0.0476379388191 17.2029964951
514.375 0.0492996917043 31.9226861241
515.0 0.0529439853197 7.82081628775
515.625 0.0948715198632 51.5474891154
516.25 0.0857868036396 30.3017804467
516.875 0.107876322501 72.8163766584
517.5 0.11427504529 21.0978147333
518.125 0.21477675315 73.5254246846
518.75 0.0791399920992 8.30415673985
519.375 0.0718986663926 16.9958120327
520.0 0.109202826173 -0.378012563715
520.625 0.102019480464 -4.74240075074
521.25 0.0829109697019 -24.7397925029
521.875 0.0652331449166 2.14847146053
522.5 0.0946695404785 -32.3514875405
523.125 0.189216753973 -31.724072344
523.75 0.199161655341 -63.5540774124
524.375 0.19213622792 -56.4612910825
525.0 0.0680603526103 -41.6271206131
525.625 0.032407058236 -63.4431724837
526.25 0.0395814760716 -12.9144176352
526.875 0.0471031987342 -24.3162942175
527.5 0.0524902564233 -22.9582045065
528.125 0.0346371950526 -63.131302274
528.75 0.0634549183747 -71.1508661706
529.375 0.0828183056767 -109.075318259
530.0 0.0590125738186 -124.74518101
530.625 0.0233275060249 -120.74699203
531.25 0.102529212537 -127.411468326
531.875 0.158605362604 -147.638418359
532.5 0.157241729078 -169.353088751
533.125 0.0888790330084 174.788848589
533.75 0.10791313314 171.378378506
534.375 0.105014587338 178.715827424
535.0 0.0891574200141 164.823587761
535.625 0.0633843142286 179.624969327
536.25 0.0537379242862 167.345939087
536.875 0.0751925588236 -157.28162399
537.5 0.107855069166 -144.853958562
538.125 0.0873192556239 -171.89773756
538.75 0.0941109488353 -179.547847697
539.375 0.0679834938184 -164.145582908
540.0 0.10220182458 -155.246359317
540.625 0.0998172122519 -151.495664845
541.25 0.112241246835 -139.029525535
541.875 0.0965091277912 -141.109972291
542.5 0.118246073781 -143.188837697
543.125 0.116551796164 -164.079444396
543.75 0.119136667419 161.254673058
544.375 0.0930356508552 134.559909541
545.0 0.0902125361903 94.4609855564
545.625 0.0990108669348 86.718896474
546.25 0.0876766618124 69.4500808542
546.875 0.0886042812057 57.7897888958
547.5 0.118706082024 59.5725263194
548.125 0.0900456278887 77.432960941
548.75 0.0770256762628 92.334106826
549.375 0.089303090241 85.2317664222
550.0 0.0915383019482 127.922524928
550.625 0.0443323750531 159.252671216
551.25 0.0382250069077 -135.599656641
551.875 0.0650789419512 -158.06800894
552.5 0.120587763468 -165.657680569
553.125 0.0820266492306 -160.695665487
553.75 0.0885385884633 -167.321299069
554.375 0.111914398147 165.916923641
555.0 0.130906252477 164.007850781
555.625 0.10179348709 158.005458365
556.25 0.0928560130386 166.173760531
556.875 0.11486251605 169.086691498
557.5 0.107426321956 168.088269478
558.125 0.104040661256 164.562859182
558.75 0.0797651368516 179.947936005
559.375 0.0647650404072 -173.587272642
560.0 0.0488963681226 -148.445774444
560.625 0.0604745485051 -138.754483469
561.25 0.0885453935905 -148.325307454
561.875 0.1073661392 -162.405478993
562.5 0.0937894953376 174.583713615
563.125 0.104509702268 149.680578788
563.75 0.124842409481 134.619627988
564.375 0.0984885547106 121.871392342
565.0 0.0916783846296 119.538434328
565.625 0.0816316467953 119.361930554
566.25 0.093945680642 156.896470432
566.875 0.0748798356401 -177.691106329
567.5 0.0723818574557 -175.026447601
568.125 0.0869626234787 -172.148491305
568.75 0.0541959642485 -134.97125434
569.375 0.0472890112451 -102.0444707
570.0 0.0585438486647 -102.171122325
570.625 0.0951765246377 -118.596924847
571.25 0.0900568304654 -116.722028589
571.875 0.0882170948059 -121.40604276
572.5 0.113897417787 -154.284248418
573.125 0.14656659087 -175.901290837
573.75 0.0907211653305 168.664486421
574.375 0.0810606812576 152.264040949
575.0 0.106028124203 156.246003125
575.625 0.113720151498 153.953163625
576.25 0.0876974230313 147.906199242
576.875 0.0746660731191 125.875110335
577.5 0.0836795990182 138.447647672
578.125 0.0590520591812 160.873149447
578.75 0.0475501054026 167.843722721
579.375 0.0560260093364 164.717402063
580.0 0.0678197958899 -172.153726851
580.625 0.0791627860626 -155.055229242
581.25 0.0924054121218 -156.920511368
581.875 0.115530058173 -171.824556022
582.5 0.110571548863 -170.305431812
583.125 0.096131228223 -172.030528379
583.75 0.0781015373179 -158.069372024
584.375 0.102200483883 -153.440931281
585.0 0.0968616514378 -145.527678898
585.625 0.0752429889329 -151.834974573
586.25 0.0666271520936 -122.436202224
586.875 0.0816531606089 -126.802529305
587.5 0.0694681659567 -137.092557561
588.125 0.0603443982665 179.208610275
588.75 0.0686910892158 -144.594436127
589.375 0.0856834256677 -147.904673013
590.0 0.0910647214859 -168.235732518
590.625 0.104493332596 162.670430507
591.25 0.119990400338 159.189751349
591.875 0.0932092437441 159.505530277
592.5 0.0643375573886 145.252435065
593.125 0.0604497035494 147.633160023
593.75 0.0645950931092 -174.148797685
594.375 0.0581136018365 -143.28184434
595.0 0.0413579269788 -110.225086712
595.625 0.0590289976851 -104.038941852
596.25 0.0729271359017 -82.4497236555
596.875 0.0691138231216 -67.4594288066
597.5 0.0593926926347 -62.3596246431
598.125 0.0593126063435 -67.6609213946
598.75 0.089654045916 -53.1253528065
599.375 0.0937267181531 -58.9593834121
600.0 0.104297390605 -59.1449312
600.625 0.0968058489132 -74.5239866757
601.25 0.0821465238772 -65.0772633994
601.875 0.0691530276893 -81.5955889032
602.5 0.061777677244 -90.217955623
603.125 0.0443552009698 -62.6470341876
603.75 0.0276975158861 -50.8541967709
604.375 0.0510407354921 -12.113034643
605.0 0.0692544231579 -9.31755338591
605.625 0.0547647010827 7.81871086929
606.25 0.018901216241 -20.5471951013
606.875 0.0584167364789 57.2165208153
607.5 0.0691202641744 47.3027206359
608.125 0.07458448546 31.7244694287
608.75 0.0537262060131 16.2248459753
609.375 0.0751724559355 35.7461675966
610.0 0.079699901495 46.6734505346
610.625 0.0697031361768 45.3442958816
611.25 0.0425217271744 14.3240623111
611.875 0.0519948547085 77.2708793493
612.5 0.0290103377826 98.2598824738
613.125 0.024046831834 134.36727495
613.75 0.035986529741 128.511240895
614.375 0.0340710318344 119.688099911
615.0 0.0371067283837 119.813320642
615.625 0.0248953367575 136.180694868
616.25 0.0471036583205 135.895282374
616.875 0.0332934173949 124.090588523
617.5 0.036077145846 122.853503789
618.125 0.0219864825449 129.867460826
618.75 0.0318783751767 147.583194169
619.375 0.00755695009882 128.217647201
620.0 0.011900081992 145.727072142
620.625 0.0252778922645 -112.247468615
621.25 0.051830104464 -79.8404546744
621.875 0.0635243350357 -109.859297792
622.5 0.0751597002385 -165.288045547
623.125 0.0717048336541 168.680347809
623.75 0.0610343914049 164.215408235
624.375 0.032201997592 -163.677462886
625.0 0.0547465195409 -155.06534177
625.625 0.0462069749857 -158.238924906
626.25 0.0313641396344 -178.820167609
626.875 0.0245941858519 -5.27289673076
627.5 0.0265788590309 -97.6786643688
628.125 0.0370603187746 -31.936462294
628.75 0.035918213648 -29.5661541684
629.375 0.0642758508151 2.23241817078
630.0 0.0646940447632 -11.5618998319
630.625 0.0700340902405 -2.24019615831
631.25 0.065808596404 3.02723465185
631.875 0.0753782248759 11.3112522736
632.5 0.0726054075816 -29.8939024726
633.125 0.0461988787628 -2.67175241869
633.75 0.0445326836597 14.4277927298
634.375 0.0475454105577 26.9699531289
635.0 0.043016979384 41.7221475898
635.625 0.0285298721529 21.2894832694
636.25 0.0449164231403 36.969816278
636.875 0.0607382773222 29.3237744544
637.5 0.0550923916841 56.2364384626
638.125 0.0239090152472 38.6510895253
638.75 0.0673559025471 72.1475252336
639.375 0.0971381769329 91.875442996
640.0 0.0746159408367 110.397293686
640.625 0.0546224960226 90.1107551721
641.25 0.0628514761908 126.228639958
641.875 0.0615647161529 146.84102788
642.5 0.0676869374271 165.031823887
643.125 0.0446434693527 142.692923305
643.75 0.0611388913115 169.956746694
644.375 0.0667274678641 -178.360493732
645.0 0.0913449449381 -177.87550355
645.625 0.0822898524462 160.968242845
646.25 0.0836628969159 163.397294564
646.875 0.0775863404764 -175.683740487
647.5 0.0687706155258 -171.869993211
648.125 0.0840202781135 -174.979020552
648.75 0.0705304083407 -163.32846561
649.375 0.0461709853195 -144.200906817
650.0 0.0467098534772 -113.210825455
650.625 0.0800017638445 -85.6023434196
651.25 0.0581932955116 -63.6335891582
651.875 0.0602080985105 -38.3656993494
652.5 0.0810122449215 -24.3203525595
653.125 0.136731322346 -0.264490995448
653.75 0.106964443561 7.34793085983
654.375 0.111200053625 6.9525642305
655.0 0.12278842861 15.3390277315
655.625 0.100503318085 30.6421466338
656.25 0.0559522925699 17.3607446972
656.875 0.0631212380841 8.53844397166
657.5 0.0724276216327 22.6248015408
658.125 0.082005384923 51.258585886
658.75 0.0396627041357 72.4460449789
659.375 0.0781063706393 44.3922889155
660.0 0.116505442639 26.1331389261
660.625 0.12008659209 19.2797566972
661.25 0.0979703848263 5.38656550058
661.875 0.121477035721 -10.2637136184
662.5 0.115245442293 -20.3410751764
663.125 0.116097943321 -14.5064728642
663.75 0.0760097414273 1.43166093746
664.375 0.0860960231256 55.3276670797
665.0 0.074071919679 93.2053465178
665.625 0.0662083863736 114.46914528
666.25 0.0826848492718 134.849929539
666.875 0.12107076457 170.558672978
667.5 0.099595293197 -167.981469389
668.125 0.110158453602 -179.376158571
668.75 0.127351920523 169.839615846
669.375 0.119209403667 -178.953740462
670.0 0.0867406873117 -167.566022172
670.625 0.09571085941 -171.807750457
671.25 0.0889814499134 177.306491259
671.875 0.0900537186967 171.514970595
672.5 0.0707415247881 156.445179242
673.125 0.0921664679526 152.385093883
673.75 0.112068583896 161.987692258
674.375 0.120081880989 169.678633027
675.0 0.118469956388 -173.679627285
675.625 0.138495885009 -150.000585608
676.25 0.122656613379 -123.643572427
676.875 0.1179558862 -119.561816593
677.5 0.125448880847 -126.463624863
678.125 0.139074865077 -115.041474213
678.75 0.0487306367773 -89.5110360905
679.375 0.0459842020821 -65.8414131585
680.0 0.0757768127106 -75.6992606101
680.625 0.132935823585 -78.2470110351
681.25 0.101490785783 -70.416076679
681.875 0.100552525131 -90.5897297721
682.5 0.142710982567 -119.499652307
683.125 0.16913255209 -119.684407158
683.75 0.146914903891 -105.951741622
684.375 0.0987112627634 -73.1489835506
685.0 0.130913250449 -36.4612757968
685.625 0.125836660491 -0.676315679065
686.25 0.118910598197 20.1995911918
686.875 0.0650003169099 55.1478936236
687.5 0.0674063418825 90.7756831849
688.125 0.0759707573676 113.171481237
688.75 0.107853981633 109.493691121
689.375 0.125942822752 131.997767103
690.0 0.133927111619 135.859452187
690.625 0.120866995646 127.298436093
691.25 0.146163642566 97.6093280862
691.875 0.197194394122 68.4149360361
692.5 0.138123096727 42.2489932029
693.125 0.0857329220396 -11.2728542114
693.75 0.0891286257449 -35.3685528613
694.375 0.147861897131 -34.176954899
695.0 0.112233765941 24.4333903541
695.625 0.101646424145 56.7823633796
696.25 0.11604678451 113.04630544
696.875 0.141666695904 173.995186634
697.5 0.149534385917 -147.667154903
698.125 0.133381184991 -127.822931299
698.75 0.137495150756 -133.851003786
699.375 0.115520969238 -127.519773526
700.0 0.0846505493102 -99.7438351147
700.625 0.106169554423 -83.3636660143
701.25 0.0978558785929 -61.7219826252
701.875 0.0831362215959 -62.66433122
702.5 0.10110549976 -74.1800907304
703.125 0.172257830171 -118.870453157
703.75 0.182645292221 -151.516467753
704.375 0.128765834433 173.216991411
705.0 0.115286011554 154.455604015
705.625 0.133475886304 -154.783648271
706.25 0.137498477306 -104.967838898
706.875 0.0844117273992 -56.3220068888
707.5 0.0790074981973 -40.8379062818
708.125 0.0895299183225 30.7821288012
708.75 0.113752790154 70.7407435987
709.375 0.100230634559 109.15919399
710.0 0.103560039931 129.70221317
710.625 0.108439361145 150.291633379
711.25 0.121944441396 177.218099677
711.875 0.14635377358 170.55869475
712.5 0.156819008812 139.093661428
713.125 0.112495041297 113.156069672
713.75 0.100936400609 50.5294863391
714.375 0.113880196112 20.5528555959
715.0 0.114229974025 31.9586056167
715.625 0.0842679752553 43.4271470398
716.25 0.0920686470638 94.2989565411
716.875 0.128539159658 114.366983488
717.5 0.143716947523 153.014121336
718.125 0.119176935531 165.385229036
718.75 0.0994678726274 176.885877852
719.375 0.11457448504 -166.685585161
720.0 0.136141014439 -120.882978753
720.625 0.113487908403 -74.3895407182
721.25 0.0955730734286 -21.5450620175
721.875 0.0873362054169 41.173479609
722.5 0.0724256373725 87.4680753894
723.125 0.0694010338376 57.4166225752
723.75 0.118205217481 52.0910123178
724.375 0.111726954577 0.504053501857
725.0 0.0890151468603 -45.9341008581
725.625 0.104760361994 -65.0090691111
726.25 0.102054051968 -79.0045898479
726.875 0.108168915179 -31.4221732749
727.5 0.0874803426435 -20.9036882993
728.125 0.0857583441387 10.7851085837
728.75 0.077586741349 12.2134280508
729.375 0.0931419710817 31.2253157133
730.0 0.0700993826786 5.27510891265
730.625 0.0715985012521 26.1892455044
731.25 0.0730055381218 67.8555616709
731.875 0.0575600714676 102.58014977
732.5 0.0976840983368 163.198200103
733.125 0.0943807845848 -178.653590518
733.75 0.0768780277946 173.521548795
734.375 0.0594599587753 176.618170957
735.0 0.0555012214872 156.597500129
735.625 0.038206941993 138.765779403
736.25 0.043900483223 146.66804707
736.875 0.0352734498282 178.889034041
737.5 0.0814369941804 178.412621602
738.125 0.107092914794 -173.7449519
738.75 0.0762151180464 -175.548152253
739.375 0.027344918017 171.303446625
740.0 0.0964803024837 -136.864293473
740.625 0.0629714196309 -147.546717986
741.25 0.059257004053 -147.721520771
741.875 0.0233315548932 -95.5821871606
742.5 0.0173331325814 14.9170724915
743.125 0.0415700054525 51.5816284889
743.75 0.0532397244445 107.454791086
744.375 0.0391044980697 175.417343213
745.0 0.0906816587094 107.830367623
745.625 0.0771835718341 106.345688408
746.25 0.0819491910736 92.3814524073
746.875 0.0687098305824 41.5367431985
747.5 0.0336727885859 15.6555777092
748.125 0.0265848444723 -4.80660704614
748.75 0.0341982663192 -22.8421798883
749.375 0.0369863337094 -45.261308206
750.0 0.0415807784148 -43.3390809159
