!Created with skrf (http://scikit-rf.org).
# GHz S RI R (50+0j) 
!freq	ReS11	ImS11	
500.0	-0.5896678815	-1.340160165	
500.625	1.453376691	-1.894802625	
501.25	-1.480384421	-3.025130276	
501.875	-2.020569747	-0.8562977079	
502.5	-0.02426452194	-0.123308155	
503.125	-0.3846514904	0.03090491697	
503.75	0.1988537383	-0.0293019402	
504.375	0.1557790087	0.05404379288	
505.0	-0.104232443	-0.09483194064	
505.625	0.258234791	-0.2082953094	
506.25	-0.6091729094	0.1230920512	
506.875	0.175663002	-0.6793941854	
507.5	-0.8802472485	-1.986094984	
508.125	-1.270200345	-1.144769668	
508.75	2.814014872	-1.909358637	
509.375	-3.132977543	-4.284651628	
510.0	-0.7586054522	-0.1099283149	
510.625	-0.6525028517	-0.8826416635	
511.25	-0.1384692906	0.1940714032	
511.875	-0.5598694192	-0.2681702196	
512.5	-0.0697954553	0.1637670698	
513.125	-0.07065569238	-0.2514613103	
513.75	0.0103629214	-0.1185124393	
514.375	-0.4739238209	-0.3440825238	
515.0	0.5000916101	1.244065287	
515.625	-1.355594465	-2.905015294	
516.25	-0.7267594923	0.6246997331	
516.875	0.1502633877	-2.529653518	
517.5	-1.108269731	-0.3796334184	
518.125	0.2748618141	-0.2760136684	
518.75	-0.7662744834	-0.3446690956	
519.375	-0.06963574906	0.02966877191	
520.0	0.4144909167	0.3201630071	
520.625	0.3790355212	-0.3862994087	
521.25	-0.02681147153	-0.3956458037	
521.875	-0.5665580076	-0.1958258235	
522.5	0.0636423928	0.0870981562	
523.125	-0.2890387933	0.1522109051	
523.75	-0.06938521243	-0.04825231091	
524.375	-0.6958423381	0.2225707175	
525.0	0.1727366752	0.02528821124	
525.625	-0.05932816053	0.2690643144	
526.25	0.07857161665	-0.2578545271	
526.875	-0.1877164844	0.354666637	
527.5	0.1396738014	0.2524092046	
528.125	-0.2558041808	0.8282762406	
528.75	0.4973177645	0.8051649231	
529.375	-0.1194477926	0.1393084544	
530.0	0.419231113	0.3214121342	
530.625	-0.0830919934	0.8723473438	
531.25	1.63891896	-0.3777216578	
531.875	0.2805250321	-0.1188236524	
532.5	-0.260209869	-0.679390723	
533.125	0.2929401121	0.3723980705	
533.75	0.01207031169	-0.9322693504	
534.375	-0.09364825202	-0.2492216102	
535.0	-0.9992809856	-0.6204503053	
535.625	-0.06873714458	0.5107576782	
536.25	-0.08331837571	0.1609659905	
536.875	0.338201301	0.0754467693	
537.5	0.04241232307	-0.1394811763	
538.125	0.4390765365	-0.03425418432	
538.75	0.13536512	-0.4236834327	
539.375	-0.01379431629	-0.325681135	
540.0	-0.5651650461	-0.499380106	
540.625	-0.2770296347	0.1675316675	
541.25	-0.1696595776	-0.07059275959	
541.875	-0.1569066255	-0.09406872586	
542.5	-0.1751252553	0.008850010548	
543.125	-0.03858151958	-0.2121374494	
543.75	-0.424775407	0.1016203065	
544.375	0.04735509089	-0.07126004531	
545.0	-0.02619280236	0.32940755	
545.625	0.07027709823	-0.09358089845	
546.25	0.293811406	0.3471910292	
546.875	0.1615006139	-0.3452076397	
547.5	0.2417390512	-0.04538071586	
548.125	-0.0686157693	-0.5895130231	
548.75	-0.4146183098	-0.1017005103	
549.375	-0.08079433719	-0.1680444413	
550.0	-0.3363296154	0.02486256962	
550.625	0.02417057015	0.00305459948	
551.25	-0.3197589203	0.08905701682	
551.875	-0.01355196598	0.1703071102	
552.5	-0.2006275	0.1587671698	
553.125	0.02265695431	0.1876976559	
553.75	0.09044800662	0.0915517021	
554.375	0.2385783741	0.01107484788	
555.0	0.2171924043	-0.1934262838	
555.625	0.1771272485	-0.2416597276	
556.25	0.1516670389	-0.33906539	
556.875	-0.1045319124	-0.3789835031	
557.5	-0.2294363491	-0.2171125342	
558.125	-0.2673378867	-0.09239818539	
558.75	-0.2692991141	0.009936813377	
559.375	-0.2143540197	0.06239187378	
560.0	-0.2501235611	0.1403902922	
560.625	-0.1011866746	0.3109697633	
561.25	0.05517528382	0.1487669702	
561.875	0.03584131556	0.1893281665	
562.5	0.06486663265	0.01087039771	
563.125	0.1374730021	0.2784123468	
563.75	0.3458933801	-0.1493418214	
564.375	0.198688282	-0.0672454851	
565.0	0.2744313377	-0.4512311095	
565.625	-0.2111464954	-0.2953750527	
566.25	-0.1342456059	-0.2001014025	
566.875	-0.3857264841	-0.2929657593	
567.5	-0.3955884652	-0.05926731997	
568.125	-0.1339279896	-0.4452736316	
568.75	-0.7317826105	-0.1614117089	
569.375	-0.3035090505	0.2388806267	
570.0	-0.5342436816	0.388823309	
570.625	0.06613151614	0.6488452945	
571.25	-0.04540297295	-0.05539816469	
571.875	0.2758657931	0.5152337188	
572.5	0.01893812172	-0.252692665	
573.125	0.4304766281	-0.008667257288	
573.75	0.036113406	-0.5643069631	
574.375	-0.09527015333	0.1286102803	
575.0	0.2720935155	-0.3338246894	
575.625	-0.1685236239	0.0391359316	
576.25	0.4110596597	-0.2137632995	
576.875	-0.192790832	-0.5274913284	
577.5	-0.1221682564	-0.09610503341	
578.125	0.1282286756	-0.4025995064	
578.75	-0.3735030665	-0.4365504128	
579.375	-0.1714512346	0.07892932664	
580.0	-0.001922485425	-0.2855811163	
580.625	-0.230330828	0.1887672963	
581.25	-0.2106336504	-0.1232880371	
581.875	-0.03354195815	0.6449033118	
582.5	0.4322073405	0.1634923803	
583.125	-0.2148833254	0.01252355041	
583.75	0.474482363	0.3689368948	
584.375	-0.2961827435	-0.1650259728	
585.0	0.507849007	0.4088144681	
585.625	0.2165972176	-0.3412459032	
586.25	0.3370181172	0.2261474478	
586.875	0.1481642706	-0.6550079396	
587.5	-0.06258025422	-0.01130579697	
588.125	0.1901897042	-0.4481139978	
588.75	-0.1158803201	-0.5464373578	
589.375	0.02503626213	-0.05528125103	
590.0	0.05223988577	-0.5715932698	
590.625	-0.5253170708	0.01693052289	
591.25	-0.1441237813	0.2045228882	
591.875	-0.2495820043	0.2345496616	
592.5	0.2065302758	0.154449389	
593.125	-0.2195274799	0.1873977215	
593.75	0.2461800245	0.1900130418	
594.375	0.1213667672	0.1509002415	
595.0	0.4116097292	0.5907976321	
595.625	0.737047666	-0.1834323688	
596.25	-0.07819682115	0.2421835015	
596.875	0.7068398667	0.2256929052	
597.5	0.2317321431	-0.1440826777	
598.125	0.2674333363	0.597735188	
598.75	0.5458432749	-0.1059876875	
599.375	0.2747889377	0.1403044825	
600.0	0.6145233238	-0.4663147573	
600.625	0.08073023382	-0.487463498	
601.25	0.209153509	-0.2175917815	
601.875	-0.1446441406	-0.4678831989	
602.5	-0.297393535	0.02996075261	
603.125	-0.2073868892	0.1577742498	
603.75	-0.2501717056	0.0422763068	
604.375	-0.3160206346	0.32093367	
605.0	0.01705420186	0.03575640359	
605.625	-0.3646292904	0.2250922073	
606.25	-0.01178734822	0.1629122559	
606.875	-0.5972210014	-0.05660205799	
607.5	-0.1711996019	0.8036214255	
608.125	-0.1663859349	0.1581512889	
608.75	0.519686829	0.7968821911	
609.375	0.2691175033	-0.4241879858	
610.0	0.535081107	0.030635956	
610.625	0.1191739983	-0.6130881703	
611.25	0.0419694429	-0.0521891452	
611.875	-0.3674398167	-0.5504756978	
612.5	-0.1397565097	0.04410902094	
613.125	-0.5473176195	-0.08418014795	
613.75	0.02290876256	0.5580312957	
614.375	-0.2001124688	0.1740877311	
615.0	0.3578082768	0.08127115868	
615.625	-0.2887432144	0.1017253942	
616.25	0.06016413604	0.6701189799	
616.875	-0.06277080243	0.06965272966	
617.5	-0.3907866031	0.6802687773	
618.125	0.2544842707	0.4979392796	
618.75	-0.158474219	0.2537476388	
619.375	0.399774788	0.4941398962	
620.0	0.2684996589	0.01163629081	
620.625	0.3585913918	-0.3844899274	
621.25	-0.2426954566	-0.2614479815	
621.875	-0.456766911	-0.3159891154	
622.5	-0.4281330204	0.2584982506	
623.125	-0.1649861634	0.3058858217	
623.75	0.5154427215	0.1177783903	
624.375	-0.1758270908	0.008483785509	
625.0	0.3679319625	-0.3783525787	
625.625	-0.09636320411	0.1572324491	
626.25	0.1120494742	-0.5607703769	
626.875	-0.5641984137	-0.02639591229	
627.5	0.009959693795	-0.08839222197	
628.125	-0.4862031845	-0.3407649779	
628.75	-0.1322020194	-0.02169616124	
629.375	-0.09803891884	-0.5414846735	
630.0	-0.6166837458	-0.05844632632	
630.625	-0.2482983154	0.03069718158	
631.25	-0.5006350748	0.4266465903	
631.875	0.07295563817	0.6485426472	
632.5	0.3805720436	0.3679097112	
633.125	0.321805012	0.0622514893	
633.75	0.5819644497	-0.08663605042	
634.375	-0.1206313417	-0.2664087003	
635.0	0.1501050271	-0.3453160118	
635.625	-0.5519258703	-0.1124400685	
636.25	-0.1114661725	-0.05326806043	
636.875	-0.3474495593	0.4960502839	
637.5	0.2549941265	0.1393412084	
638.125	-0.4682215658	-0.03215390311	
638.75	0.02428784778	0.8292563092	
639.375	0.1675797219	0.09886211117	
640.0	0.02680631012	0.7050637383	
640.625	0.856019205	0.3377518808	
641.25	0.3398587151	-0.219951336	
641.875	0.7625512196	-0.2491179671	
642.5	-0.4237699462	-0.3890046082	
643.125	0.09103389506	-0.2570591431	
643.75	-0.6577948321	-0.3238778188	
644.375	-0.08873822361	0.3665760619	
645.0	-0.4873780606	-0.03079825201	
645.625	0.1555936011	0.777207567	
646.25	0.5618412025	-0.07079884107	
646.875	-0.1716839026	0.05265862307	
647.5	0.6820566612	0.0289261463	
648.125	-0.2339152772	0.2403680984	
648.75	1.088788421	-0.1492261914	
649.375	0.01490154288	-0.8282567824	
650.0	0.4713957309	0.01077959059	
650.625	0.7865490318	-1.316147661	
651.25	-0.4030783307	-0.5759206975	
651.875	0.7273789628	0.2808967417	
652.5	1.056112325	-0.684395238	
653.125	0.06759442806	-0.4302428152	
653.75	0.8520204485	-0.2646438856	
654.375	-0.5592705533	-0.8790849083	
655.0	-0.259650562	0.1193483579	
655.625	-0.7758788241	0.1121047919	
656.25	0.5246973095	0.7372778762	
656.875	-0.2145300376	-0.1695104328	
657.5	0.2379978756	0.5167838115	
658.125	0.4337610017	0.07199197149	
658.75	0.2995203921	0.2870485888	
659.375	1.147901004	-0.450667428	
660.0	0.06274825391	-0.7355512147	
660.625	0.4157094379	-0.421877322	
661.25	0.66759358	-1.015638182	
661.875	-0.2115381566	-0.6912651795	
662.5	0.7737812795	0.1189456619	
663.125	0.8086588801	-0.9662917185	
663.75	-0.1418997798	-0.4307227068	
664.375	0.3459676549	-0.830828027	
665.0	-1.079718448	-0.1999650956	
665.625	-0.3264383765	-0.04639275939	
666.25	-0.479209649	0.8446131504	
666.875	0.5955978822	0.2958296261	
667.5	0.02526635966	0.2122438516	
668.125	0.8335572027	0.02640629131	
668.75	0.2260871342	-0.5350861022	
669.375	0.1494008471	-0.2741253674	
670.0	0.1885822938	-0.6242327395	
670.625	-0.3147011675	-0.4051380144	
671.25	0.3148753971	-0.2851613798	
671.875	0.2708833557	-0.567065308	
672.5	0.1618855586	-0.3266981395	
673.125	0.7146218504	-0.2063859352	
673.75	0.2623248142	-0.9619610024	
674.375	-0.2496787136	-0.192021178	
675.0	0.2505509749	-0.6951490417	
675.625	-0.9174015348	-0.3883891434	
676.25	0.106037776	0.2711361813	
676.875	-0.8154370954	-0.3036534146	
677.5	0.06620694773	0.4233615626	
678.125	-0.6161976507	-0.06460587245	
678.75	0.5763927687	0.9101070602	
679.375	0.01502018636	-0.130383224	
680.0	0.4684488216	0.06273336438	
680.625	0.3479369879	-0.4865653187	
681.25	-0.228290984	-0.1231594136	
681.875	0.4190475379	0.4638774384	
682.5	0.6896073841	0.0198365904	
683.125	0.4613329498	-0.01405099177	
683.75	0.3784053276	0.389119293	
684.375	1.047349674	-0.1439378085	
685.0	0.1290002783	0.04250215062	
685.625	0.9835954378	0.2151009661	
686.25	0.6222916078	-0.7740886916	
686.875	0.3224990414	0.4410009137	
687.5	1.210059863	-1.556767019	
688.125	-0.8860676793	-0.1551910274	
688.75	-0.6074910927	-1.119964104	
689.375	-0.664687048	1.446345254	
690.0	0.2788213068	0.1497582883	
690.625	0.7463326845	1.201601564	
691.25	0.6305394086	0.02346067458	
691.875	0.7683224773	0.9309088745	
692.5	1.674403827	0.4351271273	
693.125	1.146164143	-0.2830271156	
693.75	1.363238742	-0.4847884194	
694.375	0.8153472043	-0.9296437086	
695.0	1.201916588	-0.5986701533	
695.625	0.9186893797	-0.6003651447	
696.25	0.822038093	0.6967879778	
696.875	1.773325877	0.7792231919	
697.5	0.4818379115	0.4336641626	
698.125	1.856458089	0.9121818433	
698.75	0.1731358687	-1.616676221	
699.375	-0.08479977693	-0.9988495241	
700.0	-0.820166812	1.51850744	
700.625	0.4540549788	0.02824463075	
701.25	0.5459357894	1.05936543	
701.875	0.6578984271	-0.1106379058	
702.5	0.4946194302	0.8262282561	
703.125	1.322959155	0.08201907904	
703.75	0.3309450567	-0.0469115344	
704.375	1.12842146	-0.5663771478	
705.0	0.1262795136	-0.5335122565	
705.625	0.6944869351	0.6050634415	
706.25	1.112188549	-0.1991405177	
706.875	0.06137875738	0.5808819278	
707.5	1.070616447	1.211073126	
708.125	0.7987951059	-0.419352269	
708.75	0.957977287	-0.6241397268	
709.375	-1.185801506	-0.556261212	
710.0	-0.09168609421	0.2946888309	
710.625	0.1294365209	0.6023793923	
711.25	0.3239704072	0.02888330282	
711.875	0.4363707409	0.3342084467	
712.5	0.6802299109	-0.1802356833	
713.125	0.7741650917	-0.3148316684	
713.75	0.04168170822	-0.8050529465	
714.375	0.255975318	-0.1541895517	
715.0	-0.3050178544	-0.8989022933	
715.625	-0.1266860078	-0.04247432345	
716.25	1.047335287	-0.6995576243	
716.875	0.0309709576	-1.240617002	
717.5	0.8592750635	0.9781060079	
718.125	2.988406798	-0.4341921829	
718.75	0.3011601532	-1.745074363	
719.375	2.930293129	0.7934104025	
720.0	-0.03257472107	-4.080170594	
720.625	0.2434254737	-1.131570534	
721.25	0.2756467555	-2.77004979	
721.875	-2.188670789	-2.378900591	
722.5	-0.5882601099	-1.447882442	
723.125	-2.571373646	-0.2542907057	
723.75	-0.4886757592	1.402363744	
724.375	-0.0122175527	0.6737743257	
725.0	0.1552315627	1.118204538	
725.625	1.049128564	1.158580598	
726.25	0.1277509872	0.6543353736	
726.875	-0.9463723576	2.643889042	
727.5	1.486297491	4.684028563	
728.125	-0.4822440832	0.8993122582	
728.75	-0.3818936957	10.95260675	
729.375	6.626991108	6.161199111	
730.0	-6.522776802	3.755531993	
730.625	10.69772409	25.28472162	
731.25	5.140704603	-0.05303085213	
731.875	-11.63183913	4.580141808	
732.5	-9.88812017	5.732892693	
733.125	-2.941828647	4.233014235	
733.75	-3.644581519	1.808107506	
734.375	3.258074887	-0.2893342108	
735.0	-0.2494003517	-0.8226646972	
735.625	-1.572001264	-0.4340737244	
736.25	1.217293696	1.57482429	
736.875	-0.178981143	0.8029931478	
737.5	3.458404299	1.121274339	
738.125	4.586732834	-2.462335085	
738.75	0.8266413374	-5.512907276	
739.375	6.558278046	4.626227477	
740.0	15.68278245	-15.28738421	
740.625	-7.981243743	-2.483202189	
741.25	6.028751398	17.00430189	
741.875	10.85842056	7.569345279	
742.5	-2.350257945	-14.23643376	
743.125	-4.001580418	-7.412466287	
743.75	-1.34644698	0.329678575	
744.375	-0.6371656409	-1.378643344	
745.0	0.6576142555	0.6879806953	
745.625	-0.07638888153	0.2392076018	
746.25	-0.1565918484	-0.4563393188	
746.875	-0.1951612343	0.2525611875	
747.5	-0.3601298886	0.7222420346	
748.125	0.489393696	1.950628889	
748.75	0.6979743634	0.6645151126	
749.375	-0.02805931599	1.269937716	
750.0	-0.5300855576	0.5726246508	
