!Created with skrf (http://scikit-rf.org).
# GHz S RI R (50+0j) 
!freq	ReS11	ImS11	
500.0	0.6934924805	-1.071288002	
500.625	-0.1080752945	-1.544392287	
501.25	0.02159666991	-0.5813560998	
501.875	-0.3816539968	-0.721758297	
502.5	-0.07377136225	-0.04929439313	
503.125	-0.07678391851	-0.02946597216	
503.75	0.06809475398	0.1185659162	
504.375	-0.006557379814	0.0145559685	
505.0	0.04623006388	-0.04778037493	
505.625	-0.03948234525	-0.009404877182	
506.25	-0.01540296934	-0.1750172813	
506.875	-0.08485209588	0.254945032	
507.5	0.2977605681	-0.3711614403	
508.125	0.1465046136	-1.039884883	
508.75	0.03752032336	-0.8486154695	
509.375	0.4725389108	-1.426907381	
510.0	-0.8241214008	-0.3681397716	
510.625	-0.1410066303	-0.01085466163	
511.25	-0.05687485975	-0.07139720096	
511.875	-0.1469828257	0.01290367677	
512.5	-0.02157323693	0.01502666818	
513.125	0.001602950286	-0.1189870864	
513.75	-0.07269966975	-0.001087063856	
514.375	0.03246875782	-0.1280050401	
515.0	-0.32562099	-0.06956242839	
515.625	0.8904216357	-0.5712323663	
516.25	-0.8262132465	-1.320501803	
516.875	0.1040315001	-0.07960780915	
517.5	0.1293825472	-0.2089008396	
518.125	-0.101366151	0.01383464561	
518.75	0.06485863526	-0.1619610289	
519.375	-0.07798502524	0.0554325237	
520.0	0.1219427982	0.01573220221	
520.625	0.1527123296	-0.02007443266	
521.25	0.06841328032	-0.373984255	
521.875	-0.1825867355	-0.05022843217	
522.5	-0.01174349545	-0.03637184908	
523.125	-0.142189712	0.1112773553	
523.75	0.03897227222	0.01147615354	
524.375	-0.2724513552	-0.1242854119	
525.0	0.07677929535	0.2343884136	
525.625	-0.03774446932	-0.02621991409	
526.25	0.05779113315	0.04279447623	
526.875	-0.08847677942	-0.02228342413	
527.5	-0.06215389284	0.3265535121	
528.125	0.04425757796	0.147907215	
528.75	-0.1119933204	0.1547742972	
529.375	0.0876475633	0.09503807106	
530.0	-0.07018978726	0.001665342419	
530.625	0.08360358387	0.4572750271	
531.25	0.5203853768	0.1426958445	
531.875	0.1848988111	-0.01718344101	
532.5	-0.06539732287	-0.2690305339	
533.125	-0.1131040544	0.01283036	
533.75	0.2313951052	-0.2698470736	
534.375	-0.1730123084	-0.1975623546	
535.0	-0.1479304993	-0.1601888994	
535.625	-0.2549877269	0.1160940078	
536.25	0.03643619012	0.07871734924	
536.875	0.07894180636	0.06212231143	
537.5	0.08377032776	-0.08483744102	
538.125	0.05810323152	-0.03165667423	
538.75	0.1999008061	-0.1296390215	
539.375	-0.1429822308	-0.149615947	
540.0	-0.09044867492	-0.1345091466	
540.625	-0.198813783	-0.07525033921	
541.25	-0.1245540869	0.01753725795	
541.875	-0.0004312167583	-0.05850303501	
542.5	-0.1195989868	-0.04218636265	
543.125	-0.03495899293	0.011486753	
543.75	-0.09917124542	-0.1068277806	
544.375	0.0001418050719	0.09950978416	
545.0	-0.05253878344	0.02551237162	
545.625	0.1201429287	0.1114831236	
546.25	0.04155310006	0.01219720325	
546.875	0.1765219487	0.05674520141	
547.5	0.03344901519	-0.174918432	
548.125	-0.004949952415	-0.1109521846	
548.75	-0.1195422197	-0.196555492	
549.375	-0.1543135768	-0.02878856971	
550.0	-0.03440652584	-0.02755342077	
550.625	-0.09697376278	0.02797747883	
551.25	-0.03967817875	0.008324516303	
551.875	-0.11428354	0.05975032172	
552.5	-0.02356814602	0.09166318019	
553.125	-0.02532541419	0.04414390599	
553.75	0.05835646746	0.05936033437	
554.375	0.08736009934	-0.00239826345	
555.0	0.1140871342	-0.06688943729	
555.625	0.0958861505	-0.1180276128	
556.25	0.07219845961	-0.1439521784	
556.875	-0.0245812662	-0.1694138711	
557.5	-0.1055663998	-0.1174460787	
558.125	-0.1243085818	-0.04297134212	
558.75	-0.1127931518	-0.009821533725	
559.375	-0.1285102243	0.01702382359	
560.0	-0.09596611089	0.08839582649	
560.625	-0.06236937154	0.09354351392	
561.25	-0.00153255003	0.1295344375	
561.875	0.03993295524	0.01059089784	
562.5	-0.01309033472	0.09176138994	
563.125	0.09646134156	0.04369489614	
563.75	0.1173476524	0.04371895455	
564.375	0.1864529522	-0.1177133142	
565.0	0.03516322741	-0.1557107647	
565.625	0.03129913609	-0.133570789	
566.25	-0.1719168228	-0.1463696634	
566.875	-0.09427003192	0.005406438267	
567.5	-0.1151851653	-0.1867082631	
568.125	-0.2087425212	-0.1374359688	
568.75	-0.1271048294	-0.07935892224	
569.375	-0.3773578552	0.07272106021	
570.0	-0.05847176949	0.2561610773	
570.625	-0.0830200545	0.09376200343	
571.25	-0.0235935657	0.2084474432	
571.875	0.04732751259	-0.03702497795	
572.5	0.1671968724	0.1027209457	
573.125	0.07760534545	-0.2057023219	
573.75	-0.003926558966	-0.008983461058	
574.375	0.1195763313	-0.1511179379	
575.0	-0.07690687323	-0.02735633949	
575.625	0.1379802306	-0.05714202686	
576.25	0.008733376276	-0.2001282303	
576.875	-0.0204177277	-0.05070171979	
577.5	0.1061707469	-0.1838148597	
578.125	-0.1445399194	-0.2481401579	
578.75	-0.07166640713	-0.03258805383	
579.375	0.01575826473	-0.2118959335	
580.0	-0.1792717621	0.006951254683	
580.625	0.03286081803	-0.08490901578	
581.25	-0.2067725484	0.153622433	
581.875	0.1205313412	0.06182776223	
582.5	-0.06414608098	0.1129019909	
583.125	0.1562902448	0.1925517522	
583.75	-0.04710667578	-0.1027868551	
584.375	0.06023580561	0.1828195233	
585.0	0.1171348457	-0.06031982773	
585.625	0.07639349855	0.07349251857	
586.25	0.2781346722	-0.08038814982	
586.875	-0.02175491486	-0.1358908046	
587.5	0.0779623448	-0.1012235354	
588.125	-0.04075596097	-0.2402249389	
588.75	-0.04725789306	-0.08376073708	
589.375	0.1910085458	-0.1390990851	
590.0	-0.1673501006	-0.2309156152	
590.625	-0.08752625273	-0.01424774509	
591.25	-0.2735252442	0.03650239531	
591.875	0.02271231671	0.2240854044	
592.5	-0.12390077	-0.1065515786	
593.125	0.02377088192	0.1642269186	
593.75	-0.06706254701	0.03099238564	
594.375	0.1700658487	0.2325460601	
595.0	0.2604647209	0.03042124741	
595.625	0.05728468718	0.07612288484	
596.25	0.252948387	0.09320635329	
596.875	0.1811617179	-0.05524065566	
597.5	0.1004518725	0.1736954569	
598.125	0.2422695571	0.1821758945	
598.75	0.1613115252	0.01188608212	
599.375	0.2221319948	0.0421749299	
600.0	0.2410415909	-0.2017446329	
600.625	0.05245049729	-0.1999213386	
601.25	0.1295402816	-0.1129011219	
601.875	-0.1314234952	-0.241468693	
602.5	-0.06282819997	0.08192737673	
603.125	-0.1610348813	-0.06726406665	
603.75	-0.1260511266	0.2002573714	
604.375	-0.02062907976	0.0009969735145	
605.0	-0.1938899103	0.1552347154	
605.625	0.01922616336	0.140099002	
606.25	-0.126314109	-0.06381625188	
606.875	-0.2195649769	0.1792671749	
607.5	-0.1212674889	0.1253035409	
608.125	-0.1367869335	0.2403648893	
608.75	0.2421272459	0.2322882337	
609.375	0.1530592634	-0.09045345115	
610.0	0.172775598	-0.1115952544	
610.625	0.08772400521	-0.2669717533	
611.25	-0.02283320269	-0.05268086928	
611.875	-0.03469177703	-0.2182370193	
612.5	-0.2648350753	-0.0002132894221	
613.125	-0.05832239255	-0.02604282041	
613.75	-0.2201674481	0.1651519074	
614.375	0.1757232294	0.1108692424	
615.0	-0.0969235675	0.016395343	
615.625	0.1385301094	0.05322759598	
616.25	-0.02283572553	0.03105006004	
616.875	-0.2080060354	0.1997920346	
617.5	0.008396713374	0.3413788717	
618.125	-0.04496214846	0.2410599397	
618.75	-0.03125459054	0.2803255735	
619.375	0.1491384805	0.1695898995	
620.0	0.1544320659	0.04094380094	
620.625	0.1954099293	-0.118558723	
621.25	-0.1664422323	-0.1776558997	
621.875	-0.1329464103	-0.0350786814	
622.5	-0.312959948	0.02011440828	
623.125	0.02531484648	0.3170172164	
623.75	0.04740749643	0.02342688351	
624.375	0.1503848687	-0.07165187528	
625.0	-0.03990729802	0.01200475088	
625.625	0.1442820043	-0.089223025	
626.25	-0.1356176151	-0.1606553015	
626.875	-0.05429645528	-0.04872541054	
627.5	-0.1934489906	-0.1235548311	
628.125	-0.1564242535	-0.02949777171	
628.75	0.0008313669534	-0.09739156322	
629.375	-0.1230624038	-0.2477844695	
630.0	-0.2359728666	-0.09600294817	
630.625	-0.1925118628	0.0310945282	
631.25	-0.2058032007	0.2224084313	
631.875	0.03421865509	0.2431975069	
632.5	0.05544192183	0.1623906503	
633.125	0.3037829066	0.1758921416	
633.75	0.09871483509	-0.1940482651	
634.375	0.1176689284	-0.06012735112	
635.0	-0.03709978608	-0.2566360138	
635.625	-0.09922380177	-0.0129730987	
636.25	-0.2249308188	-0.06903793953	
636.875	-0.05718250591	0.2334201499	
637.5	0.005020312498	0.003071954433	
638.125	-0.1868221767	0.1236447118	
638.75	0.03869380678	0.1954678108	
639.375	-0.1108507797	0.175658665	
640.0	0.1648222391	0.3754675909	
640.625	0.297543643	0.09457763493	
641.25	0.1924787032	0.1025496727	
641.875	0.3336793777	-0.2112231914	
642.5	-0.1073818634	-0.1774202078	
643.125	0.02509360323	-0.1219232533	
643.75	-0.2691006852	-0.2099932235	
644.375	-0.05162826375	0.06886440827	
645.0	-0.296597129	0.06382695508	
645.625	0.2155144708	0.4138211693	
646.25	0.07742034085	-0.06432963126	
646.875	0.1857828307	0.2387119395	
647.5	0.09593874481	-0.1756103616	
648.125	0.09449991674	0.2825180889	
648.75	0.4061615329	-0.1639055128	
649.375	0.0667978883	-0.2126185072	
650.0	0.3082447152	-0.1588608412	
650.625	0.209421805	-0.4823249522	
651.25	0.03390620977	-0.1776934068	
651.875	0.4112302336	0.01032267697	
652.5	0.3919439515	-0.2257826309	
653.125	0.1167956457	-0.07511670756	
653.75	0.3912395181	-0.154721772	
654.375	-0.1527179776	-0.4781630323	
655.0	-0.1793684102	-0.01006491379	
655.625	-0.3409829526	0.01926491795	
656.25	0.1366711896	0.3133450415	
656.875	-0.1139170469	-0.156792342	
657.5	0.08539264242	0.2687272628	
658.125	0.1767164335	0.009838908656	
658.75	0.138954479	0.3450576858	
659.375	0.5569442873	-0.2706566238	
660.0	0.04205134638	-0.2416229186	
660.625	0.28815402	-0.2198883028	
661.25	0.257069915	-0.4448215819	
661.875	0.07166032961	-0.2635774975	
662.5	0.3879848284	-0.0436699609	
663.125	0.3489940984	-0.3099507924	
663.75	0.0817757273	-0.197852713	
664.375	0.1269725301	-0.3745410305	
665.0	-0.4058205122	-0.2615561881	
665.625	-0.2082154041	0.08067687794	
666.25	-0.2494377011	0.2418454948	
666.875	0.2270503553	0.3168945538	
667.5	0.08470866942	0.008123613964	
668.125	0.3314426194	0.1312452816	
668.75	0.1785527136	-0.2423085293	
669.375	0.1029669886	-0.0448627549	
670.0	0.1548460931	-0.3421143614	
670.625	-0.1303516088	-0.2101860761	
671.25	0.2172185056	-0.07765537423	
671.875	0.1497167486	-0.3267807933	
672.5	0.1123384805	-0.1618594096	
673.125	0.2597956348	-0.03043875252	
673.75	0.2659291303	-0.3518643283	
674.375	-0.0001442824297	-0.1296082831	
675.0	0.06211618027	-0.2797522568	
675.625	-0.287855316	-0.2261619584	
676.25	-0.1257964748	0.08295509978	
676.875	-0.1983673232	-0.1516565307	
677.5	-0.2225814431	0.1406554983	
678.125	-0.07368080779	0.025422029	
678.75	-0.153049236	0.3319975973	
679.375	0.410603183	-0.01218054372	
680.0	-0.005853407798	0.0006830672381	
680.625	0.2678314834	-0.05286768279	
681.25	-0.07112066851	-0.2223795765	
681.875	0.004759285774	0.2544614527	
682.5	0.5801614623	-0.1127576444	
683.125	0.07394126709	-0.07434498467	
683.75	0.172111211	0.2413949068	
684.375	0.4991690578	-0.0007806536857	
685.0	0.1022438475	-0.06502313295	
685.625	0.3819923866	0.2861904741	
686.25	0.3902211651	-0.1951957959	
686.875	0.2195546721	-0.05164254976	
687.5	0.5018584873	-0.2307734671	
688.125	-0.1631703511	-0.5865932341	
688.75	-0.193940283	-0.1843630137	
689.375	-0.4815747698	0.2140923775	
690.0	0.2251392227	0.4611659316	
690.625	0.001347393062	0.08499127583	
691.25	0.4231710395	0.5660440906	
691.875	0.514022605	0.1050944784	
692.5	0.4179105387	0.3423732937	
693.125	1.043481251	-0.03628147088	
693.75	0.47048452	-0.4477021234	
694.375	0.4998816238	-0.113544901	
695.0	0.5021932314	-0.5257795831	
695.625	0.4185958486	-0.2126408686	
696.25	0.6331698215	0.3061298959	
696.875	0.6106466208	0.5317193209	
697.5	0.3533236692	0.2477214525	
698.125	0.4697892795	0.4699578099	
698.75	0.6144316345	-0.1925061854	
699.375	-0.4551052411	-0.316907036	
700.0	-0.2906201406	0.155009885	
700.625	0.1480100892	0.5048295115	
701.25	0.1979867001	0.002123345092	
701.875	0.1578684553	0.4037595696	
702.5	0.564566847	0.2517173333	
703.125	0.2592811221	0.05050817893	
703.75	0.5534539325	0.02464906172	
704.375	0.3480949848	-0.3461936604	
705.0	0.07747925809	-0.1086752505	
705.625	0.3980092667	-0.008120353244	
706.25	0.2639307936	0.1003624235	
706.875	0.09168933176	0.2811140028	
707.5	0.2848983155	0.5111522421	
708.125	0.480138844	0.2739616677	
708.75	0.3236422411	-0.2005401335	
709.375	-0.07378457452	-0.4509166706	
710.0	-0.2309699709	0.2596107449	
710.625	-0.04862003836	0.0519167062	
711.25	0.167098181	0.2808786917	
711.875	0.1331024788	0.008644955552	
712.5	0.3164807304	0.1608362788	
713.125	0.4105946936	-0.2435526206	
713.75	0.04506154836	-0.2360422486	
714.375	0.1244895086	-0.2273589303	
715.0	-0.09499487374	-0.3208535247	
715.625	0.004619069825	-0.08826763087	
716.25	0.3208883963	-0.2318534954	
716.875	0.329453775	-0.3056781793	
717.5	0.3453806	0.0566607227	
718.125	0.8442769189	0.2741653152	
718.75	0.9674898472	-0.1027049246	
719.375	0.5185178056	-0.0004731327702	
720.0	1.070112122	-0.2441698544	
720.625	0.1087784527	-1.094058304	
721.25	0.3071992522	-0.4835519503	
721.875	0.1545144908	-1.504672465	
722.5	-0.8315673694	-0.5827163966	
723.125	-0.4811791136	-0.4420020742	
723.75	-0.831967762	0.5669722695	
724.375	0.1349212732	0.3979685648	
725.0	-0.1435188719	0.3908793673	
725.625	0.2916039472	0.7177669845	
726.25	0.1688094052	0.4287363939	
726.875	-0.4764283493	0.8520191542	
727.5	-0.2906251917	1.812227709	
728.125	0.4405866496	1.592298022	
728.75	-1.231883671	2.209367061	
729.375	-1.425991257	4.962072493	
730.0	0.5886044666	2.768830109	
730.625	-2.005524218	2.264915005	
731.25	-1.722612013	5.216857674	
731.875	-1.54655456	1.086033441	
732.5	-3.969396669	-1.016113706	
733.125	-3.666640876	0.8526520404	
733.75	-0.3319112201	1.098067438	
734.375	0.1631886648	1.203789249	
735.0	-0.09007965085	-0.9461054626	
735.625	0.01450660457	-0.0842800394	
736.25	-0.4900586849	0.655110576	
736.875	0.769323051	0.554815378	
737.5	0.3887231438	0.2917933871	
738.125	2.454057654	0.2299797831	
738.75	1.570315435	-2.212633694	
739.375	0.8503768086	-0.4587626582	
740.0	5.105783689	1.094114651	
740.625	4.537164012	-3.880784376	
741.25	-3.438457839	0.1067596889	
741.875	-5.529251504	1.437961976	
742.5	-1.953203119	-0.1377793694	
743.125	1.684143841	-1.30929497	
743.75	-0.1184231233	-1.854474345	
744.375	-0.4077215683	0.1227579697	
745.0	-0.2678227568	-0.03756092587	
745.625	0.1070324554	-0.1661424026	
746.25	0.1664677331	-0.06734722506	
746.875	-0.3366500389	-0.03238485247	
747.5	-0.03385049754	0.338261747	
748.125	-0.06028583719	0.4283438402	
748.75	0.2610637822	0.6888979223	
749.375	0.2436764036	0.4631179913	
750.0	-0.3933261108	0.1449493017	
