!Created with skrf (http://scikit-rf.org).
# GHz S RI R (50+0j) 
!freq	ReS11	ImS11	
500.0	-0.1684093031	-1.467584423	
500.625	0.2625546334	-0.369473514	
501.25	-0.2152404616	-1.070530569	
501.875	-0.3963386886	-0.2734674021	
502.5	0.004381011102	-0.107432675	
503.125	-0.1148410643	0.01196841991	
503.75	0.03728378484	0.03710123132	
504.375	0.05591354924	0.02106753846	
505.0	-0.009543205438	-0.03995327437	
505.625	0.06958289203	-0.04870669118	
506.25	-0.1571110667	-0.1028594868	
506.875	0.09697778035	-0.08219220791	
507.5	-0.2121173736	-0.7264245829	
508.125	-0.2708049133	-0.5956464366	
508.75	0.828062859	-0.4674649034	
509.375	-0.2282438981	-1.645909345	
510.0	-0.4142196963	-0.258057305	
510.625	0.04531472609	-0.2095419205	
511.25	-0.14052885	-0.04924522275	
511.875	-0.05653961769	-0.01248136404	
512.5	-0.06259558888	0.07230679759	
513.125	-0.05581002289	-0.07418231335	
513.75	0.002782306669	-0.03235082844	
514.375	-0.1114892486	-0.08563812717	
515.0	0.3712531137	0.3594907715	
515.625	-0.2174444235	-0.8259644634	
516.25	-0.414577417	-0.1423187727	
516.875	0.1756228731	-0.3849936957	
517.5	-0.189808697	-0.226319119	
518.125	0.01855544987	0.04346275309	
518.75	-0.1037914671	-0.2105342379	
519.375	-0.03567220386	0.06093151418	
520.0	0.08230901338	0.07606292375	
520.625	0.2273584622	-0.02783204061	
521.25	-0.08329121031	-0.2652776731	
521.875	-0.02923687915	-0.0220697762	
522.5	-0.0651559319	-0.01573982695	
523.125	0.07277624679	0.06436677974	
523.75	-0.1493982647	-0.1647531358	
524.375	-0.2410497159	0.1756423262	
525.0	0.01759093552	-0.02368129243	
525.625	-0.04518921749	0.1105571899	
526.25	0.02302087616	-0.1133705244	
526.875	-0.08816249867	0.1283910998	
527.5	0.01864971463	0.1004973749	
528.125	-0.09033606311	0.202225059	
528.75	0.04260359937	0.3438962506	
529.375	0.06425917316	-0.01125544448	
530.0	-0.09725918628	0.2591652237	
530.625	0.2896066784	0.2857091421	
531.25	0.2610353897	0.08857499698	
531.875	0.3233482486	-0.07501777792	
532.5	-0.1879869776	-0.06988356411	
533.125	0.2161079313	-0.05970964815	
533.75	0.005062577412	-0.2753581062	
534.375	0.06075125728	-0.2258739826	
535.0	-0.3037229949	-0.2612161641	
535.625	-0.107756063	0.1393242751	
536.25	-0.03191529891	0.06565503082	
536.875	0.1343061125	0.03679164123	
537.5	0.02511622157	-0.05621762097	
538.125	0.1651120722	-0.003027279232	
538.75	0.1010995409	-0.1778274151	
539.375	-0.03410048517	-0.127481691	
540.0	-0.1584697534	-0.1996310839	
540.625	-0.2006820162	0.05239352242	
541.25	-0.03616711448	-0.01141268845	
541.875	-0.04456478942	-0.07850336239	
542.5	-0.02330982834	0.003689780527	
543.125	-0.06781144793	-0.1213242704	
543.75	-0.1754814767	0.02475939154	
544.375	-0.01162378903	-0.01605096166	
545.0	-0.05480671985	0.1560708246	
545.625	0.05294226769	0.001282234366	
546.25	0.09729964565	0.1127527475	
546.875	0.1313647852	-0.09069565964	
547.5	0.0391109316	-0.06003621496	
548.125	-0.007445156955	-0.2222167421	
548.75	-0.1937398357	-0.1001336109	
549.375	-0.05492196786	-0.04223357724	
550.0	-0.1264191327	-0.03103964559	
550.625	-0.01576817775	0.03561860133	
551.25	-0.1104064321	-0.00406493972	
551.875	-0.06221809217	0.1067384101	
552.5	-0.03783575512	0.04780098793	
553.125	-0.01867393181	0.08608620388	
553.75	0.05339066199	0.03614764715	
554.375	0.1033301753	0.01246017949	
555.0	0.1117518785	-0.08565658735	
555.625	0.08856976982	-0.1077906899	
556.25	0.07601364537	-0.1467860368	
556.875	-0.03751672711	-0.1717334971	
557.5	-0.1062215756	-0.1110288719	
558.125	-0.1178626442	-0.04520515874	
558.75	-0.121328686	-0.008130367327	
559.375	-0.1164690582	0.03042529903	
560.0	-0.09626075546	0.06248056375	
560.625	-0.0739708799	0.1271855995	
561.25	0.03534436102	0.09951583374	
561.875	-0.0009444377401	0.05249257735	
562.5	0.05585260429	0.05475449647	
563.125	0.02887315221	0.08247783013	
563.75	0.1944512563	0.01341298818	
564.375	0.09370677648	-0.1213306296	
565.0	0.1027331846	-0.09546211946	
565.625	-0.03904626297	-0.2202492902	
566.25	-0.1332458563	-0.05072843751	
566.875	-0.1157628639	-0.1347347383	
567.5	-0.2428999292	-0.1286959711	
568.125	-0.09065733207	-0.1020288243	
568.75	-0.2757003982	-0.1502579231	
569.375	-0.2094452818	0.2027513543	
570.0	-0.1326051873	0.09039684773	
570.625	-0.1255994999	0.2550326111	
571.25	0.08217873026	0.08371350295	
571.875	-0.01982209387	0.1309081743	
572.5	0.2190524125	-0.07531426266	
573.125	0.00764395904	-0.06257805907	
573.75	0.1521064935	-0.1049305165	
574.375	-0.07320808446	-0.1299462646	
575.0	0.1064868989	0.05147941361	
575.625	0.006664502102	-0.1719373992	
576.25	0.006851171452	-0.02372972705	
576.875	0.0786614589	-0.1936303847	
577.5	-0.07883418013	-0.2609865007	
578.125	-0.06700776278	-0.06560309123	
578.75	-0.01134047716	-0.1864623354	
579.375	-0.1947248565	-0.0878715262	
580.0	0.08687090298	0.07852675546	
580.625	-0.1702901357	-0.09665612781	
581.25	-0.01173891033	0.1119907185	
581.875	-0.1548501317	0.1084173785	
582.5	0.1395660942	0.2811399408	
583.125	0.08383105445	-0.06830711396	
583.75	-0.03347221222	0.1154893571	
584.375	0.124531033	-0.02622306409	
585.0	0.005619412512	0.07977208182	
585.625	0.2763888561	0.03493683247	
586.25	0.1035336683	-0.1483555859	
586.875	0.1262263622	-0.04668084039	
587.5	-0.02939605141	-0.2397244402	
588.125	-0.06378933093	-0.05809192869	
588.75	0.1313194066	-0.141885996	
589.375	0.02454643828	-0.259321188	
590.0	-0.03924624288	-0.08648988206	
590.625	-0.2004912892	-0.2050288212	
591.25	-0.1358194106	0.2365870074	
591.875	-0.0009755224163	0.01934687234	
592.5	-0.05919258182	0.1220379365	
593.125	0.02698585841	-0.124508081	
593.75	-0.008660032376	0.2349292294	
594.375	0.2282159974	-0.03368250844	
595.0	0.07060506508	0.07858382267	
595.625	0.2918594967	0.1262981306	
596.25	0.2071654673	-0.04865972115	
596.875	0.0634449444	0.06882558561	
597.5	0.2320851487	0.1450283148	
598.125	0.1181814543	0.02687800735	
598.75	0.1188391486	0.1471368313	
599.375	0.2689153929	-0.07263344258	
600.0	0.09305743314	-0.1529639622	
600.625	0.1858709294	-0.1140290972	
601.25	0.08082957577	-0.2834224163	
601.875	-0.1484564067	-0.06765164902	
602.5	-0.08271816903	-0.1116480823	
603.125	-0.1537574071	0.2159268931	
603.75	-0.00842174045	0.03059576498	
604.375	-0.1897768914	0.03229345428	
605.0	0.009874068039	0.18011581	
605.625	-0.1238203973	-0.06788438839	
606.25	-0.1868180514	0.16240706	
606.875	-0.06102411797	0.1043251857	
607.5	-0.2465401971	0.207337333	
608.125	0.01362593986	0.2867020302	
608.75	0.1711021677	0.07017982488	
609.375	0.2426585597	0.09134477196	
610.0	0.227543655	-0.1929764675	
610.625	0.02626387831	-0.1413740529	
611.25	0.1308878056	-0.2026887738	
611.875	-0.2033387091	-0.08625127178	
612.5	-0.06729473675	-0.03046025319	
613.125	-0.3163231903	-0.01258488007	
613.75	0.003813595313	0.2722435683	
614.375	-0.04205020499	0.006026115865	
615.0	0.1072157464	0.1614229809	
615.625	0.03263646203	-0.03177806727	
616.25	-0.1161513529	0.2289341392	
616.875	0.0111848565	0.3133663141	
617.5	-0.0872061644	0.1337757186	
618.125	-0.1283807333	0.2855110306	
618.75	-0.02667668038	0.1663932409	
619.375	0.01780171895	0.1134867936	
620.0	0.1695159393	0.07940261115	
620.625	0.05369404841	-0.2035774717	
621.25	-0.07667898393	-0.07537851261	
621.875	-0.2518469838	-0.1638069713	
622.5	-0.2459928509	0.1629411695	
623.125	-0.07800015267	0.08885575126	
623.75	0.171112007	0.1763352639	
624.375	-0.02909490021	-0.1038462028	
625.0	0.1297208195	0.01432767935	
625.625	-0.01645447645	-0.1604993264	
626.25	0.006795368374	-0.06694301718	
626.875	-0.168731723	-0.1771478823	
627.5	-0.2000013138	0.03388362653	
628.125	-0.0547546882	-0.06620786162	
628.75	-0.1058197005	-0.2007973393	
629.375	-0.1265148834	-0.1071506289	
630.0	-0.1470536811	-0.1536400684	
630.625	-0.2734822908	0.02048909252	
631.25	-0.1191045485	0.2795721175	
631.875	-0.1153014089	0.2172117368	
632.5	0.2068881399	0.269421948	
633.125	0.2624846174	-0.05127874583	
633.75	0.1717351672	0.02038644334	
634.375	0.1684124081	-0.2913768959	
635.0	-0.0578513046	-0.06329565998	
635.625	-0.1351402428	-0.2023652286	
636.25	-0.1958497464	0.1656820318	
636.875	-0.004166740226	0.05798917935	
637.5	-0.1582823291	0.09952382539	
638.125	0.0420681138	0.1169822868	
638.75	-0.1558313661	0.06769128045	
639.375	0.002399218041	0.3723287298	
640.0	0.2159362672	0.1793111972	
640.625	0.1299759665	0.2122072905	
641.25	0.4117970234	0.02224089497	
641.875	0.07746968994	-0.2337769351	
642.5	0.1106112482	-0.1632340018	
643.125	-0.2426504979	-0.2227816537	
643.75	-0.1289432344	0.145552922	
644.375	-0.2024063611	-0.1862092223	
645.0	-0.1452045846	0.3243673818	
645.625	0.07564720358	0.06707350216	
646.25	0.081430318	0.3304602557	
646.875	0.158124393	-0.1687115644	
647.5	-0.1217320885	0.2469882968	
648.125	0.3282869764	-0.0006874875221	
648.75	0.1139202277	-0.08470295843	
649.375	0.3878464429	-0.126476147	
650.0	0.1747172145	-0.5597036332	
650.625	0.02044533746	-0.1858506205	
651.25	0.3596588099	-0.1543048309	
651.875	0.3163247901	-0.3494064196	
652.5	0.102831697	-0.06014263668	
653.125	0.4285558017	-0.001347342876	
653.75	0.140713691	-0.366283222	
654.375	0.02518710846	-0.1688924952	
655.0	-0.2618809947	-0.3937725114	
655.625	-0.1831319533	0.3387212538	
656.25	-0.007568087473	0.04615680353	
656.875	-0.0109932897	0.2346278175	
657.5	0.1663882688	-0.09582367834	
658.125	-0.05296326834	0.3645559851	
658.75	0.4858643155	0.055820909	
659.375	0.1273307573	-0.1449492796	
660.0	0.33680109	-0.167925629	
660.625	0.1570288526	-0.5675838487	
661.25	0.01296236249	-0.2020361206	
661.875	0.3745326296	-0.1791431524	
662.5	0.3036768335	-0.3248119617	
663.125	0.159225505	-0.1623876211	
663.75	0.3270889146	-0.2276346826	
664.375	-0.1535807649	-0.4289043601	
665.0	-0.1588231038	-0.1470784337	
665.625	-0.4116357318	-0.02639652982	
666.25	-0.0690162791	0.3823259723	
666.875	0.03349288833	0.1280206641	
667.5	0.2167359467	0.2862581466	
668.125	0.2448821107	-0.1216073522	
668.75	0.159065077	-0.02518343897	
669.375	0.247634716	-0.3269126224	
670.0	-0.1964953679	-0.159310147	
670.625	0.1307746609	-0.1162907194	
671.25	0.09221415918	-0.2918783344	
671.875	-0.007464657697	-0.1185392988	
672.5	0.3304079047	-0.01592684329	
673.125	0.2473205561	-0.3116820491	
673.75	0.09062838906	-0.1488888327	
674.375	0.1811754689	-0.2402082352	
675.0	-0.2123648961	-0.3564417045	
675.625	-0.1204766511	-0.0001729889003	
676.25	-0.2077386549	-0.1823029881	
676.875	-0.2328200994	0.09498447707	
677.5	-0.05096923822	-0.03030197965	
678.125	-0.3203050135	0.1311968757	
678.75	0.1615540729	0.2443336575	
679.375	0.02188497118	0.06613899602	
680.0	0.361379381	0.008117891221	
680.625	-0.1312072341	-0.2442048108	
681.25	0.06127658116	0.239770594	
681.875	0.353081301	-0.09725902672	
682.5	0.08980735314	-0.02178967706	
683.125	0.2951272053	0.3653858062	
683.75	0.515247822	0.003049030228	
684.375	0.03498765572	-0.04467066983	
685.0	0.4660362495	0.1525197784	
685.625	0.3219523087	-0.09859557657	
686.25	0.146577697	0.01926710678	
686.875	0.5597999281	-0.0003062666393	
687.5	0.1468815801	-0.3503290002	
688.125	0.1192338162	-0.3289620084	
688.75	-0.4347355223	-0.359864123	
689.375	-0.2573263036	0.4743552734	
690.0	-0.06602477611	0.201885347	
690.625	0.3384725867	0.4726473167	
691.25	0.3778403258	0.03022907268	
691.875	0.2378168688	0.4453831043	
692.5	0.8588664164	0.3272405569	
693.125	0.4847748331	-0.1659838101	
693.75	0.7089179938	0.0135682075	
694.375	0.6206657601	-0.513871185	
695.0	0.2452046041	-0.3683363837	
695.625	0.6220940949	0.176704384	
696.25	0.767005444	0.130197094	
696.875	0.27025662	0.5446066103	
697.5	0.2237584164	0.619717261	
698.125	0.8155418834	0.3290608198	
698.75	0.2431674639	-0.3198029588	
699.375	-0.1958509745	-0.469865389	
700.0	-0.3990172111	0.4603878475	
700.625	0.2231679433	0.2006020985	
701.25	0.1106315699	0.3948012501	
701.875	0.5306646391	0.2093622626	
702.5	0.1762173398	0.2032508348	
703.125	0.4879919083	0.2895642752	
703.75	0.4469365919	-0.2475694038	
704.375	0.2032841767	-0.01273429673	
705.0	0.4308053259	-0.1007869473	
705.625	0.2479503108	-0.1510339464	
706.25	0.2238604787	0.2959992683	
706.875	0.2950776663	0.3829163466	
707.5	0.2094822267	0.4795086628	
708.125	0.3665440242	0.3013990718	
708.75	0.3906549567	-0.2310486853	
709.375	-0.3376696276	-0.2492446428	
710.0	0.08135417888	0.2075754108	
710.625	0.08503623612	0.3108166981	
711.25	0.129974653	-0.04703692524	
711.875	0.1126662382	0.291627587	
712.5	0.4820225207	-0.1239899697	
713.125	0.1366901836	-0.1195044666	
713.75	0.2984733455	-0.2094161866	
714.375	-0.06172402784	-0.3283650097	
715.0	-0.01760927099	-0.09111385478	
715.625	0.1395070982	-0.3227563414	
716.25	0.009571972138	-0.3154118681	
716.875	0.2869205187	-0.05216146696	
717.5	0.7417403827	0.07725435404	
718.125	0.7751147429	0.02214148496	
718.75	0.6097003685	0.2743325627	
719.375	1.251530895	-0.525123973	
720.0	0.3256397768	-0.9420493171	
720.625	0.2766115448	-0.3457739218	
721.25	0.1198525736	-1.419234496	
721.875	-0.8364643495	-0.7601248555	
722.5	-0.1284999328	-0.9971320875	
723.125	-1.127601075	-0.2246323105	
723.75	-0.2570053381	0.4578311396	
724.375	-0.2682062303	0.4022754484	
725.0	0.3767102014	0.4943833879	
725.625	0.0746821323	0.1770300364	
726.25	-0.1838363845	0.8004521592	
726.875	0.09424308296	1.18375084	
727.5	0.05747981154	0.9213372718	
728.125	-0.9805260803	2.054911757	
728.75	0.04117192261	3.604427967	
729.375	-0.1723580749	2.20500521	
730.0	-2.207096987	5.037581579	
730.625	1.904951323	5.222716619	
731.25	-0.03496996788	2.171735405	
731.875	-3.986721219	1.92536505	
732.5	-3.662733321	1.868477038	
733.125	-0.5845460157	0.4128962327	
733.75	-2.322423605	1.10435349	
734.375	1.14559438	0.3788311087	
735.0	0.08755561034	-0.2502805309	
735.625	-0.7728529954	-0.1190780604	
736.25	0.5581219923	0.5125540146	
736.875	-0.1370953737	0.5750459106	
737.5	1.48690368	0.4523825836	
738.125	1.202302772	-0.8982575544	
738.75	1.020015533	0.01651843595	
739.375	4.364482734	-1.468626527	
740.0	1.304255608	-3.571450763	
740.625	-0.1806518193	2.643108031	
741.25	2.041969893	6.552789134	
741.875	2.112314037	1.386374276	
742.5	-0.4838855295	-4.735395508	
743.125	-0.3398814503	-2.732659274	
743.75	-0.1889819472	-0.5020580714	
744.375	-0.1624924979	-0.5809134308	
745.0	0.1823353843	0.2092214114	
745.625	-0.03598048473	0.1442075544	
746.25	-0.02649260295	-0.199969817	
746.875	-0.09955969616	0.09922749337	
747.5	-0.2888797305	0.2443621225	
748.125	0.1356141591	0.6695912654	
748.75	0.2635085384	0.2932853046	
749.375	-0.04084502032	0.4737304112	
750.0	-0.4144986049	0.3179775779	
