!Created with skrf (http://scikit-rf.org).
# GHz S RI R (50+0j) 
!freq	ReS11	ImS11	
500.0	-0.09960819288	-0.643312728	
500.625	0.7273584174	-0.8288538947	
501.25	-0.8633386184	-0.903053287	
501.875	-0.3904328996	-0.2220868416	
502.5	0.0001938432259	-0.109936317	
503.125	-0.1122919061	0.04687335868	
503.75	-0.001171240327	0.02351032896	
504.375	0.06479723009	-0.02111629594	
505.0	-0.002918080754	0.003182073159	
505.625	-0.0139576501	-0.1477338465	
506.25	-0.1018576174	0.04974121638	
506.875	-0.07862472279	-0.2270878452	
507.5	-0.3424698135	-0.5985008485	
508.125	-0.1956892927	-0.4790397442	
508.75	0.8478768393	-0.5646383332	
509.375	-0.2847536771	-1.698817961	
510.0	-0.2606416089	-0.06495182576	
510.625	-0.1790491097	-0.2477391581	
511.25	-0.07572359044	0.03895623952	
511.875	-0.08894349567	-0.13943246	
512.5	-0.03042340632	0.07468772356	
513.125	-0.03339776596	-0.04108128693	
513.75	0.006418482565	-0.0840558404	
514.375	-0.1695644475	-0.01077970863	
515.0	0.4284844263	0.06879787799	
515.625	-0.4013547038	-0.8130357536	
516.25	-0.1262011035	-0.1552588702	
516.875	-0.02250156768	-0.7359757492	
517.5	-0.1978417067	-0.1458001679	
518.125	0.05471390501	-0.02437127758	
518.75	-0.1497681488	-0.2108516315	
519.375	-0.01097535805	0.02849679297	
520.0	0.138245284	0.05656423953	
520.625	0.2080093984	-0.09842573815	
521.25	-0.1126306698	-0.1719515697	
521.875	-0.08973054008	-0.09161159652	
522.5	-0.09626697706	0.03344616939	
523.125	0.07472673147	-0.02666293356	
523.75	-0.212131226	-0.1168077603	
524.375	-0.139950631	0.2082347568	
525.0	-0.08165099168	-0.01617365141	
525.625	0.04689538111	0.1532115063	
526.25	-0.08465775951	-0.08486848519	
526.875	0.005756977019	0.1063453151	
527.5	-0.09476710315	0.07256769553	
528.125	-0.03951361105	0.3716515935	
528.75	0.175375207	0.2976791855	
529.375	0.04022049846	-0.04581052654	
530.0	-0.06828041932	0.1987513052	
530.625	0.2757019109	0.2447047336	
531.25	0.2640533302	0.02511300869	
531.875	0.3859664526	-0.2557308838	
532.5	-0.1931669769	-0.06445917563	
533.125	0.0597937342	-0.1916366467	
533.75	0.07037780268	-0.0683573594	
534.375	-0.04864193082	-0.4314916555	
535.0	-0.3603449168	-0.05730326973	
535.625	-0.1041395783	0.07570516825	
536.25	-0.03521322376	0.08912572798	
536.875	0.1351955873	0.01552247499	
537.5	0.02804904351	-0.0409824214	
538.125	0.1888868379	-0.04845424261	
538.75	0.06601781297	-0.141510992	
539.375	-0.01398079676	-0.1901188746	
540.0	-0.234446526	-0.1555747271	
540.625	-0.08240691077	0.01054218927	
541.25	-0.07752047304	-0.02405072592	
541.875	-0.09846278546	-0.01817522602	
542.5	0.01725851534	-0.009431748236	
543.125	-0.08696612238	-0.1171078256	
543.75	-0.1538019119	0.07678592583	
544.375	-0.05841362741	-0.02355954447	
545.0	0.01147621251	0.139462143	
545.625	0.0009799428264	0.02369026236	
546.25	0.1644781266	0.0676100129	
546.875	0.06132853103	-0.06640403341	
547.5	0.1215249766	-0.06253872409	
548.125	-0.07365986236	-0.2252046575	
548.75	-0.1603378609	-0.04269491743	
549.375	-0.06052283366	-0.09472325677	
550.0	-0.1296690001	0.007629728294	
550.625	-0.007440489075	0.00543633866	
551.25	-0.126497517	0.02723358548	
551.875	-0.03428596026	0.08433813143	
552.5	-0.05383484174	0.04419464587	
553.125	-0.001694732051	0.07992238107	
553.75	0.03634353275	0.0398867285	
554.375	0.1111885062	0.001016169379	
555.0	0.09838154785	-0.0879022116	
555.625	0.0925683064	-0.1072980482	
556.25	0.07416381317	-0.1513592231	
556.875	-0.04133712437	-0.1704945853	
557.5	-0.1010824254	-0.1065062755	
558.125	-0.1199761911	-0.04580197549	
558.75	-0.122394688	-0.002255333426	
559.375	-0.1088275355	0.02816065313	
560.0	-0.107585991	0.06036919402	
560.625	-0.05438227545	0.1373546578	
561.25	0.01436606053	0.07927527973	
561.875	0.02350642234	0.07873741701	
562.5	0.0253604135	0.01276653095	
563.125	0.05547545749	0.1173797967	
563.75	0.1773705065	-0.03289536569	
564.375	0.0886758046	-0.08140579899	
565.0	0.135591771	-0.09286783189	
565.625	-0.06856137441	-0.2070015028	
566.25	-0.08410515666	-0.07132518675	
566.875	-0.1442118314	-0.1529189806	
567.5	-0.2029672267	-0.04301578214	
568.125	-0.07851796206	-0.1958880772	
568.75	-0.3110722343	-0.07316060117	
569.375	-0.1265340858	0.1061883494	
570.0	-0.2237615482	0.1785443074	
570.625	-0.02180630456	0.2671329832	
571.25	0.03330946885	0.04224513881	
571.875	0.01920614388	0.1783524523	
572.5	0.1641756106	-0.09967830117	
573.125	0.05586901584	-0.02357692486	
573.75	0.1323750615	-0.1796435856	
574.375	-0.08629008056	-0.02841048456	
575.0	0.1497539971	-0.07755255766	
575.625	-0.06496865537	-0.06535380816	
576.25	0.1248467179	-0.05420401033	
576.875	-0.01248987388	-0.2367826505	
577.5	-0.1211066511	-0.1622316134	
578.125	0.004314083929	-0.07652550639	
578.75	-0.063990806	-0.2226137714	
579.375	-0.2209890801	0.003514337103	
580.0	0.09352329951	-0.06022370482	
580.625	-0.1890756856	0.01612418568	
581.25	-0.01129127328	0.01319465102	
581.875	-0.1284710296	0.2781324321	
582.5	0.1876897432	0.1445111349	
583.125	-0.08101551899	-0.001453944583	
583.75	0.08338109923	0.136651804	
584.375	0.03138326242	-0.06241009052	
585.0	0.0642826354	0.1616758792	
585.625	0.2413130749	-0.09611535136	
586.25	0.05296025035	-0.0740461459	
586.875	0.1833407796	-0.1290513217	
587.5	-0.1010183421	-0.1929058845	
588.125	0.03037881631	-0.07075027819	
588.75	0.09849749152	-0.2167926559	
589.375	-0.03702521195	-0.1979268336	
590.0	0.02784571086	-0.1277529755	
590.625	-0.3465373298	-0.1287098203	
591.25	-0.03530367698	0.1681374305	
591.875	-0.09080784795	0.04870091209	
592.5	0.05023471228	0.1529235574	
593.125	-0.1667724961	-0.08917615044	
593.75	0.1344635939	0.2362820775	
594.375	0.1304517417	-0.01945648087	
595.0	0.0862215038	0.1336172982	
595.625	0.2797309646	0.0765533729	
596.25	0.1390792249	-0.06300735786	
596.875	0.1237816337	0.1309959711	
597.5	0.2379083362	0.04534891556	
598.125	0.07855377957	0.1435819177	
598.75	0.2200416679	0.1696709432	
599.375	0.1909810127	-0.107557637	
600.0	0.1277034525	-0.07674672386	
600.625	0.1956543779	-0.1744158652	
601.25	0.01448033147	-0.2757585853	
601.875	-0.06829959295	-0.03292579069	
602.5	-0.1619094744	-0.1204397486	
603.125	-0.02267312287	0.1680153732	
603.75	-0.0769738473	-0.02619920449	
604.375	-0.1946912505	0.1372208129	
605.0	0.06648808852	-0.01170849661	
605.625	-0.1909880637	0.03666374367	
606.25	0.005598248408	0.1180361715	
606.875	-0.1166544537	-0.01022534862	
607.5	-0.2500064048	0.2371028159	
608.125	0.04853197932	0.2843772473	
608.75	0.09709950015	0.1128677383	
609.375	0.3230644384	0.04730240524	
610.0	0.1652733946	-0.1809475183	
610.625	0.08224097812	-0.06304222159	
611.25	0.04827196376	-0.2219433645	
611.875	-0.1060370789	-0.02120330918	
612.5	-0.1013359059	-0.1468243348	
613.125	-0.3051014355	0.1109138701	
613.75	0.07737931691	0.1317520783	
614.375	-0.0851757295	0.1258621761	
615.0	0.1633471893	0.07104774999	
615.625	-0.087108009	0.001863450598	
616.25	-0.01888566375	0.273887792	
616.875	0.06124683913	0.1640010465	
617.5	-0.1614996433	0.1441176975	
618.125	-0.03165733211	0.3494349321	
618.75	0.003452503543	0.1951677164	
619.375	-0.005755676673	0.1918354233	
620.0	0.2771010308	0.0473448302	
620.625	0.02818533939	-0.1270237582	
621.25	0.01366921241	-0.06537495364	
621.875	-0.3002156987	-0.09043442949	
622.5	-0.1100651126	0.06758241029	
623.125	-0.1484194231	0.1669529089	
623.75	0.2476134981	0.06451695967	
624.375	-0.04178228412	-0.02305044587	
625.0	0.1363532824	-0.05986043967	
625.625	-0.04100648471	-0.09526346298	
626.25	0.0404114848	-0.1279218459	
626.875	-0.2020188793	-0.1248230655	
627.5	-0.1226412881	0.04561297095	
628.125	-0.07701830415	-0.1392901614	
628.75	-0.176050319	-0.1106488524	
629.375	-0.08691163001	-0.1309328587	
630.0	-0.2345429916	-0.173466442	
630.625	-0.2752031455	0.1046200121	
631.25	-0.07921029932	0.2044677724	
631.875	-0.1473463688	0.206430814	
632.5	0.2190418659	0.2426447055	
633.125	0.1637133394	-0.02982710617	
633.75	0.228141667	0.01316123554	
634.375	-0.01081868356	-0.3034202033	
635.0	0.06222412647	-0.0904002828	
635.625	-0.2301999964	-0.1461865209	
636.25	-0.06399190616	0.1341555732	
636.875	-0.1436195056	0.03854361994	
637.5	-0.06324945512	0.2392330525	
638.125	0.004024865584	0.009568032937	
638.75	-0.1924995426	0.1641767012	
639.375	0.06836113734	0.3449068254	
640.0	0.1943915029	0.1823621711	
640.625	0.199303117	0.2603547892	
641.25	0.380147332	-0.08735745092	
641.875	0.105450747	-0.08570519691	
642.5	0.1406041933	-0.3038010688	
643.125	-0.2168325475	-0.03569492306	
643.75	0.02054919497	-0.07062702635	
644.375	-0.3171483347	-0.02278254799	
645.0	0.03337136011	0.3277601335	
645.625	-0.05265506334	0.08693142857	
646.25	0.2853642012	0.2407287714	
646.875	0.03508247673	-0.1680868577	
647.5	0.09334041387	0.2579998681	
648.125	0.2032552658	-0.103185762	
648.75	0.1799684437	0.09197925667	
649.375	0.4166091265	-0.3554174597	
650.0	-0.03851883329	-0.3730048583	
650.625	0.2091349015	-0.1205580965	
651.25	0.3697511697	-0.3237819796	
651.875	0.1140772667	-0.3204803658	
652.5	0.2377405585	0.0846822063	
653.125	0.4605212658	-0.1435830009	
653.75	0.05636516802	-0.2420259183	
654.375	0.1353631974	-0.2735008863	
655.0	-0.5129265129	-0.3028128056	
655.625	-0.06760321845	0.2554454875	
656.25	-0.09045560043	0.08745720429	
656.875	0.1578155042	0.2894267897	
657.5	-0.07865990063	-0.06634314561	
658.125	0.2734240346	0.484787283	
658.75	0.3378804404	-0.06567632588	
659.375	0.2450079756	0.04116797198	
660.0	0.4109202459	-0.3595342741	
660.625	-0.1128104716	-0.3630071533	
661.25	0.1995161557	-0.126408192	
661.875	0.3583435586	-0.3040330814	
662.5	0.2328106163	-0.3145762066	
663.125	0.1948763757	-0.07257557788	
663.75	0.3264576207	-0.3464161366	
664.375	-0.1492982027	-0.2821640302	
665.0	-0.1550793967	-0.3092646595	
665.625	-0.4391242594	0.144135298	
666.25	-0.02372194908	0.2014094551	
666.875	-0.00367045625	0.2621799932	
667.5	0.33344155	0.1728183894	
668.125	0.1576160935	-0.1015786717	
668.75	0.2217316887	-0.01473980563	
669.375	0.1597988365	-0.4446668166	
670.0	-0.06241377458	-0.07133104109	
670.625	0.1221964942	-0.2311436169	
671.25	-0.05308239424	-0.2697016377	
671.875	0.2623922819	0.03848906418	
672.5	0.3069858708	-0.2468139537	
673.125	0.1103171574	-0.1765352458	
673.75	0.1759463035	-0.1090833338	
674.375	0.1847391466	-0.318671649	
675.0	-0.2325641627	-0.2747989749	
675.625	-0.06258664371	-0.06275337731	
676.25	-0.2722425657	-0.14486052	
676.875	-0.1272081613	0.1122167567	
677.5	-0.165958861	-0.1377060808	
678.125	-0.1532686624	0.2787727902	
678.75	0.0123623396	0.09749894742	
679.375	0.1588751824	0.2632737646	
680.0	0.2863039624	-0.2226495849	
680.625	-0.2532125034	0.0519629828	
681.25	0.2750273758	0.146477246	
681.875	0.2342619823	-0.09714127269	
682.5	0.01499437708	0.107525586	
683.125	0.4234331599	0.2655423038	
683.75	0.2968612385	-0.1492961577	
684.375	0.1408644141	0.2525239023	
685.0	0.4490541878	0.05292680478	
685.625	0.1771788063	-0.1205404176	
686.25	0.495939846	0.1399419504	
686.875	0.4570540011	-0.3381032667	
687.5	0.1751917735	-0.1700003046	
688.125	0.1933945601	-0.4144391281	
688.75	-0.4959687555	-0.3198799613	
689.375	-0.1190871618	0.3354964611	
690.0	-0.1674671378	0.4027479767	
690.625	0.4189592369	0.2878047002	
691.25	0.08796579667	0.0970230908	
691.875	0.4650773957	0.6051970074	
692.5	0.7565776055	0.05074548577	
693.125	0.4489013332	0.1920398815	
693.75	0.7947695824	-0.1254650912	
694.375	0.266544326	-0.5437211187	
695.0	0.2845448893	-0.06075068427	
695.625	0.7769122869	0.04820903005	
696.25	0.528989719	-0.01091081058	
696.875	0.3641763153	0.5275347196	
697.5	0.3915696283	0.6934119443	
698.125	0.6345442829	0.05688718487	
698.75	0.4537489317	-0.1449860504	
699.375	-0.1307423863	-0.4712173111	
700.0	-0.2939444037	0.4685410641	
700.625	0.04700099079	0.14342354	
701.25	0.3680098297	0.3878610669	
701.875	0.2914704049	0.01336980849	
702.5	0.2537778739	0.3944581307	
703.125	0.5945571405	0.1134119671	
703.75	0.211216093	-0.1393592191	
704.375	0.4166472062	-0.04910915767	
705.0	0.2788578357	-0.2465261791	
705.625	0.1362335339	-0.0758774844	
706.25	0.2684280071	0.270661651	
706.875	0.4082249447	0.4075712237	
707.5	0.3889603329	0.5135884124	
708.125	0.4618763852	0.3033086079	
708.75	0.3496168884	-0.4331822349	
709.375	-0.06312658355	-0.189406092	
710.0	-0.2379723421	0.02717301137	
710.625	0.1624350225	0.1125268871	
711.25	-0.05440887752	0.1271859714	
711.875	0.2752700467	0.2675701417	
712.5	0.3190394351	-0.2103944758	
713.125	0.1937027557	-0.03454571127	
713.75	0.2761324833	-0.3120724108	
714.375	-0.086792898	-0.2530898686	
715.0	0.09980115447	-0.1640488352	
715.625	-0.05030209401	-0.3394658903	
716.25	0.08581110328	-0.1029992934	
716.875	0.4809512125	-0.07444451089	
717.5	0.6254722916	-0.2564642269	
718.125	0.5372364001	0.04314060141	
718.75	0.9705619347	0.2316986235	
719.375	0.9315760551	-0.7106485873	
720.0	0.03380846822	-1.038844964	
720.625	0.8474995145	-0.5012390305	
721.25	-0.2790767248	-1.289704361	
721.875	0.1054991828	-0.5499399481	
722.5	-0.619159412	-1.133750557	
723.125	-1.053981768	0.157844297	
723.75	-0.3522048992	0.1391183156	
724.375	-0.06686361939	0.7111931591	
725.0	0.3369835446	0.213829957	
725.625	-0.06547122392	0.3859600035	
726.25	-0.05407200402	0.9176208397	
726.875	0.2161467173	0.9515893504	
727.5	-0.4012549597	0.8291705657	
728.125	-0.2871541853	2.579578859	
728.75	0.765191043	2.826580372	
729.375	-1.979732839	2.134463588	
730.0	-0.1002969183	6.185485677	
730.625	1.316744013	3.15155558	
731.25	-1.925786337	2.216911928	
731.875	-3.923548818	4.079527688	
732.5	-2.216542992	1.686006704	
733.125	-1.933434126	-1.233105444	
733.75	-1.43663567	1.838784926	
734.375	0.7524245203	0.1709474921	
735.0	0.4538927988	-0.5552032968	
735.625	-0.7142104937	0.3388306945	
736.25	-0.01277846145	-0.06044876089	
736.875	0.1839396552	0.9352550853	
737.5	1.427976441	0.09455695558	
738.125	0.8249234033	-0.6282814693	
738.75	2.445239975	0.3532066227	
739.375	2.809420789	-3.375990584	
740.0	0.2152233602	-0.8103227397	
740.625	4.345486005	3.3607054	
741.25	4.491880072	0.3204929871	
741.875	-1.251003381	-5.122945048	
742.5	-2.288594428	-4.184549474	
743.125	-0.9723726554	-1.535987691	
743.75	0.6355799023	-0.4944984294	
744.375	-0.7872547097	-0.8996697409	
745.0	0.2438801368	0.08480490739	
745.625	0.0927894181	0.1342849926	
746.25	-0.08052784804	-0.1337915974	
746.875	-0.09168422544	-0.1271390471	
747.5	-0.2265133308	0.4398905994	
748.125	0.194504724	0.4754161057	
748.75	0.061289435	0.4098418107	
749.375	0.06982304207	0.6109183984	
750.0	-0.3328144495	0.4019764826	
