!Created with skrf (http://scikit-rf.org).
# GHz S RI R (50+0j) 
!freq	ReS11	ImS11	
500.0	-0.3210197289	-0.6048000563	
500.625	0.787731439	-0.8608861301	
501.25	-0.8366846591	-0.8670929451	
501.875	-0.05967517393	-0.1859491554	
502.5	-0.01960189916	-0.2146821235	
503.125	-0.05807844552	0.04849023755	
503.75	-0.03440065787	0.05320406151	
504.375	0.05300487092	-0.04355707813	
505.0	-0.002432729303	0.009111956472	
505.625	0.02707005682	-0.09714287675	
506.25	-0.0978182783	0.03680481675	
506.875	-0.2392069854	-0.2521224337	
507.5	-0.4565236476	-0.3187133665	
508.125	0.4486341638	-0.3409831308	
508.75	0.9566560997	-1.310884788	
509.375	-0.5890402774	-1.252395224	
510.0	-0.1668198853	-0.260409876	
510.625	-0.1474080829	-0.2685329748	
511.25	-0.05489637315	0.02886247999	
511.875	-0.06521888688	-0.1497272709	
512.5	-0.01632051406	0.06995426542	
513.125	-0.02372525611	0.001342977693	
513.75	-0.04630905143	-0.1189043641	
514.375	-0.1412789154	0.05599224262	
515.0	0.2590442552	-0.1504004246	
515.625	-0.5331467198	-0.2339171213	
516.25	0.4732190313	-0.5863263579	
516.875	-0.1774485343	-0.7581621127	
517.5	-0.1865188403	-0.0784898055	
518.125	0.01105256313	-0.09153067944	
518.75	-0.07173851083	-0.0261326257	
519.375	-0.0326523105	0.008339948227	
520.0	0.1114909745	0.1156074457	
520.625	0.1787930655	-0.1050499569	
521.25	-0.03414661699	-0.2260669265	
521.875	-0.1171223443	-0.1481422877	
522.5	-0.07452036386	0.1184731997	
523.125	-0.01740335296	-0.08079981924	
523.75	-0.2333833299	0.01615825856	
524.375	0.0008632662545	0.08912754237	
525.0	-0.1926942608	0.0706105032	
525.625	0.1239099502	0.1157717046	
526.25	-0.1100955608	0.008147159694	
526.875	0.01035109686	0.1046252532	
527.5	-0.05643144038	0.06613388588	
528.125	-0.038162823	0.3848924824	
528.75	0.09203432774	0.162845963	
529.375	-0.04251670605	0.04061178402	
530.0	0.04046401486	0.1637222091	
530.625	0.05530691112	0.1292898066	
531.25	0.2797267743	0.1933840549	
531.875	0.2305870818	-0.3303288201	
532.5	-0.04035549405	0.01103488199	
533.125	0.04106132493	-0.2337825941	
533.75	-0.05491839629	-0.08232741516	
534.375	-0.01149197291	-0.4023375491	
535.0	-0.2735469133	-0.01873970339	
535.625	-0.1288901019	0.04008950781	
536.25	-0.03624745293	0.1221920587	
536.875	0.09957652212	-0.02898737276	
537.5	0.06792719248	0.005077358581	
538.125	0.1569981525	-0.1204652626	
538.75	0.1051935459	-0.1099048034	
539.375	-0.02187688946	-0.2144955099	
540.0	-0.2553847307	-0.153490811	
540.625	-0.08547397323	0.003415629596	
541.25	-0.05936607493	-0.04102423997	
541.875	-0.06923009215	0.03886859846	
542.5	0.02252949935	-0.0274149792	
543.125	-0.158233758	-0.04494107899	
543.75	-0.01496209446	0.1285916698	
544.375	-0.1066583712	0.01745614673	
545.0	0.05305786684	0.04996813713	
545.625	-0.02118154797	0.07442448944	
546.25	0.1783275728	0.05499110691	
546.875	0.05604071659	-0.0306208773	
547.5	0.1367257754	-0.1156971378	
548.125	-0.100121627	-0.1935799002	
548.75	-0.08943014583	-0.04482073886	
549.375	-0.0957368284	-0.1301956159	
550.0	-0.1002504992	0.05279772779	
550.625	-0.02878239844	-0.03462061534	
551.25	-0.110365392	0.05246816731	
551.875	-0.04516107051	0.0499327512	
552.5	-0.08006179053	0.08265861201	
553.125	0.005572146727	0.06594350505	
553.75	0.02566012388	0.04600826364	
554.375	0.1089393697	-0.001671735824	
555.0	0.09671916492	-0.06958601007	
555.625	0.09901229604	-0.1051255117	
556.25	0.07472822291	-0.1513462329	
556.875	-0.03620451019	-0.165930817	
557.5	-0.09532733745	-0.109955521	
558.125	-0.1225036025	-0.05028063278	
558.75	-0.1198947486	0.0006799308854	
559.375	-0.1097849874	0.01654756262	
560.0	-0.1154196274	0.07740381375	
560.625	-0.04037544359	0.1293432936	
561.25	-0.006012075216	0.07344009541	
561.875	0.03864441108	0.07973286945	
562.5	0.002996669715	0.01906854542	
563.125	0.07453756389	0.1205094893	
563.75	0.1620980122	-0.03595986149	
564.375	0.1177931759	-0.05385758045	
565.0	0.1178255234	-0.1903520493	
565.625	-0.08039457442	-0.1423818398	
566.25	-0.04172303891	-0.1136355635	
566.875	-0.2040082548	-0.1019488542	
567.5	-0.1179375371	-0.04637031649	
568.125	-0.08638888617	-0.2624812968	
568.75	-0.2848907678	-0.04107019582	
569.375	-0.1244456073	0.02190157903	
570.0	-0.2309654423	0.2067858289	
570.625	0.04224021296	0.2324496432	
571.25	-0.05142601809	0.03378117751	
571.875	0.1351968674	0.1515532453	
572.5	0.05252259697	-0.05516903958	
573.125	0.2030349025	-0.04055679479	
573.75	0.02570115537	-0.2108148988	
574.375	-0.02664383211	0.0277076566	
575.0	0.107403338	-0.1077352881	
575.625	-0.04635637267	-0.02970154424	
576.25	0.1408851334	-0.07535041792	
576.875	-0.04928550436	-0.2256543821	
577.5	-0.04043422904	-0.08531733326	
578.125	0.06540456209	-0.1704236839	
578.75	-0.1763898485	-0.2256793991	
579.375	-0.06849704732	0.04525636287	
580.0	0.004442065479	-0.1409829815	
580.625	-0.1277038213	0.1210015658	
581.25	-0.08176763437	-0.05210534988	
581.875	0.01312106107	0.3654916052	
582.5	0.1616811791	0.07707941957	
583.125	-0.03069188465	0.06134937798	
583.75	0.1391174413	0.07862037333	
584.375	-0.1025114824	-0.007364369092	
585.0	0.1692049258	0.1634989425	
585.625	0.1701533471	-0.1013670255	
586.25	0.08368837631	0.0008363961831	
586.875	0.14657869	-0.2120565684	
587.5	-0.1060210041	-0.118003568	
588.125	0.07327910777	-0.1080174491	
588.75	0.02627511742	-0.2438116655	
589.375	-0.03975138889	-0.1054329942	
590.0	0.05344348735	-0.2270039872	
590.625	-0.2727781604	0.006788932084	
591.25	-0.04650925054	0.07201446669	
591.875	-0.1821515336	0.1086777216	
592.5	0.1013395521	0.1099588145	
593.125	-0.1299047746	-0.0001490291015	
593.75	0.1585988148	0.1555273616	
594.375	0.007140243605	0.08519910778	
595.0	0.1674811591	0.2068695402	
595.625	0.2731112834	0.03064320634	
596.25	0.05881475801	0.04796982733	
596.875	0.2486609765	0.08681994169	
597.5	0.1819393566	-0.0002694331459	
598.125	0.06216581374	0.1267733399	
598.75	0.2577293464	0.1452449689	
599.375	0.1809398339	-0.04867502924	
600.0	0.1860166194	-0.0637252949	
600.625	0.1998520806	-0.2325527522	
601.25	-0.02666456186	-0.2003472301	
601.875	0.05770504101	-0.1146885317	
602.5	-0.2363074525	-0.02640602314	
603.125	-0.02471725795	0.07005932504	
603.75	-0.2196259748	-0.01870610071	
604.375	-0.1181789602	0.198183403	
605.0	-0.05737800572	-0.07592543347	
605.625	-0.1862910795	0.1050366945	
606.25	-0.01749380102	0.0721791277	
606.875	-0.1816203603	-0.03112671423	
607.5	-0.1013109788	0.2390086059	
608.125	0.0474428977	0.1855386154	
608.75	0.1378235628	0.2210213398	
609.375	0.3280009763	-0.040020812	
610.0	0.1313280849	-0.1600713537	
610.625	0.1837661263	-0.09109822452	
611.25	-0.01152850365	-0.2479226	
611.875	-0.0264685075	-0.03052594536	
612.5	-0.1420615552	-0.1886287742	
613.125	-0.2244411435	0.1625828414	
613.75	-0.05699258475	0.02429535682	
614.375	-0.001631283072	0.2390758636	
615.0	0.1122423663	-0.06639218288	
615.625	-0.1411664731	0.1043638736	
616.25	0.0416084971	0.2675742125	
616.875	-0.1195262493	0.1070582067	
617.5	-0.09151173635	0.2873828255	
618.125	0.06186789001	0.3107184828	
618.75	0.02155380014	0.0748818292	
619.375	0.06271656195	0.1923996037	
620.0	0.2546158132	0.1358059566	
620.625	0.1028847905	-0.08921802645	
621.25	-0.0592340279	-0.2919828389	
621.875	-0.2992176125	-0.02792779312	
622.5	-0.09771350709	0.05155246643	
623.125	-0.1319997922	0.2525006084	
623.75	0.1912806483	-0.02045627377	
624.375	-0.008149675886	0.03435152309	
625.0	0.07038287446	-0.1291251894	
625.625	0.02827868441	-0.006356061663	
626.25	-0.0006786053363	-0.2195934292	
626.875	-0.213062015	-0.04484085784	
627.5	-0.05126369589	-0.0272801404	
628.125	-0.1340593695	-0.1050335411	
628.75	-0.1266613328	-0.06417243446	
629.375	-0.0231481816	-0.1481485886	
630.0	-0.2440041607	-0.1617960183	
630.625	-0.3226604874	0.1490581298	
631.25	-0.1846940541	0.1306424669	
631.875	-0.09353448625	0.3229509975	
632.5	0.1797885812	0.1436982399	
633.125	0.057357226	0.06111895236	
633.75	0.2772760517	-0.08051575334	
634.375	-0.01244286029	-0.0932368121	
635.0	0.1191890458	-0.1538219935	
635.625	-0.2475512407	-0.09743282413	
636.25	-0.07331666678	0.07233408071	
636.875	-0.1771159211	0.08388376177	
637.5	0.03504856066	0.1715814155	
638.125	-0.09693224898	-0.01244924636	
638.75	-0.1527356365	0.2663244799	
639.375	0.1022811319	0.2147358425	
640.0	0.004729750431	0.253739367	
640.625	0.3347217803	0.2424493993	
641.25	0.3041300944	-0.08839945432	
641.875	0.1848394814	-0.07228601372	
642.5	0.1039644177	-0.3345996886	
643.125	-0.1330456764	-0.002772616683	
643.75	0.08116900036	-0.1798304861	
644.375	-0.31144603	0.05121721151	
645.0	0.0001242319755	0.07525475812	
645.625	-0.1005620271	0.3197595234	
646.25	0.4384643043	0.006550775399	
646.875	-0.05374586445	-0.02077632497	
647.5	0.1925704668	0.1065227757	
648.125	0.04994575904	-0.07778193623	
648.75	0.332347876	0.1551734741	
649.375	0.2693124319	-0.4253295465	
650.0	0.0381660603	-0.2145682681	
650.625	0.327331734	-0.1744182733	
651.25	0.2336593662	-0.4390243718	
651.875	0.07318461174	-0.09423049407	
652.5	0.4050723724	0.05164940574	
653.125	0.3473978614	-0.2453341662	
653.75	0.06772117122	-0.1447774002	
654.375	0.1211068846	-0.4139101129	
655.0	-0.3958987367	-0.01673869151	
655.625	-0.01855391317	0.09391824681	
656.25	-0.1604900485	0.2447678025	
656.875	0.2755822355	-0.000586507791	
657.5	-0.1671280469	0.1371183876	
658.125	0.2790394557	0.2076719871	
658.75	0.2210687105	-0.009228436543	
659.375	0.4082253552	0.105422337	
660.0	0.3476807808	-0.4665721099	
660.625	0.01219613304	-0.2659557128	
661.25	0.3034852878	-0.2176809566	
661.875	0.276783054	-0.3886128146	
662.5	0.127596294	-0.1913575721	
663.125	0.4312157119	-0.06580608235	
663.75	0.143130528	-0.4070972582	
664.375	0.01058932916	-0.2025682065	
665.0	-0.2213682785	-0.3553472576	
665.625	-0.41074609	0.1693816922	
666.25	-0.0234206888	0.1609335603	
666.875	0.02228943926	0.3155682592	
667.5	0.2776814171	0.04630119839	
668.125	0.05122607365	0.05454129419	
668.75	0.4166981477	-0.1610532138	
669.375	-0.06034618399	-0.2361947147	
670.0	0.1017683473	-0.1302495175	
670.625	0.03867934916	-0.3899418548	
671.25	-0.06796498249	-0.1434358688	
671.875	0.3709936971	-0.1151780965	
672.5	0.2447395196	-0.281557183	
673.125	0.1314264188	-0.1207996419	
673.75	0.2714404427	-0.1310565112	
674.375	0.05309027531	-0.4122709281	
675.0	-0.08745612348	-0.1151911609	
675.625	-0.1548423774	-0.285236691	
676.25	-0.2911488573	0.02342364875	
676.875	-0.019492825	0.02077560369	
677.5	-0.2854602393	-0.08945290718	
678.125	-0.08387244482	0.2629750108	
678.75	-0.05487977902	0.1145514939	
679.375	0.2667168723	0.3461580987	
680.0	0.1475575071	-0.2900903663	
680.625	0.03644481742	0.1028536126	
681.25	0.269407347	-0.1223513488	
681.875	-0.09314174255	-0.06811449643	
682.5	0.1388750871	0.3209386154	
683.125	0.5063810757	-0.01371380775	
683.75	-0.02295831047	0.1247418922	
684.375	0.3063772221	0.2450720728	
685.0	0.3639919454	-0.0750804671	
685.625	0.06888777206	-0.01829910258	
686.25	0.5004236359	0.1609628958	
686.875	0.2543920784	-0.3290722478	
687.5	0.3249953689	-0.1761213494	
688.125	0.1738156859	-0.5954409045	
688.75	-0.5637031027	-0.1021362536	
689.375	-0.2417995224	0.07244836134	
690.0	-0.04011634517	0.5575942755	
690.625	0.3555839689	0.1416617502	
691.25	0.09252507834	0.3537546796	
691.875	0.7842143759	0.4483894717	
692.5	0.4197465609	0.01766061679	
693.125	0.7214459267	0.2810807535	
693.75	0.8397635046	-0.3295774358	
694.375	0.1991915093	-0.3034579918	
695.0	0.5791168796	-0.01555894681	
695.625	0.4698974122	-0.2594966203	
696.25	0.3792648982	0.08883422324	
696.875	0.1991533477	0.5658869364	
697.5	0.4110946401	0.5373259273	
698.125	0.403994292	0.1746837406	
698.75	0.6643720628	-0.2352909754	
699.375	-0.4726701908	-0.5551450402	
700.0	-0.1297062066	0.316320604	
700.625	-0.09099275676	0.2563952039	
701.25	0.4000192175	0.1306447124	
701.875	0.09309185736	0.1929162449	
702.5	0.3580944893	0.44140154	
703.125	0.5497759117	-0.02119209395	
703.75	0.2729933384	0.03408121801	
704.375	0.4646294463	-0.139266524	
705.0	0.162405726	-0.2281352412	
705.625	0.1119321746	0.09852947386	
706.25	0.2693899079	0.07535713193	
706.875	0.234447399	0.1409422197	
707.5	0.08214153801	0.4044694136	
708.125	0.5653196149	0.2688581311	
708.75	0.4662705212	-0.4298178859	
709.375	-0.07202693607	-0.3269737675	
710.0	-0.3697371843	0.2926164635	
710.625	0.2740864761	0.1701340622	
711.25	-0.1305846813	0.1788233109	
711.875	0.3574361738	0.08858068514	
712.5	0.145177751	0.0446008174	
713.125	0.4162105256	-0.1003058613	
713.75	0.1272823325	-0.3650153279	
714.375	-0.0004415830925	-0.1214287586	
715.0	0.09999812606	-0.3062117557	
715.625	-0.08030242503	-0.2492856864	
716.25	0.1817021734	-0.07772557678	
716.875	0.4665775306	-0.1348924284	
717.5	0.4158207242	-0.2210677518	
718.125	0.4537947324	0.3773386531	
718.75	1.003614201	-0.02611348152	
719.375	0.7109368282	-0.5690296512	
720.0	0.2685061326	-0.1490963215	
720.625	0.4285138535	-1.378573453	
721.25	-0.3704625765	-0.6945493944	
721.875	0.6564691813	-0.8200939091	
722.5	-0.7197916226	-1.087064395	
723.125	-0.6033099046	0.03203639872	
723.75	-0.6719129759	0.1290884697	
724.375	0.1422776683	0.7278740746	
725.0	0.09283704374	0.1946884019	
725.625	-0.01270248443	0.6278454541	
726.25	0.2660505166	0.8230232454	
726.875	-0.1315019552	0.558610132	
727.5	-0.7596443319	1.455630961	
728.125	0.2414458837	2.397617262	
728.75	0.01873367015	1.614073412	
729.375	-2.815572417	3.482211426	
730.0	0.8446818468	5.43904686	
730.625	0.07975571167	2.205059062	
731.25	-2.648903079	4.032437277	
731.875	-2.897366329	5.164902216	
732.5	-2.373389297	-0.7532656558	
733.125	-3.976020787	-1.06139313	
733.75	-0.7352435438	1.750755152	
734.375	0.2479985962	0.2948703512	
735.0	0.6693761713	-1.029803612	
735.625	-0.3715760481	0.4142696939	
736.25	-0.3855700631	0.3043709564	
736.875	0.6220192861	0.9288102814	
737.5	0.9781848042	-0.2750524886	
738.125	1.018359146	0.6991264734	
738.75	2.953794433	-1.627369764	
739.375	0.7840500509	-2.445238854	
740.0	1.981499577	1.070355816	
740.625	7.152851309	1.365478873	
741.25	2.317036173	-1.929673357	
741.875	-4.362938478	-1.665616287	
742.5	-3.366447664	-2.830614704	
743.125	-0.3769325668	-0.3690259054	
743.75	0.9511649443	-1.436654263	
744.375	-0.6859969254	0.05997361937	
745.0	-0.001477424337	-0.02465758922	
745.625	0.2838290806	0.02991746758	
746.25	-0.05064998036	-0.03742811343	
746.875	-0.2398162497	-0.1119120041	
747.5	-0.1224083431	0.4693499111	
748.125	0.1030181686	0.3559339193	
748.75	0.03827413063	0.598093076	
749.375	0.1757224657	0.6159028579	
750.0	-0.3330417156	0.1520959362	
