!Created with skrf (http://scikit-rf.org).
# GHz S RI R (50+0j) 
!freq	ReS11	ImS11	
500.0	0.1933994309	-1.265156823	
500.625	4.201559109	-3.224748334	
501.25	-2.822835865	-1.666615555	
501.875	-0.9705941201	-0.1833476198	
502.5	0.04735763164	-0.4555069324	
503.125	-0.3575164786	0.2085443182	
503.75	-0.007241327982	-0.03280936119	
504.375	0.1858810843	-0.02681407479	
505.0	-0.08544735213	0.03906851353	
505.625	0.0895551054	-0.393447608	
506.25	-0.2172461278	0.3232948906	
506.875	-0.799542605	-0.9478774837	
507.5	-1.717955054	-0.5769713828	
508.125	0.4066456783	-0.1888357217	
508.75	2.599189348	-3.705802403	
509.375	-3.06441527	-3.380488326	
510.0	-0.358136064	-0.9263003446	
510.625	-1.068920677	-0.5682497511	
511.25	-0.05664574308	-0.1828559872	
511.875	-0.695361665	-0.2070356397	
512.5	0.005170878666	0.2064364663	
513.125	-0.006499746338	-0.2060688973	
513.75	-0.08268474784	-0.2969273777	
514.375	-0.7647239185	-0.009345940994	
515.0	1.532071892	-0.004789965988	
515.625	-2.456721917	-1.301938085	
516.25	1.346958583	-0.3505520647	
516.875	-1.33407783	-2.654658722	
517.5	-0.6409985532	0.3886303192	
518.125	-0.02358089276	-0.5078470679	
518.75	-0.5953647465	0.1277723871	
519.375	-0.233552519	-0.009397872437	
520.0	0.4826291401	0.2088601738	
520.625	0.3443556755	-0.299575474	
521.25	0.2432489124	-0.6012319919	
521.875	-0.5875751841	0.06222127342	
522.5	-0.02371949245	0.0121526426	
523.125	-0.1857392278	0.2123534374	
523.75	-0.139540931	-0.1988325736	
524.375	-0.4351918605	0.3800189883	
525.0	-0.1694170812	0.04250022089	
525.625	0.1215629335	0.3368004798	
526.25	-0.1914161067	-0.2391064663	
526.875	0.03440699614	0.3086692225	
527.5	-0.1333627873	0.1765513706	
528.125	0.0009369377635	1.182400186	
528.75	0.5451451619	0.3736588014	
529.375	-0.05686085805	0.3801837847	
530.0	0.2553945413	0.1139757268	
530.625	0.1384331079	1.266887562	
531.25	0.989626891	-0.2620797271	
531.875	0.8216076952	0.06346570408	
532.5	-0.6279623357	-0.4231112267	
533.125	0.5313980342	-0.02253110948	
533.75	-0.1820863334	-0.6392203119	
534.375	0.3182466624	-0.6787263285	
535.0	-1.028431774	-0.1618154769	
535.625	-0.1458726965	0.1676167135	
536.25	-0.1094459931	0.2772746081	
536.875	0.353402333	-0.03806014852	
537.5	0.06527956347	-0.0103392422	
538.125	0.4507809827	-0.2398280393	
538.75	0.1132043442	-0.273735542	
539.375	-0.02343249897	-0.497375569	
540.0	-0.6590419325	-0.2667473459	
540.625	-0.1438943494	-0.06011646118	
541.25	-0.3183648637	-0.05934853019	
541.875	-0.1463154343	0.02334655783	
542.5	-0.0370612554	-0.03896928013	
543.125	-0.2231222692	-0.2658579032	
543.75	-0.2491442361	0.2465608864	
544.375	-0.1793027386	-0.156160643	
545.0	0.1244976114	0.2809248577	
545.625	-0.1035228723	0.04282682633	
546.25	0.5372594846	0.16100824	
546.875	0.0002188027731	-0.119474504	
547.5	0.4113395394	-0.2367776705	
548.125	-0.33493999	-0.5097043738	
548.75	-0.1878840606	-0.08288542604	
549.375	-0.1985341078	-0.333040279	
550.0	-0.2645744449	0.1541116073	
550.625	-0.04856980257	-0.1171301535	
551.25	-0.2497287799	0.2178739401	
551.875	-0.1046966198	0.0440174728	
552.5	-0.1849922504	0.2726156289	
553.125	0.02413230462	0.1269636292	
553.75	0.09136734091	0.1394788589	
554.375	0.2564871077	-0.01192504491	
555.0	0.2150596012	-0.1732072783	
555.625	0.2137488588	-0.2450522571	
556.25	0.156276914	-0.3597335953	
556.875	-0.105520534	-0.3817256538	
557.5	-0.231474813	-0.2465825439	
558.125	-0.2891416367	-0.09990797188	
558.75	-0.2604348926	0.02124225631	
559.375	-0.2350515556	0.02645400868	
560.0	-0.2723678369	0.1951858133	
560.625	-0.05040985083	0.2841186221	
561.25	-0.02619539567	0.1680520374	
561.875	0.1298260177	0.1871931104	
562.5	-0.03919781124	0.02581665221	
563.125	0.2555883473	0.2593933512	
563.75	0.1989065001	-0.09588542116	
564.375	0.4159357028	-0.1112717011	
565.0	0.1150473515	-0.5035545817	
565.625	-0.08361794191	-0.2030549838	
566.25	-0.1823382291	-0.3523882977	
566.875	-0.4896950857	-0.1621333805	
567.5	-0.2028350312	-0.09388501396	
568.125	-0.2963056953	-0.5809317451	
568.75	-0.6663434132	0.007803109347	
569.375	-0.4018880118	0.02802717636	
570.0	-0.4584044134	0.7129129513	
570.625	0.1485672044	0.3349283731	
571.25	-0.3241385618	0.1928282864	
571.875	0.5278339994	0.179968488	
572.5	-0.05741873094	0.1627145771	
573.125	0.5318911318	-0.3723665996	
573.75	-0.1664622128	-0.4163460856	
574.375	0.194781564	0.1165772389	
575.0	-0.02971772712	-0.4239723206	
575.625	0.178478371	0.1398734964	
576.25	0.2547457313	-0.5146086676	
576.875	-0.3063725261	-0.2325367469	
577.5	0.2121672357	-0.153979671	
578.125	-0.07328067197	-0.6487512	
578.75	-0.4012210151	-0.1623307722	
579.375	-0.0007839244633	-0.02418583702	
580.0	-0.2539448258	-0.3170415857	
580.625	0.01424701838	0.1602705822	
581.25	-0.5043138552	-0.0002177170233	
581.875	0.2395875866	0.5322397842	
582.5	0.1160233898	-0.04040069594	
583.125	-0.1091263261	0.4842635174	
583.75	0.5067035821	-0.2229070525	
584.375	-0.3208153625	0.3717842502	
585.0	0.6368214753	0.03599169609	
585.625	-0.01536994301	-0.0832837111	
586.25	0.6363279262	0.04809652445	
586.875	-0.1130618583	-0.4833707263	
587.5	0.199964443	-0.1435983281	
588.125	-0.06133579864	-0.6179254006	
588.75	-0.2160508925	-0.2348331544	
589.375	0.4183495496	-0.1206372021	
590.0	-0.2804141146	-0.6014948478	
590.625	-0.3742704111	0.04847842868	
591.25	-0.262342343	0.07965087654	
591.875	-0.2313486515	0.4160659714	
592.5	0.1723948478	-0.05672574582	
593.125	-0.1226137489	0.2834047729	
593.75	0.1214387859	0.1034505399	
594.375	0.2001663783	0.4445593676	
595.0	0.7672259981	0.2694700378	
595.625	0.1557453083	-0.1675358948	
596.25	0.3262951362	0.5109530193	
596.875	0.680869929	-0.2245182053	
597.5	-0.002371663293	0.1583976855	
598.125	0.5431932939	0.5069344235	
598.75	0.2830763598	-0.06048027391	
599.375	0.55491623	0.2332583877	
600.0	0.3115988347	-0.6399453466	
600.625	0.1611757167	-0.2068741445	
601.25	0.333846725	-0.4176057241	
601.875	-0.3025586194	-0.4371222508	
602.5	-0.1889875494	-0.03147546926	
603.125	-0.2157662338	0.04943823057	
603.75	-0.3767115285	0.1178905392	
604.375	-0.08322045572	0.3535027118	
605.0	-0.2522771212	-0.03591659245	
605.625	-0.1857933698	0.4018929376	
606.25	-0.1275622772	-0.07697614657	
606.875	-0.6875886684	0.3237311945	
607.5	-0.01672480345	0.3762296044	
608.125	-0.502184277	0.4486942004	
608.75	0.8943031766	0.4665643934	
609.375	0.1228370554	0.02762726795	
610.0	0.6863472756	-0.2425255756	
610.625	-0.1097916241	-0.4407026815	
611.25	0.3552763146	-0.2864733044	
611.875	-0.4623510805	-0.235214704	
612.5	-0.182795409	-0.203616175	
613.125	-0.7205614162	0.1275254807	
613.75	-0.01919675509	0.2412506256	
614.375	-0.03483120974	0.4515022977	
615.0	0.2222430227	-0.186317811	
615.625	-0.2488508607	0.4394537269	
616.25	0.2745947638	0.2618946167	
616.875	-0.4495479052	0.209589194	
617.5	-0.129458206	0.8312998085	
618.125	0.1324202045	0.2078095679	
618.75	-0.2021248124	0.6119599562	
619.375	0.4409126072	0.2865080491	
620.0	0.2542498387	0.2159241561	
620.625	0.2700041617	-0.5038042713	
621.25	-0.1159087472	-0.3156799065	
621.875	-0.5711613147	-0.2477196793	
622.5	-0.3620330452	0.1382885377	
623.125	-0.2562688088	0.4458956095	
623.75	0.3989576266	-0.06745991253	
624.375	0.1305905916	0.1826746643	
625.0	-0.1578814842	-0.3564542306	
625.625	0.2873190175	0.05544958335	
626.25	-0.2811877818	-0.6602359265	
626.875	-0.2666322912	0.169674524	
627.5	-0.2173625409	-0.4217723673	
628.125	-0.4836502838	-0.04788363221	
628.75	0.04462963302	-0.1718685006	
629.375	-0.301850626	-0.5865335824	
630.0	-0.3413332835	0.04903567116	
630.625	-0.5864371633	-0.08160238855	
631.25	-0.4156798431	0.604492867	
631.875	0.0976421947	0.497307744	
632.5	0.2278675381	0.4050051592	
633.125	0.467556693	0.2579648675	
633.75	0.5135347758	-0.3456097385	
634.375	0.06363795448	-0.1394801462	
635.0	0.114010049	-0.5441236118	
635.625	-0.4028296887	0.117229599	
636.25	-0.4804410838	-0.1175477242	
636.875	-0.07416273493	0.5702259009	
637.5	0.03392617427	-0.07255367636	
638.125	-0.5363688091	0.4347190329	
638.75	0.3630804607	0.303693361	
639.375	-0.457022679	0.3678084862	
640.0	0.4043479023	0.9326133643	
640.625	0.7009945898	0.06644287058	
641.25	0.2642218317	0.1474855587	
641.875	0.7118578505	-0.7505562624	
642.5	-0.2103504534	-0.1655148965	
643.125	-0.09568521367	-0.627735401	
643.75	-0.662832388	0.150893529	
644.375	0.033357038	-0.3461277102	
645.0	-0.6887084885	0.517473125	
645.625	0.3722315959	0.5209767696	
646.25	0.2710857251	-0.09583243561	
646.875	0.1607063441	0.4581259382	
647.5	0.2366746659	-0.5071125339	
648.125	0.2619329475	0.6466958192	
648.75	0.9083847922	-0.5991564105	
649.375	-0.03761533086	-0.2409873062	
650.0	1.166343321	-0.6962936751	
650.625	-0.1981836709	-1.212139781	
651.25	0.1512581401	0.1627633267	
651.875	1.335432028	-0.3430562568	
652.5	0.3751533168	-0.849958162	
653.125	0.2783811223	0.2465780424	
653.75	0.8590357485	-0.7870142764	
654.375	-0.5669764868	-0.4863427504	
655.0	-0.1951780791	-0.4864890684	
655.625	-0.9004339447	0.7584648781	
656.25	0.4252546088	0.0633160777	
656.875	-0.2578671183	0.2840228039	
657.5	0.4370106587	0.2521566224	
658.125	0.05296593507	0.1072750407	
658.75	0.7827219437	0.6284633601	
659.375	0.7567419049	-0.6979993793	
660.0	0.2803746761	-0.4381987734	
660.625	0.754155884	-0.6760537313	
661.25	0.001786216585	-1.192976941	
661.875	0.3460518518	0.03477992108	
662.5	1.167609146	-0.5915688439	
663.125	0.3071461491	-0.8682267647	
663.75	0.3410022475	-0.1089901575	
664.375	0.01025363378	-1.282216646	
665.0	-0.5983282	0.006820422536	
665.625	-0.7908576307	-0.2428242774	
666.25	-0.1602769854	1.010172792	
666.875	0.1468780785	0.0600029311	
667.5	0.4694114046	0.5638755805	
668.125	0.6543703714	-0.2716899399	
668.75	0.1539734925	-0.2338151156	
669.375	0.4951571594	-0.3746116119	
670.0	-0.08508476791	-0.7914242938	
670.625	-0.05487026112	-0.16846213	
671.25	0.3270453381	-0.4684769091	
671.875	0.1386766438	-0.5818527567	
672.5	0.3957956193	-0.01431271783	
673.125	0.6605013669	-0.6576762092	
673.75	0.03396803477	-0.5363625694	
674.375	0.33699876	-0.2441411024	
675.0	-0.08807649023	-1.041642744	
675.625	-0.7960452024	0.2443859184	
676.25	0.03472759869	-0.500184644	
676.875	-0.8014804154	0.2883493881	
677.5	0.1091880552	-0.01244815432	
678.125	-0.9086758319	0.4273442863	
678.75	0.5873248186	0.2864540387	
679.375	0.1341606145	0.4316553946	
680.0	0.7428938217	-0.2332434327	
680.625	-0.1762339739	-0.5111316977	
681.25	0.14173335	0.4801082655	
681.875	0.6914769809	-0.02858692171	
682.5	0.4160622957	0.01355013942	
683.125	0.2939194612	0.1246366087	
683.75	0.8844466426	0.5403535934	
684.375	0.5235843902	-0.4465467803	
685.0	0.44197921	0.5452952268	
685.625	1.19525544	-0.1372864389	
686.25	-0.04765739558	-0.2774349567	
686.875	1.54154915	0.1009985601	
687.5	-0.03919325351	-1.453061931	
688.125	0.5675726104	-0.2328637145	
688.75	-1.366964	-1.122612956	
689.375	-0.2111686359	1.19498706	
690.0	-0.4917649266	0.6363640411	
690.625	1.163929718	0.5594362937	
691.25	0.3632831482	0.4005764982	
691.875	1.21615788	1.13974788	
692.5	1.372785244	0.006139825557	
693.125	1.362796549	0.1236043198	
693.75	1.477385274	-0.6598500581	
694.375	0.9687697599	-0.8910333214	
695.0	1.012521905	-0.8976871157	
695.625	0.7979896858	-0.1970107966	
696.25	1.557900926	0.9042511168	
696.875	1.208107039	0.2789561912	
697.5	0.2384864464	1.361794063	
698.125	2.25597815	0.3919428197	
698.75	0.3452184844	-0.4522973235	
699.375	-0.7506484494	-1.772541917	
700.0	-0.4487990704	1.3607221	
700.625	-0.2713504308	0.2769344205	
701.25	1.228455309	0.4642421532	
701.875	0.2761098901	0.2855059246	
702.5	0.9198852487	0.952489735	
703.125	0.8269634969	-0.3075764762	
703.75	0.9352898603	0.1784615589	
704.375	0.6642914559	-0.8836470932	
705.0	0.2013562183	0.02086217005	
705.625	1.124570339	-0.05056839333	
706.25	0.2948395276	-0.0003195576576	
706.875	0.2850383388	1.241581272	
707.5	1.267801982	0.6964955489	
708.125	0.5280210752	0.3497119255	
708.75	1.189148374	-1.078073031	
709.375	-0.8713838848	-0.3466965204	
710.0	-0.5639811127	0.1141281778	
710.625	0.4210167941	0.6334403275	
711.25	-0.06821926101	0.1668019368	
711.875	0.6290582474	0.3997163968	
712.5	0.6149195233	-0.03490584765	
713.125	0.7361279308	-0.536029975	
713.75	0.04889237449	-0.3736006525	
714.375	0.4116245819	-0.7392146662	
715.0	-0.4672064526	-0.4480355764	
715.625	0.4966342317	-0.1375280449	
716.25	0.3962966441	-1.326409007	
716.875	0.09028186034	-0.002346962043	
717.5	2.240782086	0.5481093965	
718.125	1.973595534	-1.408281192	
718.75	0.4236201436	1.503752484	
719.375	3.867183744	-2.415557966	
720.0	-0.3338130332	-1.618082284	
720.625	1.245184086	-1.625394016	
721.25	-0.1516115116	-3.843087452	
721.875	-0.989037542	-1.233069349	
722.5	-1.109461924	-2.840566787	
723.125	-2.335010999	-0.08292367694	
723.75	-0.4724396738	0.8063952011	
724.375	-0.4623960544	1.22309571	
725.0	0.9586453271	0.9244619695	
725.625	0.4505800118	0.6250024678	
726.25	-0.45906152	1.543270404	
726.875	-0.2326954881	3.489225182	
727.5	1.787700406	2.118594064	
728.125	-4.149974555	4.83884565	
728.75	3.300495252	9.217833793	
729.375	0.7758304561	1.938196751	
730.0	-5.494924075	20.83237977	
730.625	14.59338797	4.073956238	
731.25	-10.0546062	3.078703771	
731.875	-10.29646545	11.61537305	
732.5	-5.486456502	8.274761123	
733.125	-3.512372366	-2.312431932	
733.75	-3.689457162	5.270714424	
734.375	2.031243903	0.3731799339	
735.0	0.6583101323	-0.7053941392	
735.625	-2.218947702	0.9748642663	
736.25	-0.05050044263	0.06893788459	
736.875	0.7961589155	2.368708087	
737.5	3.513269841	0.1836224259	
738.125	2.69752832	-3.124169291	
738.75	1.74668072	1.605946323	
739.375	14.76022299	-7.263506286	
740.0	-1.224404474	-12.20223614	
740.625	-0.9958933885	11.95092631	
741.25	22.77690945	9.731283537	
741.875	4.804679659	-17.17311096	
742.5	-8.718581278	-10.07073277	
743.125	-5.230163117	-1.561700696	
743.75	3.319204331	-1.955278691	
744.375	-2.658543896	-0.9044700875	
745.0	0.5906967497	-0.02788232505	
745.625	0.3537767661	0.2021111983	
746.25	-0.2680044288	-0.5820905442	
746.875	-0.1162305447	-0.05700816873	
747.5	-0.5347322744	1.18842273	
748.125	0.5110822235	1.260954982	
748.75	-0.1164064529	1.321624	
749.375	0.5931738646	1.180940572	
750.0	-0.07663005063	0.9197373411	
