!Created with skrf (http://scikit-rf.org).
# GHz S RI R (50+0j) 
!freq	ReS11	ImS11	
500.0	-0.2097846415	-0.9544484946	
500.625	0.4459525735	-0.4005473762	
501.25	-0.5754467714	-0.8196443756	
501.875	-0.2822514725	-0.09346503151	
502.5	0.0391522582	-0.1503021146	
503.125	-0.08775174612	0.0269201767	
503.75	-0.004686710726	0.009157936333	
504.375	0.04331043298	0.008393716132	
505.0	-0.02406747379	-0.004161598959	
505.625	0.04734560736	-0.044142896	
506.25	-0.1319967002	-0.05151176406	
506.875	0.07320089554	-0.06763664301	
507.5	-0.2480535638	-0.4881039456	
508.125	-0.1353799342	-0.2986971278	
508.75	0.751662114	-0.8090447533	
509.375	-0.3485055488	-1.110238977	
510.0	-0.2123818945	-0.09487912062	
510.625	-0.008760040784	-0.2544327822	
511.25	-0.1297863124	-0.04166038188	
511.875	-0.03420754308	-0.07320410378	
512.5	-0.03932780783	0.0476154282	
513.125	-0.0467896897	-0.04273920748	
513.75	0.02082276425	-0.04080238583	
514.375	-0.1665976224	-0.01484125811	
515.0	0.2000118546	0.1285738809	
515.625	-0.1884710812	-0.5398034981	
516.25	0.02826713417	-0.07646989098	
516.875	-0.0849379998	-0.6596093701	
517.5	-0.1417976433	-0.1453191449	
518.125	0.03895795638	0.01835639529	
518.75	-0.07680941793	-0.2111200703	
519.375	-0.03674182765	0.01564038361	
520.0	0.04799804388	0.06309195817	
520.625	0.1911813978	-0.04807466378	
521.25	-0.1209492026	-0.1906830229	
521.875	-0.08147803135	-0.02315395614	
522.5	-0.1063021758	0.05766003356	
523.125	0.06429192184	-0.03829168085	
523.75	-0.1397817515	-0.09089519656	
524.375	-0.1251535839	0.1700353375	
525.0	-0.0131263288	-0.008432183144	
525.625	0.005169635899	0.1304022533	
526.25	0.01243434437	-0.09153241102	
526.875	-0.002078859584	0.08875152074	
527.5	0.03514416066	0.07606344798	
528.125	-0.05904125991	0.2284786962	
528.75	0.09406141972	0.2614073063	
529.375	0.0184011922	0.09721292419	
530.0	0.009316313689	0.2476206128	
530.625	0.1084450187	0.2953231466	
531.25	0.2062347069	0.09068806703	
531.875	0.282309443	-0.00237246691	
532.5	-0.1167192594	-0.0165351632	
533.125	0.1699850668	-0.1082298111	
533.75	-0.02759810824	-0.09406833684	
534.375	0.07920891251	-0.1480003503	
535.0	-0.2756272075	-0.08876943621	
535.625	-0.06951470109	0.08776565748	
536.25	-0.03085190235	0.07641715711	
536.875	0.1148251946	0.006145583801	
537.5	0.0180441458	-0.02913179123	
538.125	0.1383897626	-0.05255127104	
538.75	0.04573434385	-0.1435445688	
539.375	-0.04873297444	-0.1290172754	
540.0	-0.1912121273	-0.171733108	
540.625	-0.1534110488	0.002714403682	
541.25	-0.03307011938	-0.0116043196	
541.875	-0.088785463	-0.0519873425	
542.5	-0.00789072856	-0.002775527413	
543.125	-0.03010295694	-0.1087607203	
543.75	-0.08929401671	0.0591034175	
544.375	-0.009249936518	-0.06094075423	
545.0	0.01460222861	0.09314092416	
545.625	-0.0003295020343	0.02367450105	
546.25	0.1224380871	0.08966357687	
546.875	0.08350576235	-0.09330636904	
547.5	0.06075324529	-0.06022280383	
548.125	-0.01101933609	-0.1927127905	
548.75	-0.1533687291	-0.06245275139	
549.375	-0.05063461413	-0.04413841329	
550.0	-0.1072847638	-0.00173848835	
550.625	-0.00681570408	0.01354971141	
551.25	-0.09783887503	0.01597931477	
551.875	-0.04592671905	0.08644406528	
552.5	-0.05181267975	0.04994667819	
553.125	-0.007399709926	0.07392913812	
553.75	0.032943855	0.03322783673	
554.375	0.08572161847	0.01236495478	
555.0	0.08699749284	-0.07198140429	
555.625	0.07432918422	-0.09159155251	
556.25	0.06114378438	-0.1253153519	
556.875	-0.0393040111	-0.1426900406	
557.5	-0.09068877181	-0.08930672838	
558.125	-0.1032838424	-0.03595715898	
558.75	-0.1056806136	0.0002116956238	
559.375	-0.09323648841	0.03008713369	
560.0	-0.08836181867	0.06051322276	
560.625	-0.05007683194	0.1151146273	
561.25	0.02771735862	0.07704110826	
561.875	-0.000358506052	0.05537713072	
562.5	0.0387829946	0.03361281188	
563.125	0.03631090008	0.08338937504	
563.75	0.1607967918	-0.01514180828	
564.375	0.06863540056	-0.1049739058	
565.0	0.09943393069	-0.1064673266	
565.625	-0.06692139292	-0.1678606048	
566.25	-0.08315886595	-0.05574732563	
566.875	-0.1007359535	-0.1371832729	
567.5	-0.1838292097	-0.05061580324	
568.125	-0.06482515809	-0.1165115421	
568.75	-0.2891409207	-0.09856970716	
569.375	-0.1464536379	0.1298183544	
570.0	-0.1701498446	0.1082322968	
570.625	-0.05586394383	0.2281881948	
571.25	0.06669863002	0.03966646074	
571.875	0.0001653599271	0.125347427	
572.5	0.1530118262	-0.07925551512	
573.125	0.02455722093	-0.03270675195	
573.75	0.1267812804	-0.145055058	
574.375	-0.08437730479	-0.0518814835	
575.0	0.1082775774	-0.01608179565	
575.625	-0.04167794384	-0.09850193478	
576.25	0.05749096472	-0.01866989428	
576.875	0.06985235307	-0.1920284038	
577.5	-0.07755524445	-0.1832374003	
578.125	-0.03633327379	-0.06203375004	
578.75	0.01475599244	-0.1769188739	
579.375	-0.2335126449	-0.049720893	
580.0	0.07744510048	-0.01820256147	
580.625	-0.1693090354	-0.01706120559	
581.25	0.04138529155	-0.01421505661	
581.875	-0.08555681531	0.1767156356	
582.5	0.2062177443	0.1196713503	
583.125	0.02350528529	-0.03924185379	
583.75	0.02079256079	0.1166478052	
584.375	0.09759158271	-0.01519117608	
585.0	-0.002628329012	0.1058525774	
585.625	0.2341601091	0.01931407658	
586.25	0.05716918921	-0.1002727741	
586.875	0.1226966062	-0.06602456467	
587.5	-0.08388198878	-0.159589191	
588.125	0.01215596173	-0.03868033489	
588.75	0.07669402259	-0.1885103419	
589.375	-0.02811361526	-0.1690344814	
590.0	0.01477773538	-0.05913283061	
590.625	-0.205773924	-0.1365318094	
591.25	-0.08507804212	0.1918119424	
591.875	-0.02030483943	0.002761740258	
592.5	-0.009420705065	0.1790283986	
593.125	-0.00924954559	-0.06097598655	
593.75	0.07262017247	0.2161756818	
594.375	0.1498327203	-0.00984122541	
595.0	0.1025020379	0.1998968759	
595.625	0.2374728157	0.09984335436	
596.25	0.1363863718	-0.05983014155	
596.875	0.09364289361	0.1018749779	
597.5	0.2040128375	0.05176177286	
598.125	0.1110148083	0.01763140229	
598.75	0.1599115316	0.1146561411	
599.375	0.2383480125	-0.09972899004	
600.0	0.1011444246	-0.1109932343	
600.625	0.1827859311	-0.1402012579	
601.25	0.01845363268	-0.2420515763	
601.875	-0.07511711693	-0.04157484654	
602.5	-0.1547868913	-0.1484680625	
603.125	-0.09669999496	0.1453380879	
603.75	-0.03151544973	0.004491026916	
604.375	-0.1966187088	0.1420958612	
605.0	0.05831252849	0.07012816798	
605.625	-0.1853547154	0.07602402113	
606.25	-0.08823724713	0.1624237343	
606.875	-0.1347033878	0.001768371792	
607.5	-0.2368472211	0.1255386549	
608.125	0.03484931897	0.2422063568	
608.75	0.1130006796	0.04976957247	
609.375	0.2188120854	-0.0174619752	
610.0	0.1525251852	-0.1589872583	
610.625	0.01874285388	-0.1272915606	
611.25	0.03987370521	-0.2347175285	
611.875	-0.1363801998	-0.073116843	
612.5	-0.07664448645	-0.1304880502	
613.125	-0.2878734176	0.03394496339	
613.75	0.03682987819	0.1686832663	
614.375	-0.05749609885	0.0419786618	
615.0	0.1225761525	0.0948314647	
615.625	-0.06563333741	0.02046766043	
616.25	-0.1167390601	0.1835890948	
616.875	0.05185666371	0.2203733207	
617.5	-0.1170612201	0.1038704127	
618.125	0.05722916935	0.1800586391	
618.75	0.09758523159	0.09848543744	
619.375	-0.0251452417	0.1491500536	
620.0	0.2748155414	0.07060225055	
620.625	0.1144075095	-0.2801085345	
621.25	-0.02600339088	-0.1312276404	
621.875	-0.2449859574	-0.1288263946	
622.5	-0.1476501671	0.1438346359	
623.125	-0.06797483349	0.07787534572	
623.75	0.1940619323	0.04422638144	
624.375	-0.03838273573	-0.0169617014	
625.0	0.1288135119	-0.04659428283	
625.625	-0.03805214377	-0.07295747834	
626.25	0.02136175218	-0.1063074886	
626.875	-0.176950481	-0.1287215103	
627.5	-0.1440521525	-0.001606673109	
628.125	-0.02108179843	-0.05924483913	
628.75	0.0009704669229	-0.1203412326	
629.375	-0.07933283454	-0.0825998575	
630.0	-0.1487184127	-0.1518390915	
630.625	-0.2243656903	0.1323092427	
631.25	-0.07112263173	0.1260208384	
631.875	-0.06645153442	0.2380073845	
632.5	0.1992163052	0.254327222	
633.125	0.1419437997	0.003377133109	
633.75	0.1454667871	0.06362436921	
634.375	0.06986905941	-0.2089626403	
635.0	-0.009752124255	-0.04801183578	
635.625	-0.1311659643	-0.1894562111	
636.25	-0.1260702455	0.1504078347	
636.875	-0.03187111452	0.03689297689	
637.5	-0.09139543527	0.1628037957	
638.125	0.02334425981	0.02360636021	
638.75	-0.1500191952	0.1513446557	
639.375	0.0533594944	0.305811392	
640.0	0.138524515	0.1236185956	
640.625	0.1507136696	0.2077123581	
641.25	0.3424452646	-0.01556785503	
641.875	0.02841491883	-0.2637222146	
642.5	0.08572486043	-0.1728102863	
643.125	-0.2556985327	-0.2115636363	
643.75	-0.007384723687	-0.05282130274	
644.375	-0.3030663817	-0.1939631186	
645.0	-0.07942678376	0.264811788	
645.625	-0.01193061741	0.08015749432	
646.25	0.1916589804	0.2001389375	
646.875	0.08282961502	-0.2301354246	
647.5	-0.0057036534	0.1661829073	
648.125	0.2100741514	-0.05653066757	
648.75	0.07698620367	-0.004513478107	
649.375	0.3995812582	-0.2197315753	
650.0	0.02046601187	-0.3752990242	
650.625	0.0871703791	-0.1087860678	
651.25	0.3289945504	-0.2046026698	
651.875	0.220945468	-0.3112479028	
652.5	0.07748516704	-0.04130641249	
653.125	0.3600897954	-0.03757031437	
653.75	0.07835099385	-0.3259521695	
654.375	0.05583970022	-0.1069794094	
655.0	-0.3763957424	-0.1819601307	
655.625	-0.04708440614	0.20574488	
656.25	-0.08655600487	-0.01858104534	
656.875	0.1017662696	0.2544436199	
657.5	-0.002889564839	-0.1409475979	
658.125	0.02717104606	0.3106893193	
658.75	0.3865841969	-0.0284613147	
659.375	0.1716441349	-0.1283603501	
660.0	0.335114315	-0.195506845	
660.625	0.03752350558	-0.4497729007	
661.25	0.1122464248	-0.1293362709	
661.875	0.3070030787	-0.2780622269	
662.5	0.1471278864	-0.2940713906	
663.125	0.1459643054	-0.08408231573	
663.75	0.2705764185	-0.280090538	
664.375	-0.1458637335	-0.3262019108	
665.0	-0.1388941486	-0.1327248173	
665.625	-0.3695145098	0.03109240688	
666.25	0.00448586195	0.2908449064	
666.875	-0.02529551414	0.1326655696	
667.5	0.2572568208	0.1220756134	
668.125	0.1251011949	-0.07357333758	
668.75	0.2241514821	0.007488421109	
669.375	0.1226110028	-0.3553322888	
670.0	-0.0919328058	-0.1065669256	
670.625	0.1069256537	-0.1348399316	
671.25	0.01033778891	-0.2649500189	
671.875	0.01499083496	-0.08847161464	
672.5	0.351396763	-0.1525994504	
673.125	0.1149285791	-0.2518941824	
673.75	0.1271464631	-0.1014788214	
674.375	0.1467658899	-0.2962238236	
675.0	-0.2121454565	-0.233188957	
675.625	-0.05254700547	-0.047393661	
676.25	-0.2088844972	-0.1323374636	
676.875	-0.1644591564	0.1058767406	
677.5	-0.04756223924	-0.05325254374	
678.125	-0.2483259415	0.198734518	
678.75	0.1658129232	0.1169022917	
679.375	0.07583208642	0.1476610802	
680.0	0.3369641067	-0.1723305543	
680.625	-0.1452135468	-0.1047799459	
681.25	0.1702350485	0.1248964997	
681.875	0.2286845016	-0.09641119778	
682.5	-0.01472148766	0.0928857725	
683.125	0.274563365	0.2582913518	
683.75	0.4034357256	-0.1043478032	
684.375	0.0898875068	0.1832498905	
685.0	0.3858121965	0.1436043477	
685.625	0.2284365331	-0.103806087	
686.25	0.1405313835	0.1314172329	
686.875	0.4314381795	-0.2523550536	
687.5	0.03265996452	-0.2727848342	
688.125	0.0607071077	-0.361715736	
688.75	-0.4610818402	-0.2910290525	
689.375	-0.1357466858	0.4069797476	
690.0	-0.09305485737	0.2075358413	
690.625	0.4157504933	0.3545355032	
691.25	0.2044987004	0.0627190248	
691.875	0.3343819618	0.4534658112	
692.5	0.7224806045	-0.01472815245	
693.125	0.3377676624	0.06930169743	
693.75	0.76029912	-0.2200207274	
694.375	0.391733309	-0.5553491994	
695.0	0.202228993	-0.1992261365	
695.625	0.5300523875	0.1190801938	
696.25	0.327555234	0.06889603527	
696.875	0.2424561209	0.2479364081	
697.5	0.2684285834	0.5335215543	
698.125	0.5210317395	0.206642138	
698.75	0.3659325507	-0.3481719482	
699.375	-0.3415748685	-0.4800337746	
700.0	-0.2344494503	0.4206237276	
700.625	0.07660700673	0.1072686038	
701.25	0.1719384003	0.371582294	
701.875	0.3483997457	0.056861582	
702.5	0.1560204684	0.2162678261	
703.125	0.4906659554	0.1828281385	
703.75	0.2526628694	-0.2236813899	
704.375	0.2248691576	-0.01606120831	
705.0	0.3229376969	-0.2286229618	
705.625	0.1222841835	-0.05537348022	
706.25	0.119827382	0.2710070021	
706.875	0.04866816307	0.2261903854	
707.5	0.1699427164	0.1989824044	
708.125	0.3350150626	0.2481064923	
708.75	0.3368138713	-0.3961358305	
709.375	-0.4466285777	-0.2677288696	
710.0	-0.219051355	0.05125975033	
710.625	0.1734542324	0.1924419689	
711.25	-0.02655819976	0.06943741904	
711.875	0.2594764173	0.2744024858	
712.5	0.2808035691	-0.1444860269	
713.125	0.1528613599	-0.04663924303	
713.75	0.2192655798	-0.2619613473	
714.375	-0.07756767303	-0.2470502754	
715.0	0.0276477658	-0.08245930081	
715.625	0.04708594237	-0.3105067246	
716.25	0.0295237012	-0.2064212438	
716.875	0.3299801578	-0.01446097671	
717.5	0.5213630915	-0.01841725633	
718.125	0.3461791912	-0.06694502628	
718.75	0.7257073015	0.2443636278	
719.375	0.8740189005	-0.3831534106	
720.0	0.03131536629	-0.6829020412	
720.625	0.5987892266	-0.53156971	
721.25	-0.3563723982	-1.119097926	
721.875	-0.08304089572	-0.498445056	
722.5	-0.2015407295	-1.196133084	
723.125	-0.8394006967	-0.01669585244	
723.75	-0.2150451741	0.2261134568	
724.375	-0.1773306654	0.5450015151	
725.0	0.4138926578	0.2362513486	
725.625	0.008192084332	0.2818854085	
726.25	-0.06448943257	0.7320562533	
726.875	0.1658524583	0.9486659364	
727.5	-0.07988660697	0.6993459356	
728.125	-0.58839581	1.836407235	
728.75	0.5993421669	2.486814551	
729.375	-0.8112248812	1.596385491	
730.0	-0.9561052886	4.10280055	
730.625	1.270225253	2.774701427	
731.25	-1.434875061	1.702096315	
731.875	-3.16125405	2.914872214	
732.5	-2.252512621	2.784771078	
733.125	-1.641196044	-0.402771054	
733.75	-1.295785322	1.637146284	
734.375	0.7835769271	0.1267799859	
735.0	0.1872225032	-0.2847491355	
735.625	-0.888256754	0.1704224198	
736.25	0.1411154412	0.1755985321	
736.875	0.175572058	0.7008248911	
737.5	1.225604722	-0.03155801113	
738.125	0.6610936819	-0.6577052864	
738.75	1.526123542	0.1490403328	
739.375	3.028181532	-2.345822912	
740.0	0.1409731526	-2.445770102	
740.625	1.318677471	2.553520393	
741.25	3.163883015	4.212975603	
741.875	0.6010594006	-1.055913433	
742.5	-1.295599848	-3.70875562	
743.125	-0.8840080053	-1.360121296	
743.75	0.04299390443	0.1206724267	
744.375	-0.5129433461	-0.4554266467	
745.0	0.1954005686	0.08128201222	
745.625	0.06151023717	0.0698965394	
746.25	-0.1099991519	-0.1729051044	
746.875	-0.1112455657	0.02900477669	
747.5	-0.1587788951	0.2884347921	
748.125	0.2907875246	0.4356617004	
748.75	0.1850392562	0.2672046917	
749.375	0.04896507612	0.4890000232	
750.0	-0.2641853578	0.3494082944	
