!Created with skrf (http://scikit-rf.org).
# GHz S RI R (50+0j) 
!freq	ReS11	ImS11	
500.0	0.4545976105	-1.163254398	
500.625	-0.191673247	-0.8057657918	
501.25	0.3315747749	-0.5064277628	
501.875	-0.527616731	-0.4599559381	
502.5	-0.01812176108	-0.02777516756	
503.125	-0.08324400471	-0.04244488256	
503.75	0.08084892511	0.06594559658	
504.375	0.008039641982	0.02906559583	
505.0	0.01662127493	-0.05687992215	
505.625	0.0117593409	0.02036727217	
506.25	-0.07431113823	-0.156137558	
506.875	0.08783503642	0.1678480422	
507.5	0.1822876411	-0.5507969852	
508.125	-0.2116371609	-0.6791035949	
508.75	0.4372071561	-0.2284378283	
509.375	0.1466064258	-1.258912112	
510.0	-0.3982606894	-0.1658759102	
510.625	-0.01988323314	-0.05479918726	
511.25	-0.09990349459	-0.08059578275	
511.875	-0.101288195	0.01571652375	
512.5	-0.03519617881	0.01059354004	
513.125	-0.02057265057	-0.08962310937	
513.75	-0.02461582033	0.03215739616	
514.375	-0.0271399208	-0.1345323897	
515.0	-0.2174024726	0.2602227855	
515.625	0.2893030032	-0.7828872149	
516.25	-0.7834439641	-0.2172577705	
516.875	0.1858553194	-0.1836450493	
517.5	-0.05161671603	-0.2831009033	
518.125	0.01814545424	0.04315459429	
518.75	-0.04416595093	-0.217124652	
519.375	-0.02174721832	0.04178737441	
520.0	0.05810707455	0.06086916143	
520.625	0.1414009941	-0.07026595414	
521.25	-0.02352383106	-0.1771946416	
521.875	-0.1461341983	-0.02737181068	
522.5	-0.001543950387	0.005670287075	
523.125	-0.1411144366	0.07544936658	
523.75	0.02812737857	0.00376646051	
524.375	-0.2784280959	-0.04002330851	
525.0	0.1211515014	0.1204069493	
525.625	-0.0686738494	0.02020485291	
526.25	0.08098800979	-0.02117180914	
526.875	-0.116695355	0.06793846284	
527.5	0.05834588879	0.1535700413	
528.125	-0.04965566476	0.1549999823	
528.75	0.08252547597	0.2749211818	
529.375	-0.03640098237	0.01008893681	
530.0	0.1161860273	0.157773889	
530.625	-0.04388556192	0.1603022795	
531.25	0.4884555562	0.1141348495	
531.875	-0.02230335037	-0.1215936637	
532.5	0.05573009635	-0.2029890349	
533.125	-0.1111053475	0.0922096972	
533.75	0.2107980471	-0.2701471734	
534.375	-0.1862989074	-0.1257891198	
535.0	-0.1144594821	-0.1271374629	
535.625	-0.195363921	0.1555631037	
536.25	0.02185941539	0.04538341126	
536.875	0.08161030202	0.05125419425	
537.5	0.05530505134	-0.06561590966	
538.125	0.07584125551	-0.01000762014	
538.75	0.1270174145	-0.1253711127	
539.375	-0.06240953174	-0.1409807134	
540.0	-0.1467443368	-0.09392139097	
540.625	-0.1162773305	-0.05584738267	
541.25	-0.1181175485	0.01947220839	
541.875	0.03631144039	0.005674865652	
542.5	-0.136190153	-0.1029800006	
543.125	0.006737653863	0.04611908145	
543.75	-0.1336748997	-0.1027634128	
544.375	0.0600701449	0.1002022536	
545.0	-0.08211614121	0.0310494864	
545.625	0.126647635	0.05387655733	
546.25	0.003687252928	0.001842235715	
546.875	0.1721873493	0.01323481101	
547.5	-0.006541923288	-0.1404266252	
548.125	0.0204790986	-0.09332938966	
548.75	-0.1256121128	-0.1625027281	
549.375	-0.1188125955	-0.00199430058	
550.0	-0.04659538076	-0.03426161751	
550.625	-0.06633734516	0.03488725532	
551.25	-0.03723679304	0.0127241247	
551.875	-0.09469328973	0.05343278389	
552.5	-0.01505056282	0.08153825823	
553.125	-0.02216502913	0.03793437459	
553.75	0.05883430531	0.04069332427	
554.375	0.06497952446	-0.007202274447	
555.0	0.09650267533	-0.0591186162	
555.625	0.06549827193	-0.1066873881	
556.25	0.05030942971	-0.1200437757	
556.875	-0.03314763872	-0.1403506915	
557.5	-0.09585378993	-0.08917428067	
558.125	-0.1043740795	-0.02671581544	
558.75	-0.09451350059	-0.005120625468	
559.375	-0.1083353201	0.0236526224	
560.0	-0.06972228871	0.07291550826	
560.625	-0.06139969109	0.08349163262	
561.25	0.01764162689	0.1170859209	
561.875	0.02159421478	0.005969280864	
562.5	0.01110654943	0.08182832403	
563.125	0.07137811759	0.02522307707	
563.75	0.1061111871	0.03719844086	
564.375	0.1480015807	-0.1241322281	
565.0	0.004641986551	-0.1162659378	
565.625	0.03475228258	-0.1394524803	
566.25	-0.1878334187	-0.09778205262	
566.875	-0.04801802586	-0.02096211162	
567.5	-0.135540864	-0.1917836073	
568.125	-0.206418793	-0.05010276048	
568.75	-0.09322071514	-0.1241951454	
569.375	-0.3056916617	0.1374016194	
570.0	0.003752468014	0.1723252173	
570.625	-0.1346431407	0.08129473617	
571.25	0.03863805654	0.2007402955	
571.875	-0.02006515226	-0.01699575043	
572.5	0.2020782609	0.04831149725	
573.125	-0.01883767971	-0.1682358699	
573.75	0.07009450897	0.02201820495	
574.375	0.04746502532	-0.160115741	
575.0	-0.04485557732	0.02500597136	
575.625	0.1187219476	-0.08149849381	
576.25	-0.02804336595	-0.1562092241	
576.875	0.009245197526	-0.02489088585	
577.5	0.09574212802	-0.2070248292	
578.125	-0.1645096029	-0.1561044511	
578.75	0.01114383271	0.004263505586	
579.375	-0.05053420047	-0.2063340767	
580.0	-0.1465117933	0.121782718	
580.625	-0.008287349431	-0.1997503506	
581.25	-0.09929632015	0.2301502492	
581.875	0.03692583466	-0.01740591571	
582.5	-0.07933764036	0.1899115974	
583.125	0.200447038	0.1141623524	
583.75	-0.08341995771	-0.04410175702	
584.375	0.1319466174	0.1296308806	
585.0	0.02822878371	-0.05779128043	
585.625	0.1351697159	0.1216632717	
586.25	0.1872381288	-0.1494486319	
586.875	0.00137299752	-0.0556370456	
587.5	0.05371048204	-0.1544956517	
588.125	-0.06878403064	-0.1680839773	
588.75	-0.002292628617	-0.03254292818	
589.375	0.1722413678	-0.1639231481	
590.0	-0.1669916559	-0.1374672687	
590.625	-0.03377727566	-0.0532164665	
591.25	-0.2721839883	0.09025532755	
591.875	0.1410972116	0.1574692494	
592.5	-0.1513440319	-0.02357703641	
593.125	0.1267920757	0.07521083747	
593.75	-0.1007375639	0.1103110279	
594.375	0.2527440263	0.1481865	
595.0	0.1018114213	-0.03685932541	
595.625	0.07567522477	0.1634376447	
596.25	0.2305712584	0.01955098174	
596.875	0.0581359828	-0.01655315194	
597.5	0.118636151	0.1656311147	
598.125	0.1911068157	0.05485637605	
598.75	0.09576058694	0.07933347256	
599.375	0.2136903939	-0.01557254533	
600.0	0.1639958261	-0.145814401	
600.625	0.064492966	-0.1341760551	
601.25	0.1459416459	-0.1244800131	
601.875	-0.1440432613	-0.1727746067	
602.5	-0.0002728761047	0.04326133812	
603.125	-0.2499809656	-0.0306529436	
603.75	0.0527123391	0.1592218615	
604.375	-0.1171277087	-0.09206092652	
605.0	-0.126711399	0.2043279341	
605.625	0.03816951603	-0.08361054786	
606.25	-0.2180751376	0.1015251878	
606.875	-0.04346437344	0.1173094705	
607.5	-0.2178510384	0.07701489561	
608.125	0.01280626255	0.2753170686	
608.75	0.1002957435	0.1124222868	
609.375	0.2434060805	-0.006319011933	
610.0	0.1334036557	-0.1170415339	
610.625	0.1348232921	-0.1487742798	
611.25	-0.05584665185	-0.09424143948	
611.875	-0.01130504227	-0.1708612675	
612.5	-0.2279985503	0.03692412036	
613.125	-0.07363441656	-0.08447661779	
613.75	-0.1785348686	0.2135618246	
614.375	0.122205829	-0.02642375132	
615.0	-0.02750643353	0.1846874828	
615.625	0.09323234485	-0.0245940565	
616.25	-0.1464872828	0.1007670957	
616.875	0.003822078695	0.2412472534	
617.5	-0.0850737946	0.07713383542	
618.125	0.004149212848	0.2988644209	
618.75	0.06183257568	0.08951953663	
619.375	0.06554782492	0.2928129513	
620.0	0.1580014016	-0.09534938387	
620.625	0.2067888644	-0.02085968993	
621.25	-0.2284062568	-0.2143163335	
621.875	-0.0227920032	-0.02506118504	
622.5	-0.3120440426	-0.02777823667	
623.125	0.08856058922	0.2177856128	
623.75	-0.002996753566	0.05529824961	
624.375	0.1129238777	-0.1126769564	
625.0	-0.02443397585	0.03729052516	
625.625	0.1102014937	-0.1218683249	
626.25	-0.1108890346	-0.09066547699	
626.875	-0.05997830183	-0.08454277381	
627.5	-0.1682448956	-0.04773911615	
628.125	-0.09882879898	-0.04915534537	
628.75	-0.06063083561	-0.08039087108	
629.375	-0.05763769871	-0.1610941524	
630.0	-0.2397196142	-0.04374783374	
630.625	-0.1106290716	0.0223312859	
631.25	-0.2255475855	0.1928763081	
631.875	0.1023435552	0.2344651728	
632.5	-0.01949269416	0.1137652802	
633.125	0.3530907841	0.09791707798	
633.75	0.001659270001	-0.1356719779	
634.375	0.1867672219	-0.05823548001	
635.0	-0.1298632776	-0.1798645532	
635.625	-0.03130947809	-0.005045456563	
636.25	-0.2408619994	0.01491151058	
636.875	0.02257292177	0.199181891	
637.5	-0.03139017781	-0.02149068265	
638.125	-0.1105347713	0.1761897469	
638.75	0.04816874153	0.09105385019	
639.375	-0.09153783426	0.2028442647	
640.0	0.1850046206	0.2775358392	
640.625	0.2377006228	0.0474406513	
641.25	0.1365422613	0.04102406868	
641.875	0.2871550109	-0.2469053447	
642.5	-0.1744233985	-0.1329305835	
643.125	0.08622365807	-0.1418517423	
643.75	-0.346429993	-0.08041243614	
644.375	0.1278765354	0.0522486072	
645.0	-0.3842478141	0.1339793083	
645.625	0.3078762594	0.2178008419	
646.25	-0.08891539009	-0.001366196156	
646.875	0.2642172069	0.1039474125	
647.5	-0.08642836884	-0.162264771	
648.125	0.2301431369	0.2316468627	
648.75	0.2485880335	-0.2620698401	
649.375	0.05505823119	-0.1130415601	
650.0	0.3490176743	-0.223437886	
650.625	-0.002914786125	-0.4484199704	
651.25	0.05176811431	-0.03557359263	
651.875	0.3803852291	-0.1289772913	
652.5	0.2511231879	-0.2459589232	
653.125	0.0683699531	-0.03632778268	
653.75	0.3449785334	-0.2171854034	
654.375	-0.2845481042	-0.2953027658	
655.0	-0.0366752042	-0.007490243578	
655.625	-0.4266887762	0.1328308878	
656.25	0.3248613074	0.1656345753	
656.875	-0.1838064927	0.0003131097978	
657.5	0.2610607611	0.187056035	
658.125	-0.03625542807	-0.07270557412	
658.75	0.3242767597	0.3109830929	
659.375	0.2858757252	-0.3952223421	
660.0	0.07908851865	-0.1029234502	
660.625	0.2364938901	-0.2928145007	
661.25	0.08036707568	-0.4408519822	
661.875	0.03182993018	-0.06270348033	
662.5	0.3987855089	-0.1897254647	
663.125	0.1403747183	-0.314410555	
663.75	0.1061820308	-0.1318478614	
664.375	0.01474056102	-0.3801614814	
665.0	-0.3488900781	-0.08590363332	
665.625	-0.152717375	0.03736147177	
666.25	-0.1916706082	0.2856997069	
666.875	0.2691983024	0.1555630244	
667.5	-0.021688714	0.07628046543	
668.125	0.3825196186	-0.03668585992	
668.75	-0.01748768786	-0.1954025	
669.375	0.1786308467	-0.06045394964	
670.0	-0.04133181119	-0.4153741411	
670.625	-0.1038789026	0.04829435605	
671.25	0.2208265403	-0.2236232903	
671.875	0.0173764462	-0.2519004184	
672.5	0.07550964274	-0.05651354895	
673.125	0.3217798114	-0.1325315823	
673.75	5.900066938e-05	-0.3159284874	
674.375	0.06262434797	-0.10485971	
675.0	-0.04801067589	-0.3046169438	
675.625	-0.2732457272	-0.02000017174	
676.25	-0.0320686912	-0.02332091299	
676.875	-0.233203662	-0.02008281891	
677.5	-0.09168796344	0.1385875945	
678.125	-0.09206035062	0.0060456857	
678.75	0.002651897659	0.3700198651	
679.375	0.2263072571	-0.1815389739	
680.0	0.04826264225	0.1456803168	
680.625	0.2328290501	-0.2561114723	
681.25	-0.2387566847	-0.03606349928	
681.875	0.3490243949	0.3474884851	
682.5	0.26561884	-0.2742702029	
683.125	-0.009636616836	0.1959258915	
683.75	0.3944929906	0.1642455739	
684.375	0.2514373301	-0.2147985116	
685.0	0.08957524856	0.2271425216	
685.625	0.4228769147	-0.1062016958	
686.25	0.1736859455	-0.1235944985	
686.875	0.2429312581	-0.01663633159	
687.5	0.2295016506	-0.4345061114	
688.125	-0.1076484638	-0.2769248438	
688.75	-0.3466394616	-0.1456013942	
689.375	-0.3213655952	0.3173103314	
690.0	0.3105018596	0.2815367418	
690.625	-0.06192694992	0.2268971359	
691.25	0.6085587158	0.2643769813	
691.875	0.1762476943	-0.009455501091	
692.5	0.5577396973	0.487552434	
693.125	0.774104304	-0.3793019534	
693.75	0.1876356573	0.02644685092	
694.375	0.6430176756	-0.4609180282	
695.0	0.1694488204	-0.4707745921	
695.625	0.3929941178	0.1386446261	
696.25	0.6569024681	0.00432976113	
696.875	0.258709023	0.1453000716	
697.5	0.4238279097	0.4383299708	
698.125	0.4498459468	0.01249423855	
698.75	0.3940111997	-0.3650272312	
699.375	-0.4997137829	-0.2430028327	
700.0	-0.1669688418	0.1864306289	
700.625	0.2373994988	0.4131633088	
701.25	0.09465886737	-0.0221615945	
701.875	0.2074273535	0.3992325238	
702.5	0.4555608077	-0.03375840207	
703.125	0.2043370396	0.2010767348	
703.75	0.5022563117	-0.1313434031	
704.375	0.06717272845	-0.2509295949	
705.0	0.3079955943	-0.02414821392	
705.625	0.2377217088	-0.1564843482	
706.25	0.1250284205	0.203060415	
706.875	0.3939162416	0.217271123	
707.5	0.1054909613	0.1870721252	
708.125	0.5661652943	0.117834429	
708.75	-0.05992613264	-0.3315502159	
709.375	-0.04944574347	-0.4309723329	
710.0	-0.1138200506	0.4498777902	
710.625	-0.07912631266	-0.08729513434	
711.25	0.3567149531	0.2600360911	
711.875	-0.03668596291	-0.05366274989	
712.5	0.3891973191	0.08589010123	
713.125	0.206916729	-0.3293899902	
713.75	0.05297329292	-0.09813719064	
714.375	0.0631443034	-0.26321733	
715.0	-0.114878424	-0.1896185496	
715.625	0.02076776895	-0.101129008	
716.25	0.1840140475	-0.2718953669	
716.875	0.2210796312	-0.2060874156	
717.5	0.331970809	-0.09640599897	
718.125	0.5226224112	0.06507000015	
718.75	0.8523510244	-0.3978786971	
719.375	0.05150487415	-0.3330639233	
720.0	1.023879315	-0.7655897698	
720.625	-0.7828960154	-0.8648009754	
721.25	0.5056250519	-0.4971883246	
721.875	-0.5044115995	-1.429251191	
722.5	-0.7299360995	0.2829639885	
723.125	-0.5828870104	-0.551595238	
723.75	-0.2851129454	0.8004733608	
724.375	0.1463176919	0.1310570989	
725.0	0.001280741669	0.4676247049	
725.625	0.3997540524	0.4321262962	
726.25	0.04428470673	0.2657077225	
726.875	-0.2627892451	0.9036404779	
727.5	0.2614774991	1.460595303	
728.125	0.3209659992	0.9136657447	
728.75	-0.73367205	2.357759697	
729.375	0.2691424726	3.719947725	
730.0	1.172209511	1.996241344	
730.625	-1.392253563	3.012426116	
731.25	0.7615282877	4.89346902	
731.875	0.0685860722	0.4133141472	
732.5	-4.253606926	0.05688789624	
733.125	-2.128577357	2.247636398	
733.75	0.04462861893	0.006527888915	
734.375	1.307181012	1.074573372	
735.0	-0.6816660051	-0.3479604967	
735.625	-0.2363096928	-0.2725069827	
736.25	-0.03340111501	0.8508246088	
736.875	0.5980709142	-0.05656538819	
737.5	0.4881372135	0.6753655978	
738.125	1.908780104	-0.7907988336	
738.75	0.477387722	-1.589040951	
739.375	0.7455986172	0.2460051189	
740.0	5.370280872	-1.489857568	
740.625	0.3194892007	-3.695605857	
741.25	-3.144466571	2.929600279	
741.875	-4.689261372	3.281623623	
742.5	0.1063772532	0.7329261998	
743.125	1.230485434	-2.027594452	
743.75	-0.7049991286	-1.246092113	
744.375	-0.03650679768	0.2626449621	
745.0	-0.1738041144	0.2332013276	
745.625	-0.1118729271	-0.1426251762	
746.25	0.1186042665	-0.1961015283	
746.875	-0.2511115089	0.1252632098	
747.5	0.06439443168	0.1502479042	
748.125	-0.003613685982	0.4590230374	
748.75	0.4169108253	0.3823476742	
749.375	0.191974748	0.2160903149	
750.0	-0.4302559978	0.1644350538	
