!Created with skrf (http://scikit-rf.org).
# GHz S RI R (50+0j) 
!freq	ReS11	ImS11	
500.0	-0.08277608274	-1.559066647	
500.625	0.1883932364	-0.4793197028	
501.25	-0.4627054708	-1.098760248	
501.875	-0.4152832326	-0.3489719578	
502.5	0.05662116137	-0.1194935099	
503.125	-0.1107506417	0.01523200684	
503.75	0.02757993319	-0.001269429851	
504.375	0.04836846731	0.02114352823	
505.0	-0.02544913731	-0.03775275728	
505.625	0.05070577126	-0.02438702939	
506.25	-0.1558736308	-0.1073765448	
506.875	0.09651638893	-0.03592709541	
507.5	-0.1318015181	-0.6835211936	
508.125	-0.2151191891	-0.5078532979	
508.75	0.9967397798	-0.5899172633	
509.375	-0.2158849347	-1.786466288	
510.0	-0.5519449789	-0.01509631481	
510.625	0.01125887434	-0.2710599248	
511.25	-0.09805225307	-0.0313090281	
511.875	-0.03080710612	-0.04129225586	
512.5	-0.05418460099	0.05053074515	
513.125	-0.05985144046	-0.07115303966	
513.75	0.01687022846	-0.0307186341	
514.375	-0.1923595431	-0.07494462628	
515.0	0.1377278784	0.2449344372	
515.625	-0.1966182105	-0.7741207567	
516.25	-0.4342655262	-0.1968157617	
516.875	0.1234512954	-0.5793908198	
517.5	-0.125265409	-0.2946806464	
518.125	0.01697348958	0.0467717595	
518.75	-0.06900728051	-0.2617250924	
519.375	-0.03320133736	0.02722660009	
520.0	0.0523360551	0.06408846846	
520.625	0.2136605887	-0.04311426596	
521.25	-0.150412276	-0.2892513209	
521.875	-0.1192472682	-0.01334251955	
522.5	-0.1234329243	-0.002730254604	
523.125	0.08817408793	0.06352825304	
523.75	-0.1342868868	-0.1433738835	
524.375	-0.2401967973	0.166167188	
525.0	0.0166508981	0.001829104367	
525.625	-0.02756114986	0.1312657187	
526.25	0.03166403411	-0.104282795	
526.875	-0.0878439419	0.120902315	
527.5	0.07393991528	0.1466086549	
528.125	-0.06304195185	0.2578045008	
528.75	0.003556388795	0.3686508938	
529.375	0.00355193509	0.06351576465	
530.0	-0.07504692333	0.3018571858	
530.625	0.181643719	0.2464269533	
531.25	0.3862726262	0.04067914832	
531.875	0.3417409092	-0.1311780872	
532.5	-0.1776147622	-0.04792296809	
533.125	0.194083715	0.05346502224	
533.75	-0.04306814815	-0.2126268182	
534.375	0.01391357559	-0.1526968481	
535.0	-0.3187265148	-0.1684971965	
535.625	-0.09404639964	0.1530342633	
536.25	-0.03581666071	0.07260217829	
536.875	0.1377597946	0.01778530699	
537.5	0.02173809318	-0.04298023867	
538.125	0.1741071959	-0.01279405054	
538.75	0.09318593261	-0.1832830024	
539.375	-0.03942376221	-0.1229974389	
540.0	-0.1635813114	-0.2258235278	
540.625	-0.1885486507	-0.001308412776	
541.25	-0.05289091505	0.01866959992	
541.875	-0.1132665108	-0.04306164848	
542.5	-0.0008591159324	0.005908998558	
543.125	-0.01240141469	-0.09539522656	
543.75	-0.1436924605	0.04493022291	
544.375	0.02217286553	-0.03738271247	
545.0	-0.00926674561	0.1128093925	
545.625	0.0493014521	-0.008887918667	
546.25	0.09638469303	0.1110611239	
546.875	0.1587878485	-0.1006332223	
547.5	0.04797186103	-0.06996203409	
548.125	0.008263753248	-0.2166977418	
548.75	-0.1909344662	-0.09401894446	
549.375	-0.04432366437	-0.04534024212	
550.0	-0.1271353476	-0.01605241064	
550.625	-0.01316087449	0.03099646518	
551.25	-0.113869626	-0.0002266808657	
551.875	-0.07187891657	0.1040424759	
552.5	-0.04544838823	0.05047227892	
553.125	-0.02881359149	0.07982686831	
553.75	0.04490119096	0.03553869169	
554.375	0.09335406813	0.01494456909	
555.0	0.1028264917	-0.08201255223	
555.625	0.08493326515	-0.1072430121	
556.25	0.07213636145	-0.1464405849	
556.875	-0.04226668781	-0.1707380799	
557.5	-0.1020530204	-0.1040002807	
558.125	-0.1173365667	-0.0430354748	
558.75	-0.1181594507	-0.005717950347	
559.375	-0.1130513123	0.03346715025	
560.0	-0.09769513248	0.06445557586	
560.625	-0.06880614591	0.1282468182	
561.25	0.03316095668	0.09546841888	
561.875	-0.01410636163	0.05343188992	
562.5	0.05073078476	0.05435014378	
563.125	0.03005155595	0.07627726368	
563.75	0.1893701076	0.009054292993	
564.375	0.09496548793	-0.1311593906	
565.0	0.09979717306	-0.1095575646	
565.625	-0.05269616695	-0.2150618625	
566.25	-0.1022443745	-0.06078790972	
566.875	-0.09500876276	-0.1449464537	
567.5	-0.2061642153	-0.09608320861	
568.125	-0.08498271659	-0.1208120756	
568.75	-0.2960293216	-0.1912189607	
569.375	-0.2110861228	0.1956366067	
570.0	-0.1220774033	0.1120101112	
570.625	-0.1170877112	0.2379221756	
571.25	0.08541091964	0.08487734051	
571.875	-0.02494018826	0.1435936756	
572.5	0.1858952422	-0.07126759743	
573.125	0.02687994763	-0.04637153071	
573.75	0.180695289	-0.1416593288	
574.375	-0.1006777488	-0.1201585488	
575.0	0.08488793351	0.046524632	
575.625	0.01275054977	-0.1647281357	
576.25	-0.0003162828341	-0.03266676344	
576.875	0.09650838526	-0.1834740331	
577.5	-0.06682209048	-0.2287830777	
578.125	-0.04821793813	-0.06583088636	
578.75	-0.01096818832	-0.1981824065	
579.375	-0.2493744603	-0.09767260788	
580.0	0.04411985093	0.02399719217	
580.625	-0.1666030611	-0.07670896352	
581.25	0.03097508306	0.116394713	
581.875	-0.1314871532	0.09517515312	
582.5	0.1125085164	0.2665038943	
583.125	0.1193043686	-0.04675052945	
583.75	-0.02686730449	0.141865454	
584.375	0.122750661	-0.008028391431	
585.0	-0.01521384986	0.1365721121	
585.625	0.270288263	0.02153852931	
586.25	0.05710894141	-0.1356008745	
586.875	0.1320651462	-0.05208404877	
587.5	-0.03008808345	-0.2391526345	
588.125	-0.07471876115	-0.05849446235	
588.75	0.1247773672	-0.1405206212	
589.375	0.02693840111	-0.2479343942	
590.0	-0.04895185215	-0.05818895538	
590.625	-0.2003138689	-0.1622640513	
591.25	-0.1134693979	0.250114819	
591.875	-0.005292242088	0.02724810099	
592.5	-0.0737314491	0.2016554373	
593.125	0.04155134858	-0.04897447088	
593.75	0.004285901484	0.2961436658	
594.375	0.2511103027	0.0255835987	
595.0	0.04358557136	0.131191794	
595.625	0.2228365576	0.174326939	
596.25	0.1860841591	-0.05159161139	
596.875	0.06484112489	0.07807927792	
597.5	0.2513740154	0.07595335014	
598.125	0.1493350937	0.02139440442	
598.75	0.1390495537	0.1462061837	
599.375	0.2840759452	-0.07607994269	
600.0	0.09296641107	-0.1549457493	
600.625	0.1839265497	-0.1134896137	
601.25	0.08128962602	-0.2695842905	
601.875	-0.1256280559	-0.06439369666	
602.5	-0.07011462246	-0.1595818922	
603.125	-0.1593996915	0.1569233592	
603.75	-0.02045852678	0.03079800705	
604.375	-0.2176367858	0.04756489744	
605.0	0.05932147524	0.1706642448	
605.625	-0.1145208621	-0.07027838674	
606.25	-0.185398292	0.1606645465	
606.875	-0.09578190599	0.007133432334	
607.5	-0.2500009081	0.1093468411	
608.125	0.006724304872	0.3609631367	
608.75	0.1609446889	0.05144848868	
609.375	0.2605087075	0.0358107329	
610.0	0.1823561524	-0.1392755246	
610.625	0.003358531655	-0.1196455129	
611.25	0.1244453119	-0.2033566059	
611.875	-0.1679929133	-0.1421281459	
612.5	-0.05485839067	-0.06027936379	
613.125	-0.283847875	-0.06454888509	
613.75	-0.00672869256	0.241537359	
614.375	-0.04991838939	0.0168804684	
615.0	0.1153882802	0.1522287684	
615.625	-0.06989631855	-0.01662392638	
616.25	-0.1668366955	0.1883245644	
616.875	0.006954181288	0.315009554	
617.5	-0.03099614132	0.07971876633	
618.125	0.07589843307	0.2425738157	
618.75	0.1236469613	0.1977931928	
619.375	0.01315821375	0.08271330836	
620.0	0.2843347818	0.1266488107	
620.625	0.1784531968	-0.2649681202	
621.25	-0.03310573116	-0.1570110255	
621.875	-0.2571522461	-0.1572505651	
622.5	-0.1891580899	0.1637631183	
623.125	-0.007126906989	0.06018160546	
623.75	0.1927343272	0.1160025327	
624.375	-0.04462654687	-0.09844085054	
625.0	0.1214037907	0.02315061328	
625.625	-0.01010579958	-0.1679625968	
626.25	0.01417694286	-0.07171003149	
626.875	-0.1762135059	-0.1699658534	
627.5	-0.1850768727	0.02680620768	
628.125	-0.02496357398	-0.0689625603	
628.75	-0.09203663321	-0.1857694356	
629.375	-0.1097037409	-0.07553259141	
630.0	-0.152131297	-0.1261129234	
630.625	-0.28796708	0.06649566234	
631.25	-0.07755433132	0.2070910858	
631.875	-0.0950179747	0.2170149432	
632.5	0.1551926668	0.3174013872	
633.125	0.1987922638	-0.01944866283	
633.75	0.08154768865	0.07624631927	
634.375	0.09811617246	-0.2335479969	
635.0	-0.0250588015	-0.04964241238	
635.625	-0.1256873339	-0.2111279406	
636.25	-0.1972443722	0.1954046251	
636.875	-0.01111061787	0.05397977526	
637.5	-0.1432187104	0.1118071291	
638.125	0.05910624747	0.1388536325	
638.75	-0.1541106865	0.09290613506	
639.375	0.004180081312	0.3923196496	
640.0	0.2041831411	0.1463963106	
640.625	0.1403059769	0.1966581949	
641.25	0.4134666467	-0.02165371922	
641.875	0.08895508888	-0.289922802	
642.5	0.100530518	-0.1635780935	
643.125	-0.194472869	-0.2757054265	
643.75	-0.0757038103	0.06302941799	
644.375	-0.2309658744	-0.1847951123	
645.0	-0.144996515	0.3028965926	
645.625	0.07823529502	0.0149432371	
646.25	0.1598973093	0.2401438463	
646.875	0.213735312	-0.3200614158	
647.5	-0.07419406408	0.165979592	
648.125	0.3100255603	-0.02922514206	
648.75	0.1049866566	-0.08146169916	
649.375	0.3988271234	-0.08312049856	
650.0	0.1478811611	-0.5073566522	
650.625	0.02818880493	-0.1778752771	
651.25	0.3698125182	-0.1553808571	
651.875	0.2955963391	-0.3775715207	
652.5	0.1041204787	-0.03782247676	
653.125	0.4206271482	-0.03674932117	
653.75	0.1188920735	-0.3785491841	
654.375	-0.07369969486	-0.107383515	
655.0	-0.3136021259	-0.2713126401	
655.625	-0.1142657632	0.3254676701	
656.25	0.04133123356	0.01256579143	
656.875	-0.02957417591	0.2996182982	
657.5	0.09865025347	-0.07157777858	
658.125	-0.01921390569	0.3105778793	
658.75	0.533445492	-0.03725779909	
659.375	0.1738441601	-0.1598822819	
660.0	0.4158375331	-0.1747722591	
660.625	0.1574537258	-0.5253334707	
661.25	0.0003401673096	-0.1837517766	
661.875	0.3483360382	-0.1913834289	
662.5	0.2659320828	-0.3545376551	
663.125	0.1448340534	-0.1610768665	
663.75	0.3427447312	-0.2669636848	
664.375	-0.1737142537	-0.3970591504	
665.0	-0.174457756	-0.1425849621	
665.625	-0.4051355922	0.006620981999	
666.25	-0.04107615311	0.3692677102	
666.875	0.05612649307	0.05694939234	
667.5	0.2206516869	0.2218563764	
668.125	0.2133321667	-0.1162747567	
668.75	0.1592666443	-0.03442087031	
669.375	0.2579842837	-0.3834731565	
670.0	-0.1422698969	-0.1827852632	
670.625	0.1053429763	-0.1385842469	
671.25	0.0410797683	-0.3480319102	
671.875	-0.02057087777	-0.1183624788	
672.5	0.3704936484	-0.04978311404	
673.125	0.2302428901	-0.3132586745	
673.75	0.07476134554	-0.1587497402	
674.375	0.1640195941	-0.276196493	
675.0	-0.1897733148	-0.3494053839	
675.625	-0.1187341408	-0.006984428106	
676.25	-0.2049559138	-0.1714293078	
676.875	-0.1817598468	0.1241711559	
677.5	-0.03583920193	-0.02736668657	
678.125	-0.2960530461	0.1650597363	
678.75	0.2036925603	0.2465616471	
679.375	0.03580336158	0.05935135293	
680.0	0.3268067759	-0.04130146057	
680.625	-0.06965621231	-0.2547098518	
681.25	0.08506725926	0.2266058776	
681.875	0.3240123479	-0.04647179379	
682.5	-0.06746043495	0.01335874693	
683.125	0.2073109998	0.2871087304	
683.75	0.497386803	0.003270583743	
684.375	-0.03597419971	0.1689380173	
685.0	0.379392006	0.2421841391	
685.625	0.3704473849	-0.1314055334	
686.25	0.1095465679	-0.02763811643	
686.875	0.5441321256	-0.1603963856	
687.5	0.04486148356	-0.3934672587	
688.125	0.1067699042	-0.3407509004	
688.75	-0.5038376451	-0.3556286172	
689.375	-0.2140184224	0.4442915725	
690.0	-0.0672362749	0.1965279729	
690.625	0.3079887627	0.4768323021	
691.25	0.3522765402	0.07003686654	
691.875	0.2775313233	0.4208151121	
692.5	0.8605232842	0.2861214004	
693.125	0.3691449979	-0.165077692	
693.75	0.6755801628	-0.0292918982	
694.375	0.5857318148	-0.5559832014	
695.0	0.2107926838	-0.1709161932	
695.625	0.5121120825	0.2078103032	
696.25	0.343883768	-0.07746363639	
696.875	0.2706289547	0.2916600552	
697.5	0.2640062801	0.5887074457	
698.125	0.7341611078	0.2153391884	
698.75	0.5223798435	-0.5088537158	
699.375	-0.2823603405	-0.5517982202	
700.0	-0.4052775132	0.4096614917	
700.625	0.1799299469	0.1494402942	
701.25	0.0266208298	0.2858810549	
701.875	0.4421436477	0.1409007435	
702.5	0.1686188025	0.1781309735	
703.125	0.4931731796	0.2685175083	
703.75	0.4069092056	-0.2840997648	
704.375	0.1357731708	-0.05907316343	
705.0	0.4286077938	-0.1211534086	
705.625	0.1786746258	-0.08123111861	
706.25	0.1126898711	0.2513441091	
706.875	0.2882886176	0.291926774	
707.5	0.2867066086	0.172699668	
708.125	0.4141500344	0.1431148407	
708.75	0.4113701074	-0.4492171095	
709.375	-0.4782504197	-0.4581380407	
710.0	-0.1717526016	0.07322152944	
710.625	0.167712931	0.3249209596	
711.25	0.002388442996	0.007553464573	
711.875	0.1952515141	0.291955392	
712.5	0.4103195374	-0.1300258531	
713.125	0.08996636831	-0.1238882882	
713.75	0.2846713	-0.2493850813	
714.375	-0.06458210639	-0.3313856424	
715.0	-0.02059275805	-0.07881789294	
715.625	0.1365841395	-0.3190915972	
716.25	0.06626284457	-0.3115735101	
716.875	0.2788818851	-0.04992183208	
717.5	0.6460684641	0.0743625911	
718.125	0.5643779662	-0.2452167976	
718.75	0.6066841463	0.2296675931	
719.375	1.080724458	-0.6314230542	
720.0	0.3594433412	-1.028081051	
720.625	0.5746997761	-0.721265808	
721.25	-0.1564290297	-1.464997671	
721.875	-0.4077231802	-0.6062942544	
722.5	0.01635755687	-1.030835287	
723.125	-1.049810727	-0.1549612676	
723.75	-0.1633887274	0.4802370396	
724.375	-0.2296442471	0.4344232867	
725.0	0.5207042117	0.5512248736	
725.625	0.06413610058	0.2396676818	
726.25	-0.156823244	0.8145330201	
726.875	0.1563141718	1.162373123	
727.5	0.05966360386	0.8860944076	
728.125	-0.9006376867	2.053764625	
728.75	0.6577079602	3.098083532	
729.375	0.2155616269	2.181306553	
730.0	-1.934044227	4.96444175	
730.625	1.517907257	5.136926575	
731.25	-0.9630113227	1.968946705	
731.875	-4.100456072	2.941743132	
732.5	-4.352740935	2.851089947	
733.125	-1.454796928	-0.04288859145	
733.75	-1.450880059	1.598684092	
734.375	1.072639214	0.1546581468	
735.0	0.07739637112	-0.3309601706	
735.625	-1.043308922	-0.2290932013	
736.25	0.3929214324	0.5239040815	
736.875	0.01135984528	0.6354668135	
737.5	1.518258553	0.340711868	
738.125	1.082807964	-1.005991762	
738.75	1.213285696	-0.005868079929	
739.375	4.282369299	-1.877166931	
740.0	0.5162711722	-3.82517745	
740.625	1.058181695	2.293561999	
741.25	1.89827189	6.630142402	
741.875	1.444174132	0.1129446774	
742.5	-0.2395957344	-4.902151595	
743.125	-1.200939003	-2.586358118	
743.75	-0.4725556152	-0.2650151477	
744.375	-0.3039550945	-0.4606873354	
745.0	0.2709571592	0.2673436302	
745.625	0.02879665401	0.1018139543	
746.25	-0.08253757872	-0.275356991	
746.875	-0.1477754263	0.07935352534	
747.5	-0.2084454812	0.2986620092	
748.125	0.1939727388	0.6779101593	
748.75	0.2596087121	0.2887921064	
749.375	-0.08298734532	0.5441739031	
750.0	-0.4492361744	0.3088537692	
