!Created with skrf (http://scikit-rf.org).
# GHz S RI R (50+0j) 
!freq	ReS11	ImS11	
500.0	-0.1605652048	-1.112746929	
500.625	0.1093886687	-0.3413296342	
501.25	-0.3032141213	-0.8979068929	
501.875	-0.3476057132	-0.1812211359	
502.5	0.02205196123	-0.08293548454	
503.125	-0.1115175298	0.02325286679	
503.75	0.04001309843	0.01805449518	
504.375	0.0347172303	0.01640286184	
505.0	-0.006594846324	-0.03935208376	
505.625	0.0539818589	-0.03744711598	
506.25	-0.122089737	-0.08346349598	
506.875	0.08609743163	0.001969934778	
507.5	-0.1127792589	-0.5602140589	
508.125	-0.187570195	-0.2137355515	
508.75	0.6868799026	-0.4425088709	
509.375	-0.2865007136	-1.543186685	
510.0	-0.444095581	0.01175521935	
510.625	-0.0788799364	-0.1719233639	
511.25	-0.141895396	-0.01902084718	
511.875	-0.02705721847	-0.006065446011	
512.5	-0.0391034797	0.0442725001	
513.125	-0.0451619427	-0.05224421948	
513.75	0.009845871695	-0.008413962778	
514.375	-0.1118224613	-0.04849374293	
515.0	0.1663877225	0.2417527873	
515.625	-0.03308592341	-0.6186637729	
516.25	-0.446270996	-0.09824960481	
516.875	0.1651886942	-0.5450405449	
517.5	-0.08710803779	-0.2388052633	
518.125	0.01341697973	0.0253163888	
518.75	-0.04470626314	-0.2247674888	
519.375	-0.02260314127	0.05167258571	
520.0	0.08803691297	0.0606539971	
520.625	0.1783713429	-0.03054330088	
521.25	-0.1184068314	-0.2394562714	
521.875	-0.1134098163	-0.003547438024	
522.5	-0.07231803179	-0.003764422409	
523.125	0.0559538568	0.07182305345	
523.75	-0.1120448904	-0.1089134425	
524.375	-0.2156438519	0.1350105665	
525.0	0.03278247077	0.005503488707	
525.625	-0.03392704769	0.09463498007	
526.25	0.03715556203	-0.07248456139	
526.875	-0.0931246588	0.09290051415	
527.5	0.04176751136	0.09478216103	
528.125	-0.04475960723	0.146331076	
528.75	0.01136914225	0.2845584447	
529.375	0.05583970369	-0.03328857872	
530.0	0.07915585458	0.05776563229	
530.625	0.1831342263	0.1777751325	
531.25	0.3110354456	-0.005406803146	
531.875	0.3213384656	-0.1475773499	
532.5	-0.1102115818	-0.2510474157	
533.125	0.1601548146	-0.02167978091	
533.75	-0.03696712048	-0.1859705516	
534.375	0.02570584277	-0.1651514195	
535.0	-0.2395568761	-0.1755840239	
535.625	-0.08266646971	0.131494955	
536.25	-0.02386020767	0.06477431213	
536.875	0.1149002037	0.01142452916	
537.5	0.01763665598	-0.0530547862	
538.125	0.1328547949	-0.009129677268	
538.75	0.07794216445	-0.1721056269	
539.375	-0.04141306392	-0.08756954106	
540.0	-0.1349932951	-0.1499573378	
540.625	-0.1702741813	0.02876869831	
541.25	-0.04589120706	0.01942356432	
541.875	-0.09159435398	-0.04410743299	
542.5	-0.0822681113	0.01047572129	
543.125	-0.05550146837	-0.07987207069	
543.75	-0.1206740328	0.04140393411	
544.375	-0.01707105379	-0.01289697061	
545.0	-0.03786979641	0.1078552114	
545.625	0.05266037494	-0.00146440043	
546.25	0.06366912704	0.08545590264	
546.875	0.1457170856	-0.08816974642	
547.5	0.01617502331	-0.05999804436	
548.125	-0.007526842761	-0.1742441672	
548.75	-0.1676347789	-0.07381142041	
549.375	-0.05358549397	-0.03778294843	
550.0	-0.1079251376	-0.01986887741	
550.625	-0.01305499778	0.03383746687	
551.25	-0.09105367178	3.434540184e-05	
551.875	-0.05177045136	0.09388374682	
552.5	-0.01885782162	0.04564711942	
553.125	-0.01691662771	0.06891736768	
553.75	0.03980485941	0.02764479757	
554.375	0.08276748867	0.005338593766	
555.0	0.09087234226	-0.0755313028	
555.625	0.07030059108	-0.09448279713	
556.25	0.0554006154	-0.1241079867	
556.875	-0.03709145922	-0.1430372684	
557.5	-0.09459992736	-0.08449652287	
558.125	-0.1002780487	-0.02986161201	
558.75	-0.1025497428	-0.001134976462	
559.375	-0.09637205036	0.03219498734	
560.0	-0.07829764466	0.05979470836	
560.625	-0.05475638857	0.1112055416	
561.25	0.0331758599	0.08649741413	
561.875	-0.00336203141	0.0385012844	
562.5	0.0475195725	0.05344704127	
563.125	0.02881980682	0.05834577276	
563.75	0.163643798	0.007331628525	
564.375	0.07743047829	-0.115493752	
565.0	0.06934320575	-0.0850577617	
565.625	-0.04766769539	-0.1854794401	
566.25	-0.1015024885	-0.04507478716	
566.875	-0.07490210481	-0.1143646776	
567.5	-0.1806631121	-0.08304188096	
568.125	-0.07041563562	-0.03917140534	
568.75	-0.2243758445	-0.1329355855	
569.375	-0.1836229384	0.1727753848	
570.0	-0.07616736908	0.1140940385	
570.625	-0.096874299	0.2197517043	
571.25	0.09397997471	0.07305692337	
571.875	-0.01487318884	0.1142102947	
572.5	0.1646990586	-0.06331762485	
573.125	-0.009824370172	-0.02623214309	
573.75	0.1350945433	-0.0939719637	
574.375	-0.08796800809	-0.1161894217	
575.0	0.06476658337	0.04576015156	
575.625	0.01390416255	-0.1497901606	
576.25	-0.01743926307	-0.03541384638	
576.875	0.07023356189	-0.152914788	
577.5	-0.06424777145	-0.2093312831	
578.125	-0.05575750312	-0.05493313672	
578.75	-0.003082356683	-0.154921273	
579.375	-0.2151679522	-0.09036795976	
580.0	0.03231201827	0.03174518894	
580.625	-0.2031248375	-0.09718696082	
581.25	0.01988602902	0.1322636027	
581.875	-0.07169832564	0.06743198576	
582.5	0.06764548501	0.2282251309	
583.125	0.1037403724	-0.07164905268	
583.75	-0.03887378952	0.09556142016	
584.375	0.1138495875	0.001437618339	
585.0	-0.002391296645	0.07362835504	
585.625	0.2585259288	-0.009391791115	
586.25	0.07138520614	-0.1361409738	
586.875	0.08857514696	-0.04239894481	
587.5	-0.01192060536	-0.2080631417	
588.125	-0.06840227914	-0.05521200182	
588.75	0.1030369285	-0.1082907186	
589.375	0.01597318328	-0.2165801965	
590.0	-0.06203899713	-0.05948196976	
590.625	-0.162647859	-0.146697398	
591.25	-0.1058756354	0.2128867865	
591.875	0.009096844534	0.01745698016	
592.5	-0.06376869397	0.1449960805	
593.125	0.04206376628	-0.07573585944	
593.75	-0.01149025727	0.2030875853	
594.375	0.2265018047	0.0307798775	
595.0	0.06579483143	0.03900696604	
595.625	0.2203835564	0.1281050681	
596.25	0.1776202973	-0.05053346743	
596.875	0.05617737121	0.05055242359	
597.5	0.2139331276	0.08168364855	
598.125	0.1094838871	0.02044320078	
598.75	0.1104211878	0.1152582632	
599.375	0.2556016003	-0.06665949263	
600.0	0.05574580553	-0.1504773976	
600.625	0.1225968216	-0.1361403669	
601.25	0.0535256701	-0.2427657359	
601.875	-0.118407993	-0.05276266418	
602.5	-0.06036460945	-0.09621116515	
603.125	-0.1446456164	0.1587792374	
603.75	0.001324256252	0.02190863874	
604.375	-0.1709316488	0.02678357186	
605.0	0.04626423152	0.1706326997	
605.625	-0.03414901116	-0.05200106986	
606.25	-0.05049410643	0.1924899647	
606.875	-0.04143096626	0.07990423351	
607.5	-0.1958176458	0.08395102995	
608.125	0.01082406709	0.3150468956	
608.75	0.1358052359	0.06269004654	
609.375	0.2183006057	0.03325031972	
610.0	0.1482723314	-0.1289399793	
610.625	-0.01837928282	-0.09910890018	
611.25	0.005452831085	-0.07100273178	
611.875	-0.1676808932	-0.09170055292	
612.5	-0.04443975132	-0.04182411917	
613.125	-0.2456535837	-0.0259885504	
613.75	-0.01776021934	0.231766042	
614.375	-0.03418137314	0.004142658649	
615.0	0.09124740637	0.1325285909	
615.625	-0.01441618748	-0.03340140228	
616.25	-0.131731829	0.1523082338	
616.875	0.01342532051	0.2194568147	
617.5	-0.0009858241277	0.07937019074	
618.125	-0.05057693396	0.2399533402	
618.75	0.05206089686	0.1646822659	
619.375	0.06489189262	0.08206854502	
620.0	0.2378284329	0.1140560623	
620.625	0.04006436879	-0.1957064696	
621.25	-0.1266915579	-0.08302887762	
621.875	-0.2258212919	-0.120998162	
622.5	-0.1722639314	0.1487607728	
623.125	0.03259285187	0.05934910557	
623.75	0.1460398423	0.1258787576	
624.375	-0.03125288422	-0.1077092201	
625.0	0.08859462111	0.02834777573	
625.625	0.0004652258693	-0.1529663885	
626.25	-0.00676555253	-0.05069122747	
626.875	-0.1269004005	-0.134909623	
627.5	-0.1781452621	0.02745387322	
628.125	-0.02476703102	-0.04154761115	
628.75	-0.09822683313	-0.1904771182	
629.375	-0.1121498953	-0.12063587	
630.0	-0.1309353012	-0.1175239451	
630.625	-0.2543016853	0.08499744987	
631.25	-0.06441807989	0.1996504633	
631.875	0.02837112393	0.0877540983	
632.5	0.1525117337	0.2267816592	
633.125	0.16882399	-0.02229881303	
633.75	0.09942187373	0.0005874197827	
634.375	0.13853176	-0.2227517112	
635.0	-0.06450837006	-0.03794787293	
635.625	-0.08734121189	-0.1648215173	
636.25	-0.1835958948	0.1738034791	
636.875	0.0007293374073	0.05912051496	
637.5	-0.1300423377	0.0706909914	
638.125	0.03928124504	0.1224537636	
638.75	-0.1207303083	0.07892109265	
639.375	0.003100534645	0.3245517285	
640.0	0.2059249583	0.1410968458	
640.625	0.1158721673	0.1526005456	
641.25	0.3546346048	0.001383823703	
641.875	0.058587238	-0.2173521979	
642.5	0.01316908785	-0.04309527353	
643.125	-0.1605871739	-0.2021757378	
643.75	-0.05159594453	0.04386685506	
644.375	-0.1998741486	-0.09763954073	
645.0	-0.1900759491	0.357361132	
645.625	0.09245577771	0.05407449703	
646.25	0.1209355274	0.1959286344	
646.875	0.2227370885	-0.217299345	
647.5	-0.1042780595	0.1520349761	
648.125	0.2810519446	-0.001044397345	
648.75	0.08367557181	-0.1117639354	
649.375	0.3056539328	-0.05628754594	
650.0	0.1434173195	-0.4651438597	
650.625	-0.04937319377	-0.152853083	
651.25	0.2936368321	-0.1138557968	
651.875	0.2708472285	-0.3293541935	
652.5	0.07955775152	-0.06781788442	
653.125	0.3523699107	0.01596619739	
653.75	0.1228406229	-0.3426163053	
654.375	-0.05972120293	-0.1360067319	
655.0	-0.2051208395	-0.2706135146	
655.625	-0.1343779427	0.3205869453	
656.25	0.06388286488	0.01368175383	
656.875	-0.05514471225	0.2348218354	
657.5	0.111816356	-0.03071775553	
658.125	-0.08887930307	0.3015754148	
658.75	0.4540609437	0.02573579505	
659.375	0.1686005319	-0.1705334022	
660.0	0.2915537612	-0.1444681916	
660.625	0.1327223438	-0.4820475961	
661.25	-0.02236928815	-0.1980682412	
661.875	0.2972471251	-0.145083089	
662.5	0.2538277106	-0.2970475536	
663.125	0.08458323135	-0.1489320963	
663.75	0.2621222942	-0.1963731984	
664.375	-0.1455174311	-0.3608997554	
665.0	-0.1596867995	-0.09990998942	
665.625	-0.3439479928	0.00433788746	
666.25	-0.03136098883	0.3328135898	
666.875	0.06694005415	0.06981297951	
667.5	0.1836771211	0.1929073045	
668.125	0.2032269735	-0.1309311924	
668.75	0.101413575	-0.03530562093	
669.375	0.234162161	-0.2937154443	
670.0	-0.1377840813	-0.1891527107	
670.625	0.153412585	-0.102227368	
671.25	0.07171044762	-0.2787700377	
671.875	-0.01390000661	-0.128123939	
672.5	0.2432084272	-0.01511363499	
673.125	0.1383880345	-0.3219015624	
673.75	0.05004373602	-0.1365004385	
674.375	0.1310708101	-0.2270299674	
675.0	-0.1723911973	-0.303495591	
675.625	-0.08106161506	0.01016010313	
676.25	-0.1547321533	-0.1462367449	
676.875	-0.1698594539	0.1129447086	
677.5	-0.03142507196	-0.01051826563	
678.125	-0.2414381102	0.1293987977	
678.75	0.1712631159	0.2123028291	
679.375	0.0540836728	0.0436178194	
680.0	0.254114145	-0.02026970263	
680.625	-0.08038877777	-0.2653262632	
681.25	0.05034877066	0.1830586867	
681.875	0.2991110138	-0.0230852382	
682.5	-0.04911427298	-0.03449331084	
683.125	0.1419875332	0.2224186243	
683.75	0.437604272	-0.164108068	
684.375	-0.007671201806	-0.04646470232	
685.0	0.3021724729	0.2281944187	
685.625	0.3386527558	-0.1303373578	
686.25	0.1345012263	0.006162160794	
686.875	0.4587277742	-0.05279424203	
687.5	0.06804667656	-0.4155449825	
688.125	0.05849697861	-0.2393330809	
688.75	-0.4233792832	-0.2413096898	
689.375	-0.1711800482	0.4315076163	
690.0	-0.01841261585	0.1471660878	
690.625	0.2834400594	0.384580511	
691.25	0.3492519229	0.04062629838	
691.875	0.2179983052	0.3490704809	
692.5	0.7520210679	0.2566290165	
693.125	0.345491927	-0.2234005868	
693.75	0.4977676512	-0.04214484373	
694.375	0.3609521441	-0.6758370536	
695.0	0.1668209096	-0.3244368307	
695.625	0.4055543124	0.1584299181	
696.25	0.5661672212	-0.02661115367	
696.875	0.2318686502	0.3036892055	
697.5	0.4654205015	0.3498874653	
698.125	0.6342350645	0.1751821798	
698.75	0.3357067528	-0.3492016426	
699.375	-0.3040943406	-0.2733501474	
700.0	-0.2839264997	0.4058620767	
700.625	0.1782773424	0.1212477797	
701.25	0.1004889509	0.2620598117	
701.875	0.4159253189	0.1972995532	
702.5	0.1730085035	0.1332633335	
703.125	0.4133450225	0.217199074	
703.75	0.3743889825	-0.255207654	
704.375	0.1035874056	-0.08216352983	
705.0	0.3059459807	-0.2310515583	
705.625	0.2044182742	-0.1417322975	
706.25	0.07615001703	0.1436608874	
706.875	0.2751805388	0.4068814838	
707.5	0.2045176713	0.2907925865	
708.125	0.3109727729	0.1936398013	
708.75	0.3571108869	-0.3739750393	
709.375	-0.3245469059	-0.2226059408	
710.0	-0.05310144671	0.147962151	
710.625	-0.05769087438	0.3065517076	
711.25	0.02083567445	-0.003030168282	
711.875	0.1771322888	0.1925275802	
712.5	0.4257435389	-0.1005256625	
713.125	0.1002155271	-0.1518515754	
713.75	0.2279197063	-0.1917487808	
714.375	-0.0582399441	-0.2966143969	
715.0	-0.04195399606	-0.07149501867	
715.625	0.09097756682	-0.2355374082	
716.25	0.01445397851	-0.2939050766	
716.875	0.211211572	-0.03307628147	
717.5	0.5887810315	0.03882821348	
718.125	0.5495743469	-0.1496232525	
718.75	0.4601351558	0.160376908	
719.375	0.8462707275	-0.5105012344	
720.0	0.2172939037	-0.8899954996	
720.625	0.3918378074	-0.5661421771	
721.25	-0.09602091024	-1.148531063	
721.875	-0.3646839303	-0.4788825352	
722.5	-0.3032371237	-0.7569663999	
723.125	-1.056291894	-0.1610516346	
723.75	-0.1662814624	0.4439326661	
724.375	-0.1560324752	0.2862753185	
725.0	0.4157963085	0.5210050322	
725.625	0.1140134822	0.1688934852	
726.25	-0.1576706021	0.6851571438	
726.875	0.1451475231	1.009270085	
727.5	0.1536758767	0.7620133717	
728.125	-0.5636291521	1.704203873	
728.75	0.4315643546	2.971690887	
729.375	0.3438379305	1.871815214	
730.0	-1.515358665	3.207862275	
730.625	1.232957256	4.870733998	
731.25	-0.4131283574	1.524002986	
731.875	-3.234525808	1.316281219	
732.5	-3.195849404	1.836395071	
733.125	-1.163505355	-0.006820480644	
733.75	-1.154575495	1.205917154	
734.375	0.9391135948	0.1541987063	
735.0	-0.004462438103	-0.2552997242	
735.625	-0.7077197008	-0.1815465482	
736.25	0.3965296215	0.5166211347	
736.875	-0.08683977688	0.4748842251	
737.5	1.328251156	0.3125739412	
738.125	0.8653288918	-0.9519152723	
738.75	0.7929767277	-0.141045591	
739.375	3.88153238	-1.193325594	
740.0	0.9601069695	-3.361562063	
740.625	0.3444026271	1.807086998	
741.25	2.654964884	5.136545904	
741.875	1.712198336	1.222167669	
742.5	0.2795703184	-3.448115818	
743.125	-1.044493225	-2.337046002	
743.75	-0.3200572673	-0.2630336459	
744.375	-0.1306344003	-0.4917816609	
745.0	0.1745284843	0.2184157775	
745.625	0.009657393022	0.06703728782	
746.25	-0.03032526511	-0.2006788588	
746.875	-0.1283966472	0.09885623083	
747.5	-0.1697694695	0.217362847	
748.125	0.169563715	0.55538411	
748.75	0.2673866986	0.2393215371	
749.375	-0.004406141583	0.3574910987	
750.0	-0.3448440042	0.409651049	
