!Created with skrf (http://scikit-rf.org).
# GHz S MA R 50.0 
!freq magS11 angS11
500.0 0.0140377132981 151.867615669
500.625 0.00952755866087 92.4102454431
501.25 0.0110526916106 -58.9448652056
501.875 0.0311550915835 -178.279901219
502.5 0.0152025212056 145.338249366
503.125 0.0135450020111 35.636170239
503.75 0.018397287646 126.362725856
504.375 0.00586517067254 132.218097055
505.0 0.00867603032499 -80.9224892182
505.625 0.0417085498311 -82.1047357459
506.25 0.0394078040898 -111.004532158
506.875 0.0499591909609 -107.206097904
507.5 0.0412944943497 -119.276860221
508.125 0.0642749241486 -80.9715713637
508.75 0.0576868568933 -139.941689844
509.375 0.0457832053083 -155.056048347
510.0 0.0356958776059 -114.660380737
510.625 0.0546324428209 -155.982719772
511.25 0.0438771496351 171.357474605
511.875 0.0482646549029 138.914250864
512.5 0.0383860549163 95.5794470639
513.125 0.0649256892733 56.8215005672
513.75 0.0522784391736 23.9201148575
514.375 0.051646631085 30.834434599
515.0 0.0600969506835 10.1708543708
515.625 0.082771957873 46.2329090651
516.25 0.088138430774 29.5208155041
516.875 0.116700822681 71.3323082343
517.5 0.120725268529 22.4089408367
518.125 0.207589098602 74.30500613
518.75 0.0786978005239 9.47326695201
519.375 0.0657767495749 17.9647922545
520.0 0.112968982083 -0.958677953931
520.625 0.0995302732192 -5.89675691263
521.25 0.082883689258 -23.8903501168
521.875 0.0704544752546 2.04816184326
522.5 0.0949634383746 -31.7723628876
523.125 0.186236039719 -33.1125411271
523.75 0.203311719783 -60.6762981801
524.375 0.195118303837 -53.7378567123
525.0 0.0740129310312 -39.7751014259
525.625 0.0327888240677 -64.5670960409
526.25 0.0375844379225 -16.3795034777
526.875 0.0459496732771 -27.6443555105
527.5 0.0570389042644 -24.285126179
528.125 0.030976673788 -64.6400946498
528.75 0.0641315004518 -71.6480455486
529.375 0.0822067446866 -113.806256006
530.0 0.0582001991387 -126.070259961
530.625 0.0273561827156 -132.574208438
531.25 0.107662046993 -130.882198235
531.875 0.154219019118 -148.057999212
532.5 0.157768007594 -169.956921406
533.125 0.0835376585529 172.855377248
533.75 0.10944494376 169.30501714
534.375 0.103944102154 177.664112667
535.0 0.0937353215318 164.375419241
535.625 0.0601817920318 175.562940289
536.25 0.0504259292341 165.527983515
536.875 0.0796520782496 -159.09839043
537.5 0.106877559331 -145.282054009
538.125 0.0924490702777 -173.101949285
538.75 0.0931333001859 178.545690843
539.375 0.0679484886396 -163.687473414
540.0 0.105098997219 -158.029092933
540.625 0.106159222006 -152.961284874
541.25 0.117358658542 -139.740283655
541.875 0.0998215884862 -142.582589885
542.5 0.117309248352 -144.302324925
543.125 0.117247153134 -165.377595701
543.75 0.118002643215 159.459258736
544.375 0.0911591254326 133.506667154
545.0 0.093691909732 91.645020527
545.625 0.0945200184486 84.0155010236
546.25 0.0911200605603 67.8663335723
546.875 0.0932472914351 55.1945831044
547.5 0.12328914403 57.1859569743
548.125 0.0941690271197 77.9490839155
548.75 0.0793931698897 91.6134886114
549.375 0.0893102946982 85.2818400393
550.0 0.0951812796258 125.927298417
550.625 0.0396580600522 157.64288986
551.25 0.0401059747907 -140.006765268
551.875 0.0609243564995 -157.612644155
552.5 0.121120964507 -167.764763324
553.125 0.0809341207413 -161.067238811
553.75 0.0872082880598 -165.988147085
554.375 0.106444642203 166.966884996
555.0 0.135018402669 162.703403903
555.625 0.0989782568466 158.356881361
556.25 0.0971844247308 163.096231405
556.875 0.120901565212 166.551853427
557.5 0.111977074872 167.079961292
558.125 0.104273929214 163.576375571
558.75 0.0817353731346 178.273643152
559.375 0.0597932466794 -176.010675973
560.0 0.0510196182074 -151.931928585
560.625 0.0565345850016 -138.466886694
561.25 0.088450227839 -150.214352245
561.875 0.106376314931 -163.953476595
562.5 0.0941138393784 173.939087453
563.125 0.101628249669 150.72459227
563.75 0.127596626786 133.782764728
564.375 0.0979197782787 121.587525287
565.0 0.0931018925058 118.144561012
565.625 0.0788165993549 120.464061273
566.25 0.0921133619464 154.624969337
566.875 0.0775248207618 178.673827441
567.5 0.0745911647967 -177.712592345
568.125 0.0868339261496 -173.399235098
568.75 0.0555322894855 -137.157662701
569.375 0.0470406901987 -102.352039976
570.0 0.0611257521259 -107.504126499
570.625 0.0950865526908 -120.498236377
571.25 0.0900067226021 -118.778442654
571.875 0.0871600009208 -124.035707721
572.5 0.113541831567 -156.515447477
573.125 0.146486102996 -176.569555424
573.75 0.0919169131925 167.684932798
574.375 0.0836793891194 149.511263999
575.0 0.107046242036 154.690600207
575.625 0.113210479282 152.870619981
576.25 0.0881268670979 146.395338719
576.875 0.0742971938456 128.746559487
577.5 0.0873550382124 133.889881446
578.125 0.0567684957908 160.983009409
578.75 0.0477581971754 166.171821107
579.375 0.056537229896 161.40626977
580.0 0.0687707010933 -177.005732414
580.625 0.0786784004561 -155.540789248
581.25 0.0897969809025 -160.68238605
581.875 0.114515871112 -171.498288607
582.5 0.11354284181 -173.133803619
583.125 0.0978713631263 -174.354268459
583.75 0.0788434038368 -156.087833177
584.375 0.101542749424 -154.141405333
585.0 0.0929936705481 -144.713480403
585.625 0.0760389914541 -153.244702231
586.25 0.0670316831199 -125.196324938
586.875 0.0800293882394 -128.209689762
587.5 0.0718037101107 -141.214093515
588.125 0.060971389605 177.429840141
588.75 0.0687067336002 -145.217398653
589.375 0.0859545337304 -147.777330714
590.0 0.0900761467895 -166.198127295
590.625 0.102824598688 160.198682672
591.25 0.118947384965 161.644148781
591.875 0.0967001403707 158.029842919
592.5 0.0666301901105 140.430728081
593.125 0.0610923103453 143.933405046
593.75 0.068812477738 -168.976901584
594.375 0.0578034205072 -145.541933141
595.0 0.0427673944633 -109.835107886
595.625 0.0557223888254 -107.557526011
596.25 0.0726974156557 -78.517916477
596.875 0.0676012734189 -71.1583311553
597.5 0.0559059352609 -68.6190667802
598.125 0.0576789171183 -70.6361821091
598.75 0.0865554906746 -57.6948170901
599.375 0.095102096238 -58.4664729162
600.0 0.105590297813 -62.541367775
600.625 0.0981331349774 -74.7526790107
601.25 0.0839988916986 -61.7935345701
601.875 0.0684049604085 -82.0489866376
602.5 0.0574347496373 -90.1088869762
603.125 0.0448007395467 -69.4128874343
603.75 0.027763187133 -48.2430135157
604.375 0.0454618250732 -16.1290775007
605.0 0.0664634842906 -14.7757574869
605.625 0.0539418239911 -0.267895480886
606.25 0.0199654205606 -20.3906978986
606.875 0.0542588047777 53.7073772472
607.5 0.0703835969274 45.8865021262
608.125 0.0714675289144 27.1255608316
608.75 0.0594443306099 16.691910485
609.375 0.068981403813 31.6298696899
610.0 0.0749058420625 43.2458267581
610.625 0.066622473524 40.8110431265
611.25 0.0442539439036 16.3997419905
611.875 0.0450843522632 71.285622593
612.5 0.0305178505799 103.062652252
613.125 0.0264607662212 138.014320035
613.75 0.0277413094242 127.605541961
614.375 0.0410871556632 122.09833622
615.0 0.0344413133301 114.574359857
615.625 0.021251427934 135.001756636
616.25 0.0476716474228 134.036058534
616.875 0.0328423632771 124.988981114
617.5 0.0403988409361 122.113795079
618.125 0.0248064644741 140.944372031
618.75 0.0317532479362 146.336552395
619.375 0.0151477512325 143.884056585
620.0 0.0104302074217 137.645970222
620.625 0.0251546988055 -121.592665783
621.25 0.0544487502083 -79.0387777096
621.875 0.06786586606 -116.583305863
622.5 0.0740877332362 -169.647323163
623.125 0.0662135567385 175.599144106
623.75 0.0600921457745 163.241581732
624.375 0.0385389592155 -171.882805327
625.0 0.0478609742163 -144.953877442
625.625 0.0395986965313 -163.476823865
626.25 0.0250751191786 -178.920014134
626.875 0.0217515994512 -4.50979261593
627.5 0.0181334412873 -87.7900756752
628.125 0.034981208449 -42.792241847
628.75 0.0348900091781 -35.9261777829
629.375 0.0651117868032 1.4706764122
630.0 0.0627482024089 -18.1245820047
630.625 0.0683731541312 -5.93479614715
631.25 0.065741902049 2.11733414474
631.875 0.0744014558032 9.74576738073
632.5 0.0685407358365 -24.6554528129
633.125 0.0481857976953 -8.55783858025
633.75 0.048366770775 6.86869460743
634.375 0.0520553691482 30.153361703
635.0 0.039148912313 29.3683544028
635.625 0.0350726147607 30.6717600745
636.25 0.0483298911819 43.2442053597
636.875 0.0619920663433 34.009255064
637.5 0.0571309254628 55.3332438295
638.125 0.0238998274408 33.2494227398
638.75 0.0612484427005 71.3115666779
639.375 0.0929907477768 87.6927041936
640.0 0.0809317738945 110.809517664
640.625 0.050703791109 83.5549610042
641.25 0.0646872870437 123.137688539
641.875 0.0568942921059 144.183363065
642.5 0.0665211450562 164.038257228
643.125 0.048472618283 149.720144504
643.75 0.0583047909824 166.614217687
644.375 0.0628246160285 -178.372924474
645.0 0.0913560454782 -178.832725287
645.625 0.0766065650428 155.776314198
646.25 0.0861875727575 162.312642742
646.875 0.0766174137257 -178.425941221
647.5 0.0739326056424 -174.321478191
648.125 0.0776369828036 -178.365678902
648.75 0.075091856499 -163.798469158
649.375 0.0534091967181 -144.274753377
650.0 0.0472014034071 -115.878405225
650.625 0.0784161110447 -86.9286401193
651.25 0.0638746230373 -64.0289353228
651.875 0.0642568989832 -38.9954608671
652.5 0.0886392429993 -25.2730949318
653.125 0.135330106651 -1.27049639982
653.75 0.109557863987 6.15596067697
654.375 0.108756753442 3.37374725628
655.0 0.128848961081 14.4659908397
655.625 0.095828759987 27.234226655
656.25 0.0583155929584 19.7738954818
656.875 0.0684386641797 10.1328542226
657.5 0.077545996894 23.4277005479
658.125 0.0835220059176 48.585661811
658.75 0.0389801581502 70.496792225
659.375 0.0742292592005 43.593041384
660.0 0.111137794426 24.0176976128
660.625 0.12374686802 16.8542844274
661.25 0.0924790157208 5.24010666463
661.875 0.120581054824 -12.9791651904
662.5 0.115935791431 -21.3685205576
663.125 0.115577159825 -15.4109563195
663.75 0.0766109899197 0.984278320322
664.375 0.0848075140845 53.0248955856
665.0 0.0752670639541 91.4306049463
665.625 0.0612715101061 112.794326354
666.25 0.0810240124832 134.465918976
666.875 0.110479089105 168.897951936
667.5 0.100062668596 -168.539845468
668.125 0.105977503681 -179.378401895
668.75 0.127306265123 167.181857999
669.375 0.12932239045 179.480716285
670.0 0.0868492812465 -168.622879984
670.625 0.0956791542621 -173.13126306
671.25 0.0946693937375 175.754603118
671.875 0.0933358237563 169.181773006
672.5 0.0679710396739 155.707539182
673.125 0.0912221727809 150.823411896
673.75 0.111521070569 159.48425201
674.375 0.120232059669 168.094315327
675.0 0.120289193004 -176.045488262
675.625 0.138083151049 -151.391974668
676.25 0.119858060992 -124.243146856
676.875 0.120123870444 -120.552456587
677.5 0.127697091411 -128.597284179
678.125 0.140311609147 -117.317881318
678.75 0.053681559996 -92.3759598678
679.375 0.0471034865944 -68.7112682867
680.0 0.0784878693409 -77.3668246605
680.625 0.133653084753 -80.903334
681.25 0.0984221346841 -69.9916216381
681.875 0.0995065575072 -90.4234772496
682.5 0.142732110496 -121.227425993
683.125 0.167666536645 -121.240651021
683.75 0.148056513703 -106.70875252
684.375 0.103026082919 -74.8609172301
685.0 0.128950940615 -36.9343368706
685.625 0.130660195544 -1.81553281453
686.25 0.120640234438 18.7589203868
686.875 0.0666175046737 53.146516619
687.5 0.0712505857461 92.8750532589
688.125 0.0798486481848 110.852308888
688.75 0.106979697089 107.578537718
689.375 0.12524587652 130.619437027
690.0 0.132732868904 135.690516216
690.625 0.114456574561 124.921255632
691.25 0.146936564026 94.3758546778
691.875 0.19088726188 68.0853990061
692.5 0.141850689176 40.2048803266
693.125 0.0908724332851 -14.0129997781
693.75 0.0938866463613 -37.4986080168
694.375 0.146147319195 -35.1002723813
695.0 0.112475836149 23.2101589496
695.625 0.0998519823001 57.8930885702
696.25 0.109607100002 112.584470937
696.875 0.139217927732 171.851598345
697.5 0.149094565329 -148.872554919
698.125 0.137060325013 -131.440169439
698.75 0.133371838882 -133.357374462
699.375 0.11665253625 -129.500402763
700.0 0.0853346661925 -101.419058495
700.625 0.105969275186 -83.3418614107
701.25 0.0938751971992 -63.7698086075
701.875 0.0854945908256 -66.4220203389
702.5 0.101228909142 -73.528418838
703.125 0.169731173253 -121.955973837
703.75 0.188605220406 -154.504973755
704.375 0.129275793187 171.24353413
705.0 0.11508618982 153.71381354
705.625 0.133980766743 -157.06341948
706.25 0.137136188261 -104.844681145
706.875 0.0841556186577 -60.3387131334
707.5 0.080418155893 -45.898019138
708.125 0.0907835990276 34.3595377553
708.75 0.114716558815 68.8989290327
709.375 0.10247415792 108.579549136
710.0 0.102513184454 126.445848457
710.625 0.108042092755 148.882328376
711.25 0.121954095975 175.146077882
711.875 0.146610711303 167.153764354
712.5 0.156602028543 137.014437299
713.125 0.113613896564 111.67758367
713.75 0.0991030864342 50.8843838501
714.375 0.115574312592 16.6773709846
715.0 0.116129672374 25.8989403199
715.625 0.0853886150439 41.4133541312
716.25 0.0906760297686 89.2526058038
716.875 0.124443545791 111.075258448
717.5 0.139989942964 152.694423468
718.125 0.118874676391 162.121590781
718.75 0.104131389026 177.706287021
719.375 0.118295238881 -169.697379279
720.0 0.134853936312 -125.730244706
720.625 0.115666147905 -74.7799608187
721.25 0.0942783523544 -17.7809121839
721.875 0.0843357321447 42.6780149603
722.5 0.0745929418757 84.6972884413
723.125 0.0685694361243 54.0276882722
723.75 0.128435941801 52.471148756
724.375 0.108743862429 -1.55797008752
725.0 0.0867915792771 -46.2029011036
725.625 0.103845903623 -66.1463304889
726.25 0.104806282615 -79.5074560171
726.875 0.106532466873 -39.0612105157
727.5 0.0826432925056 -25.7048364913
728.125 0.0930811180556 8.61905094987
728.75 0.0684674809669 4.92371878399
729.375 0.098104043638 33.672221876
730.0 0.0680385278609 2.22979974852
730.625 0.0657972528784 20.2961585986
731.25 0.0722504139853 64.2588597802
731.875 0.0557254105987 101.976852744
732.5 0.0899478959599 158.198083878
733.125 0.099613993103 -178.892010454
733.75 0.0764159939827 172.723864636
734.375 0.0608606132113 -172.573696202
735.0 0.0637896399013 155.277140727
735.625 0.0469599142907 155.549599099
736.25 0.0408522118879 144.295488892
736.875 0.0437876581406 -178.55325162
737.5 0.0769164758382 -179.487756748
738.125 0.0933937333266 -178.962013862
738.75 0.0777521041373 -176.001304549
739.375 0.0289378889776 167.424686043
740.0 0.0832224426698 -139.695653198
740.625 0.0692433430567 -150.947819177
741.25 0.0628552132714 -151.73393992
741.875 0.0153664028358 -83.313888042
742.5 0.0266085636082 -2.60404060111
743.125 0.0420028257828 54.4704530964
743.75 0.0413578210428 99.8973317821
744.375 0.0417370468928 175.983401097
745.0 0.0893513705517 105.80856961
745.625 0.0792090821756 101.854044611
746.25 0.0859311991771 84.395779848
746.875 0.0566764444248 45.005220445
747.5 0.0454594095647 19.3234091267
748.125 0.0240026839372 1.20971886199
748.75 0.0317927726559 -22.0441946649
749.375 0.0405206175213 -46.2950963366
750.0 0.0425123099438 -44.3081591268
