!Created with skrf (http://scikit-rf.org).
# GHz S RI R (50+0j) 
!freq	ReS11	ImS11	
500.0	1.80963741	-3.471100846	
500.625	-0.9149601804	-4.945111867	
501.25	-0.8505571061	-2.538013091	
501.875	-1.336012734	-0.8116428688	
502.5	-0.1169172691	-0.3778120605	
503.125	-0.3134777104	0.07753337907	
503.75	0.2661298269	0.08411286343	
504.375	0.06619031463	0.1125800731	
505.0	0.03857686443	-0.2288724098	
505.625	0.03640453248	0.06794216886	
506.25	-0.32972103	-0.5005342288	
506.875	0.4860886775	0.1827221385	
507.5	-0.741481779	-2.245009271	
508.125	-1.029437779	-0.564685175	
508.75	3.057376041	-2.200437155	
509.375	-2.035465374	-5.182194939	
510.0	-1.144683512	0.115022537	
510.625	-0.3034707341	-0.5694458631	
511.25	-0.3729532399	-0.1188624346	
511.875	-0.4577817877	-0.07607691361	
512.5	-0.08605010448	0.1248905433	
513.125	-0.164684167	-0.3156533614	
513.75	-0.09071254917	-0.09311327556	
514.375	-0.3767750855	-0.2696900885	
515.0	-0.1168664857	1.039927712	
515.625	-0.3154375754	-4.372216943	
516.25	-2.496072885	0.5606513497	
516.875	0.9237511007	-1.12447104	
517.5	-0.8390639904	-1.017337498	
518.125	0.3363138389	0.06629656824	
518.75	-0.8153325308	-0.8692790303	
519.375	0.02143118921	0.08592398463	
520.0	0.298000831	0.3604040742	
520.625	0.5497810871	-0.4259654024	
521.25	-0.1860281057	-0.4828687847	
521.875	-0.3522303855	-0.1684420054	
522.5	-0.07492636529	0.08433238431	
523.125	-0.3858906944	0.09054393426	
523.75	-0.1235453602	0.02509578677	
524.375	-0.4961131375	0.01577161007	
525.0	0.1156937768	0.365692879	
525.625	-0.08599005843	0.1227980731	
526.25	0.1744629695	-0.1199803008	
526.875	-0.3501139719	0.2868151067	
527.5	0.2462169768	0.4979247264	
528.125	-0.2285744027	0.6560884024	
528.75	0.2994027385	1.041265806	
529.375	-0.04616368394	-0.004520698681	
530.0	0.3647771877	0.7830805435	
530.625	0.3275154461	0.428990968	
531.25	1.257615142	0.691542102	
531.875	0.169176296	-0.513841134	
532.5	0.07914760265	-0.5908389344	
533.125	-0.1989844617	0.5531666441	
533.75	0.4944903586	-1.11528146	
534.375	-0.5038190052	-0.2107391199	
535.0	-0.4875969365	-0.5789534247	
535.625	-0.3861899756	0.674403314	
536.25	-0.07514741055	0.1036267076	
536.875	0.3983260217	0.1019077899	
537.5	0.00855526361	-0.1572571927	
538.125	0.4074934305	0.03540125633	
538.75	0.2909586328	-0.5231734181	
539.375	-0.1258496689	-0.2509053599	
540.0	-0.3465026149	-0.462307115	
540.625	-0.4733719469	-0.002744672114	
541.25	-0.1366681747	0.02146000626	
541.875	-0.159469917	-0.09163505864	
542.5	-0.09770332205	-0.04776011144	
543.125	-0.1746883978	-0.169341117	
543.75	-0.3135919976	0.04341289688	
544.375	0.06936970203	0.05164759683	
545.0	-0.1615821276	0.2478869414	
545.625	0.3147176055	-0.0805757539	
546.25	-0.0153559235	0.295548057	
546.875	0.4841520931	-0.2641847392	
547.5	0.0443417111	-0.07499660584	
548.125	0.05173811248	-0.590296596	
548.75	-0.4967516815	-0.1351618594	
549.375	-0.04172708017	-0.1516650682	
550.0	-0.3328728825	-0.0509232547	
550.625	-0.01003185802	0.1173101216	
551.25	-0.261687371	-0.05102620236	
551.875	-0.1505908869	0.2772188644	
552.5	-0.1042560898	0.1062291385	
553.125	-0.03842814122	0.2175011004	
553.75	0.0867594686	0.09491176116	
554.375	0.2562593101	0.01927014197	
555.0	0.2324584275	-0.1849335464	
555.625	0.2059374344	-0.2489724957	
556.25	0.1740824729	-0.3432863218	
556.875	-0.08632049526	-0.406630069	
557.5	-0.2477409728	-0.2390178601	
558.125	-0.2619519362	-0.09150089471	
558.75	-0.2797266533	-0.02608670499	
559.375	-0.2455839027	0.08349300746	
560.0	-0.2453697204	0.1228764484	
560.625	-0.1249459715	0.3430638313	
561.25	0.0661613036	0.1358031034	
561.875	0.003075465267	0.1950087022	
562.5	0.1211258411	0.06346930667	
563.125	0.02653342497	0.1954416615	
563.75	0.4633102405	0.02713654779	
564.375	0.1640806404	-0.2695372979	
565.0	0.3068996997	-0.2676957833	
565.625	-0.2089602632	-0.4201936127	
566.25	-0.1125018854	-0.1949757048	
566.875	-0.4271634187	-0.2919783371	
567.5	-0.3692652783	-0.0918416068	
568.125	-0.1417737379	-0.4216347345	
568.75	-0.7134373451	-0.3054242727	
569.375	-0.4462618737	0.4557870147	
570.0	-0.2864445224	0.1282662164	
570.625	-0.3667395508	0.761602556	
571.25	0.2460157727	0.01289660068	
571.875	-0.003586757388	0.5140041761	
572.5	0.2398288895	-0.4096888098	
573.125	0.3709028672	0.157100536	
573.75	0.2023367114	-0.6433245216	
574.375	-0.246963612	-0.01831769058	
575.0	0.3772943298	-0.01393427114	
575.625	-0.1765286053	-0.3730659267	
576.25	0.2136986747	0.08374198156	
576.875	0.01255439258	-0.631294339	
577.5	-0.2616389627	-0.257469879	
578.125	0.1944150675	-0.3153297436	
578.75	-0.3419274075	-0.5343184154	
579.375	-0.2746329617	0.08196605418	
580.0	0.09820770288	-0.1624454873	
580.625	-0.4468577682	-0.04694433199	
581.25	0.07464274614	0.1140189636	
581.875	-0.3859959445	0.3617312131	
582.5	0.4945106903	0.5407725366	
583.125	-0.01281883176	-0.1909044069	
583.75	0.2326119474	0.499475897	
584.375	-0.12043214	-0.3420367307	
585.0	0.3701937663	0.5924146954	
585.625	0.4858000768	-0.3619711116	
586.25	0.04041699318	-0.03180402775	
586.875	0.4628384769	-0.2548428429	
587.5	-0.3069625105	-0.4680925732	
588.125	0.1389127212	-0.07156966605	
588.75	0.1784153391	-0.6135180929	
589.375	-0.100247473	-0.1878062541	
590.0	0.1965176319	-0.6304440586	
590.625	-0.5800244087	0.1106235734	
591.25	-0.1656247723	0.05113087006	
591.875	-0.2579860308	0.2702027779	
592.5	0.04962949442	0.319141831	
593.125	-0.06548930759	-0.209562064	
593.75	0.1653300109	0.6915519529	
594.375	0.3847902819	-0.1444343611	
595.0	0.07774260793	0.4925419124	
595.625	0.8661958576	0.1591689952	
596.25	-0.08851786239	0.08416822686	
596.875	0.6746156886	0.3356630258	
597.5	0.4196619198	-0.1974868501	
598.125	-0.04956624618	0.4865243836	
598.75	0.6340241484	0.3288096898	
599.375	0.3916894286	-0.2342175736	
600.0	0.4186831737	-0.1137271356	
600.625	0.4576734942	-0.5721452557	
601.25	0.010298601	-0.3083261283	
601.875	-0.01753111101	-0.4688626403	
602.5	-0.393843913	0.0891179768	
603.125	-0.1724578962	-0.04982442679	
603.75	-0.3054826843	0.2485653003	
604.375	-0.219049622	0.1951946447	
605.0	-0.001694232466	0.1793566457	
605.625	-0.4349872681	-0.04033754656	
606.25	-0.1022322285	0.4674921534	
606.875	-0.2510402607	-0.2133349756	
607.5	-0.7322513111	0.8639555705	
608.125	0.1576519101	0.1905925393	
608.75	0.1695125849	0.7901211674	
609.375	0.7535512434	-0.4615887768	
610.0	0.1833012902	0.07987776721	
610.625	0.4095453556	-0.6655128928	
611.25	-0.1801129128	-0.1705860753	
611.875	-0.02502039132	-0.4351563655	
612.5	-0.4031304028	0.09157430615	
613.125	-0.4418517492	-0.141120971	
613.75	-0.2225207618	0.4694563031	
614.375	-0.07752267228	-0.08029116891	
615.0	0.2915311575	0.3231367194	
615.625	-0.1178359346	-0.04148396696	
616.25	-0.2601601572	0.5832857929	
616.875	0.223227894	0.380169355	
617.5	-0.4960658363	0.354642369	
618.125	0.1014011233	0.7340880692	
618.75	0.05017149198	0.1921815394	
619.375	0.2066848505	0.6475021733	
620.0	0.3886071485	-0.08311104187	
620.625	0.3914139172	-0.2131706397	
621.25	-0.3086751103	-0.4825122978	
621.875	-0.3284656699	-0.2965629188	
622.5	-0.6431143297	0.2720805986	
623.125	-0.03931583448	0.2268393804	
623.75	0.3758151963	0.3692836431	
624.375	-0.2139946219	-0.307039029	
625.0	0.4423976002	0.04499907027	
625.625	-0.2436056791	-0.1608916643	
626.25	0.253535984	-0.4318993242	
626.875	-0.6772871244	-0.1700723351	
627.5	-0.01988216495	0.08983422439	
628.125	-0.3421489604	-0.5826955258	
628.75	-0.3790156481	-0.09341419112	
629.375	-0.04419884147	-0.2625904733	
630.0	-0.4466205739	-0.429022935	
630.625	-0.5127388631	0.3150915565	
631.25	-0.3740654562	0.2321612006	
631.875	-0.06052403339	0.7477330296	
632.5	0.3231612486	0.2946005407	
633.125	0.4121849262	0.3264865221	
633.75	0.4767989943	-0.31253227	
634.375	0.07812519071	-0.2206648571	
635.0	0.1280331106	-0.2760273039	
635.625	-0.4768280955	-0.3899534433	
636.25	-0.2284573912	0.4391676004	
636.875	-0.3314538858	-0.2406436659	
637.5	-0.07077361624	0.6875283493	
638.125	-0.04214218869	-0.2569411607	
638.75	-0.4110948987	0.7816528337	
639.375	0.4260186336	0.2181652458	
640.0	-0.1741277257	0.8163254313	
640.625	1.036366869	0.367124608	
641.25	0.23779473	-0.2023267245	
641.875	0.4999787791	-0.01766921652	
642.5	0.106746984	-0.9839266968	
643.125	-0.3544721107	0.1224409177	
643.75	-0.1193442833	-0.4750253683	
644.375	-0.5973060428	0.2201104115	
645.0	-0.1117801771	0.03274285832	
645.625	-0.0151321198	0.8717438222	
646.25	0.4818760979	-0.08467386751	
646.875	0.011603341	0.06746781626	
647.5	0.4722579868	0.252486898	
648.125	-0.06977076671	-0.3085178663	
648.75	0.8319509339	0.482993973	
649.375	0.6951794508	-1.17385167	
650.0	-0.2281062835	-0.3327197249	
650.625	1.15166243	-0.4164272915	
651.25	0.07284867012	-1.324439536	
651.875	0.2210367503	0.2715897912	
652.5	1.3847221	-0.2292565068	
653.125	0.2104187294	-0.7195400797	
653.75	0.4405658039	0.06600072791	
654.375	-0.0137153412	-1.227044029	
655.0	-0.8070002626	0.1548552999	
655.625	-0.2713151744	-0.09869678897	
656.25	-0.1111693548	0.8982074884	
656.875	0.1978767016	-0.3774767469	
657.5	0.02874962581	0.6526312588	
658.125	0.5384566038	0.1565794982	
658.75	0.3549630992	0.1397812953	
659.375	1.013643583	0.1036848398	
660.0	0.5432903106	-1.234540614	
660.625	-0.06754265632	-0.3952112598	
661.25	0.8406443785	-0.4840059865	
661.875	0.5101227206	-1.186923666	
662.5	0.1880762804	0.09222271119	
663.125	1.132797958	-0.723290368	
663.75	-0.1054867891	-0.622654864	
664.375	0.4459122941	-0.5303049279	
665.0	-1.046218996	-0.7984456129	
665.625	-0.4762488119	0.5241944388	
666.25	-0.3269471134	0.2900926785	
666.875	0.2406795012	0.8147903511	
667.5	0.4670480723	-0.1261975425	
668.125	0.5797401241	0.4144121013	
668.75	0.3478031071	-0.6110035294	
669.375	0.1638547548	-0.2200715775	
670.0	0.2895139123	-0.7811316263	
670.625	-0.3602050286	-0.4198248708	
671.25	0.2596043092	-0.117411196	
671.875	0.5657745316	-0.4416113099	
672.5	0.4306956193	-0.6685249208	
673.125	0.09483671643	-0.2305763545	
673.75	0.9383210521	-0.4033690289	
674.375	-0.4197464665	-0.6898577866	
675.0	0.2836065167	-0.4356625558	
675.625	-0.8366332433	-0.6308154495	
676.25	-0.1154143999	0.5190652352	
676.875	-0.473868867	-0.6967727257	
677.5	-0.5465364215	0.6234418037	
678.125	-0.09373056026	-0.01407890672	
678.75	-0.3161210012	0.6200111108	
679.375	0.9282835764	0.1562296312	
680.0	-0.07656305506	-0.0842384223	
680.625	0.5132381099	-0.1144558933	
681.25	-0.009019630203	-0.3671704754	
681.875	0.2393910283	0.6546646462	
682.5	0.8681902237	-0.07439838533	
683.125	0.2765796342	0.1329191868	
683.75	0.4963817877	0.2552272566	
684.375	0.970124928	0.3671156976	
685.0	0.6776312731	-0.6288551529	
685.625	0.1695584301	0.8004927873	
686.25	1.470958184	-0.4738636675	
686.875	-0.1420451228	-0.2911819264	
687.5	1.620272801	-0.4181890478	
688.125	-1.181425864	-1.122707147	
688.75	-0.01583442554	-0.7584254936	
689.375	-1.415350351	1.164656086	
690.0	0.7507710002	0.3781953688	
690.625	-0.04414456868	0.8848385024	
691.25	1.13753323	0.6837874349	
691.875	0.775832479	0.5539465036	
692.5	1.356813403	0.7081719421	
693.125	1.732817858	-0.1825362279	
693.75	1.26908948	-0.3411731132	
694.375	1.053375018	-1.025585695	
695.0	0.9963271759	-0.595910973	
695.625	1.291931857	-0.3914337055	
696.25	0.8242887577	0.3709393641	
696.875	1.277529633	1.540428008	
697.5	1.218408159	0.2102924163	
698.125	0.834064524	1.244960929	
698.75	1.487321727	-1.651435805	
699.375	-0.5720882298	-0.1288650325	
700.0	-1.573952187	0.7968067858	
700.625	0.8725927832	0.4369792251	
701.25	-0.1142529123	0.7464925782	
701.875	1.208777601	0.4887084769	
702.5	0.2527588397	0.5460119405	
703.125	1.278425472	0.5292037085	
703.75	0.6774068859	-0.5121226096	
704.375	0.9196560925	-0.01922263995	
705.0	0.5097663865	-0.8345530129	
705.625	0.1726649984	0.2920800258	
706.25	1.277366821	0.6762351002	
706.875	0.1321958112	0.08775608696	
707.5	0.4945212044	1.379183706	
708.125	1.481615019	-0.3932525019	
708.75	0.656136111	-0.1629341588	
709.375	-0.776999342	-1.212686863	
710.0	-0.2353855265	0.7268800464	
710.625	-0.05679395935	0.3894346791	
711.25	0.3139355799	0.2249082946	
711.875	0.4650855243	0.3266491948	
712.5	0.8414146518	0.003813348984	
713.125	0.5636572243	-0.3639972856	
713.75	0.3459386341	-0.6958696028	
714.375	-0.01077488004	-0.4112839074	
715.0	0.1197319305	-0.7292162514	
715.625	-0.462565647	-0.3420447371	
716.25	0.7153885486	-0.03321268755	
716.875	1.570522708	-1.138935629	
717.5	-0.23597552	-0.5142387644	
718.125	2.475331874	1.418472147	
718.75	2.256071869	-1.838299865	
719.375	0.6822231101	0.9134443829	
720.0	2.538870105	-4.555196165	
720.625	-0.5263852104	-0.6387018147	
721.25	0.8765529454	-2.781244017	
721.875	-0.825032799	-3.731855427	
722.5	-2.047791427	-1.15912337	
723.125	-1.342730186	-0.9644393403	
723.75	-1.287301581	1.448522125	
724.375	0.2802778064	0.8420464066	
725.0	0.1254810203	0.948625094	
725.625	0.8642823363	1.39728271	
726.25	0.2676403556	1.074075386	
726.875	-0.8887652038	2.324230814	
727.5	-0.3112089002	4.895546342	
728.125	2.863752393	3.291462634	
728.75	-6.792468413	3.827915802	
729.375	2.490182408	18.87914906	
730.0	5.051834166	3.130902846	
730.625	-11.65427722	17.41826549	
731.25	12.58753409	15.13910139	
731.875	-9.387283486	-3.888618648	
732.5	-13.87797828	5.205831213	
733.125	-3.989968227	4.772157371	
733.75	-2.948568643	0.5288409033	
734.375	3.042969823	2.630397241	
735.0	-1.0165638	-1.464401706	
735.625	-0.6517394504	-0.2371338153	
736.25	-0.7233172107	1.74926398	
736.875	1.952041948	0.5766030108	
737.5	2.099895215	2.126838574	
738.125	4.994680567	-2.243775752	
738.75	1.927996222	-4.196939993	
739.375	4.960623938	2.652979568	
740.0	18.47646059	-8.177316091	
740.625	-1.918457374	-14.96288302	
741.25	-27.35955021	31.52515409	
741.875	-22.7137824	35.90752349	
742.5	4.126133092	5.560134045	
743.125	4.49027615	-9.842774669	
743.75	-2.36570218	-2.637593008	
744.375	0.1373486054	-0.8401993742	
745.0	0.3896910878	1.205872905	
745.625	-0.244861964	0.2382255214	
746.25	-0.09976841532	-0.5449406394	
746.875	-0.607667008	-0.1612505105	
747.5	0.02763328864	0.4466555382	
748.125	0.04304606623	1.703858195	
748.75	0.9143917089	1.455663229	
749.375	0.5595367039	0.8974023822	
750.0	1.36974256	2.332978098	
