!Created with skrf (http://scikit-rf.org).
# GHz S RI R (50+0j) 
!freq	ReS11	ImS11	
500.0	-0.3582280401	-1.58547083	
500.625	1.466064316	-3.374694938	
501.25	-3.879053868	-2.374667417	
501.875	-1.492297243	-0.5498228159	
502.5	-0.02614452643	-0.2359585887	
503.125	-0.4134976121	0.03770921007	
503.75	0.2384558163	0.005714671364	
504.375	0.1640426166	0.08064073922	
505.0	-0.1050507933	-0.1107711206	
505.625	0.2727948772	-0.2393432324	
506.25	-0.5720028797	0.1868613419	
506.875	-0.05930539156	-0.9952438559	
507.5	-1.46649013	-1.673419911	
508.125	-1.0106789	-0.8649535066	
508.75	2.928321974	-2.175138571	
509.375	-2.773950187	-5.639519946	
510.0	-0.5642078545	-0.2836138917	
510.625	-0.6224565923	-0.7253817953	
511.25	-0.2617659629	0.1302192244	
511.875	-0.5495096061	-0.3177573831	
512.5	-0.06086241033	0.1911938234	
513.125	-0.1202629992	-0.2630517169	
513.75	-0.04291303153	-0.2187389603	
514.375	-0.5755867879	-0.3016694097	
515.0	0.9473605375	1.493400303	
515.625	-1.269373323	-2.903656788	
516.25	-0.7077789347	0.6647468938	
516.875	0.20034868	-2.448256707	
517.5	-1.062080182	-0.2900674887	
518.125	0.2666420434	-0.3145050214	
518.75	-0.8059034366	-0.234915301	
519.375	-0.1190309878	0.01044983041	
520.0	0.4450304459	0.3305087402	
520.625	0.4671678176	-0.360047573	
521.25	-0.03135997581	-0.434422584	
521.875	-0.5182408181	-0.2103802115	
522.5	0.05789792904	0.07556213798	
523.125	-0.2920211981	0.1332763113	
523.75	-0.1623745822	-0.0414488828	
524.375	-0.6469998185	0.218938041	
525.0	0.1316964152	0.005834884011	
525.625	-0.04653839822	0.2979819413	
526.25	0.03468912417	-0.3003401654	
526.875	-0.161400391	0.3744853276	
527.5	0.1038183176	0.2330149235	
528.125	-0.2552628842	0.9392217143	
528.75	0.5027933859	0.8808335041	
529.375	-0.1479637576	0.1302364039	
530.0	0.3814595128	0.4644126234	
530.625	-0.06843252807	0.86801282	
531.25	1.570254008	-0.3077493068	
531.875	0.3553590018	-0.08937778804	
532.5	-0.2719776174	-0.708383671	
533.125	0.3473302749	0.4009551837	
533.75	0.03467990519	-0.9510765105	
534.375	-0.08756810538	-0.3818850005	
535.0	-1.056898376	-0.627947769	
535.625	-0.07995449656	0.4344158073	
536.25	-0.1263669555	0.1977188883	
536.875	0.3599374139	0.06684658047	
537.5	0.05774476062	-0.1340680742	
538.125	0.4411620472	-0.04079522064	
538.75	0.1705627697	-0.4418197293	
539.375	-0.01865005453	-0.3419576415	
540.0	-0.5867992225	-0.5274372	
540.625	-0.2413817079	0.1533204785	
541.25	-0.2296767871	-0.137757984	
541.875	-0.1836268303	-0.01665735429	
542.5	-0.0999741439	-0.04335507157	
543.125	-0.08382954532	-0.2283411874	
543.75	-0.4591029737	0.1271221274	
544.375	0.05541550096	-0.08127844165	
545.0	-0.04277538746	0.3752969313	
545.625	0.07624845457	-0.1138290411	
546.25	0.2947228261	0.3614619557	
546.875	0.1670513401	-0.3171228301	
547.5	0.3179874324	-0.05633131453	
548.125	-0.134246801	-0.6424280317	
548.75	-0.371503127	-0.07302459428	
549.375	-0.0897056753	-0.2093982479	
550.0	-0.3515718603	0.03399935659	
550.625	0.02448548859	-0.002605191404	
551.25	-0.3359942533	0.07723251499	
551.875	-0.03568230883	0.1671632811	
552.5	-0.2219948154	0.1700654834	
553.125	0.02495883906	0.1831145424	
553.75	0.08204817604	0.1154087099	
554.375	0.2552028533	0.01739832703	
555.0	0.2305070991	-0.1927061208	
555.625	0.2018400571	-0.2445142696	
556.25	0.1746611645	-0.3521695034	
556.875	-0.09729296736	-0.4035737812	
557.5	-0.2334831589	-0.2410979339	
558.125	-0.2723637525	-0.110000221	
558.75	-0.2784349434	0.0006058389081	
559.375	-0.2255953417	0.0513585783	
560.0	-0.2725847752	0.1488722362	
560.625	-0.1026582273	0.323334019	
561.25	0.04569030011	0.1560954236	
561.875	0.03014031544	0.1965346144	
562.5	0.06844359526	0.01288470222	
563.125	0.1368378238	0.2985243726	
563.75	0.3444207581	-0.1421611728	
564.375	0.2563816774	-0.05532536354	
565.0	0.2704216195	-0.496943192	
565.625	-0.1982067975	-0.2742440935	
566.25	-0.1273120982	-0.2570812836	
566.875	-0.4144061991	-0.3011240752	
567.5	-0.3982326169	-0.05926910816	
568.125	-0.1304844881	-0.4602495469	
568.75	-0.7772466181	-0.1974156684	
569.375	-0.3106284728	0.2369078655	
570.0	-0.5867375628	0.4233917877	
570.625	0.09402746373	0.5974951065	
571.25	-0.1290049356	-0.01107115606	
571.875	0.3585483046	0.4984943688	
572.5	-0.04006094726	-0.2009738129	
573.125	0.4769783962	-0.0311672248	
573.75	0.06250309101	-0.5739255409	
574.375	-0.1256511388	0.1109242496	
575.0	0.3081332909	-0.3263518653	
575.625	-0.1675487156	0.0420729017	
576.25	0.4183235129	-0.2841326488	
576.875	-0.2447707165	-0.5026283819	
577.5	-0.04372317302	-0.05732143391	
578.125	0.1418239201	-0.5042191374	
578.75	-0.4211665868	-0.4154054676	
579.375	-0.1708813293	0.08058933851	
580.0	0.01947776196	-0.3104982971	
580.625	-0.2691689624	0.1917287836	
581.25	-0.2096053506	-0.1511034592	
581.875	-0.03214461954	0.6876045457	
582.5	0.4026787513	0.1217743344	
583.125	-0.2412801477	0.1242988734	
583.75	0.5451648601	0.2756347881	
584.375	-0.3799229861	-0.08910492171	
585.0	0.5558879298	0.4031848942	
585.625	0.2382843351	-0.3282339613	
586.25	0.3346220634	0.2143323647	
586.875	0.1995654245	-0.6513531826	
587.5	-0.0484774403	-0.02705668048	
588.125	0.1925056298	-0.4982182815	
588.75	-0.1571463947	-0.5098287539	
589.375	0.1079526195	-0.005845740713	
590.0	0.02959442331	-0.6784678602	
590.625	-0.5026097566	0.02335624087	
591.25	-0.1598425258	0.1876413406	
591.875	-0.2923562896	0.2204506732	
592.5	0.2365021474	0.2109670663	
593.125	-0.2741370293	0.165709413	
593.75	0.2617395564	0.1913128364	
594.375	0.1159553896	0.2231690142	
595.0	0.5363605094	0.5736245798	
595.625	0.6169303198	-0.2394888995	
596.25	-0.03053547009	0.3498430346	
596.875	0.7535459488	0.1982203883	
597.5	0.2356854544	-0.1120519021	
598.125	0.2590413437	0.5802499322	
598.75	0.5728780623	-0.02367990511	
599.375	0.3058337913	0.1573361966	
600.0	0.6373992719	-0.4853758177	
600.625	0.08693637848	-0.4471939518	
601.25	0.2834015236	-0.2501124433	
601.875	-0.1653179458	-0.516331347	
602.5	-0.3047745616	0.06234875481	
603.125	-0.2327235339	0.1299553861	
603.75	-0.2951825436	0.02845247305	
604.375	-0.3211864557	0.3801136168	
605.0	0.01462344961	-0.03489363419	
605.625	-0.4052136837	0.2791399742	
606.25	-0.00142147245	0.1200265159	
606.875	-0.6639507443	-0.02113027794	
607.5	-0.1628755792	0.7574673253	
608.125	-0.2338413018	0.1944283978	
608.75	0.539121356	0.8558239509	
609.375	0.3026134698	-0.3829571345	
610.0	0.5585255096	0.02672097887	
610.625	0.1539193423	-0.6016119456	
611.25	0.040047595	-0.1235590597	
611.875	-0.3326551588	-0.5333685677	
612.5	-0.145276113	-0.02002879592	
613.125	-0.5331844543	-0.06529827724	
613.75	0.04464356875	0.547403826	
614.375	-0.1609588801	0.2100038157	
615.0	0.3054066498	0.06522874435	
615.625	-0.2646459032	0.1534606082	
616.25	0.1043291837	0.6675633994	
616.875	-0.1320955342	0.08751436948	
617.5	-0.400217563	0.726171977	
618.125	0.2305510346	0.4923428989	
618.75	-0.2305392064	0.3046066951	
619.375	0.4131167604	0.5283072769	
620.0	0.2585147015	0.03959494024	
620.625	0.4230837457	-0.3599785324	
621.25	-0.2078256231	-0.2863865661	
621.875	-0.4723878321	-0.3620198916	
622.5	-0.4570199621	0.2330892713	
623.125	-0.190995595	0.3178482218	
623.75	0.5371150105	0.1182744155	
624.375	-0.1297487601	0.02772277174	
625.0	0.2794850635	-0.357662636	
625.625	-0.0160134376	0.1563116894	
626.25	0.0837574662	-0.6168864087	
626.875	-0.5496553035	-0.009477618102	
627.5	-0.005380411117	-0.1269288383	
628.125	-0.4809981248	-0.3509109036	
628.75	-0.1572215188	-0.05792675343	
629.375	-0.07994040108	-0.5302714678	
630.0	-0.6324896324	-0.116468103	
630.625	-0.3091243209	-0.05702411252	
631.25	-0.5426001234	0.486027544	
631.875	0.07436667597	0.6587599101	
632.5	0.2906823188	0.3770152834	
633.125	0.3611767912	0.1583259092	
633.75	0.5969108337	-0.08967145561	
634.375	-0.1261204124	-0.2879737593	
635.0	0.2246522726	-0.3347527289	
635.625	-0.5861023159	-0.1910780313	
636.25	-0.07550685179	-0.06614694552	
636.875	-0.3945975746	0.5101301016	
637.5	0.2370719054	0.1065631488	
638.125	-0.5109376761	0.02519324164	
638.75	0.1251277595	0.8398852022	
639.375	-0.02105909602	0.03367870252	
640.0	0.04546162284	0.8716210841	
640.625	0.8732006429	0.3666695744	
641.25	0.3746949166	-0.193633123	
641.875	0.7859068824	-0.1375549402	
642.5	-0.3937544436	-0.508522391	
643.125	0.1262567255	-0.2764688322	
643.75	-0.6981295195	-0.3329709161	
644.375	0.01583078883	0.2721586871	
645.0	-0.7245090758	0.02807176583	
645.625	0.2765433279	0.7523974527	
646.25	0.493372522	-0.05507193895	
646.875	-0.1474621011	0.1076246167	
647.5	0.7251651146	0.01619010938	
648.125	-0.2800219771	0.2467501514	
648.75	1.161206891	-0.08010684268	
649.375	0.02447912104	-0.834766861	
650.0	0.627371243	0.02875031772	
650.625	0.6992267925	-1.402553353	
651.25	-0.3414184844	-0.4297148695	
651.875	0.9288791553	0.2971337627	
652.5	1.067787831	-0.7520262804	
653.125	0.08558781859	-0.3545250603	
653.75	0.939647874	-0.2019238482	
654.375	-0.4532246377	-0.9832327141	
655.0	-0.2330264288	0.04126739186	
655.625	-0.8844656701	0.08389336141	
656.25	0.5417159811	0.7142262456	
656.875	-0.2672628579	-0.1050108471	
657.5	0.2603256234	0.5311995087	
658.125	0.3955662239	0.08702684208	
658.75	0.2958471748	0.3859139787	
659.375	1.237022518	-0.4132795522	
660.0	0.1226047546	-0.7459234467	
660.625	0.5078920843	-0.4137585393	
661.25	0.701761319	-1.110241423	
661.875	-0.165907593	-0.5442769056	
662.5	0.9664166535	0.04918430841	
663.125	0.8019466515	-0.9592774299	
663.75	-0.06146927145	-0.386853755	
664.375	0.4301991476	-0.8961428436	
665.0	-1.074954231	-0.3490211356	
665.625	-0.3612528443	-0.07159043265	
666.25	-0.561702542	0.8409883421	
666.875	0.564766557	0.288919161	
667.5	0.0377523146	0.4178676919	
668.125	0.842013529	-0.05427382037	
668.75	0.2237118825	-0.4889850831	
669.375	0.2645547628	-0.2423676759	
670.0	0.2199644478	-0.6793178973	
670.625	-0.3025345889	-0.4803286	
671.25	0.3209922979	-0.203765486	
671.875	0.3788885504	-0.5883279722	
672.5	0.163486211	-0.3529773704	
673.125	0.8092066084	-0.2137948903	
673.75	0.2174318881	-0.8649420102	
674.375	-0.0322098828	-0.1964721546	
675.0	0.262239384	-0.8057493203	
675.625	-0.9549661603	-0.4028973526	
676.25	0.08434229912	0.2291172843	
676.875	-0.7662893039	-0.4021708964	
677.5	-0.04111937396	0.4174394087	
678.125	-0.538178614	-0.1065504629	
678.75	0.4036633499	0.9854904505	
679.375	0.01634995388	-0.03611934305	
680.0	0.5770799952	0.06709719268	
680.625	0.2716514685	-0.5731481512	
681.25	-0.2919785922	0.0767964755	
681.875	0.6403306271	0.4926917695	
682.5	0.6417849257	-0.03946359244	
683.125	0.4688922581	0.02980863181	
683.75	0.3531661929	0.4978808989	
684.375	1.215349483	-0.09192474098	
685.0	-0.009808856981	0.01190414393	
685.625	1.104848002	0.3356214246	
686.25	0.61028231	-0.7535633153	
686.875	0.5086006298	0.5863286763	
687.5	1.184700936	-1.655890314	
688.125	-0.6256044926	-0.1321461092	
688.75	-0.6362480351	-1.347078633	
689.375	-0.8340370699	1.386144179	
690.0	0.2373859995	0.2384671629	
690.625	0.6011908053	1.213683352	
691.25	0.6475881553	0.1571087912	
691.875	0.7751835653	0.9683475585	
692.5	1.718397532	0.5791844343	
693.125	1.205609515	-0.1791505981	
693.75	1.456098116	-0.4340893705	
694.375	0.9957394583	-0.9287463983	
695.0	1.248034943	-0.6487247031	
695.625	0.9424756278	-0.4726042316	
696.25	0.9326108269	0.8676120064	
696.875	1.815232528	0.9023504678	
697.5	0.3926616056	0.6318761401	
698.125	1.788919613	1.317614928	
698.75	0.4788141429	-1.504159191	
699.375	0.06106334985	-1.256865156	
700.0	-1.088272319	1.420037589	
700.625	0.3832351096	0.07075608628	
701.25	0.5113886796	1.086380125	
701.875	0.5772863756	-0.04277714134	
702.5	0.5204398579	0.8869512692	
703.125	1.290796598	0.1849016574	
703.75	0.4552094887	0.001226846048	
704.375	1.123289676	-0.6312935478	
705.0	0.2377950992	-0.4671603332	
705.625	0.8005334218	0.5715132124	
706.25	0.9928642473	-0.2151857757	
706.875	0.03694422314	0.7163393237	
707.5	1.098997126	1.36017487	
708.125	0.8428796867	-0.2182390441	
708.75	1.116988446	-0.5026356929	
709.375	-1.050349888	-0.8367086063	
710.0	-0.2243021486	0.2695798136	
710.625	0.035118123	0.6658998707	
711.25	0.2678213394	0.01171029336	
711.875	0.4205831353	0.4819429652	
712.5	0.7631387712	-0.1329182099	
713.125	0.8031244336	-0.2938206729	
713.75	0.1135838026	-0.7520214689	
714.375	0.3083628979	-0.2254489058	
715.0	-0.350984472	-0.9414283683	
715.625	-0.105749747	-0.05941283866	
716.25	1.116827915	-0.7602661128	
716.875	-0.01773045133	-1.182982125	
717.5	1.01425561	1.006294329	
718.125	3.151460318	-0.3547852229	
718.75	0.01108698532	-1.317216279	
719.375	3.654515466	0.7738363582	
720.0	0.1665521008	-3.918116195	
720.625	0.7803020999	-1.207675314	
721.25	0.8049338892	-2.930347926	
721.875	-1.719019459	-2.855292509	
722.5	-0.3932181658	-1.593013992	
723.125	-2.569446733	-0.6050364759	
723.75	-0.6274683966	1.338537593	
724.375	-0.2439013017	0.7519146674	
725.0	0.3661485387	1.320759634	
725.625	0.8792014999	0.910320905	
726.25	-0.07535242356	0.9686704371	
726.875	-1.073763392	2.833777095	
727.5	1.776154622	4.720437145	
728.125	-0.8067825009	0.865536487	
728.75	-5.639998479	11.61537536	
729.375	5.621287858	9.322670377	
730.0	-9.099011316	5.029122115	
730.625	12.11915638	19.734801	
731.25	2.888824467	-1.217057736	
731.875	-13.50607143	4.436454779	
732.5	-11.32647318	5.834110728	
733.125	-3.409439598	3.179765046	
733.75	-4.502852499	1.348689588	
734.375	3.249620115	0.7073327469	
735.0	-0.09813783399	-0.8620382432	
735.625	-1.683304485	-0.6451369363	
736.25	1.203539122	1.386612867	
736.875	-0.3003576985	1.399846029	
737.5	3.71605065	0.9898638899	
738.125	4.546085819	-2.276136176	
738.75	0.1490886766	-3.769719841	
739.375	8.7813748	4.903737254	
740.0	21.57344677	-22.30718542	
740.625	-8.886732165	-1.329550217	
741.25	-1.297875917	26.93166508	
741.875	8.930935607	6.38926725	
742.5	4.007136781	-18.47565591	
743.125	-3.774886105	-8.655542321	
743.75	-0.4634508431	0.7540335366	
744.375	-0.7877660733	-1.838873452	
745.0	0.7030499364	0.7717071461	
745.625	-0.09574150191	0.2559272648	
746.25	-0.02658103267	-0.5361714425	
746.875	-0.1747662336	0.3351021222	
747.5	-0.4343590198	0.6629968626	
748.125	0.9229333761	1.75680622	
748.75	0.6672873431	0.659002999	
749.375	-0.5297075982	2.179624965	
750.0	-1.38450689	1.121066849	
