!Created with skrf (http://scikit-rf.org).
# GHz S RI R (50+0j) 
!freq	ReS11	ImS11	
500.0	0.08903861462	-5.132959086	
500.625	-0.04572430807	-1.345650278	
501.25	-2.108206621	-3.255631352	
501.875	-1.01775616	-0.2142084714	
502.5	-0.2079046233	-0.601969911	
503.125	-0.1465246419	0.1498966772	
503.75	-0.08683367928	0.144639153	
504.375	0.1844384649	-0.05199326908	
505.0	-0.1053866218	0.01741103083	
505.625	0.1819456071	-0.2630340108	
506.25	-0.4936028354	-0.01679068074	
506.875	0.05723354123	-0.6333090352	
507.5	-1.748192656	-0.7360094207	
508.125	1.41507972	-0.8857188147	
508.75	1.948669017	-4.695924327	
509.375	-2.115891275	-2.814111823	
510.0	-0.2882308904	-1.310310722	
510.625	-1.410631503	-0.6709166755	
511.25	-0.2347678087	-0.03061575734	
511.875	-0.3064442207	-0.2083073029	
512.5	-0.05928862353	0.2235572795	
513.125	-0.1133173653	-0.2210892129	
513.75	-0.2063159014	-0.3155160051	
514.375	-0.4476757738	0.08903498386	
515.0	1.219531125	-0.4200205787	
515.625	-1.883514045	-1.029614275	
516.25	1.73258166	-0.5627495836	
516.875	-1.464922534	-2.891361316	
517.5	-0.6747345077	0.1671128525	
518.125	-0.008712547053	-0.4688740579	
518.75	-0.6353304171	0.1477516171	
519.375	-0.2739242794	0.004402243621	
520.0	0.5426605638	0.1973963101	
520.625	0.2835170391	-0.2690566554	
521.25	0.2297285132	-0.5997827425	
521.875	-0.5129266964	-0.008537108104	
522.5	-0.1158242232	0.02406299298	
523.125	-0.0394194647	0.2971502811	
523.75	-0.2528320885	-0.2388202408	
524.375	-0.4095892973	0.3240816909	
525.0	-0.09973815612	0.1235837263	
525.625	0.1357834556	0.2438403714	
526.25	-0.1705772986	-0.2121252886	
526.875	0.03238337712	0.2949530475	
527.5	-0.19473458	0.1818441203	
528.125	0.0834031136	1.163142375	
528.75	0.4156892812	0.387772275	
529.375	0.001910396336	0.4060524158	
530.0	0.2921496997	0.1486249156	
530.625	-0.09083958203	0.9791693467	
531.25	1.438519978	-0.02541002742	
531.875	0.5134832249	-0.2509357963	
532.5	-0.4848812987	-0.4616171525	
533.125	0.5496530499	-0.006335010117	
533.75	-0.3170715269	-0.6732647793	
534.375	0.3781988723	-0.5628263381	
535.0	-1.052344545	-0.2836415269	
535.625	-0.1526800229	0.2496540108	
536.25	-0.1105292775	0.292181922	
536.875	0.2997592384	-0.1207640863	
537.5	0.1819301432	0.08734679901	
538.125	0.3639751845	-0.3509296765	
538.75	0.1373886266	-0.2103085926	
539.375	-0.02822855954	-0.4856526161	
540.0	-0.5729348971	-0.3501838792	
540.625	-0.3361892455	-0.004364918706	
541.25	-0.1823948252	-0.02610624507	
541.875	-0.1655888221	-0.01764601929	
542.5	-0.04079752552	-0.1066904675	
543.125	-0.2746327941	-0.1230089602	
543.75	-0.1285199261	0.07113878482	
544.375	-0.2122971818	-0.01713598105	
545.0	0.1209547198	0.2309935448	
545.625	-0.1493577073	0.03050237745	
546.25	0.5198612246	0.2260655173	
546.875	0.04672720083	-0.1807036173	
547.5	0.3825415283	-0.1797796612	
548.125	-0.3326605843	-0.5147299075	
548.75	-0.09331563513	-0.1337252873	
549.375	-0.3167347219	-0.3542303134	
550.0	-0.2026816775	0.1763716118	
550.625	-0.07056615807	-0.1318165159	
551.25	-0.2657486694	0.2043646784	
551.875	-0.08267527104	0.1013568859	
552.5	-0.1850667087	0.2010856993	
553.125	0.00871038787	0.1605799733	
553.75	0.09143725153	0.1460723512	
554.375	0.2463863899	-0.02152177051	
555.0	0.2254111622	-0.1523695754	
555.625	0.222470674	-0.2623275069	
556.25	0.1561611157	-0.3554668716	
556.875	-0.09303406323	-0.3838864063	
557.5	-0.2237437919	-0.2489110758	
558.125	-0.2829517361	-0.1125711055	
558.75	-0.2758531818	0.0156535226	
559.375	-0.2338687376	0.02624267348	
560.0	-0.2767024019	0.2016616779	
560.625	-0.03955590123	0.2491374445	
561.25	-0.08409451935	0.2283116038	
561.875	0.183448208	0.1162508243	
562.5	-0.07697966817	0.06523525508	
563.125	0.2320669349	0.2878419219	
563.75	0.2824600637	-0.140261481	
564.375	0.2966607546	-0.08165074455	
565.0	0.2144528494	-0.4721681021	
565.625	-0.1271305244	-0.2400846606	
566.25	-0.2152773096	-0.3917530377	
566.875	-0.4155469686	-0.04952804797	
567.5	-0.1731195057	-0.2905854561	
568.125	-0.4530771409	-0.5213200885	
568.75	-0.5478226986	-0.01265838717	
569.375	-0.402870306	0.01631331114	
570.0	-0.6192229232	0.6332909843	
570.625	0.2194171204	0.4806676791	
571.25	-0.3004937373	0.06574723104	
571.875	0.5125470578	0.2384765581	
572.5	-0.05657740116	0.2050075167	
573.125	0.5000981925	-0.5241765237	
573.75	-0.2689291052	-0.2577867416	
574.375	0.3308006686	0.04941160155	
575.0	-0.02922047451	-0.4214967106	
575.625	0.07457053097	0.1690117521	
576.25	0.3513730501	-0.4338372446	
576.875	-0.305841263	-0.3209410312	
577.5	0.1766754399	-0.1512786409	
578.125	-0.1325164054	-0.6760764378	
578.75	-0.3248654097	-0.07402487475	
579.375	0.03209544702	-0.1756398373	
580.0	-0.3142053404	-0.2234319472	
580.625	0.01961935731	0.1419608343	
581.25	-0.4451006667	-0.1083590863	
581.875	0.1636756248	0.6716950581	
582.5	0.2519453277	-0.06332536154	
583.125	-0.2075460216	0.464444237	
583.75	0.4922430102	-0.2569278592	
584.375	-0.2407062445	0.4743295981	
585.0	0.6344591343	-0.08457323675	
585.625	-0.1018032616	0.0384611772	
586.25	0.6636817168	0.06183774794	
586.875	0.02349688292	-0.5773570792	
587.5	0.008151026702	-0.04854669127	
588.125	0.1551947826	-0.545483425	
588.75	-0.2128431487	-0.3872570278	
589.375	0.4201998273	-0.0957423448	
590.0	-0.3309592215	-0.5696664522	
590.625	-0.168656886	-0.02541790865	
591.25	-0.5399294186	0.1559761434	
591.875	0.02018602812	0.4561309394	
592.5	0.0602175328	-0.07421292191	
593.125	-0.2616880887	0.2883791744	
593.75	0.376473771	0.1100835623	
594.375	-0.04597590596	0.2942293824	
595.0	0.8103696798	0.5389736052	
595.625	0.1644868925	-0.2332213206	
596.25	0.4294741127	0.5229229082	
596.875	0.5879948588	-0.3141221155	
597.5	-0.1087270204	0.4045776323	
598.125	0.7625226305	0.4626631567	
598.75	0.3332170883	-0.05203642913	
599.375	0.4119228594	0.1539278942	
600.0	0.5754445398	-0.4322524556	
600.625	0.1270173896	-0.4194245155	
601.25	0.2813801351	-0.3074963955	
601.875	-0.2814009636	-0.4537672332	
602.5	-0.12421504	-0.05879643215	
603.125	-0.3977237878	0.08576851212	
603.75	-0.1313156416	0.1371352327	
604.375	-0.2382838134	0.1520431522	
605.0	-0.2450056907	0.06636555467	
605.625	-0.1961528625	0.3833116312	
606.25	-0.004252144055	-0.128057628	
606.875	-0.8923429758	0.2714825942	
607.5	0.07356787125	0.4368860443	
608.125	-0.4917354801	0.4026224101	
608.75	0.9454243832	0.4083594048	
609.375	0.09235288746	0.05772488588	
610.0	0.7539687266	-0.226242756	
610.625	-0.1126699081	-0.482413107	
611.25	0.4435756303	-0.2560334634	
611.875	-0.4175207239	-0.2931950224	
612.5	-0.1962411578	-0.2083674419	
613.125	-0.6889522404	0.1266438253	
613.75	-0.02938620997	0.1974420217	
614.375	-0.03993101439	0.5635866329	
615.0	0.1872546874	-0.1494374107	
615.625	-0.2370574232	0.4264009392	
616.25	0.1908106462	0.3095094726	
616.875	-0.4862497711	0.1682320474	
617.5	-0.1705121172	0.8360871379	
618.125	0.1501058612	0.2531181194	
618.75	-0.2004148842	0.6022869289	
619.375	0.3866415259	0.2643939832	
620.0	0.2711551493	0.2475237729	
620.625	0.3158475336	-0.5061238412	
621.25	-0.1532105465	-0.2978215229	
621.875	-0.5510170627	-0.2690155768	
622.5	-0.3745013888	0.1570638424	
623.125	-0.2936858085	0.420689105	
623.75	0.4826758341	-0.06221329221	
624.375	0.0088229664	0.3569236122	
625.0	-0.08948566773	-0.4524588127	
625.625	0.2726205106	0.06566987024	
626.25	-0.2837670208	-0.627230931	
626.875	-0.06389480011	0.2102504449	
627.5	-0.4015048573	-0.5142273649	
628.125	-0.4448192918	0.1016475655	
628.75	0.123533763	-0.2090597991	
629.375	-0.2045629673	-0.5809129202	
630.0	-0.5625640297	-0.03855001467	
630.625	-0.3784316881	-0.01817349119	
631.25	-0.4638492412	0.5192357604	
631.875	0.03820853293	0.5421810953	
632.5	0.1436506523	0.4836941907	
633.125	0.6567099447	0.09136544205	
633.75	0.2657942605	-0.1220612675	
634.375	0.2467483158	-0.2926173476	
635.0	-0.008350766008	-0.487628063	
635.625	-0.343708172	0.05327246581	
636.25	-0.3143314775	-0.229419606	
636.875	-0.3183276766	0.669062318	
637.5	0.287428862	-0.02337901257	
638.125	-0.5990793567	0.2421873942	
638.75	0.3225395392	0.4348036234	
639.375	-0.489794651	0.4120899611	
640.0	0.6721973092	0.8784944483	
640.625	0.3396012486	-0.07292051999	
641.25	0.6512169033	0.5493030309	
641.875	0.5056121384	-0.8466873158	
642.5	-0.3015325214	-0.2776567688	
643.125	0.1225501869	-0.4016503398	
643.75	-0.6575468882	-0.213032698	
644.375	-0.00346793975	0.0823818129	
645.0	-0.6891329384	0.368533179	
645.625	0.3650446716	0.4873080028	
646.25	0.1203231832	0.1055423848	
646.875	0.5294848663	0.2204034496	
647.5	-0.1284535447	-0.2583242502	
648.125	0.3997282292	0.5794610583	
648.75	0.9256800356	-0.5498783468	
649.375	-0.1146839275	-0.4283754198	
650.0	1.087958878	-0.2565454461	
650.625	0.02628617062	-1.458166143	
651.25	0.0470623859	0.09948589144	
651.875	1.350088193	-0.3761096034	
652.5	0.2111425229	-0.8523574739	
653.125	0.5665895702	0.4364057389	
653.75	0.7987752006	-0.915736665	
654.375	-0.5675410141	-0.5459106067	
655.0	-0.114769094	-0.3298897448	
655.625	-1.013323773	0.5415114482	
656.25	0.5161885302	0.1910957541	
656.875	-0.2638991194	0.2648838763	
657.5	0.4501363238	0.1989175766	
658.125	-0.08719897254	0.24939611	
658.75	1.011448376	0.4925934747	
659.375	0.6504864959	-0.6368592058	
660.0	0.3064253482	-0.4337111816	
660.625	0.7473274163	-0.5479868929	
661.25	0.3224940285	-1.349245899	
661.875	-0.0138834756	-0.06945980058	
662.5	1.236288758	-0.4695198321	
663.125	0.2546231481	-0.8039598545	
663.75	0.5693414111	-0.07460637168	
664.375	-0.3613284155	-1.332931518	
665.0	-0.4151966467	-0.01239096075	
665.625	-0.7520650232	-0.2568357155	
666.25	-0.4313253631	0.8838067857	
666.875	0.5494862454	0.2567413547	
667.5	0.1054370521	0.4697302227	
668.125	0.7467619584	-0.2064568758	
668.75	0.1580024562	-0.1946960474	
669.375	0.6173813944	-0.5671162506	
670.0	-0.3789992972	-0.4733094012	
670.625	0.2735460252	-0.3055861651	
671.25	0.2095703168	-0.6089067978	
671.875	0.1327470071	-0.5600717953	
672.5	0.1778260137	-0.06125977632	
673.125	1.028169935	-0.2633652706	
673.75	0.01849861499	-0.8913632499	
674.375	0.2944327952	-0.1477976473	
675.0	-0.1495233422	-1.078836217	
675.625	-0.4843720883	0.3851963438	
676.25	-0.3720455943	-0.7447296754	
676.875	-0.6446269736	0.4821539869	
677.5	0.1831966558	-0.1187740585	
678.125	-0.9312169927	0.3708560225	
678.75	0.5083462204	0.6280020557	
679.375	0.1700592502	0.005488952955	
680.0	0.5806822092	0.09922934051	
680.625	0.09000460382	-0.6034040045	
681.25	0.07532024992	0.4842616522	
681.875	0.6507655577	-0.1683113375	
682.5	0.216411022	0.06933665127	
683.125	0.5254857028	0.5075597639	
683.75	0.9080680842	0.01728440134	
684.375	0.3542824879	-0.1591263613	
685.0	0.4262391973	0.5133892427	
685.625	1.354549874	-0.01931248799	
686.25	0.007085356219	-0.6265536021	
686.875	1.332434507	0.5218684534	
687.5	0.01266650758	-1.59909753	
688.125	0.6070064059	-0.3340388569	
688.75	-1.531972347	-1.11571891	
689.375	0.127359421	1.065094097	
690.0	-0.7471058477	0.8782194127	
690.625	1.225828061	0.5289342917	
691.25	0.4699836458	0.3849452573	
691.875	1.028690665	1.085139701	
692.5	1.635050545	0.3323721871	
693.125	1.309510651	-0.04785590561	
693.75	1.435763769	-0.5674974143	
694.375	0.9204417782	-0.8804415152	
695.0	1.004539883	-0.683412874	
695.625	1.04122512	-0.2460538529	
696.25	1.437206844	0.7613681368	
696.875	1.114817514	0.4062836241	
697.5	0.1762324886	1.380893393	
698.125	2.331437044	0.566672777	
698.75	0.2191274054	-0.5883534942	
699.375	-0.62332653	-1.871418113	
700.0	-0.4422826494	1.342518293	
700.625	-0.3988005574	0.3305289707	
701.25	1.264111423	0.4512235057	
701.875	0.1848448604	0.2646290944	
702.5	0.9374890072	1.045263566	
703.125	0.9181459531	-0.2279413785	
703.75	0.9038794985	0.1339731896	
704.375	0.7166328096	-0.7775122343	
705.0	0.0790679071	0.03305096765	
705.625	1.179442604	0.01958890565	
706.25	0.3354042376	-0.07068104911	
706.875	0.287655948	1.279048145	
707.5	1.343872556	0.5521301106	
708.125	0.4353994712	0.6771891164	
708.75	1.201445938	-1.279814223	
709.375	-0.8802110376	-0.2853783515	
710.0	-0.5724856959	0.156339231	
710.625	0.2407790074	0.5677668423	
711.25	0.1055072483	0.2372108512	
711.875	0.5785111972	0.3526600386	
712.5	0.607596485	0.0350575734	
713.125	0.6774238816	-0.4607514991	
713.75	0.2726238023	-0.506170157	
714.375	0.1358428098	-0.6215800833	
715.0	-0.2796050148	-0.4558380614	
715.625	0.5115420461	-0.2341258825	
716.25	0.4400057918	-1.260996243	
716.875	-0.1198051155	-0.1825756286	
717.5	2.0396143	0.7775529891	
718.125	2.507773991	-0.9926664781	
718.75	0.1364015625	0.8940319925	
719.375	3.98027362	-2.027733497	
720.0	-0.3028813187	-1.452154564	
720.625	2.146967505	-1.890394092	
721.25	-1.474681987	-3.59982446	
721.875	-0.4292034932	-1.140246581	
722.5	-1.000579467	-2.800358563	
723.125	-2.485567779	-0.1627601827	
723.75	-0.5589226145	1.068303292	
724.375	-0.2132835545	0.8605474848	
725.0	0.7603594347	1.125427789	
725.625	0.3558299387	0.7196185821	
726.25	-0.2793539389	1.715813581	
726.875	0.2275316558	3.125554126	
727.5	0.6214170735	1.7815475	
728.125	-3.417081177	6.617972037	
728.75	-0.02394186069	12.45562369	
729.375	2.597569683	2.675125603	
730.0	-12.78252765	12.7518869	
730.625	13.48944885	11.58143985	
731.25	-6.589198293	1.31570881	
731.875	-12.36285547	11.96593717	
732.5	-3.391807382	7.588842934	
733.125	-7.25037138	-3.757087256	
733.75	-1.981546205	5.586944966	
734.375	1.943903112	0.4431026191	
735.0	0.4695505912	-0.5736267585	
735.625	-2.200956076	0.01330180626	
736.25	0.8702589158	0.8311534848	
736.875	0.2234711534	1.912384116	
737.5	3.553257332	0.3744726431	
738.125	2.402570659	-2.463578439	
738.75	6.257839381	1.407268437	
739.375	7.459537185	-9.283282869	
740.0	-1.299928031	-6.021869542	
740.625	3.346758318	11.86462517	
741.25	21.97943908	10.52611513	
741.875	12.79150774	-7.263354489	
742.5	1.962406749	-15.16078368	
743.125	-5.090523616	-6.556761659	
743.75	2.083096577	-0.1178292697	
744.375	-2.977229559	-1.122081578	
745.0	0.2983065788	-0.4192674307	
745.625	0.4647103419	0.06695962823	
746.25	-0.2012836463	-0.1092364635	
746.875	-0.5071368784	-0.3044497317	
747.5	-0.4632525001	1.156013859	
748.125	0.9075579252	1.570637786	
748.75	0.7230963817	0.9728414353	
749.375	-0.147605808	1.278886476	
750.0	-0.4713215148	0.6806193724	
