!Created with skrf (http://scikit-rf.org).
# GHz S MA R 50.0 
!freq magS11 angS11
500.0 0.0179861380495 162.044684422
500.625 0.0164746908235 45.5071307303
501.25 0.0189472783023 -168.305713811
501.875 0.0415775932671 -175.817748804
502.5 0.0161765508024 147.505894954
503.125 0.0282066600706 134.61723512
503.75 0.00969328787424 84.9543495477
504.375 0.005492280229 137.798462025
505.0 0.0257522709309 -70.6662379808
505.625 0.0170750106275 -85.9456968784
506.25 0.0409050490465 -105.634906436
506.875 0.0603982806079 -114.6564489
507.5 0.0601272667894 -106.263349956
508.125 0.0407662456607 -114.059850339
508.75 0.0500916469525 -141.097385603
509.375 0.0505306412072 -140.736279124
510.0 0.0515681680044 -108.6424664
510.625 0.0191801628362 172.502374485
511.25 0.0455165516767 177.139054274
511.875 0.0531526594858 140.073321058
512.5 0.049462236008 109.935749329
513.125 0.0459684620019 19.3308816834
513.75 0.0501785828152 26.3688241582
514.375 0.0441591052185 25.6749204886
515.0 0.0576194245023 4.62925233277
515.625 0.0882530981377 46.4167708036
516.25 0.089455384616 31.4382932925
516.875 0.111283616122 69.7709707576
517.5 0.140723283192 21.8300393311
518.125 0.197488775901 68.2248510342
518.75 0.0874573145311 6.17393879108
519.375 0.0842647679825 21.6353397492
520.0 0.0786482965361 -11.9575405407
520.625 0.106234335569 -6.05708329503
521.25 0.0914567231014 -23.7050180563
521.875 0.0682586755835 0.0710780758938
522.5 0.108245463374 -32.2813357726
523.125 0.180079988818 -35.9875336592
523.75 0.200021219584 -61.2085512807
524.375 0.210399374063 -52.132475979
525.0 0.0753292810348 -45.5881683372
525.625 0.0384048351731 -42.9137482296
526.25 0.0395450584299 -19.193402192
526.875 0.0707494681728 -19.1284486061
527.5 0.0435617455006 -38.0172325536
528.125 0.0392115355949 -57.861424416
528.75 0.0733513087744 -73.4177145657
529.375 0.108779939073 -109.886559124
530.0 0.0361973765606 -147.041800559
530.625 0.0297843050721 -132.654014293
531.25 0.119139526895 -135.622226523
531.875 0.205112922103 -150.729813193
532.5 0.114598700977 -175.709562493
533.125 0.0973353242538 174.293571474
533.75 0.109471191704 162.201804354
534.375 0.1305745913 177.885958787
535.0 0.088231261789 161.059924165
535.625 0.0667813625561 175.082868778
536.25 0.052905001105 157.75786824
536.875 0.0937468381488 -165.543610926
537.5 0.0840530722269 -142.358058027
538.125 0.0940619382419 -173.557180909
538.75 0.0954781229582 176.148764916
539.375 0.0943168895853 -166.794603802
540.0 0.077624735271 -155.148575777
540.625 0.11374979019 -154.742780815
541.25 0.126614630588 -141.925261945
541.875 0.107197079025 -147.44267176
542.5 0.101457088947 -140.611472146
543.125 0.129471141269 -167.022834594
543.75 0.123692689286 156.773140941
544.375 0.105894249748 134.886192299
545.0 0.0896793344713 88.2753197316
545.625 0.101648071543 81.1608924757
546.25 0.0948221042702 66.7915591533
546.875 0.0902350387056 52.91850589
547.5 0.101061267157 56.5826180792
548.125 0.104684218842 77.7033536995
548.75 0.0869181940906 87.3436935325
549.375 0.112092519024 83.5701741978
550.0 0.0861470771278 120.817330648
550.625 0.0497582935319 151.621237596
551.25 0.0424675424014 -146.084429941
551.875 0.0685732467884 -171.396134248
552.5 0.0902498339041 -158.655822639
553.125 0.0914921506619 -168.076820002
553.75 0.0848369083752 -168.998659997
554.375 0.113758877633 163.502229978
555.0 0.118157578268 162.585024082
555.625 0.0975312701683 157.013139618
556.25 0.0972703974787 163.81699465
556.875 0.12181688497 163.780418397
557.5 0.127016466036 163.118086193
558.125 0.0854846934199 163.888707537
558.75 0.0869528252592 175.587039739
559.375 0.0753124702861 -176.454000762
560.0 0.0380633131803 -145.15302804
560.625 0.0566687810178 -141.887166545
561.25 0.091441260049 -155.107977821
561.875 0.107184116423 -165.378059621
562.5 0.0981766046253 169.108100522
563.125 0.104604137303 144.844451315
563.75 0.124633756106 128.126989263
564.375 0.114154325729 117.066432763
565.0 0.0758071013493 121.840095795
565.625 0.0834996279154 115.911604628
566.25 0.0987890341012 148.761605439
566.875 0.076547199266 177.888537468
567.5 0.0797406605302 175.962821047
568.125 0.0743859030992 -169.849382175
568.75 0.0646152413002 -146.066376513
569.375 0.0453607928481 -109.488044143
570.0 0.0616195073085 -121.069733659
570.625 0.0891567545495 -117.130051317
571.25 0.0917984614786 -121.970981932
571.875 0.0884980075194 -128.824745858
572.5 0.114860796914 -162.721569302
573.125 0.13376640056 -172.908780835
573.75 0.100285890547 162.697177409
574.375 0.0842985328409 146.581851878
575.0 0.111358016477 146.301352947
575.625 0.10801629529 154.309494426
576.25 0.0930231803745 142.344664547
576.875 0.0869466447889 123.553442851
577.5 0.0860349455629 130.647631743
578.125 0.060449863515 157.369229674
578.75 0.0502049630398 160.268517621
579.375 0.0546700175074 158.683316658
580.0 0.0711869025918 169.276391113
580.625 0.0781149222942 -145.816103359
581.25 0.0900832187977 -161.565883559
581.875 0.111758346369 -174.616369137
582.5 0.123561026728 175.812999074
583.125 0.0883033899814 -164.211716793
583.75 0.0822579651649 -167.57578454
584.375 0.0997391990708 -157.918589759
585.0 0.097679897357 -148.313542143
585.625 0.0667809676922 -136.957418086
586.25 0.0705835383439 -134.40952306
586.875 0.0788371704934 -134.557139229
587.5 0.0781017698681 -154.300240331
588.125 0.0567584114276 -162.358186798
588.75 0.0688813086899 -163.485513606
589.375 0.0801889734572 -150.825862822
590.0 0.0916957207713 -173.196446452
590.625 0.107299429214 166.31019883
591.25 0.122010287939 153.318635487
591.875 0.100662465987 152.233598406
592.5 0.0653508515277 143.610140424
593.125 0.0654159443346 154.473708254
593.75 0.0737408088073 169.415682528
594.375 0.0544070337493 -150.728328936
595.0 0.0405000488626 -138.031131453
595.625 0.0572637104213 -102.301083987
596.25 0.0733238778319 -89.922318298
596.875 0.0673450211512 -76.8399715914
597.5 0.0586069708968 -64.0952126061
598.125 0.078312452231 -50.0130267252
598.75 0.0862452151351 -59.8193557087
599.375 0.0926357420743 -61.4532266816
600.0 0.0910899001836 -78.3239678867
600.625 0.104761508812 -55.0436825208
601.25 0.0848549395145 -75.2538506652
601.875 0.0646964251035 -84.9315664056
602.5 0.062430868777 -94.2476811614
603.125 0.0431283561327 -58.1284069017
603.75 0.0295994316134 -37.7603475862
604.375 0.0466755036386 -20.2659974009
605.0 0.0576326782315 -24.1224165429
605.625 0.043429630285 -38.7235096846
606.25 0.0400832671861 33.6490977523
606.875 0.0470694151164 48.8133764668
607.5 0.0663348798716 46.5804006242
608.125 0.0525139729739 15.8768071085
608.75 0.0602449981423 20.5445415143
609.375 0.0714087081726 28.9774402274
610.0 0.069568714832 37.8099995502
610.625 0.0505449963764 18.2143087124
611.25 0.0675855437075 49.2377250872
611.875 0.0467604751511 62.797662215
612.5 0.0281874724821 95.2014746588
613.125 0.015761888466 129.887369057
613.75 0.0541430815303 129.068860434
614.375 0.0442043014132 119.902409094
615.0 0.023179109921 104.896199402
615.625 0.0282731332289 127.142997762
616.25 0.0287339927067 142.282007436
616.875 0.0513717559621 130.384944271
617.5 0.0296739189967 123.353249402
618.125 0.0152865192139 123.48691374
618.75 0.0133634020133 148.564418702
619.375 0.0202311546773 138.404458936
620.0 0.00574317417311 153.827867888
620.625 0.0364628067549 -66.3082611032
621.25 0.0462655434016 -138.091700219
621.875 0.0633168212146 -108.273074206
622.5 0.0730407232624 -157.576351597
623.125 0.0731450572326 170.525584304
623.75 0.0480145663909 176.775150647
624.375 0.0426238473312 -177.96378053
625.0 0.0475293089638 -155.730052813
625.625 0.0337242216367 -152.21364001
626.25 0.00263674565443 -73.9419029412
626.875 0.0228120274924 177.991043356
627.5 0.0163819322732 -72.8552495783
628.125 0.0362187724419 -39.413642161
628.75 0.0542334000819 -1.81901884605
629.375 0.0365018953898 -46.479525001
630.0 0.0622359367461 -5.37867646865
630.625 0.0743492848193 -2.86785115292
631.25 0.072913521419 11.61076808
631.875 0.0728042464842 -26.6174850025
632.5 0.0642090800771 -22.5074372523
633.125 0.0552746280189 -4.82325447573
633.75 0.0445697464093 17.1500524284
634.375 0.0445927485172 -1.06631104492
635.0 0.0354860565293 22.6450625522
635.625 0.0275210988427 34.0812131682
636.25 0.0556429969466 43.0413109225
636.875 0.0831787807546 48.0011266397
637.5 0.03830845724 5.67145822588
638.125 0.034493057802 63.9443660282
638.75 0.0644469192099 68.9416408118
639.375 0.10415550142 96.9668463083
640.0 0.0696395171572 90.7146244076
640.625 0.0544496617924 98.3110676073
641.25 0.0781430800928 125.147165281
641.875 0.0830975866693 154.34827772
642.5 0.0439779864879 143.222149453
643.125 0.047194814847 150.951844493
643.75 0.0626921805583 162.737758154
644.375 0.0964528140835 -171.863654069
645.0 0.0595679270332 166.449984667
645.625 0.0873562285029 165.061151872
646.25 0.0960079419904 156.224801985
646.875 0.0757706229386 -179.958948262
647.5 0.0676808761221 -179.397455107
648.125 0.0873424669967 -178.450700934
648.75 0.0778007874718 -162.391701835
649.375 0.0494430192335 -150.098747089
650.0 0.059385092107 -121.664593969
650.625 0.0567457582665 -93.3094801585
651.25 0.0640468686471 -66.2104779719
651.875 0.0684642181453 -43.7544348781
652.5 0.10581120725 -29.2083971498
653.125 0.0948259535245 -6.9368681642
653.75 0.113003774453 6.18792055658
654.375 0.116732583205 5.00891586831
655.0 0.105910545474 6.60582189926
655.625 0.0978805459769 24.5148554358
656.25 0.0594623159694 20.5206217164
656.875 0.0711355356051 6.57151892025
657.5 0.100151278845 20.7628612023
658.125 0.0452081696934 39.5123193172
658.75 0.0531297612736 62.0820032979
659.375 0.0735053600334 37.7793264371
660.0 0.125044984667 22.1204178556
660.625 0.101703153769 14.6886786065
661.25 0.105078658729 2.3736688763
661.875 0.132824851601 -15.3480805338
662.5 0.141369463206 -23.0844817573
663.125 0.0933430727843 -20.1297437631
663.75 0.0932385461619 1.75595253421
664.375 0.0889968481268 48.7786129763
665.0 0.0859231228436 88.3867238575
665.625 0.0660306073293 107.959358318
666.25 0.0859635423278 125.878293739
666.875 0.125007181213 166.96091381
667.5 0.107532746566 -173.005325544
668.125 0.102034059128 179.028692147
668.75 0.134155658114 164.830835953
669.375 0.134378772716 174.432293799
670.0 0.0977224944808 -173.225660332
670.625 0.0872591523919 -173.289992013
671.25 0.101620446511 173.624550501
671.875 0.102763870529 164.752474326
672.5 0.0917801413934 149.068239717
673.125 0.0745691838336 154.048467515
673.75 0.116787906298 153.866332968
674.375 0.119686103957 166.391097064
675.0 0.114642623561 -176.036738772
675.625 0.124584516791 -153.033781426
676.25 0.124148404054 -127.881825119
676.875 0.116668264238 -122.182729346
677.5 0.132225909745 -131.569680258
678.125 0.12152373672 -121.067477308
678.75 0.0622976220853 -93.5196716911
679.375 0.0497816848707 -77.8416432454
680.0 0.0862941430883 -89.5278809792
680.625 0.0975500913878 -70.3491149993
681.25 0.107232798344 -76.1789072748
681.875 0.099818911937 -94.9334807911
682.5 0.136099615202 -122.194006864
683.125 0.177168035228 -127.209598823
683.75 0.135027043329 -105.142223532
684.375 0.109504484326 -77.5851794808
685.0 0.127968658545 -39.6910373415
685.625 0.142725563873 -6.99474296204
686.25 0.0897320905454 24.3347737175
686.875 0.0834033664289 44.696027774
687.5 0.0729045944733 86.351938274
688.125 0.0880392032006 98.6756451018
688.75 0.0934978430769 122.337658973
689.375 0.138342936088 118.733145013
690.0 0.134610321475 129.670117587
690.625 0.12404212925 121.398000235
691.25 0.133875949191 99.0084623317
691.875 0.190182859573 65.2796553153
692.5 0.156296095995 35.552196579
693.125 0.0931600441236 -18.0846628661
693.75 0.104451059759 -50.1541645649
694.375 0.121151362614 -23.0366396671
695.0 0.128392344388 11.3405823076
695.625 0.100288082072 51.942665343
696.25 0.118931548173 105.621774869
696.875 0.142476297218 166.369436311
697.5 0.137575408001 -145.819134459
698.125 0.139449007968 -133.433082691
698.75 0.137361397735 -137.009328055
699.375 0.0955747497946 -117.791342973
700.0 0.094295230211 -111.54762906
700.625 0.107689828831 -88.9329753739
701.25 0.108944582152 -74.0914419486
701.875 0.0783252769009 -55.2868882941
702.5 0.0980567957847 -85.0326740141
703.125 0.168053555444 -130.796515659
703.75 0.188604505377 -158.298183011
704.375 0.136859178487 164.895849807
705.0 0.104681353532 163.518887657
705.625 0.14362467862 -168.518336059
706.25 0.137785172751 -111.536823902
706.875 0.103084023528 -74.2302748004
707.5 0.0724234921536 -28.6067062631
708.125 0.0907681078838 16.0894726203
708.75 0.103936098874 65.1650395444
709.375 0.106161480826 93.051536943
710.0 0.100410147553 129.038949713
710.625 0.104587926641 152.797794835
711.25 0.112132202559 171.838242731
711.875 0.14107651686 155.992845587
712.5 0.145424779937 153.421488732
713.125 0.122159364009 100.612646595
713.75 0.0999012181909 41.046501329
714.375 0.111839090447 17.0903677481
715.0 0.119057146541 16.8983467619
715.625 0.085944675585 51.0490694606
716.25 0.0862057912152 82.39683892
716.875 0.115807208043 101.95955491
717.5 0.138378572189 129.35066085
718.125 0.119582649305 166.436436249
718.75 0.100475485375 169.372735862
719.375 0.11496734718 -179.403285787
720.0 0.131469748676 -133.675253444
720.625 0.117186298808 -86.4358063953
721.25 0.0966889852068 -27.8951490807
721.875 0.086158052532 34.4227567584
722.5 0.0692344145506 39.2632564087
723.125 0.105861177828 87.4464046465
723.75 0.1083130619 41.795710773
724.375 0.100097644444 -13.8940389379
725.0 0.0902904717185 -46.8488373931
725.625 0.0896436868401 -78.5487356741
726.25 0.126821123566 -56.6558916084
726.875 0.108282300885 -43.4127370317
727.5 0.083172031655 -37.4388667794
728.125 0.0622661459579 -34.4712325674
728.75 0.116555214396 25.1932908561
729.375 0.0864508345879 17.7695121524
730.0 0.0574223006513 -11.3074885117
730.625 0.0647023751917 13.8766313882
731.25 0.0526097102816 47.8317111446
731.875 0.0721037609287 108.721064811
732.5 0.0867037942254 156.008990871
733.125 0.0914987745421 -179.741578461
733.75 0.0593998418444 150.458150429
734.375 0.0572050361365 162.229174664
735.0 0.0388750389319 136.0466212
735.625 0.0350300836911 114.588789146
736.25 0.0180216873378 128.036932997
736.875 0.0476209667571 169.046997349
737.5 0.0619208361718 175.47860254
738.125 0.0855037955401 -179.384242349
738.75 0.053329108064 171.702877812
739.375 0.0502290271122 -174.418690537
740.0 0.0722490157031 -148.088611213
740.625 0.0624787154949 -147.987930354
741.25 0.0157609356183 -121.42085824
741.875 0.0560736639161 -107.293189761
742.5 0.0295373281863 -31.0413276654
743.125 0.0422677611793 56.1339473944
743.75 0.0285317325291 161.425348083
744.375 0.0762689322774 86.626838323
745.0 0.0493353020635 106.482266535
745.625 0.0763125835801 107.731902686
746.25 0.0736122493507 101.326635012
746.875 0.0649067532064 51.6945273943
747.5 0.0418792853451 15.5406656135
748.125 0.0215047554685 -15.7444622049
748.75 0.0248510395635 -8.84527648316
749.375 0.0415419899719 8.25663486157
750.0 0.0546056591244 -132.019813404
