!Created with skrf (http://scikit-rf.org).
# GHz S MA R 50.0 
!freq magS11 angS11
500.0 0.0121035199062 153.210176562
500.625 0.00857748072929 88.8218368869
501.25 0.0116371676612 -45.4095090427
501.875 0.0340577602696 -174.566642615
502.5 0.0113605233563 134.271364958
503.125 0.0118491241339 28.8688398232
503.75 0.0183894689904 126.469502436
504.375 0.00451070811625 147.505421044
505.0 0.0126583244548 -86.3641586317
505.625 0.0416452265786 -79.8567254664
506.25 0.0434682754766 -105.166924546
506.875 0.0539776017508 -108.0574572
507.5 0.0415086978652 -122.980178881
508.125 0.069646680161 -80.8236729558
508.75 0.0545536286577 -147.467314342
509.375 0.0460543813152 -158.055437876
510.0 0.0345490561016 -117.685778337
510.625 0.0566430117343 -156.79733465
511.25 0.0431034153065 168.313291379
511.875 0.0470681359935 144.384279105
512.5 0.0395819885985 96.0498268571
513.125 0.0656898130644 56.0928812412
513.75 0.0476521502328 20.7237336477
514.375 0.0481548942422 31.8361816529
515.0 0.0562530409708 10.3898917401
515.625 0.089061653632 49.6095104189
516.25 0.0893742036985 29.0544172846
516.875 0.112196018621 72.1280499845
517.5 0.117552241362 21.9506829601
518.125 0.214943686442 73.5886954644
518.75 0.0814665776895 8.62338708266
519.375 0.0699526956636 14.3803329004
520.0 0.1129243279 -0.693248546436
520.625 0.104216923198 -3.61909989427
521.25 0.0874104509286 -24.0740635746
521.875 0.0697827328249 1.26061518331
522.5 0.095997892537 -31.8915977124
523.125 0.190800724858 -32.2220957231
523.75 0.206355625835 -62.5133245873
524.375 0.193930557434 -55.6321913998
525.0 0.0730942114558 -40.8869236516
525.625 0.0331084765696 -63.9472264764
526.25 0.0384220537838 -14.6239197956
526.875 0.0485927606155 -27.3650598452
527.5 0.0549737231755 -24.2264708799
528.125 0.0335196961421 -63.6324861451
528.75 0.0641444565698 -71.0307487498
529.375 0.0832129855822 -112.86057597
530.0 0.0588598002876 -126.571347549
530.625 0.0253989168993 -127.721117921
531.25 0.102760761002 -130.209839115
531.875 0.156730864326 -148.016958398
532.5 0.158629439067 -170.235544486
533.125 0.0885685629171 172.634181314
533.75 0.110963188505 168.910618464
534.375 0.105003758954 178.45488854
535.0 0.0918522237779 164.255509616
535.625 0.0626820290554 177.503735338
536.25 0.0522533066141 165.895883379
536.875 0.0773756565808 -157.731492953
537.5 0.107269686791 -146.121224559
538.125 0.0898996092985 -172.978671867
538.75 0.0948467119472 178.643246825
539.375 0.0681096723028 -166.539629636
540.0 0.103513457941 -157.423203053
540.625 0.103159040893 -152.322774329
541.25 0.114962863381 -140.285128944
541.875 0.0983655307651 -142.429729608
542.5 0.117972389828 -144.616166566
543.125 0.117462495598 -165.707659217
543.75 0.12017722567 159.028602193
544.375 0.0930486168526 132.76428439
545.0 0.0924430462059 91.3621946885
545.625 0.0977714965732 83.710284486
546.25 0.0895877940383 67.4767965742
546.875 0.0919590107691 55.2361555452
547.5 0.12118430838 57.5427467284
548.125 0.092478690921 76.6164161017
548.75 0.0788232055906 90.8055797664
549.375 0.0889822758399 85.5028220671
550.0 0.0950542402242 126.367283155
550.625 0.0436857883584 158.695085824
551.25 0.0392440786931 -139.673310219
551.875 0.0613234271355 -159.848978743
552.5 0.120941579327 -167.820208328
553.125 0.081553969575 -161.499468721
553.75 0.0886086376545 -166.892660141
554.375 0.108306220036 166.654173806
555.0 0.1315622671 162.384416688
555.625 0.101227022433 157.69476373
556.25 0.095274506166 164.194353698
556.875 0.117470388732 166.913785987
557.5 0.111103746853 167.066875657
558.125 0.104932185969 163.46563057
558.75 0.0802742845937 178.896358497
559.375 0.0630020287753 -175.461429038
560.0 0.0503520720557 -151.421318724
560.625 0.0581764021624 -140.647071512
561.25 0.0885567994314 -150.772289116
561.875 0.108876907654 -165.113747475
562.5 0.0944067746343 173.468650682
563.125 0.10228893966 148.295977193
563.75 0.126557371571 133.300079723
564.375 0.10012208671 121.716217729
565.0 0.0931968376633 118.088044455
565.625 0.0803206918778 117.810049675
566.25 0.0933265742917 153.168774711
566.875 0.0770401820726 178.91337497
567.5 0.0740924809517 -177.191227102
568.125 0.087060742607 -174.09264961
568.75 0.0553271146467 -137.885515017
569.375 0.047143055842 -103.490965115
570.0 0.058892182271 -106.115220713
570.625 0.0947751063602 -120.736747025
571.25 0.0891848128695 -119.10553486
571.875 0.0872646437225 -123.403359259
572.5 0.113841445043 -156.133650255
573.125 0.146940378348 -177.154880115
573.75 0.0918918514444 167.212163577
574.375 0.0822376432668 149.920810156
575.0 0.106393601215 154.230629253
575.625 0.113649512139 152.01951963
576.25 0.0886406660563 146.670061625
576.875 0.0732146943838 125.685698318
577.5 0.0868199254776 135.413373977
578.125 0.0592063290132 160.176419295
578.75 0.0474680929181 165.575133131
579.375 0.0554551535332 162.323747425
580.0 0.0676928541998 -176.003635355
580.625 0.0789888189279 -156.641890487
581.25 0.0915667679265 -159.506741372
581.875 0.114552132493 -172.981781519
582.5 0.111700346579 -171.872268854
583.125 0.0974759988294 -174.275877514
583.75 0.0789607134233 -158.267896572
584.375 0.103116357825 -155.107153669
585.0 0.0956144121118 -145.867608242
585.625 0.0758936711464 -153.570207695
586.25 0.0670848125469 -124.613755975
586.875 0.080915392643 -128.074821869
587.5 0.0704155846601 -140.970212185
588.125 0.0606236493997 177.237388922
588.75 0.0688473077275 -146.296651181
589.375 0.0838380124909 -149.393679649
590.0 0.0932674048682 -167.694961462
590.625 0.103328890023 161.476755867
591.25 0.11890800009 159.545907929
591.875 0.0969889921744 158.248751045
592.5 0.0660857780155 141.148625031
593.125 0.0617308985813 144.930897082
593.75 0.06635382138 -173.63975138
594.375 0.0574875498724 -147.063956737
595.0 0.0414069154187 -111.218355833
595.625 0.0567651552554 -107.040846979
596.25 0.0740788320017 -81.9784650015
596.875 0.0677228067504 -70.2128673791
597.5 0.057168269725 -68.6464211675
598.125 0.0575406601755 -70.5637584811
598.75 0.08723235263 -55.5143108852
599.375 0.0924338543993 -59.8194216261
600.0 0.106659582659 -60.8229206044
600.625 0.0969089036222 -75.4938350487
601.25 0.0853571334395 -64.0529796109
601.875 0.0705369651037 -83.728345121
602.5 0.0592580503545 -93.1961562337
603.125 0.0461435017352 -67.9401330175
603.75 0.0276650793155 -53.2599700758
604.375 0.0483605498378 -14.1582626329
605.0 0.0689020253564 -13.6342662143
605.625 0.0548329273538 3.80699779915
606.25 0.0192394286257 -23.2917322151
606.875 0.0559720966542 54.7378522191
607.5 0.0674679985407 44.8675888495
608.125 0.0734721609572 28.3258608536
608.75 0.0562180040008 14.3777808039
609.375 0.0718444254742 34.8864518273
610.0 0.0764776215255 45.8853336054
610.625 0.0679025626433 41.6983294388
611.25 0.0428781117495 15.0342246966
611.875 0.0494370547217 73.8987286425
612.5 0.0281101789081 101.155673383
613.125 0.0212342984717 133.3955573
613.75 0.0323676455997 127.497759321
614.375 0.0363717819355 119.208181281
615.0 0.0348816492931 114.654534662
615.625 0.0232966496992 134.192371789
616.25 0.0476505681451 134.353294039
616.875 0.0322167218228 124.847858007
617.5 0.0369777423054 118.101451106
618.125 0.0209514301648 130.620265521
618.75 0.0299416003816 143.076465884
619.375 0.0111692460367 129.517892189
620.0 0.00984441666449 142.919554518
620.625 0.0218051717222 -117.781644234
621.25 0.0535025329284 -79.1508043087
621.875 0.0638120322114 -111.891041444
622.5 0.0738937153563 -165.463005585
623.125 0.0680998469997 173.618673629
623.75 0.0600911743912 164.308176981
624.375 0.0359065848048 -164.909124875
625.0 0.0516646516833 -153.171037176
625.625 0.0446589684836 -161.810846581
626.25 0.0297130827887 172.209225871
626.875 0.0236409687445 -6.2511350777
627.5 0.022383300931 -95.0179368052
628.125 0.0358496747681 -35.9089625822
628.75 0.0358164294381 -32.4939127058
629.375 0.0650951813454 1.13545470805
630.0 0.0636930516167 -13.8770299392
630.625 0.0678857838936 -2.91815540215
631.25 0.0663460881012 2.80353653999
631.875 0.0759776291448 10.4547796756
632.5 0.070619022191 -26.8699784592
633.125 0.0491916017872 -2.83449212344
633.75 0.0452080950128 12.1161161156
634.375 0.0478485323752 28.0496047509
635.0 0.0420963410155 35.4269948556
635.625 0.030615855774 25.1246934832
636.25 0.046362202308 38.329916179
636.875 0.0592660006137 32.7264361827
637.5 0.0568232602002 54.6735908477
638.125 0.0238283445764 34.2773155985
638.75 0.0646925702477 71.5436258782
639.375 0.0982127815984 89.6803736086
640.0 0.0787510579665 110.202449574
640.625 0.0504921973208 87.9363918207
641.25 0.0660718769419 121.792945255
641.875 0.0606910066932 143.677407174
642.5 0.067645016896 163.668768372
643.125 0.0467555876923 145.875769401
643.75 0.0604139879043 166.357932695
644.375 0.0642902359797 -178.627948406
645.0 0.0920731599302 -178.996859989
645.625 0.0813962469726 158.344744093
646.25 0.08581767078 163.938700509
646.875 0.0777391922421 -177.094366957
647.5 0.0720780368235 -173.27087218
648.125 0.0835966201161 -177.706726387
648.75 0.0732221071768 -163.907892683
649.375 0.0518221798966 -146.223805
650.0 0.0475481030476 -116.415143803
650.625 0.079419403444 -87.7166384447
651.25 0.0604715382871 -65.1311772103
651.875 0.0613353553198 -40.7479468202
652.5 0.0823522448517 -24.2989918026
653.125 0.137062206436 -1.41613502835
653.75 0.108959924993 6.47270333249
654.375 0.110932798157 6.05215324494
655.0 0.126758011574 13.8402578632
655.625 0.10125951313 27.7861937315
656.25 0.0554531938989 20.4933496886
656.875 0.0656578843972 8.52216965554
657.5 0.0768666155468 20.6851899549
658.125 0.0833433055925 48.0568057119
658.75 0.0394025009897 70.1278634293
659.375 0.0761430715152 41.6475774633
660.0 0.118009285104 24.0666191359
660.625 0.121579413999 17.2515085654
661.25 0.095747120569 3.95492109902
661.875 0.122275794613 -12.2112038847
662.5 0.115583770496 -22.722077202
663.125 0.117174296969 -15.8098087928
663.75 0.0770668571218 0.667081382426
664.375 0.0873019978467 52.1801137443
665.0 0.0764560210534 92.0973834007
665.625 0.0636544215431 111.761307501
666.25 0.081504539476 131.349618016
666.875 0.116645469168 169.995298714
667.5 0.101022995516 -168.371508213
668.125 0.109322360597 -179.996558765
668.75 0.12891197367 168.512072669
669.375 0.124787839996 178.762619066
670.0 0.0882551614465 -168.999957384
670.625 0.095844222951 -173.484814073
671.25 0.0922975055284 175.976782808
671.875 0.0924131529191 169.715741239
672.5 0.0685168454655 155.01366138
673.125 0.0916074530957 150.433426979
673.75 0.112553951967 159.474688207
674.375 0.122152283923 167.185256463
675.0 0.119816032411 -176.071121191
675.625 0.138400839837 -152.032365761
676.25 0.123045207651 -123.881389842
676.875 0.119241283861 -120.400166516
677.5 0.125506838897 -127.80378862
678.125 0.140373587216 -117.664966467
678.75 0.0516118118915 -91.8764767282
679.375 0.0465708713997 -68.5801841456
680.0 0.0767225799387 -78.3946338978
680.625 0.13311625874 -81.2105220478
681.25 0.101204527432 -71.2973941399
681.875 0.10029645636 -91.0712794557
682.5 0.141102923807 -121.079286552
683.125 0.168476666931 -121.827670019
683.75 0.148694795136 -107.039718922
684.375 0.101190579457 -74.1280670394
685.0 0.131049144611 -38.3506159834
685.625 0.128267519958 -1.23118522677
686.25 0.121126607285 18.3236500753
686.875 0.0672340089168 52.5252580896
687.5 0.068913346746 87.9753295788
688.125 0.0781860595215 110.187240873
688.75 0.106827211819 107.192197408
689.375 0.125556053282 130.043879108
690.0 0.133329134088 134.155273518
690.625 0.118942083186 125.227982809
691.25 0.146744258806 95.4987718383
691.875 0.193861299988 66.4179384368
692.5 0.141912627765 40.0958192422
693.125 0.0880317586668 -13.880306942
693.75 0.0925793158653 -37.767225322
694.375 0.146958156584 -36.1357918671
695.0 0.112864292472 22.2959007041
695.625 0.0999556162774 55.9078765188
696.25 0.114436874716 111.301636122
696.875 0.139819385109 172.418467288
697.5 0.149253830392 -149.498614322
698.125 0.13283923451 -131.742237941
698.75 0.138191621211 -134.098910726
699.375 0.116958563499 -129.829478664
700.0 0.0855468333071 -102.136143707
700.625 0.107544065354 -85.4230008358
701.25 0.0953720814957 -67.3905042809
701.875 0.0846949365499 -66.3695560183
702.5 0.10133526072 -77.095337301
703.125 0.171454970576 -121.947897782
703.75 0.185729979232 -154.155404264
704.375 0.129886420379 171.008548998
705.0 0.114922547317 152.854747307
705.625 0.134006457454 -157.557904038
706.25 0.134853450572 -108.462859979
706.875 0.0853371397225 -58.386354886
707.5 0.0804752930463 -45.161278201
708.125 0.0904860936377 29.6514313721
708.75 0.1130952999 67.1763734288
709.375 0.102609447783 108.459556211
710.0 0.102698502435 126.442820089
710.625 0.107890543443 147.921200699
711.25 0.121298070827 174.790474211
711.875 0.146357446433 168.421644864
712.5 0.157256512599 136.812604456
713.125 0.114707415484 111.11150942
713.75 0.100940686327 48.1218206478
714.375 0.116341917963 17.4118049379
715.0 0.115236197831 28.0468380779
715.625 0.0853799695201 39.9761208752
716.25 0.0909919477647 90.4331451333
716.875 0.127392952363 110.500692183
717.5 0.139519991229 150.345782424
718.125 0.118204618201 161.995082695
718.75 0.103915422126 175.082351768
719.375 0.117007479946 -170.468611238
720.0 0.133636014237 -123.226892162
720.625 0.114866540366 -75.5891725273
721.25 0.0918880274415 -21.1861741425
721.875 0.0823991919961 41.07827967
722.5 0.0724068701078 81.9270948885
723.125 0.0678308205381 52.743766126
723.75 0.117253529543 53.016623091
724.375 0.107839109187 -1.38239911364
725.0 0.0889746769967 -48.0993002301
725.625 0.103587570036 -66.1542672112
726.25 0.102483706938 -80.9404026529
726.875 0.109968824823 -37.2741173241
727.5 0.0850771130029 -24.4505762089
728.125 0.087025765208 9.05994833005
728.75 0.0737260895711 4.65736679094
729.375 0.0937460044074 29.0643222533
730.0 0.0651245024034 2.72639452105
730.625 0.0697750827156 20.5026380408
731.25 0.0740802153523 63.9120361356
731.875 0.0546000983057 100.853936522
732.5 0.0960202712478 158.277137223
733.125 0.0950365141896 -179.131453381
733.75 0.0751390298953 169.157490744
734.375 0.0604642301127 177.688017253
735.0 0.0554612418328 153.653434592
735.625 0.0398396393569 149.520646075
736.25 0.0413700348744 144.132353362
736.875 0.0365240391605 176.164080268
737.5 0.0773049521037 178.80181726
738.125 0.0991276020709 -176.809645149
738.75 0.0773962170829 -176.833205854
739.375 0.0279799053297 168.082675873
740.0 0.0908733603812 -139.761319048
740.625 0.0644761424944 -146.515180187
741.25 0.059634921629 -150.678425632
741.875 0.0228644618352 -97.1413136801
742.5 0.0196024778297 3.93548981558
743.125 0.0391989760094 50.8120813146
743.75 0.0478944505249 106.27736643
744.375 0.0415563977378 176.097651725
745.0 0.0879953089082 105.384623912
745.625 0.0740353315148 106.928236944
746.25 0.0840615286167 88.7273585023
746.875 0.0648829241305 45.1598516554
747.5 0.0366491506267 13.5164521836
748.125 0.0247006639607 -3.43423378669
748.75 0.0328480507906 -24.2698144912
749.375 0.0397604855844 -44.4465944199
750.0 0.0427017491602 -44.9028001349
