!Created with skrf (http://scikit-rf.org).
# GHz S RI R (50+0j) 
!freq	ReS11	ImS11	
500.0	-1.889596299	-2.108968207	
500.625	1.838352749	-3.004807138	
501.25	-2.475042336	-1.973993908	
501.875	-1.50002178	-0.3927779617	
502.5	0.01466416131	-0.1672994804	
503.125	-0.4163704139	0.05012987689	
503.75	0.2284837312	-0.02904429464	
504.375	0.1573877621	0.07859956593	
505.0	-0.119671951	-0.1041908257	
505.625	0.2774626605	-0.2271419717	
506.25	-0.6083319759	0.1660419003	
506.875	-0.01248435118	-0.9746461071	
507.5	-1.356257474	-1.785814	
508.125	-1.120894605	-0.8113414486	
508.75	3.136288965	-2.386700014	
509.375	-2.478725752	-4.608001707	
510.0	-0.9230228721	0.04362187471	
510.625	-1.186628144	-0.6005288746	
511.25	-0.1757260869	0.03501153118	
511.875	-0.5439072077	-0.2227930086	
512.5	-0.07761859093	0.1993219681	
513.125	-0.06810664882	-0.222009206	
513.75	0.01574186107	-0.1715261882	
514.375	-0.5699943636	-0.4165604943	
515.0	0.9377485939	1.414870723	
515.625	-1.804605081	-3.287724654	
516.25	-0.7297732874	0.7534710923	
516.875	0.1916809774	-2.717760509	
517.5	-1.088929431	-0.334378347	
518.125	0.2581158687	-0.3400095049	
518.75	-0.8139740308	-0.4110494324	
519.375	-0.1028555832	0.0369616052	
520.0	0.4203582672	0.3248605326	
520.625	0.4754844041	-0.3738901949	
521.25	-0.0405895158	-0.4620575683	
521.875	-0.6537771081	-0.1799611463	
522.5	0.01499092958	0.09337404538	
523.125	-0.2792847622	0.1110079848	
523.75	-0.1488502016	-0.04503785959	
524.375	-0.733132147	0.2305254611	
525.0	0.08952524105	0.02352693765	
525.625	-0.04869111622	0.3083443577	
526.25	0.03050430345	-0.308094136	
526.875	-0.1492750101	0.3799074097	
527.5	0.09167895037	0.2521820045	
528.125	-0.2557615988	0.9604577294	
528.75	0.5171832337	0.8634673743	
529.375	-0.1628349862	0.1479167774	
530.0	0.3919885917	0.4513750686	
530.625	-0.1012383181	0.8716346685	
531.25	1.560622948	-0.3309881539	
531.875	0.4313942505	-0.1966600486	
532.5	-0.2755922761	-0.6725543141	
533.125	0.430445574	0.4893848745	
533.75	0.07260159859	-0.936106373	
534.375	-0.03795745149	-0.3248269898	
535.0	-0.9803551034	-0.6199205218	
535.625	-0.08756613654	0.4376941553	
536.25	-0.1159157961	0.1936519439	
536.875	0.3597022022	0.06630374788	
537.5	0.05255752736	-0.1330126766	
538.125	0.4624952536	-0.05849444214	
538.75	0.1547621784	-0.4339593186	
539.375	-0.0154149245	-0.362673514	
540.0	-0.5959457127	-0.5087055321	
540.625	-0.2556733183	0.156689088	
541.25	-0.2127902786	-0.1202198752	
541.875	-0.1786417227	-0.03781634165	
542.5	-0.13566494	-0.02528364434	
543.125	-0.04606565694	-0.2534163242	
543.75	-0.463203067	0.1206769944	
544.375	0.04454950663	-0.1023711921	
545.0	-0.04055397365	0.3564665473	
545.625	0.06334623033	-0.1017203239	
546.25	0.3130762468	0.3595336656	
546.875	0.1306394786	-0.3372840444	
547.5	0.306709254	-0.06473225933	
548.125	-0.1275385024	-0.6448889328	
548.75	-0.4134212726	-0.096070436	
549.375	-0.08179270455	-0.1890959905	
550.0	-0.352919197	0.009828349882	
550.625	0.02913427797	0.003801298625	
551.25	-0.3408968793	0.07668191897	
551.875	-0.02727255978	0.1608080254	
552.5	-0.2281013868	0.1771020113	
553.125	0.02933340045	0.18646845	
553.75	0.08028913974	0.1219132051	
554.375	0.2601604285	0.0211600778	
555.0	0.2382685713	-0.1909457281	
555.625	0.2054734263	-0.2475118414	
556.25	0.1773253571	-0.3485903898	
556.875	-0.0956769607	-0.4033890816	
557.5	-0.2331734694	-0.2406310015	
558.125	-0.2789388895	-0.1121227508	
558.75	-0.2846446266	0.00277243175	
559.375	-0.2272728476	0.0505423124	
560.0	-0.2785685084	0.1535117354	
560.625	-0.09348512348	0.3293738484	
561.25	0.04151981625	0.1583173197	
561.875	0.03582101068	0.2069044629	
562.5	0.06782556168	0.01233023479	
563.125	0.1293910773	0.3059068832	
563.75	0.3686787158	-0.141906171	
564.375	0.2426782451	-0.05212749075	
565.0	0.2835957327	-0.489827832	
565.625	-0.1994194686	-0.2848842761	
566.25	-0.1326549794	-0.2691582922	
566.875	-0.4369139512	-0.2961267782	
567.5	-0.3683804672	-0.06095761111	
568.125	-0.1573849375	-0.4947889396	
568.75	-0.7797721073	-0.1715212574	
569.375	-0.3157818136	0.223846358	
570.0	-0.596253627	0.414679142	
570.625	0.08872371309	0.6462290729	
571.25	-0.1015895575	-0.03582212177	
571.875	0.340857831	0.531293272	
572.5	0.002519118912	-0.2180694566	
573.125	0.4788862227	-0.02765739547	
573.75	0.03556554065	-0.5850435638	
574.375	-0.07710643118	0.146901114	
575.0	0.2638007739	-0.3697369632	
575.625	-0.1321703094	0.08188213575	
576.25	0.4294524929	-0.2996588026	
576.875	-0.2422104843	-0.5123460438	
577.5	-0.07415786769	-0.0855774096	
578.125	0.1342919481	-0.4470606499	
578.75	-0.3830229771	-0.4723617176	
579.375	-0.2011952531	0.09847958135	
580.0	0.03457977609	-0.3096711237	
580.625	-0.2574256644	0.2032665005	
581.25	-0.2563055458	-0.1519171062	
581.875	0.01912407769	0.6758624767	
582.5	0.3712684939	0.1063143388	
583.125	-0.2293200746	0.1638168052	
583.75	0.5777199646	0.2573510243	
584.375	-0.3646029725	-0.0961360063	
585.0	0.5611222556	0.4142499163	
585.625	0.2875137357	-0.319483613	
586.25	0.3073708767	0.194984246	
586.875	0.2371857023	-0.6382905238	
587.5	-0.06043099634	-0.0399608751	
588.125	0.1893954616	-0.5060957463	
588.75	-0.1867589435	-0.4866435833	
589.375	0.133898844	-0.003929660418	
590.0	-0.03047396992	-0.7299660971	
590.625	-0.5071341351	0.0314773673	
591.25	-0.1637123452	0.188598459	
591.875	-0.2980722635	0.2157003928	
592.5	0.2420114715	0.2321505468	
593.125	-0.3206785353	0.1385263796	
593.75	0.2951658362	0.2117704066	
594.375	0.1016076659	0.2062414687	
595.0	0.5516779692	0.5817047241	
595.625	0.6042289017	-0.2445884267	
596.25	-0.006547574312	0.3829111752	
596.875	0.7798525983	0.1709820183	
597.5	0.1567216498	-0.1270682021	
598.125	0.2723221666	0.5835499059	
598.75	0.5760000532	-0.01860319161	
599.375	0.303785741	0.1359637459	
600.0	0.630887723	-0.4350685198	
600.625	0.1159706621	-0.4982672222	
601.25	0.2736757088	-0.2491135677	
601.875	-0.1592071501	-0.5151385422	
602.5	-0.24340747	0.0424090256	
603.125	-0.2163591766	0.1079286951	
603.75	-0.3190621624	0.04571601986	
604.375	-0.3002225529	0.3742587016	
605.0	-0.002999748512	-0.02110921633	
605.625	-0.3776354387	0.2995426191	
606.25	-0.001799134318	0.1127531451	
606.875	-0.7030753135	-0.03896103843	
607.5	-0.1471520601	0.7832809138	
608.125	-0.2229599493	0.1989933219	
608.75	0.535537081	0.8544967732	
609.375	0.3060699633	-0.3787160405	
610.0	0.6097545197	0.0244943489	
610.625	0.1945869724	-0.5851484187	
611.25	0.05058757176	-0.100257812	
611.875	-0.3808723313	-0.5541936307	
612.5	-0.1668137304	-0.01468371624	
613.125	-0.6505285202	-0.1030850288	
613.75	-0.04249331666	0.4960193926	
614.375	-0.1367494713	0.2306236867	
615.0	0.3178734371	0.05364863275	
615.625	-0.3611748678	0.1345725511	
616.25	0.09954899247	0.6320947655	
616.875	-0.138728969	0.1053039813	
617.5	-0.4068048935	0.7333681101	
618.125	0.2537355053	0.4797518112	
618.75	-0.2385394364	0.3104955662	
619.375	0.4107791444	0.540546383	
620.0	0.2555694244	0.03773982757	
620.625	0.4278081275	-0.3777132005	
621.25	-0.2255986722	-0.3114109555	
621.875	-0.496443031	-0.3760935865	
622.5	-0.4521721189	0.2457449221	
623.125	-0.2871592122	0.2934298625	
623.75	0.533466675	0.1330779328	
624.375	-0.1351297471	0.01849310459	
625.0	0.3040163052	-0.3827468424	
625.625	-0.002112342632	0.1904302421	
626.25	0.07795247372	-0.5915802508	
626.875	-0.5601633498	0.003291651577	
627.5	0.01032672176	-0.1706323852	
628.125	-0.5086241085	-0.3368059672	
628.75	-0.1448044414	-0.06194380735	
629.375	-0.07822559221	-0.5374466389	
630.0	-0.6462394639	-0.1416013601	
630.625	-0.2970673994	-0.02076090325	
631.25	-0.5573888281	0.4610006897	
631.875	0.05821119009	0.6696420229	
632.5	0.3161242549	0.3995034948	
633.125	0.3638324808	0.1692207969	
633.75	0.658926005	-0.09210746087	
634.375	-0.07210692161	-0.2726545737	
635.0	0.2079242112	-0.3601791719	
635.625	-0.5784113528	-0.1679039121	
636.25	-0.09659082927	-0.112143903	
636.875	-0.3927495853	0.4926534473	
637.5	0.2327551199	0.1320901714	
638.125	-0.5517031389	-0.01471115203	
638.75	0.06155240418	0.8507813347	
639.375	0.008812794251	0.05826294632	
640.0	0.007316510579	0.8245010377	
640.625	0.8820805848	0.4083987004	
641.25	0.3768021738	-0.1765577308	
641.875	0.864675528	-0.1847730681	
642.5	-0.3794858105	-0.4526003943	
643.125	0.1358074771	-0.3334570097	
643.75	-0.7070580659	-0.3307161836	
644.375	-0.006795706689	0.2856745412	
645.0	-0.656283159	-0.009631418962	
645.625	0.1729506621	0.802005952	
646.25	0.5825317724	-0.04261497817	
646.875	-0.22612555	0.09352107709	
647.5	0.7328917646	0.06412664212	
648.125	-0.2706866883	0.2711930485	
648.75	1.17353057	-0.117109254	
649.375	0.002742872666	-0.7894233779	
650.0	0.6962233214	-0.01817733198	
650.625	0.6373862768	-1.445695657	
651.25	-0.3357602874	-0.4111434436	
651.875	0.9341382294	0.3181111679	
652.5	1.122595728	-0.677176529	
653.125	0.1524866585	-0.4276250088	
653.75	0.9018428776	-0.08470010492	
654.375	-0.4048876992	-1.04340754	
655.0	-0.2465920829	0.03747833072	
655.625	-0.9142507396	0.06383823896	
656.25	0.5540968834	0.6986612212	
656.875	-0.2942136168	-0.07114497716	
657.5	0.2792952348	0.5450275778	
658.125	0.3565221525	0.07810281723	
658.75	0.3050049717	0.4444283415	
659.375	1.266096077	-0.4042295328	
660.0	0.113337011	-0.7655539551	
660.625	0.5080045313	-0.3826722294	
661.25	0.7839746302	-1.087507637	
661.875	-0.1727820016	-0.6491900988	
662.5	0.9611997877	0.1382176877	
663.125	0.8494384007	-0.9595614675	
663.75	-0.04356781376	-0.3710441393	
664.375	0.4744747259	-0.9461783143	
665.0	-1.067240157	-0.3001318329	
665.625	-0.3900646607	-0.1258288141	
666.25	-0.5806362432	0.8492278505	
666.875	0.5660865053	0.3314333533	
667.5	0.008745248947	0.329081509	
668.125	0.875769167	0.05002283417	
668.75	0.2769520695	-0.511640528	
669.375	0.2244332281	-0.2659040845	
670.0	0.256509972	-0.6589738852	
670.625	-0.297141365	-0.4489153028	
671.25	0.3599525799	-0.2731938024	
671.875	0.3307028332	-0.5910326717	
672.5	0.2030896817	-0.2667124908	
673.125	0.8426854084	-0.2635243899	
673.75	0.2621915914	-0.9025820093	
674.375	-0.1089439449	-0.1657080025	
675.0	0.3180065576	-0.7660146319	
675.625	-0.9061529262	-0.4952891388	
676.25	0.0006276980301	0.2450563176	
676.875	-0.7775413548	-0.4248288743	
677.5	-0.04000582996	0.4127188582	
678.125	-0.6526167373	-0.1427840412	
678.75	0.5387793064	0.9653585206	
679.375	-0.08122177028	0.04596797	
680.0	0.6123351728	0.06648983049	
680.625	0.2922205772	-0.5622402317	
681.25	-0.2914598491	0.03771646041	
681.875	0.4968713045	0.5297352089	
682.5	0.7179343359	0.1004812601	
683.125	0.48696629	-0.1054076777	
683.75	0.259225563	0.5260156197	
684.375	1.322855149	-0.02245868952	
685.0	-0.02662505454	0.01528304239	
685.625	1.107187613	0.257962782	
686.25	0.5873519861	-0.666577075	
686.875	0.6286373477	0.6336312468	
687.5	1.179084866	-1.618989744	
688.125	-0.5967894581	-0.2153096754	
688.75	-0.5515750478	-1.330237379	
689.375	-0.8847891185	1.313452381	
690.0	0.2859518751	0.3785969932	
690.625	0.6115065006	1.205422263	
691.25	0.7640381705	0.2664666924	
691.875	0.7714814	0.9296314255	
692.5	1.729680364	0.6033011079	
693.125	1.167638042	-0.06469982981	
693.75	1.435717212	-0.3601405451	
694.375	1.042190274	-0.9405532838	
695.0	1.278476985	-0.5957293148	
695.625	0.9739279315	-0.4197464612	
696.25	0.7744448454	0.9669265408	
696.875	1.767634871	0.9628178182	
697.5	0.328421088	0.6554073	
698.125	1.825788247	1.429494742	
698.75	0.4116041952	-1.538038113	
699.375	0.1509275554	-1.225586023	
700.0	-1.125689273	1.397611889	
700.625	0.3855130549	0.08386320727	
701.25	0.7018695101	1.238667924	
701.875	0.6689084736	0.03398798671	
702.5	0.5391931424	0.9640552238	
703.125	1.350722394	0.1945126381	
703.75	0.4106792383	0.09815452082	
704.375	1.086142602	-0.5954339281	
705.0	0.2115508361	-0.4463311794	
705.625	0.8857675206	0.6864009502	
706.25	0.9841577536	-0.1571978382	
706.875	0.05467362048	0.7208167099	
707.5	1.00178699	1.347772631	
708.125	0.8309632631	-0.1443825141	
708.75	1.236176662	-0.4386789027	
709.375	-1.046615486	-0.8504792215	
710.0	-0.2116036413	0.2077242337	
710.625	0.003529299037	0.7284120178	
711.25	0.2454865888	0.006958084388	
711.875	0.4111888115	0.4980951324	
712.5	0.7487010038	-0.1150096433	
713.125	0.9432058275	-0.2756537512	
713.75	0.09595565684	-0.826159437	
714.375	0.4295559012	-0.07818387427	
715.0	-0.3038877633	-0.9677522147	
715.625	-0.09419044251	-0.03172285511	
716.25	1.147683355	-0.8434114401	
716.875	-0.01048612581	-1.06181616	
717.5	1.157129902	1.104660663	
718.125	3.160549333	-0.2878329454	
718.75	-0.07267616178	-1.155530415	
719.375	3.744250104	0.8033718456	
720.0	0.3733738609	-4.032051836	
720.625	0.5926155375	-1.252149133	
721.25	1.063882566	-2.717705102	
721.875	-1.589630536	-3.237836026	
722.5	-0.3713333678	-1.575947185	
723.125	-2.593267684	-0.7092965941	
723.75	-0.6664257586	1.328701511	
724.375	-0.3368201948	0.7313925873	
725.0	0.4928183597	1.377030366	
725.625	0.7678166952	0.7857481327	
726.25	-0.1255197967	1.020825122	
726.875	-1.121278728	2.89126313	
727.5	1.260978748	4.857560722	
728.125	-0.6548524948	0.6812188957	
728.75	-3.468847264	13.7024017	
729.375	4.416685386	10.8221251	
730.0	-7.933260554	2.458276241	
730.625	7.982417992	22.80248147	
731.25	1.927110397	-0.7052572998	
731.875	-14.84573498	5.143852808	
732.5	-11.85457112	7.091420842	
733.125	-2.710338935	2.320432556	
733.75	-4.850358946	1.5215185	
734.375	3.338153814	0.9244183067	
735.0	-0.08630076571	-0.8768104293	
735.625	-1.579679535	-0.7730253276	
736.25	0.9848936832	1.720141966	
736.875	-0.3180401362	1.080709225	
737.5	3.507617805	1.373342942	
738.125	4.941645231	-2.51952216	
738.75	0.4177752182	-3.846465979	
739.375	10.21612818	4.44230074	
740.0	10.98762225	-16.7825182	
740.625	-11.37525447	1.065893235	
741.25	1.85145691	22.01702912	
741.875	9.146736964	15.50449354	
742.5	2.816419244	-18.29305929	
743.125	-4.11322353	-9.905491652	
743.75	-0.721242247	-0.1142635523	
744.375	-0.3328087203	-1.765786093	
745.0	0.5351271919	0.8481444677	
745.625	-0.140087796	0.2380510021	
746.25	-0.04508661305	-0.6530350846	
746.875	-0.1373466623	0.07364116214	
747.5	-0.7107828619	0.7434983684	
748.125	0.5420948901	1.713567911	
748.75	0.322844237	0.7509908951	
749.375	0.502589858	1.313316961	
750.0	-1.015738753	0.9490693036	
