!Created with skrf (http://scikit-rf.org).
# GHz S RI R (50+0j) 
!freq	ReS11	ImS11	
500.0	-2.415186473	-3.994233477	
500.625	-0.265564702	-1.555121782	
501.25	-0.4793563844	-1.894765943	
501.875	-2.745661086	-3.001778299	
502.5	-0.2100576777	-0.01942426131	
503.125	-0.3696143297	-0.07530813196	
503.75	0.3194737584	0.1306546839	
504.375	0.101142558	0.09845996404	
505.0	-0.04191792713	-0.1848469945	
505.625	0.2727518694	-0.004252645004	
506.25	-0.6956005145	-0.3299037174	
506.875	0.520846468	0.0346110054	
507.5	0.1822335387	-2.087250931	
508.125	-1.078142212	-2.612279917	
508.75	1.583722895	-0.819560067	
509.375	-0.9475330738	-7.087038072	
510.0	-1.015203548	0.4527559145	
510.625	-0.3598660518	-1.137913293	
511.25	-0.4621394297	0.2531541033	
511.875	-0.3533372156	-0.3319844719	
512.5	-0.1426851788	0.1497311425	
513.125	-0.06838511804	-0.3856517582	
513.75	-0.1342718475	0.06434132296	
514.375	-0.1619157725	-0.4768650606	
515.0	-0.6027790474	1.276481009	
515.625	0.3953816463	-3.353431664	
516.25	-2.830829532	0.3382552554	
516.875	1.124852972	-1.698168808	
517.5	-0.9586304334	-0.9920342436	
518.125	0.2646335605	0.04956130391	
518.75	-0.4601439134	-0.7783452276	
519.375	-0.03589634294	0.1842802501	
520.0	0.2873000355	0.398858489	
520.625	0.6143431586	-0.2962244024	
521.25	-0.1801751257	-0.5518443613	
521.875	-0.4187026556	-0.3649043024	
522.5	-0.01430035778	0.2053456271	
523.125	-0.255311818	0.07776785783	
523.75	-0.05475690321	0.02345147598	
524.375	-0.7795562053	-0.08357916269	
525.0	0.3404140663	0.2794645829	
525.625	-0.1422385679	0.1455518941	
526.25	0.1826803941	-0.1250551928	
526.875	-0.3518192241	0.2565276921	
527.5	0.2581560549	0.527878598	
528.125	-0.2818092587	0.5876699059	
528.75	0.1989174306	1.171716575	
529.375	0.05838855924	0.009170289298	
530.0	0.4914134684	0.6244608133	
530.625	-0.123312031	0.6223590627	
531.25	1.884335027	0.383695127	
531.875	0.2338524633	-0.4175850513	
532.5	0.1258038217	-0.6615000036	
533.125	-0.1597953541	0.2789584115	
533.75	0.4261806143	-0.8725000832	
534.375	-0.3949940461	-0.3292389574	
535.0	-0.5185990045	-0.803877516	
535.625	-0.4312846711	0.6278685454	
536.25	-0.01063092957	0.1263185014	
536.875	0.3043379936	0.1577848418	
537.5	0.1192671934	-0.2135444318	
538.125	0.3379362979	0.08113144555	
538.75	0.3013763222	-0.531591829	
539.375	-0.06703255636	-0.2692483857	
540.0	-0.3987510514	-0.622565329	
540.625	-0.490032999	0.1335079875	
541.25	-0.1362071272	-0.007174557749	
541.875	-0.07385523497	-0.1388417733	
542.5	-0.2851223415	-0.09934464112	
543.125	0.03871527144	-0.0732487354	
543.75	-0.4256928106	-0.0968176494	
544.375	0.1033330795	0.08916067605	
545.0	-0.1878445726	0.2750792567	
545.625	0.2425517649	-0.03363681588	
546.25	0.05631805182	0.3409802257	
546.875	0.4644385698	-0.3486774377	
547.5	0.06296218893	-0.05863060232	
548.125	0.101654663	-0.5256157121	
548.75	-0.5037613473	-0.304404244	
549.375	-0.1253885116	-0.05339216697	
550.0	-0.327438557	-0.1168541048	
550.625	-0.007181139675	0.103234348	
551.25	-0.3076334514	-0.04317014346	
551.875	-0.1010819749	0.2888639907	
552.5	-0.1518540308	0.08159911567	
553.125	-0.05504679341	0.2147915439	
553.75	0.1160600027	0.1005641533	
554.375	0.2295586674	0.04520248191	
555.0	0.2738193278	-0.1853105325	
555.625	0.2118008802	-0.2556314999	
556.25	0.1887155203	-0.3425113766	
556.875	-0.07177043999	-0.4192790763	
557.5	-0.2389429018	-0.2572341299	
558.125	-0.2704889563	-0.1133629384	
558.75	-0.2923733443	-0.0339464934	
559.375	-0.2601302096	0.07405572469	
560.0	-0.2320168948	0.1278174344	
560.625	-0.1797704896	0.3075012004	
561.25	0.09263026273	0.2161869102	
561.875	-0.03016325642	0.1562443376	
562.5	0.1238696799	0.06404900521	
563.125	0.05723142206	0.2699071095	
563.75	0.4670736344	-0.04942549938	
564.375	0.1350072788	-0.1902050297	
565.0	0.3590667447	-0.295708555	
565.625	-0.1545450953	-0.4741743155	
566.25	-0.2346182961	-0.1330837649	
566.875	-0.2552028485	-0.3465326928	
567.5	-0.5301822153	-0.229316967	
568.125	-0.1193924108	-0.3053850146	
568.75	-0.7276752861	-0.3679151796	
569.375	-0.4263479406	0.3595149426	
570.0	-0.449780577	0.2243148877	
570.625	-0.2656867925	0.7699642673	
571.25	0.2179021853	0.0002884578212	
571.875	-0.04729452421	0.5221819243	
572.5	0.3722840331	-0.333009883	
573.125	0.1556195953	0.06909326817	
573.75	0.3748322392	-0.5223449019	
574.375	-0.2650475058	-0.06226145075	
575.0	0.4152801214	-0.08691437798	
575.625	-0.2135438587	-0.2711343039	
576.25	0.3115727495	0.05527185688	
576.875	0.03777519234	-0.6369322247	
577.5	-0.2570364541	-0.3167416014	
578.125	0.08224686223	-0.2215554438	
578.75	-0.1432246816	-0.5515732449	
579.375	-0.4018470625	0.01200563545	
580.0	0.1355406367	-0.1405130876	
580.625	-0.4382317941	0.005130346598	
581.25	0.007671738553	0.003478435963	
581.875	-0.3549700373	0.4879049883	
582.5	0.4660750521	0.52813083	
583.125	0.0284933072	-0.2362172945	
583.75	0.07848266785	0.5751067036	
584.375	0.05710553424	-0.338722907	
585.0	0.2016511907	0.585948741	
585.625	0.5111834343	-0.3213408989	
586.25	0.06426309737	0.1140929703	
586.875	0.5056174976	-0.5035463527	
587.5	-0.3171143317	-0.2444730687	
588.125	0.2446101782	-0.1914475285	
588.75	0.2031409526	-0.6266417959	
589.375	-0.09192422793	-0.3257783062	
590.0	0.1245684603	-0.3703447211	
590.625	-0.6099146732	-0.2212464501	
591.25	-0.1902410019	0.2884433951	
591.875	-0.2315654455	0.1448545242	
592.5	0.1099115691	0.2732132539	
593.125	-0.2716495698	0.01022805157	
593.75	0.2902279428	0.3950643693	
594.375	0.2760627449	-0.004408240183	
595.0	0.08156361661	0.4963579218	
595.625	0.9701890209	0.3365311628	
596.25	0.02362677873	-0.148696523	
596.875	0.5072397836	0.4946893056	
597.5	0.5211077514	-0.07804244583	
598.125	-0.02238155124	0.5271599265	
598.75	0.7861253518	0.1608890224	
599.375	0.2239554365	-0.03712901699	
600.0	0.632357671	-0.1605755138	
600.625	0.376193824	-0.6431201879	
601.25	0.02664136516	-0.3129029343	
601.875	-0.0308828207	-0.3745578051	
602.5	-0.318924217	-0.09900368895	
603.125	-0.3047447453	0.1852113378	
603.75	-0.2007837032	0.008176360176	
604.375	-0.4177413372	0.1862368619	
605.0	0.004602435141	0.2118549858	
605.625	-0.4052664622	0.05471148381	
606.25	-0.1365659688	0.3601033988	
606.875	-0.3653176953	-0.1862758403	
607.5	-0.6931157292	0.8197519701	
608.125	0.144994603	0.2266804549	
608.75	0.1377709428	0.7206118822	
609.375	0.747139472	-0.3958878409	
610.0	0.2724671188	0.1043478596	
610.625	0.4096747077	-0.5511845276	
611.25	-0.1550922295	-0.1395683873	
611.875	-0.01024937108	-0.5961843431	
612.5	-0.4354179606	0.05498270617	
613.125	-0.4393890194	-0.1597807412	
613.75	-0.2719849087	0.6011396197	
614.375	-0.03139753398	0.08639467255	
615.0	0.3105024913	0.2884808122	
615.625	-0.1878915066	-0.07626733829	
616.25	-0.2479705604	0.6421691262	
616.875	0.1195335051	0.31761275	
617.5	-0.5187660681	0.4126824954	
618.125	0.08456295172	0.7490035564	
618.75	0.03202756344	0.1943896537	
619.375	0.1191281719	0.6488113547	
620.0	0.4308418356	-0.01222923562	
620.625	0.4063777991	-0.2302035928	
621.25	-0.2949915993	-0.4046498246	
621.875	-0.3482977548	-0.3015221388	
622.5	-0.6007336867	0.1740872095	
623.125	-0.1302737263	0.2334489236	
623.75	0.4121702152	0.3486303245	
624.375	-0.1182362114	-0.2313845863	
625.0	0.5139300937	0.07151414819	
625.625	-0.3577464952	-0.2164738656	
626.25	0.2519509897	-0.3152130437	
626.875	-0.6221279224	-0.3010534404	
627.5	-0.1285950105	0.111313399	
628.125	-0.2228719882	-0.5047998532	
628.75	-0.3312176191	-0.09138018093	
629.375	0.06725871036	-0.4422690779	
630.0	-0.6098764718	-0.3753496729	
630.625	-0.3875517717	0.3093853429	
631.25	-0.4206187558	0.1980873223	
631.875	-0.1631023977	0.7061363424	
632.5	0.3485942408	0.5400265569	
633.125	0.4323711753	0.05861410112	
633.75	0.4619717031	0.1100870952	
634.375	0.007212480373	-0.4947898273	
635.0	0.1598918115	-0.2512104082	
635.625	-0.494502716	-0.3656945476	
636.25	-0.10083889	0.2479268649	
636.875	-0.5218343467	0.1183651214	
637.5	0.1572878866	0.5524557762	
638.125	-0.1329086738	-0.2702301057	
638.75	-0.5021373956	0.7053560826	
639.375	0.3306993802	0.5737767488	
640.0	-0.05605692374	0.3658954805	
640.625	0.7014839773	0.7045935108	
641.25	0.5933007565	-0.29480013	
641.875	0.547460904	0.009804827599	
642.5	-0.2826315018	-0.9235745791	
643.125	-0.06012284107	0.02377604756	
643.75	-0.2616008863	-0.6276638073	
644.375	-0.5933340158	0.287626731	
645.0	-0.06470594838	0.1849774301	
645.625	-0.3300940557	0.5594169336	
646.25	0.7615402475	0.2548148244	
646.875	-0.107115985	-0.2457502617	
647.5	0.4753521617	0.4816308026	
648.125	-0.07799949492	-0.2722764911	
648.75	0.9960593912	0.3804019103	
649.375	0.5028535342	-1.137814417	
650.0	-0.07448656297	-0.2134549577	
650.625	1.235040096	-0.4472294817	
651.25	0.1950144361	-1.393693372	
651.875	0.09720256659	0.1377656297	
652.5	1.23110719	0.08984526436	
653.125	0.5274934697	-0.7156354846	
653.75	0.4244088967	0.1153140108	
654.375	-0.07952025863	-1.237793792	
655.0	-0.7065786362	0.1448787599	
655.625	-0.3417201432	-0.1369491997	
656.25	-0.1841418192	0.9150058537	
656.875	0.3817654233	-0.276861418	
657.5	-0.1937605038	0.5650042342	
658.125	0.5831526235	0.3716086501	
658.75	0.4437687948	0.008519072848	
659.375	1.042689904	0.1871795746	
660.0	0.4364516254	-1.166521629	
660.625	0.2050943001	-0.3402050822	
661.25	0.8652735928	-0.6157792762	
661.875	0.4224480582	-1.192587552	
662.5	0.09369244658	-0.001581828514	
663.125	1.337357016	-0.3466157145	
663.75	-0.01004491832	-0.9141201294	
664.375	0.3212422743	-0.4193791585	
665.0	-0.9721995526	-0.9012563958	
665.625	-0.3274482619	0.3189230317	
666.25	-0.6622861663	0.4466548335	
666.875	0.4452017972	0.7561690917	
667.5	0.3279790656	-0.1020545561	
668.125	0.4679086913	0.4361631812	
668.75	0.6239771946	-0.6050929522	
669.375	0.07916500025	-0.4105772521	
670.0	0.2675990524	-0.4323318971	
670.625	-0.1123067078	-0.7097308667	
671.25	0.1808454362	-0.1011836729	
671.875	0.4852248566	-0.5409194031	
672.5	0.3432254016	-0.5018318866	
673.125	0.3332257602	-0.04626981537	
673.75	0.9829908276	-0.5561569427	
674.375	-0.3970318478	-0.8905185435	
675.0	0.3129453703	-0.1227854056	
675.625	-0.6069494938	-0.8296753908	
676.25	-0.4602100762	0.4627754329	
676.875	-0.2709282997	-0.6784426452	
677.5	-0.4819192502	0.635782984	
678.125	-0.2207225217	-0.1927639013	
678.75	-0.248841331	1.057683514	
679.375	0.7287472798	-0.2409583013	
680.0	0.03925564543	0.05798907232	
680.625	0.5528010597	-0.123641497	
681.25	0.1997941515	-0.3484112898	
681.875	0.009307295342	0.2335041809	
682.5	0.7043583846	0.480635815	
683.125	0.6040125889	-0.06135784303	
683.75	0.3210857474	0.2114670414	
684.375	1.041725228	0.4258636845	
685.0	0.4108073815	-0.4126759512	
685.625	0.6410261631	0.7128977574	
686.25	1.304955474	-0.4581828429	
686.875	-0.1260961672	-0.2255293853	
687.5	1.539761751	-0.1619051606	
688.125	-0.783929174	-1.635232966	
688.75	0.04486437363	-0.4804765945	
689.375	-1.514513688	0.9150132318	
690.0	0.6151096967	0.6189920855	
690.625	-0.05179959086	1.097016379	
691.25	1.215967874	0.2984905884	
691.875	0.7136862731	0.7081013027	
692.5	1.43392893	0.8177822244	
693.125	1.667998993	-0.2121404583	
693.75	1.317717516	-0.5032229981	
694.375	0.9751595484	-1.033482394	
695.0	1.215253165	-0.319180062	
695.625	1.420923215	-0.6026316778	
696.25	0.627083552	0.4238259039	
696.875	1.286864696	1.786786263	
697.5	1.019280304	0.4142532851	
698.125	0.9643150547	1.519187076	
698.75	1.530299741	-1.63616114	
699.375	-0.3150541037	-0.1789932731	
700.0	-1.743110306	0.5944853665	
700.625	0.7510923736	0.6273775485	
701.25	-0.03227958773	0.7176631569	
701.875	1.247743713	0.3921482991	
702.5	0.3494897915	0.5786308552	
703.125	1.264829908	0.5536413091	
703.75	0.5207210066	-0.5678316749	
704.375	1.020586712	-0.03186499863	
705.0	0.4753223407	-0.8562005805	
705.625	0.2174156318	0.3852661045	
706.25	1.196777381	0.6767679476	
706.875	0.3089065792	0.2339260319	
707.5	0.3668423872	1.416879117	
708.125	1.503615195	0.07425914095	
708.75	0.6699843308	-0.3062977126	
709.375	-0.692214877	-1.297659175	
710.0	-0.2205141668	0.6474812149	
710.625	-0.1820555848	0.4046515044	
711.25	0.4088435296	0.336156268	
711.875	0.4056553456	0.3468424023	
712.5	0.7469580891	-0.0666555332	
713.125	0.6764612119	-0.1156145167	
713.75	0.4637409534	-0.8535242096	
714.375	-0.1835865279	-0.1317580636	
715.0	0.3001596674	-0.9390426003	
715.625	-0.4180361199	-0.3210942493	
716.25	0.8978471286	-0.08764998107	
716.875	1.280297162	-1.338418686	
717.5	-0.04867520939	-0.002486643852	
718.125	2.894505552	1.406644121	
718.75	2.452172781	-1.536093788	
719.375	0.5812790562	0.1749920989	
720.0	3.603101563	-3.082523654	
720.625	-0.7962133186	-2.291932729	
721.25	1.094417032	-2.526831958	
721.875	-0.8117448599	-3.766863828	
722.5	-1.420784076	-1.002113444	
723.125	-1.724037214	-1.536782699	
723.75	-1.242271721	1.503070434	
724.375	0.2027689034	0.8379250953	
725.0	0.136717112	0.717591797	
725.625	0.2826353942	1.813017453	
726.25	1.2812247	1.144715167	
726.875	-1.380632837	1.72648522	
727.5	-0.7008137232	5.273805863	
728.125	3.227992941	3.730827712	
728.75	-6.901681321	5.213164124	
729.375	-0.6251303066	14.47315203	
730.0	1.007921824	1.975894952	
730.625	-14.22675987	16.97578507	
731.25	6.623449458	16.82980139	
731.875	-4.671499356	-2.000490444	
732.5	-13.33411477	0.3057288116	
733.125	-8.379145621	2.95585801	
733.75	-1.20305516	0.8545663575	
734.375	3.070631658	3.052531377	
735.0	-0.4615219233	-0.9814857988	
735.625	-0.8199718781	-0.5060321542	
736.25	-0.505417199	2.336002842	
736.875	1.609672074	0.3509300701	
737.5	1.14646218	1.603656476	
738.125	6.061389473	0.1017670909	
738.75	4.63652225	-7.00191068	
739.375	-1.021386696	1.302582928	
740.0	25.68773597	-9.725438981	
740.625	-3.083166142	-13.75873317	
741.25	-17.17629862	27.51318318	
741.875	-4.446050722	18.15772787	
742.5	11.84085233	1.177317394	
743.125	3.040988281	-10.63758203	
743.75	-1.924153659	-3.09499526	
744.375	0.0605470698	-0.1300148967	
745.0	-0.5397302506	0.7740112631	
745.625	-0.1440502089	-0.2291701996	
746.25	0.2108925232	-0.6006306712	
746.875	-0.5103449738	0.3524558345	
747.5	-0.2495580154	0.5308413495	
748.125	0.01419631343	1.771633752	
748.75	0.6577373757	0.9777266822	
749.375	0.3184660563	0.6274372225	
750.0	-1.527494124	-0.1735242556	
