!Created with skrf (http://scikit-rf.org).
# GHz S RI R (50+0j) 
!freq	ReS11	ImS11	
500.0	-0.1705977204	-1.13293126	
500.625	-0.1573680262	-0.5896398221	
501.25	0.02079773446	-0.711107906	
501.875	-0.397493351	-0.4248627384	
502.5	-0.03149448426	-0.0441224962	
503.125	-0.07601402972	-0.01928803805	
503.75	0.05685811011	0.05989497779	
504.375	0.03019770822	0.03552893761	
505.0	0.00240477259	-0.05013199231	
505.625	0.02179299922	6.892670544e-05	
506.25	-0.1484039089	-0.1080018047	
506.875	0.1096097127	0.07325746136	
507.5	0.1546935854	-0.4800568997	
508.125	-0.1049386097	-0.7608668967	
508.75	0.1342592373	-0.4143238991	
509.375	-0.3755776999	-1.249639283	
510.0	-0.4069866721	-0.06618849007	
510.625	0.005064768738	-0.1046182053	
511.25	-0.1489140769	-0.03121183736	
511.875	-0.06315354132	0.01192112956	
512.5	-0.04794860737	0.01311850216	
513.125	-0.03064387846	-0.06996558135	
513.75	-0.03236357945	0.01713539567	
514.375	-0.03086221331	-0.07935411138	
515.0	-0.1377478451	0.13877106	
515.625	0.3415262825	-0.8182538139	
516.25	-0.6147270958	-0.2278789895	
516.875	0.1935767863	-0.2788925147	
517.5	-0.05353840203	-0.2943088169	
518.125	0.04205955139	0.0335712856	
518.75	-0.07083263305	-0.2166315709	
519.375	-0.04388686679	0.05535272504	
520.0	0.06591682499	0.004587353963	
520.625	0.1407820929	-0.04837571607	
521.25	-0.06174042281	-0.2178725734	
521.875	-0.1116667166	0.007266323058	
522.5	-0.06596282185	-0.02273417365	
523.125	-0.08313696412	0.06698578112	
523.75	-0.03193783386	-0.103889498	
524.375	-0.2639800499	-0.004659117172	
525.0	0.09140626229	0.08760560475	
525.625	-0.05399024506	0.0249826755	
526.25	0.07032203822	-0.02585261997	
526.875	-0.118657395	0.03494493548	
527.5	0.04557898065	0.2288600316	
528.125	-0.002041261458	0.1095662156	
528.75	-0.009295897226	0.2737993686	
529.375	0.08324886195	0.00697284639	
530.0	-0.04551664352	0.1488974302	
530.625	0.2405032992	0.3090880667	
531.25	0.5850779883	0.06494752598	
531.875	0.1878916	-0.124495985	
532.5	-0.1549424515	-0.1309215573	
533.125	0.0563786767	0.0447671651	
533.75	0.1127772645	-0.3148792821	
534.375	-0.07691518767	-0.1363106667	
535.0	-0.2196507621	-0.1371735283	
535.625	-0.1466828281	0.1827344314	
536.25	0.01493322901	0.04225415118	
536.875	0.08979854394	0.0458824831	
537.5	0.04627432217	-0.07204418973	
538.125	0.07892723336	0.00822151634	
538.75	0.137038499	-0.157478111	
539.375	-0.06440907293	-0.080586249	
540.0	-0.1010113588	-0.1791823443	
540.625	-0.2035858331	0.01055526691	
541.25	-0.09604744877	0.03875500696	
541.875	-0.03524847101	-0.04524328612	
542.5	-0.1016843357	-0.04195319349	
543.125	-0.02458006851	-0.05122397382	
543.75	-0.1480386426	-0.09169282222	
544.375	0.01657911103	0.04746956959	
545.0	-0.04018235591	0.07265423632	
545.625	0.1190923263	0.01056777005	
546.25	0.02623852915	0.05727979659	
546.875	0.168272664	-0.06681420407	
547.5	0.006498920729	-0.08858720293	
548.125	0.006442947438	-0.1313857428	
548.75	-0.1502856743	-0.1545774347	
549.375	-0.1056780152	0.0004803163969	
550.0	-0.06472870772	-0.03727539161	
550.625	-0.04646312078	0.05447945955	
551.25	-0.060769214	-0.007755849957	
551.875	-0.0682749588	0.09613448402	
552.5	-0.01535928335	0.0449902368	
553.125	-0.01981488688	0.06351311105	
553.75	0.056114315	0.03070329207	
554.375	0.07577293806	-0.004018344529	
555.0	0.08630074905	-0.07206034077	
555.625	0.06146943191	-0.1076851147	
556.25	0.04765708851	-0.126542329	
556.875	-0.03702225439	-0.1447657668	
557.5	-0.09841507366	-0.08692094916	
558.125	-0.1036508107	-0.02456797046	
558.75	-0.1004778255	-0.001890190084	
559.375	-0.1035129679	0.03212914147	
560.0	-0.07252964249	0.06980073396	
560.625	-0.06283568774	0.09314762629	
561.25	0.0259588018	0.1121202675	
561.875	0.01449481114	0.01427880117	
562.5	0.03083371118	0.08045689505	
563.125	0.04266417242	0.02610516975	
563.75	0.149514815	0.02947199966	
564.375	0.09711779676	-0.1352294819	
565.0	0.04508385111	-0.09483981505	
565.625	0.003117408427	-0.173394491	
566.25	-0.1665546782	-0.06167284457	
566.875	-0.06285628016	-0.05497823478	
567.5	-0.1549283061	-0.1525067766	
568.125	-0.1725639753	-0.05189934682	
568.75	-0.1564490791	-0.1089847905	
569.375	-0.2667406202	0.2014230622	
570.0	-0.004072337805	0.1352000147	
570.625	-0.1635144174	0.149634985	
571.25	0.08471978752	0.1550749783	
571.875	-0.05204944465	0.04393363816	
572.5	0.1997928332	0.005485921668	
573.125	-0.02554920936	-0.1357429903	
573.75	0.07016988449	-0.01599688002	
574.375	-0.008241967342	-0.1814152889	
575.0	-0.007588303641	0.05464017061	
575.625	0.07733472473	-0.1589813117	
576.25	-0.05036305028	-0.0727973571	
576.875	0.05844980498	-0.08424524971	
577.5	-0.002731908603	-0.2189879963	
578.125	-0.1491319088	-0.09888836762	
578.75	-0.001231444628	-0.05581815437	
579.375	-0.1129349194	-0.16725921	
580.0	-0.08425853023	0.1061177812	
580.625	-0.06689294281	-0.1538869723	
581.25	-0.06103796241	0.1785935552	
581.875	-0.02456244099	-0.02836586882	
582.5	-0.02326704488	0.2397220098	
583.125	0.1825544984	0.03993104711	
583.75	-0.08430489203	0.01884219562	
584.375	0.159351508	0.05899590706	
585.0	0.03102372816	-0.02410786164	
585.625	0.1498152026	0.08068183063	
586.25	0.1557318423	-0.1580003574	
586.875	0.03048484825	-0.0203716586	
587.5	0.02955285986	-0.1951279097	
588.125	-0.1134209526	-0.1162802186	
588.75	0.067507988	-0.05537157906	
589.375	0.08458732226	-0.2109603081	
590.0	-0.1273135931	-0.08957689337	
590.625	-0.09449713846	-0.06788729477	
591.25	-0.2071453701	0.1622650983	
591.875	0.1101953941	0.08722065377	
592.5	-0.0974248904	0.02821989641	
593.125	0.07961285168	0.0515001451	
593.75	-0.05605442731	0.1412739769	
594.375	0.3058397496	0.06654159792	
595.0	0.09581665693	-0.02991623554	
595.625	0.1000053849	0.1425931662	
596.25	0.2086928973	-0.02768951781	
596.875	0.06946649437	-0.02333112437	
597.5	0.1334201973	0.1423142136	
598.125	0.2133175885	0.0435997534	
598.75	0.0861720669	0.04889446923	
599.375	0.2356364426	-0.08434280049	
600.0	0.07882985862	-0.1818563672	
600.625	0.08466888367	-0.09080577133	
601.25	0.1040124457	-0.1933733373	
601.875	-0.1489988791	-0.1233325959	
602.5	-0.02705640201	0.002310179182	
603.125	-0.1922280254	0.03187152361	
603.75	0.04261985063	0.1300189501	
604.375	-0.07796860669	-0.02689447795	
605.0	-0.05860675352	0.2369994223	
605.625	0.04709734924	-0.03368858194	
606.25	-0.2130412892	0.06187087958	
606.875	-0.06633855058	0.1725521404	
607.5	-0.2453438243	0.1079517702	
608.125	0.001552406085	0.2978451486	
608.75	0.1350976859	0.09218430992	
609.375	0.1182484303	-0.003623067643	
610.0	0.08300895188	-0.1312145287	
610.625	0.005221690689	-0.167590521	
611.25	0.04570237426	-0.08003735419	
611.875	-0.167995435	-0.1609322047	
612.5	-0.1778928941	0.0304529817	
613.125	-0.1880969108	-0.04560578401	
613.75	-0.07600764844	0.2341378073	
614.375	0.1064654547	-0.0210589013	
615.0	-0.01584062374	0.1597883161	
615.625	0.1075008655	0.01047778686	
616.25	-0.1184896514	0.0601818119	
616.875	-0.03667252261	0.2631962035	
617.5	0.01078227021	0.1134443857	
618.125	-0.1100115797	0.1592549227	
618.75	0.1098321635	0.2092759343	
619.375	0.08249242911	0.1877689592	
620.0	0.1653982403	-0.03643891124	
620.625	0.0573524437	-0.1928679107	
621.25	-0.08169148025	-0.07273352362	
621.875	-0.08370182111	-0.05527469412	
622.5	-0.2850420955	0.07262417266	
623.125	0.1149195168	0.1468345187	
623.75	0.06314235519	0.08291533584	
624.375	0.0725914761	-0.1591062287	
625.0	0.03714188282	0.04381776162	
625.625	0.06679190871	-0.1641901674	
626.25	-0.1017500625	-0.04624931123	
626.875	-0.07007210148	-0.1272275944	
627.5	-0.2117968126	-0.02227140853	
628.125	-0.08260811307	-0.002222754126	
628.75	-0.03279526433	-0.1623178818	
629.375	-0.1828258408	-0.1038836397	
630.0	-0.1449707366	-0.05690902786	
630.625	-0.1651922871	0.0427145195	
631.25	-0.1050694704	0.2175676337	
631.875	0.02276569775	0.1563603827	
632.5	0.1353550377	0.2102814119	
633.125	0.3197116037	-0.01180220894	
633.75	0.07652534705	-0.06561913881	
634.375	0.1024933059	-0.1461808225	
635.0	-0.1933669607	-0.1495304811	
635.625	-0.05655016793	-0.08702515411	
636.25	-0.2663546839	0.1299774359	
636.875	0.06104134482	0.1343048131	
637.5	-0.08201262535	0.03030056107	
638.125	-0.03132104524	0.1872791751	
638.75	0.01570957049	0.04204847099	
639.375	-0.05516806631	0.2764373482	
640.0	0.2540593104	0.1950212765	
640.625	0.1601557237	0.02915456401	
641.25	0.2774249004	0.05190424716	
641.875	0.08966426159	-0.2779697903	
642.5	-0.02449614465	-0.09567871747	
643.125	-0.1338951649	-0.1841925705	
643.75	-0.2731878486	0.05937305268	
644.375	-0.03123674909	-0.04708267984	
645.0	-0.1857103461	0.2266195565	
645.625	0.2496230164	0.137368489	
646.25	-0.07161510831	0.0481760746	
646.875	0.2731813423	0.0004586032028	
647.5	-0.1147844995	-0.05400311182	
648.125	0.3410503204	0.1503619826	
648.75	0.1453623363	-0.2306110154	
649.375	0.1663349893	-0.06410160878	
650.0	0.2710947613	-0.3989646259	
650.625	-0.07538744111	-0.3180747385	
651.25	0.1537260819	-0.06535164504	
651.875	0.3848971191	-0.2586309627	
652.5	0.123013467	-0.2542955397	
653.125	0.1963058168	-0.003808530711	
653.75	0.198300367	-0.344476612	
654.375	-0.1970234956	-0.1498515023	
655.0	-0.1755985924	-0.1266959476	
655.625	-0.2943274106	0.3197067015	
656.25	0.1456924219	0.05902885243	
656.875	-0.1377118691	0.1126436958	
657.5	0.234583039	0.08528361945	
658.125	0.01202864435	0.05880989642	
658.75	0.4001228239	0.1892789063	
659.375	0.1556799286	-0.3852778243	
660.0	0.1128417423	-0.1463648499	
660.625	0.2073327506	-0.3457275562	
661.25	-0.03766660714	-0.3856575982	
661.875	0.1503144669	-0.06793252203	
662.5	0.3201260377	-0.2857268769	
663.125	0.09218160425	-0.266104242	
663.75	0.138934866	-0.1559319303	
664.375	-0.1252954693	-0.4313620735	
665.0	-0.2727985764	-0.01097624258	
665.625	-0.2410760479	0.01075521137	
666.25	-0.09445155754	0.3411161752	
666.875	0.1965937228	0.08398319148	
667.5	0.07602388031	0.1289288662	
668.125	0.3207084151	-0.1091062769	
668.75	0.02270326601	-0.1471475759	
669.375	0.234318212	-0.1353913907	
670.0	-0.1218114865	-0.3432599859	
670.625	-0.0089314972	0.02540120337	
671.25	0.1402284083	-0.2200724362	
671.875	-0.0577870882	-0.234486288	
672.5	0.1032381251	-0.01921917392	
673.125	0.2951509761	-0.242677809	
673.75	-0.03841956898	-0.2410245881	
674.375	0.06473053888	-0.1493377538	
675.0	-0.1045972052	-0.2920708783	
675.625	-0.2428090468	0.04569663634	
676.25	-0.06259488465	-0.09831323808	
676.875	-0.2271541122	0.08844616343	
677.5	-0.01719719945	0.0861856095	
678.125	-0.1797409177	0.08160710398	
678.75	0.1601336057	0.292440176	
679.375	0.1259462744	-0.09972865868	
680.0	0.1395586696	0.0588842144	
680.625	0.12834846	-0.2117143963	
681.25	-0.1905939032	0.05669688583	
681.875	0.3662733596	0.2020765066	
682.5	0.1778221201	-0.225758089	
683.125	0.0356770202	0.1541021806	
683.75	0.440516327	0.09759154907	
684.375	0.2401818322	-0.2511933708	
685.0	0.2827599252	0.3161630389	
685.625	0.4002754487	-0.1826424128	
686.25	0.1325220796	-0.1793805337	
686.875	0.2741690852	-0.02234213848	
687.5	0.04861462874	-0.4853548943	
688.125	-0.1489674785	-0.1896204532	
688.75	-0.3313145593	-0.2152563573	
689.375	-0.2272646256	0.4438980106	
690.0	0.2111780743	0.1686195461	
690.625	0.1379843097	0.339222554	
691.25	0.4817920594	0.1106951947	
691.875	0.2475347047	0.09456774164	
692.5	0.604298975	0.3477884656	
693.125	0.6287075196	-0.4501000398	
693.75	0.2636076804	-0.09989011684	
694.375	0.5440171534	-0.3701348814	
695.0	0.247784618	-0.4730898369	
695.625	0.3490842502	0.09721983177	
696.25	0.6237893277	0.2266179297	
696.875	0.3772116029	0.03141665453	
697.5	0.3781943088	0.3732014783	
698.125	0.6386380968	0.1004502654	
698.75	0.1777036506	-0.5357393531	
699.375	-0.2096837956	-0.1940904562	
700.0	-0.2468686701	0.3875475205	
700.625	0.2882011832	0.3132935933	
701.25	0.07932290672	0.1267251178	
701.875	0.3751255422	0.286771552	
702.5	0.3633549225	-0.01555549956	
703.125	0.2655076599	0.1757401186	
703.75	0.4675948972	-0.2011974104	
704.375	0.0854832533	-0.2743148276	
705.0	0.2257866264	0.02823958407	
705.625	0.3308523701	-0.141058087	
706.25	0.1404129572	0.1417074211	
706.875	0.242191836	0.3503818206	
707.5	0.4599287994	0.1685483245	
708.125	0.3506098013	0.02764568403	
708.75	0.05007507674	-0.3470059084	
709.375	-0.3483988646	-0.1313250214	
710.0	-0.0480416752	0.2037515612	
710.625	-0.06180316336	0.02431736017	
711.25	0.2999565416	0.1223795523	
711.875	0.08347471078	0.04081445622	
712.5	0.3615577349	-0.07246594514	
713.125	0.1262501792	-0.2992319345	
713.75	0.08864941602	-0.08278099513	
714.375	0.00981834807	-0.3343738062	
715.0	-0.1364742878	-0.1273662593	
715.625	0.09726209443	-0.1284355801	
716.25	0.1392405388	-0.3596702121	
716.875	0.1433405327	-0.2154367988	
717.5	0.4643351445	0.05626244012	
718.125	0.7079261045	-0.2189650269	
718.75	0.4811579437	-0.3288766961	
719.375	0.716324981	-0.3540527293	
720.0	0.5507525349	-1.072068898	
720.625	-0.1868043514	-0.6957502745	
721.25	0.2748600742	-0.6939171072	
721.875	-0.8012489521	-1.163816191	
722.5	-0.5275034203	-0.1461666018	
723.125	-0.8290685322	-0.03857589492	
723.75	-0.1399706583	0.7139624664	
724.375	0.09833433695	0.1610852164	
725.0	0.1158519525	0.5681768489	
725.625	0.4509879385	0.2586991129	
726.25	-0.09002184445	0.429296589	
726.875	-0.04845110163	1.015535437	
727.5	0.4879350336	1.103729232	
728.125	-0.09425317751	1.005344318	
728.75	0.1327502196	2.997991097	
729.375	1.387316634	2.87786636	
730.0	-0.07182352246	1.811097704	
730.625	0.3692833001	5.138863467	
731.25	1.395725531	2.519520536	
731.875	-1.673511138	1.224281801	
732.5	-2.861506286	1.878099892	
733.125	-1.140751678	2.218779158	
733.75	-0.5261433644	0.4972891993	
734.375	1.537436422	0.2396997879	
735.0	-0.4694789962	-0.2057501333	
735.625	-0.3528903484	-0.09515687109	
736.25	0.112767036	0.8735934548	
736.875	0.2745147829	-0.2292959261	
737.5	0.9008911088	0.6342521768	
738.125	1.411535006	-1.384659349	
738.75	0.2051262883	-1.040241535	
739.375	2.231477706	0.150411474	
740.0	3.343755032	-3.340768614	
740.625	-1.248100984	-1.040404781	
741.25	-1.475220301	4.12545336	
741.875	-0.661618755	4.142522155	
742.5	0.9803141736	-1.167359628	
743.125	0.1728659861	-2.5991827	
743.75	-0.6793837181	-0.6717820122	
744.375	-0.1417790096	0.04130492614	
745.0	0.04257633849	0.2611888508	
745.625	-0.1141811454	0.006001692439	
746.25	-0.003566455896	-0.1727825136	
746.875	-0.1983992743	0.1523938214	
747.5	-0.01463172394	0.1320908683	
748.125	0.06480563765	0.5005643707	
748.75	0.4584215372	0.267782238	
749.375	0.1034663918	0.2524815363	
750.0	-0.3752294366	0.2459819787	
