!Created with skrf (http://scikit-rf.org).
# GHz S RI R (50+0j) 
!freq	ReS11	ImS11	
500.0	0.2319583241	-0.3739145193	
500.625	0.4847153487	-1.087714921	
501.25	-0.5626478832	-0.393219953	
501.875	0.04018175488	-0.196674313	
502.5	-0.03416271406	-0.1545891192	
503.125	-0.03546625463	0.02376403086	
503.75	-0.0482288313	0.1073996428	
504.375	0.02361482731	-0.03242164485	
505.0	0.02540882991	0.008775178356	
505.625	-0.02647270008	-0.07648203562	
506.25	0.01132686094	0.02243056409	
506.875	-0.2549828657	-0.1205197812	
507.5	-0.1873713095	0.04444177029	
508.125	0.3826840384	-0.3598596138	
508.75	0.3134272762	-1.118822655	
509.375	-0.4559765167	-0.620652082	
510.0	-0.2328647153	-0.4434178599	
510.625	-0.2980336909	-0.1530974583	
511.25	-0.01657578209	-0.01377593329	
511.875	-0.1551881241	-0.08678735545	
512.5	0.0001478537907	0.03700053836	
513.125	0.015903573	-0.0185796701	
513.75	-0.08260566619	-0.08564907008	
514.375	-0.01438291723	0.05965701134	
515.0	0.001124746548	-0.2847758994	
515.625	-0.1434721523	0.1864746177	
516.25	0.1406222554	-0.7767374719	
516.875	-0.3516174515	-0.566906004	
517.5	-0.03488714833	-0.01071807988	
518.125	-0.02919105145	-0.07252742358	
518.75	-0.09459171825	-0.00958521661	
519.375	-0.05365382524	0.006780930399	
520.0	0.1299285175	0.05057154297	
520.625	0.09729005939	-0.05093990716	
521.25	0.05521338226	-0.1341343746	
521.875	-0.1987664752	-0.0782557584	
522.5	-0.04117492239	0.06284373852	
523.125	-0.05257483808	-0.0764293761	
523.75	-0.1922769751	0.07842699598	
524.375	0.0104850539	0.03331703582	
525.0	-0.1693925889	0.1560966241	
525.625	0.1276307024	-0.01565612389	
526.25	-0.05886962728	0.04361966362	
526.875	0.01031117155	0.009163675309	
527.5	-0.1266895093	0.1354170093	
528.125	0.1558033253	0.2349638027	
528.75	0.1300320026	0.07837363461	
529.375	-0.04130717247	0.06365248429	
530.0	0.1532801279	0.1409672598	
530.625	0.2299345409	0.1415112961	
531.25	0.4576112981	0.1323419849	
531.875	0.05736141193	-0.2095802336	
532.5	0.07058959274	-0.1204661708	
533.125	0.019595622	-0.1670076277	
533.75	0.1715457887	-0.09271705615	
534.375	-0.176138573	-0.298832634	
535.0	-0.1823932519	-0.0005364178662	
535.625	-0.1240493772	0.0360406468	
536.25	-0.0001714085613	0.1139168856	
536.875	0.05720054851	-0.02638136407	
537.5	0.08452676378	-0.01446971103	
538.125	0.07892203812	-0.1018503305	
538.75	0.09335229004	-0.04192153116	
539.375	-0.08218526835	-0.1971561527	
540.0	-0.1748160423	-0.05414664357	
540.625	-0.125689144	0.02036049027	
541.25	-0.1178196659	-0.007491655297	
541.875	-0.06674065846	0.0311831447	
542.5	-0.02750130604	-0.1013376625	
543.125	-0.1842726233	-0.05578592362	
543.75	-0.02442797508	-0.01982209611	
544.375	-0.0742274015	0.08104242806	
545.0	0.04530739089	0.01407018715	
545.625	-0.007320600601	0.1095961742	
546.25	0.1276944177	-0.01998407376	
546.875	0.05528536989	0.001789709764	
547.5	0.1005326482	-0.1355921485	
548.125	-0.1213189509	-0.123876854	
548.75	-0.05707178437	-0.09403923914	
549.375	-0.1357060241	-0.07987145344	
550.0	-0.03801310055	0.0474361017	
550.625	-0.06635943206	-0.03083768186	
551.25	-0.05107619422	0.06453943623	
551.875	-0.05354957925	0.02830178036	
552.5	-0.05162153974	0.08731084379	
553.125	0.01300692247	0.05858245579	
553.75	0.03655939795	0.0483214874	
554.375	0.08343710066	-0.01514889996	
555.0	0.080040549	-0.06057432492	
555.625	0.07763136852	-0.09996181237	
556.25	0.04810723445	-0.1296707043	
556.875	-0.03654996503	-0.1366533115	
557.5	-0.08627310621	-0.09079046094	
558.125	-0.109929403	-0.0298663151	
558.75	-0.09737680149	0.008244006398	
559.375	-0.09552460365	0.01929658852	
560.0	-0.0936343003	0.07728830298	
560.625	-0.02329303422	0.09875391577	
561.25	-0.01182206047	0.08914141742	
561.875	0.05390538329	0.03768295335	
562.5	-0.0285995559	0.03815596733	
563.125	0.1055554664	0.07840576748	
563.75	0.09853959607	-0.03009846012	
564.375	0.1254164274	-0.05184460267	
565.0	0.0702557331	-0.1770510743	
565.625	-0.0783227491	-0.09782650983	
566.25	-0.07887371353	-0.1323837884	
566.875	-0.1704357041	-0.03027756119	
567.5	-0.04917998376	-0.076721968	
568.125	-0.1758597869	-0.1659480082	
568.75	-0.1787689809	0.05510080019	
569.375	-0.1865719451	0.01863364063	
570.0	-0.1293668515	0.2614403715	
570.625	0.04796687635	0.1446620783	
571.25	-0.06320186212	0.07324302915	
571.875	0.130455759	0.08019478165	
572.5	0.01053376557	0.01652223712	
573.125	0.1485289592	-0.1328001613	
573.75	-0.08319042779	-0.1159130033	
574.375	0.07303372891	0.005754580391	
575.0	-0.03024577542	-0.1336604381	
575.625	0.02688337717	0.01954217564	
576.25	0.1073625438	-0.1328491981	
576.875	-0.08027333566	-0.1449017757	
577.5	-0.007911126727	-0.04685876195	
578.125	0.03069765535	-0.2157208213	
578.75	-0.186071812	-0.06313155463	
579.375	0.008182464719	-0.02102748419	
580.0	-0.1290192991	-0.1099138074	
580.625	-0.0007984753416	0.04550383643	
581.25	-0.2356067345	-0.02500813733	
581.875	0.08532097531	0.232701981	
582.5	0.08582649069	0.02238858455	
583.125	-0.0159265426	0.1089999812	
583.75	0.1552387833	-0.01796337293	
584.375	-0.07254171778	0.06543526287	
585.0	0.1863220599	0.04948245449	
585.625	0.05845825451	-0.0423414009	
586.25	0.2220448199	0.009674869687	
586.875	0.03450492301	-0.2185570765	
587.5	-0.03134866481	-0.04149557011	
588.125	0.05074149173	-0.1489470544	
588.75	-0.02098957148	-0.2075450117	
589.375	-0.008704437332	-0.05630440916	
590.0	-0.02207386336	-0.2339380807	
590.625	-0.177466248	0.06746176328	
591.25	-0.1020114929	-0.009453674226	
591.875	-0.05942988768	0.1922278551	
592.5	0.0718764175	-0.03503459633	
593.125	-0.08501097446	0.146477136	
593.75	0.1116358136	-0.01225642053	
594.375	0.03924461641	0.08683741723	
595.0	0.1768970134	0.1559428125	
595.625	0.1870526028	-0.03151017871	
596.25	0.0901929846	0.1045242832	
596.875	0.2115171611	0.001096308169	
597.5	0.07952236845	0.007495670015	
598.125	0.1354410621	0.1699874295	
598.75	0.1600208713	-0.006940305877	
599.375	0.1106482369	-0.0188171694	
600.0	0.1950480421	-0.1053678329	
600.625	0.1173168661	-0.2354352771	
601.25	-0.05120969431	-0.1315054512	
601.875	0.006416587092	-0.164337682	
602.5	-0.1723164952	0.05127346985	
603.125	-0.02519767996	-0.01571906173	
603.75	-0.1995338729	0.1105066767	
604.375	0.07396480775	0.06212489357	
605.0	-0.1183836399	-0.01288347757	
605.625	-0.07436604563	0.1586001474	
606.25	7.938482034e-05	0.02520827407	
606.875	-0.2115459962	0.1859709382	
607.5	-0.09845586799	0.2654435911	
608.125	-0.01778105633	0.1725327732	
608.75	0.1786750236	0.1641265933	
609.375	0.2054514583	-0.03777058383	
610.0	0.1008135474	-0.03602994276	
610.625	0.1235752615	-0.1941325457	
611.25	-0.1063833794	-0.1159947253	
611.875	-0.04405671964	-0.01649028422	
612.5	-0.2277658193	-0.09961644381	
613.125	-0.1037261086	0.1411270125	
613.75	-0.1116946452	0.02330157783	
614.375	0.08997258379	0.1957104837	
615.0	0.00593909551	-0.07299091516	
615.625	-0.03074585244	0.1987252749	
616.25	0.04318586046	0.03929797527	
616.875	-0.1381200777	0.1187719712	
617.5	-0.1001606194	0.2997540422	
618.125	0.1151193012	0.1904486096	
618.75	0.06928569702	0.1856331397	
619.375	0.07524099866	0.1601570206	
620.0	0.1548431438	-0.0336055259	
620.625	0.1420941037	-0.07920461882	
621.25	-0.1492069792	-0.2056821697	
621.875	-0.1901104773	0.01268686488	
622.5	-0.2376873844	0.009968643987	
623.125	0.00315641232	0.2343158616	
623.75	0.1141425165	-0.08062153666	
624.375	0.06496744787	0.03420571858	
625.0	0.002020484328	-0.1041049443	
625.625	0.05229589981	-0.004020391329	
626.25	-0.04595907423	-0.1930906026	
626.875	-0.1508729424	0.006096234998	
627.5	-0.09124108275	-0.08007269938	
628.125	-0.1793767796	-0.03893228351	
628.75	-0.02102236259	-0.04492935475	
629.375	-0.07366813915	-0.2117443584	
630.0	-0.2006826267	-0.06694961017	
630.625	-0.1402218384	0.05671913487	
631.25	-0.1165126741	0.09271028442	
631.875	0.01711014934	0.2796491823	
632.5	0.2337080094	0.04689589688	
633.125	0.1550029013	0.1011178251	
633.75	0.152958787	-0.1506303224	
634.375	0.03634540736	-0.03559421363	
635.0	0.01245682466	-0.2378053148	
635.625	-0.1518973673	0.06813137836	
636.25	-0.1174198889	-0.02752256501	
636.875	-0.1068343396	0.2034023894	
637.5	0.06143377946	0.06743099567	
638.125	-0.1194907386	0.006458730669	
638.75	-0.04754034034	0.2426377508	
639.375	0.05879615708	0.1208609523	
640.0	0.06214881113	0.2754391436	
640.625	0.3104439125	0.1010680066	
641.25	0.1370774518	-0.01194030889	
641.875	0.2778179672	-0.1822834662	
642.5	-0.1363333459	-0.2089457247	
643.125	-0.07699524163	0.07304623797	
643.75	-0.1151667442	-0.1698464002	
644.375	-0.1678128983	0.1344202491	
645.0	-0.09996450224	0.01459882016	
645.625	-0.01675188566	0.4303413569	
646.25	0.2006969559	-0.07363014647	
646.875	0.02282607469	0.1004604147	
647.5	0.1882311399	-0.1284318052	
648.125	-0.04112638551	0.15351866	
648.75	0.4112818672	-0.09938132284	
649.375	0.07156248579	-0.3223401364	
650.0	0.08156814844	-0.1178290867	
650.625	0.2692787515	-0.2896836289	
651.25	0.02027680628	-0.3730701443	
651.875	0.1661395241	0.001515284149	
652.5	0.3863837012	-0.1489576666	
653.125	0.09599886705	-0.1745765296	
653.75	0.272135793	-0.07296585772	
654.375	-0.1356699884	-0.3874481057	
655.0	-0.2708435494	0.06910497929	
655.625	-0.08499319657	-0.004040507777	
656.25	-0.08168520643	0.3573320382	
656.875	0.1524860855	-0.0866124224	
657.5	-0.03285161417	0.2330257621	
658.125	0.2330005294	0.05859296379	
658.75	0.03078044397	0.1431232184	
659.375	0.4799493799	-0.1453754485	
660.0	0.05045826935	-0.3189250606	
660.625	0.1683870512	-0.1474240569	
661.25	0.2327512948	-0.3398994751	
661.875	0.1150245837	-0.3391119507	
662.5	0.1247034458	-0.1021818971	
663.125	0.3463754957	-0.1793506277	
663.75	-0.003403274735	-0.2881452838	
664.375	0.05677154251	-0.2421269874	
665.0	-0.3780636813	-0.2055490836	
665.625	-0.1586020481	0.114631849	
666.25	-0.1624857261	0.1885922974	
666.875	0.161180957	0.2573412446	
667.5	0.2013173894	-0.07329236751	
668.125	0.1084011841	0.102678973	
668.75	0.2518980763	-0.2412846347	
669.375	-0.03984553086	-0.1476642504	
670.0	0.1447506073	-0.211475546	
670.625	-0.1173643698	-0.2381969759	
671.25	0.19928334	0.02532708738	
671.875	0.1833849802	-0.2707669262	
672.5	0.08981993957	-0.1850161351	
673.125	0.1468085276	-0.06451076741	
673.75	0.2488163447	-0.2049092154	
674.375	-0.06782884532	-0.3120808303	
675.0	0.009647451122	-0.12522419	
675.625	-0.2018387896	-0.2038322806	
676.25	-0.159723442	0.09933239016	
676.875	-0.09739086336	-0.1192937426	
677.5	-0.1561230242	0.146518282	
678.125	-0.03162979924	0.05311897577	
678.75	-0.07971709355	0.233232425	
679.375	0.3389199181	0.07397320186	
680.0	-0.0335738049	-0.1573103807	
680.625	0.1419081163	0.07014426675	
681.25	0.1169434281	-0.2371658009	
681.875	-0.04458502045	0.04233287127	
682.5	0.329635402	0.2477252213	
683.125	0.089590267	-0.1527408918	
683.75	0.1187910113	0.1749831631	
684.375	0.4451369845	-0.1253863818	
685.0	0.1369999859	-0.1633205134	
685.625	0.2300777838	0.2108732131	
686.25	0.4395597529	-0.1276674319	
686.875	0.1587029121	-0.1299478794	
687.5	0.2795732465	-0.1302884048	
688.125	-0.08840624132	-0.5569285659	
688.75	-0.2749838424	0.01016445193	
689.375	-0.3234840142	0.2440578769	
690.0	0.2355419534	0.382616481	
690.625	0.1022462661	0.07359621456	
691.25	0.3006251321	0.4469577204	
691.875	0.5816656443	0.05721800883	
692.5	0.328723792	0.1545126191	
693.125	0.6909843091	0.1329897742	
693.75	0.5460661489	-0.4434645449	
694.375	0.1883677974	-0.2026398541	
695.0	0.5214160082	-0.4643553085	
695.625	0.3837238071	-0.2576113136	
696.25	0.2456549958	0.1895744264	
696.875	0.5120567072	0.1877808494	
697.5	0.3765607252	0.126633142	
698.125	0.5928841795	0.1055990507	
698.75	0.4864170015	-0.3998150155	
699.375	-0.5096140879	-0.2915274582	
700.0	-0.1030760892	0.2753300093	
700.625	0.1425401185	0.4211589338	
701.25	0.1938629221	-0.005466784585	
701.875	0.1246793536	0.2792823244	
702.5	0.4761473486	0.234815444	
703.125	0.2296200732	-0.01915954801	
703.75	0.3728842707	0.04021684235	
704.375	0.2778644816	-0.3058270515	
705.0	0.0695258034	-0.1953686865	
705.625	0.3179170429	-0.005418251496	
706.25	0.3656626685	0.08979500918	
706.875	0.1347496803	0.1154218102	
707.5	0.2270444292	0.3453031114	
708.125	0.3687257876	0.1505243839	
708.75	0.2341760551	-0.1611614433	
709.375	-0.2908781203	-0.3781887798	
710.0	-0.2355432999	0.2326710475	
710.625	0.04092455392	0.02682455174	
711.25	0.1140504347	0.2248975449	
711.875	0.2320239951	-0.05572173295	
712.5	0.1862027018	0.08709373587	
713.125	0.3451913652	-0.2007948414	
713.75	0.005911807468	-0.2503026624	
714.375	0.1056192863	-0.1398525715	
715.0	-0.09372489388	-0.2625084526	
715.625	-0.01280015382	-0.07401088715	
716.25	0.227215416	-0.1775357506	
716.875	0.2635321502	-0.3432200507	
717.5	0.1973199575	-0.03146952406	
718.125	0.5675824152	0.1529386777	
718.75	0.7702363513	-0.1012607926	
719.375	0.2760757949	-0.5339370905	
720.0	0.6117497571	-0.5900217739	
720.625	-0.04288509134	-1.34192389	
721.25	-0.03793473838	-0.4357936986	
721.875	-0.1991467846	-1.019457157	
722.5	-0.7004591112	-0.3232895424	
723.125	-0.4532256399	-0.2287387731	
723.75	-0.6814600473	0.4796275565	
724.375	0.2430531381	0.3402561592	
725.0	0.01746004317	0.2117735099	
725.625	0.1908998459	0.5949844019	
726.25	0.2800903345	0.3993798227	
726.875	-0.2957270172	0.5884675044	
727.5	0.002334511518	1.465065106	
728.125	0.5186192923	1.180090953	
728.75	-0.8226423063	1.718873112	
729.375	-0.6194751488	4.007149664	
730.0	1.328556673	2.337504884	
730.625	-1.063492651	2.759118796	
731.25	-1.450723165	4.78666197	
731.875	-0.4838013364	2.148917687	
732.5	-2.238935898	-1.444432334	
733.125	-2.585430838	0.7944948963	
733.75	0.1540619056	0.9597174542	
734.375	0.3726164969	0.8966195268	
735.0	-0.2848665289	-0.7080830504	
735.625	-0.1475567942	0.05908041399	
736.25	-0.370305886	0.6231221945	
736.875	0.7100379243	0.4708172261	
737.5	0.3651283465	-0.1211935799	
738.125	1.625537063	0.1840104277	
738.75	1.168835035	-2.074123454	
739.375	0.5589895671	-0.5565888808	
740.0	4.284144197	0.9814200948	
740.625	2.601089997	-3.052461726	
741.25	-2.514971656	1.149973534	
741.875	-5.023871882	1.662208212	
742.5	-1.553839525	0.1152089511	
743.125	1.092479171	-0.9786534187	
743.75	-0.1147128474	-1.430890533	
744.375	-0.3136084712	0.1492582277	
745.0	-0.1219057418	-0.04718144384	
745.625	0.07643828696	-0.1258374058	
746.25	0.05990511724	-0.09512098816	
746.875	-0.306557168	0.06702309009	
747.5	0.03251178642	0.2829610361	
748.125	-0.04454771325	0.3326386624	
748.75	0.2407149774	0.4945464534	
749.375	0.21387251	0.3396730529	
750.0	-0.2720889179	0.1450592828	
