!Created with skrf (http://scikit-rf.org).
# GHz S RI R (50+0j) 
!freq	ReS11	ImS11	
500.0	-2.471130688	-4.73749117	
500.625	-0.6228593236	-2.482649964	
501.25	-0.3786809909	-1.593754192	
501.875	-0.8827521856	-2.343788272	
502.5	-0.5332580941	-0.03940591314	
503.125	-0.1667946145	-0.09186995742	
503.75	0.2788756738	0.3764294825	
504.375	-0.02221100693	0.05741880034	
505.0	0.09392719248	-0.2162638189	
505.625	0.03403775336	0.1150303153	
506.25	-0.3825356563	-0.6776636392	
506.875	0.4790220334	0.5790573965	
507.5	0.8088293356	-1.401450065	
508.125	-0.4381059659	-2.979433476	
508.75	-0.6081873014	-1.51728752	
509.375	0.5180551503	-5.061737344	
510.0	-1.841699319	1.021843973	
510.625	-0.0513907632	-0.5149236316	
511.25	-0.7803792359	0.08511951598	
511.875	-0.2069978417	-0.09589192017	
512.5	-0.08498164045	0.149817022	
513.125	-0.04441592668	-0.3874680024	
513.75	-0.3697435761	0.08534462244	
514.375	0.1070843037	-0.2992846395	
515.0	-1.147690294	0.05515384433	
515.625	2.080734145	-1.910704766	
516.25	-3.720182179	-2.093004437	
516.875	0.5865835975	-0.0418289211	
517.5	-0.1799006343	-1.27069811	
518.125	0.08075421383	0.3479993218	
518.75	-0.0964032256	-0.9827136062	
519.375	-0.1268158397	0.2418784218	
520.0	0.1621195373	0.1267980679	
520.625	0.6930974024	-0.2296707525	
521.25	-0.384298134	-0.5685468907	
521.875	-0.1577770067	-0.2391469841	
522.5	-0.1970304501	0.2496778119	
523.125	-0.2198521864	-0.198481536	
523.75	-0.2456259823	0.2076099433	
524.375	-0.3769019931	-0.2406231575	
525.0	0.2097476554	0.6565573654	
525.625	-0.1023506585	-0.07614129226	
526.25	0.1524050527	0.08634060174	
526.875	-0.3127746151	-0.001538188382	
527.5	0.1114981436	0.8236681348	
528.125	0.07874176378	0.2647490174	
528.75	-0.1379701767	0.9948631998	
529.375	0.2470170322	-0.07915987297	
530.0	0.1850544667	0.8743148999	
530.625	0.3005097714	0.2876005801	
531.25	1.470530226	0.84610766	
531.875	0.04015160963	-0.9181932011	
532.5	0.2791568424	-0.2392436935	
533.125	-0.5091570913	-0.1854773429	
533.75	0.7657134519	-0.6353033437	
534.375	-0.8114368722	-0.5351379137	
535.0	-0.2333083662	-0.3794051849	
535.625	-0.6924096058	0.5736250485	
536.25	0.1128145076	0.129201703	
536.875	0.1979723184	0.1560449052	
537.5	0.2103410361	-0.197603485	
538.125	0.1106621424	-0.03367054331	
538.75	0.5103911882	-0.4004315732	
539.375	-0.2610387235	-0.1972789125	
540.0	-0.2127550152	-0.4642310102	
540.625	-0.588612779	0.006848245846	
541.25	-0.0867805457	0.07555997736	
541.875	-0.0533225352	-0.07611342729	
542.5	-0.2240600011	-0.1826848931	
543.125	-0.1029601239	0.1059267645	
543.75	-0.2661387461	-0.2177659342	
544.375	0.02635528398	0.2842595552	
545.0	-0.2037792101	0.05292345433	
545.625	0.3670666878	0.1230853377	
546.25	-0.05797087555	0.07097055297	
546.875	0.5994914264	-0.06919828572	
547.5	-0.1198589528	-0.2353359323	
548.125	0.1039990597	-0.3308969443	
548.75	-0.4066170863	-0.4100730716	
549.375	-0.2872088293	0.0347657161	
550.0	-0.1598944636	-0.1527478463	
550.625	-0.1112229666	0.1683557199	
551.25	-0.1794718595	-0.0726437084	
551.875	-0.1903470835	0.3109811956	
552.5	-0.02758791269	0.09430157911	
553.125	-0.07255835259	0.1928804781	
553.75	0.1410648673	0.09253970113	
554.375	0.1979399132	0.002202259987	
555.0	0.2476403597	-0.1670920199	
555.625	0.1784101353	-0.272709536	
556.25	0.1450798794	-0.3276881371	
556.875	-0.08435081009	-0.3876396443	
557.5	-0.2385166537	-0.2323152533	
558.125	-0.2633448151	-0.08414137504	
558.75	-0.2551183859	-0.02406502837	
559.375	-0.2712759535	0.08367684091	
560.0	-0.1728539509	0.1572276077	
560.625	-0.1612029954	0.2420546929	
561.25	0.07617227612	0.2818498147	
561.875	0.004253468249	0.02848219037	
562.5	0.1184586846	0.1960894483	
563.125	0.03776231225	0.1337746535	
563.75	0.4479247495	0.03555525606	
564.375	0.1523751008	-0.3258568357	
565.0	0.2251746568	-0.1712693994	
565.625	-0.09219111261	-0.4990038723	
566.25	-0.3398923396	-0.1304518212	
566.875	-0.1639454931	-0.1828557584	
567.5	-0.4381832153	-0.3848619105	
568.125	-0.3830544538	-0.1421877098	
568.75	-0.456714548	-0.4163773856	
569.375	-0.5884041329	0.4453682379	
570.0	-0.1692234389	0.2571250624	
570.625	-0.4167170084	0.5185178529	
571.25	0.3723511927	0.2917638906	
571.875	-0.2059900082	0.2777572223	
572.5	0.603724439	-0.1520190565	
573.125	-0.1035051036	-0.1381967897	
573.75	0.3960414565	-0.1270685454	
574.375	-0.2150575095	-0.3760520018	
575.0	0.2073786246	0.1764000755	
575.625	-0.01004670822	-0.4538029868	
576.25	-0.05350304799	0.04818469628	
576.875	0.2605874847	-0.5127629614	
577.5	-0.2373718045	-0.5063348627	
578.125	-0.1070832921	-0.1138430587	
578.75	-0.004797037794	-0.3858487269	
579.375	-0.4296422797	-0.2390053788	
580.0	0.07002251591	0.1205872066	
580.625	-0.3496241034	-0.2342662341	
581.25	0.01632909339	0.2939540204	
581.875	-0.2405375994	0.1608704801	
582.5	0.1646563531	0.6816147976	
583.125	0.4074615255	-0.1798753624	
583.75	-0.2763450264	0.293873981	
584.375	0.5022502782	-0.1332552306	
585.0	-0.1410050383	0.2887772338	
585.625	0.7175646617	-0.06136582683	
586.25	0.01551259946	-0.2540245684	
586.875	0.4887189958	-0.1590202481	
587.5	-0.3006037577	-0.4955087097	
588.125	0.01994496069	-0.002175922942	
588.75	0.3396719532	-0.442795548	
589.375	-0.04108248495	-0.5544993721	
590.0	0.009332982012	-0.2062306395	
590.625	-0.4305100928	-0.2728109487	
591.25	-0.2674608773	0.4228822806	
591.875	-0.0266975267	0.1207724045	
592.5	-0.05068564033	0.2481189682	
593.125	-0.06018995724	-0.0618824175	
593.75	0.1727113812	0.4629312139	
594.375	0.4389613107	0.02407971471	
595.0	0.0779051371	0.1488665636	
595.625	0.5056622427	0.6204180377	
596.25	0.4289626828	-0.3998068992	
596.875	0.08825542772	0.3677227513	
597.5	0.6704157308	0.2064828567	
598.125	0.07335690654	0.02971488389	
598.75	0.6528558608	0.4980528995	
599.375	0.2625255121	-0.3364026723	
600.0	0.4186220218	-0.06802682617	
600.625	0.4918452277	-0.5472739157	
601.25	-0.06513449286	-0.4826226031	
601.875	-0.009403194636	-0.2629858903	
602.5	-0.3416669311	-0.06564591172	
603.125	-0.3197309455	0.1010541644	
603.75	-0.08334845966	0.2006910182	
604.375	-0.3139653056	0.0404281489	
605.0	-0.1287162388	0.3491473554	
605.625	-0.1360843648	-0.07329623811	
606.25	-0.3745487031	0.3326465404	
606.875	-0.114340198	0.0923304325	
607.5	-0.7930308404	0.3303137695	
608.125	0.4305552341	0.6337970508	
608.75	-0.00924103119	0.3839161367	
609.375	0.9084996941	-0.07057492756	
610.0	-0.03119554059	-0.2679169806	
610.625	0.5326430028	-0.3238555983	
611.25	-0.2672834777	-0.3983231847	
611.875	0.1050282431	-0.2432335737	
612.5	-0.7190996243	-0.05473820241	
613.125	-0.1219061278	0.004830354134	
613.75	-0.4470970412	0.424642984	
614.375	0.3524704931	0.0435840213	
615.0	-0.09461770973	0.4304334432	
615.625	0.2315647008	-0.08228332443	
616.25	-0.4148008893	0.3374769181	
616.875	0.0445230155	0.7210981994	
617.5	-0.1717838661	0.08646618551	
618.125	-0.1558646456	0.7755988829	
618.75	0.280336065	0.2781349852	
619.375	-0.007129434947	0.4132512454	
620.0	0.5616982959	-0.02636560144	
620.625	0.2198612639	-0.2023549499	
621.25	-0.2923220635	-0.5046267662	
621.875	-0.3145609413	-0.1179575578	
622.5	-0.6511376657	0.0851868771	
623.125	0.1223416541	0.3431221645	
623.75	0.1841458837	0.2701879997	
624.375	0.04322852892	-0.402285565	
625.0	0.1788832838	0.262143053	
625.625	-0.03224235645	-0.6522477927	
626.25	0.0866202112	0.08441121708	
626.875	-0.3843702713	-0.5173863114	
627.5	-0.4310238219	0.159417074	
628.125	0.01315188724	-0.2054459705	
628.75	-0.4343883868	-0.42900628	
629.375	-0.03374351989	-0.1380406564	
630.0	-0.4918075354	-0.4098264739	
630.625	-0.5381410533	0.3543607178	
631.25	-0.1201655456	0.2762595882	
631.875	-0.2334553596	0.6043860302	
632.5	0.4061819432	0.4557184532	
633.125	0.5319215438	0.0003941335311	
633.75	0.2116841951	-0.06708433167	
634.375	0.312687418	-0.5137556611	
635.0	-0.1234368723	-0.05210386547	
635.625	-0.3264159037	-0.4221366535	
636.25	-0.3155332437	0.4002095706	
636.875	-0.09667812727	-0.05915620396	
637.5	-0.2550973526	0.598658534	
638.125	0.2074610249	-0.06652541579	
638.75	-0.6297169961	0.3360821723	
639.375	0.3159104473	0.8535434522	
640.0	0.3642743517	0.1910126762	
640.625	0.3099722796	0.6198930983	
641.25	0.9009988625	-0.2196664361	
641.875	0.116400847	-0.1772295981	
642.5	0.2548804771	-0.818275902	
643.125	-0.4462567328	0.1934554705	
643.75	-0.01401068087	-0.4019896224	
644.375	-0.7772384956	0.1162491273	
645.0	-0.03210569795	0.4260659856	
645.625	-0.06996657755	0.1985543573	
646.25	0.4950406656	0.5980771488	
646.875	0.2056698583	-0.463809333	
647.5	-0.02036361996	0.4807614829	
648.125	0.6067764738	-0.3447645706	
648.75	0.1751502102	0.3743854563	
649.375	0.9572081777	-0.936305746	
650.0	-0.2790699675	-0.7854466236	
650.625	0.5341431981	0.03906261372	
651.25	1.021550645	-1.11509761	
651.875	-0.2173674272	-0.6635120885	
652.5	0.6469897748	0.3399556911	
653.125	0.9504625048	-0.6598704841	
653.75	-0.07078185191	-0.3488857095	
654.375	0.3448869461	-0.9828778734	
655.0	-0.9796875483	0.1323544433	
655.625	0.02021280091	0.2284584913	
656.25	-0.3912060132	0.4981554133	
656.875	0.5984621924	0.2028168254	
657.5	-0.3584591489	0.09883575209	
658.125	0.5778000501	0.5910490364	
658.75	0.6782490807	-0.09995528098	
659.375	0.4387940603	-0.09084311007	
660.0	0.9556235789	-0.8932261138	
660.625	-0.2258645157	-0.6799090915	
661.25	0.5959776208	-0.3402921762	
661.875	0.7353479097	-0.9368130725	
662.5	0.004058861882	-0.7266641097	
663.125	0.7005095091	0.1842005861	
663.75	0.3601960048	-1.225565214	
664.375	-0.289790389	-0.2661815735	
665.0	-0.4521463721	-0.8473275472	
665.625	-0.7298143104	0.6929930236	
666.25	-0.2924529497	0.1736824738	
666.875	0.3080417088	0.786627363	
667.5	0.5479256718	-0.08272056402	
668.125	0.1496229874	0.1424763924	
668.75	0.8112857342	-0.3569227195	
669.375	-0.06592624787	-0.6028854686	
670.0	0.0333468774	-0.3025845192	
670.625	0.1607860219	-0.5567870537	
671.25	-0.1806374991	-0.4527804895	
671.875	0.5194298364	-0.2462351897	
672.5	0.4317855034	-0.558566729	
673.125	0.206835187	-0.3656170518	
673.75	0.5810148403	-0.1969920656	
674.375	0.02340496631	-1.164861052	
675.0	-0.4647786688	0.1040601048	
675.625	-0.1174421094	-0.7738575201	
676.25	-0.8402307671	0.1889533645	
676.875	0.2301546539	-0.02320238594	
677.5	-0.9557135307	0.1059313308	
678.125	0.2416521775	0.213540526	
678.75	-0.3430193516	0.5429293558	
679.375	1.023265432	0.09883594993	
680.0	-0.1638921388	-0.3185208819	
680.625	0.4075447569	0.1242543274	
681.25	0.3565132181	-0.3229032629	
681.875	0.1010429354	-0.05497811175	
682.5	0.3579482834	0.4339432344	
683.125	0.8761414165	0.1005709408	
683.75	0.4232443401	-0.03148437796	
684.375	0.4919660893	0.3577844699	
685.0	1.099457007	-0.1897225321	
685.625	0.03797165717	0.07449013166	
686.25	1.328431844	0.0960499403	
686.875	0.1648363014	-0.9928444027	
687.5	0.6770252108	0.1510431691	
688.125	-0.03502638809	-1.949606595	
688.75	-0.7736684452	0.5884549669	
689.375	-1.228931499	0.135294975	
690.0	0.8772619123	1.011615184	
690.625	0.01694594205	0.1893434251	
691.25	1.288033597	1.071187082	
691.875	0.7935048194	0.1685885546	
692.5	1.232370098	0.7118227063	
693.125	1.692727929	-0.1730240409	
693.75	1.098804277	-0.6924542592	
694.375	1.01762159	-0.9398307194	
695.0	0.7249486102	-0.6309533447	
695.625	1.57442622	-0.04854015939	
696.25	1.098161204	-0.2519949701	
696.875	0.4547393184	1.211592189	
697.5	1.879761229	0.885344522	
698.125	0.6095860267	0.2744677428	
698.75	1.663550724	-1.231258948	
699.375	-1.571342796	-0.1940755296	
700.0	-0.8226344016	-0.08187373381	
700.625	0.91664976	1.094312975	
701.25	0.1485452899	0.01672366613	
701.875	0.8335945283	1.119706336	
702.5	0.6604355899	-0.0888771823	
703.125	0.8440688905	0.688291442	
703.75	1.041840479	-0.673424988	
704.375	0.2153531984	-0.04781921588	
705.0	1.070087523	-0.5489341984	
705.625	0.1055920778	-0.2927712226	
706.25	0.548073033	1.048270616	
706.875	1.234623963	0.2026506496	
707.5	0.08970887579	0.7412169298	
708.125	1.580357858	0.2990468591	
708.75	0.07139610695	-0.9195751527	
709.375	-0.3832674112	-0.9164450688	
710.0	-0.4055272797	0.9947432631	
710.625	0.0008612193274	0.06238498994	
711.25	0.4170554388	0.4173122066	
711.875	0.4603505392	0.153165185	
712.5	0.7481571684	-0.09650963854	
713.125	0.4086598246	-0.3634712435	
713.75	0.6187542681	-0.6255783147	
714.375	-0.4126886032	-0.6645989204	
715.0	0.3925156771	-0.1130698282	
715.625	-0.3130609561	-1.074323313	
716.25	0.0258224356	0.04021244104	
716.875	1.675858381	-0.3720827899	
717.5	0.8343805534	-1.531635034	
718.125	0.8801192199	1.771166961	
718.75	3.485595238	-1.487403225	
719.375	0.1467522729	-1.544286771	
720.0	2.565506314	-0.8354885077	
720.625	-0.2705535108	-3.947389796	
721.25	-0.2559645217	-1.046385783	
721.875	-0.5328428762	-3.043166601	
722.5	-2.585355338	-1.606198062	
723.125	-1.006212241	-0.1663133893	
723.75	-1.514548532	1.262784058	
724.375	0.616027659	1.022183201	
725.0	0.2765008204	0.633081729	
725.625	0.0240727717	1.135366796	
726.25	0.6144903548	2.467323431	
726.875	0.5869282628	0.8223874164	
727.5	-1.795670382	3.900087949	
728.125	2.54520872	6.198375124	
728.75	0.1411832176	0.9576157672	
729.375	-7.606053881	18.03576101	
730.0	9.417126852	5.698839508	
730.625	-6.70594708	3.475754807	
731.25	-3.323905229	21.98598193	
731.875	3.863889003	6.996708198	
732.5	-10.44025925	-2.329178164	
733.125	-7.523266927	3.901336537	
733.75	-0.2198204876	3.79613048	
734.375	0.9324252498	2.028900012	
735.0	-1.297304154	-2.106463611	
735.625	-0.4299718541	-0.1180456874	
736.25	-0.7121931695	1.582819424	
736.875	2.13285202	1.238435585	
737.5	1.369805127	-0.8346636812	
738.125	3.522106797	1.547814423	
738.75	8.12335979	-6.311166196	
739.375	0.8317260882	-9.034008566	
740.0	5.950061263	7.748350511	
740.625	21.29276427	-7.484465911	
741.25	-10.57129392	-4.418811063	
741.875	-36.387876	20.03262644	
742.5	-2.932585205	6.274040896	
743.125	9.235698088	-4.644284728	
743.75	-2.521359135	-4.771271509	
744.375	-0.395040231	0.886724568	
745.0	-0.3382200821	0.1001763068	
745.625	0.3010205453	-0.3148641134	
746.25	0.07433139458	-0.2088071521	
746.875	-0.7082073482	0.09182591229	
747.5	0.002778342033	0.7311490551	
748.125	0.027108028	1.189360612	
748.75	0.4744349573	1.454493358	
749.375	0.5134381987	0.3552526464	
750.0	-1.365027665	-0.2008951533	
