!Created with skrf (http://scikit-rf.org).
# GHz S MA R 50.0 
!freq magS11 angS11
500.0 0.0177826679809 167.109757996
500.625 0.00841348783956 114.528169056
501.25 0.0190690488625 -54.0221441978
501.875 0.0500142852998 -179.969643482
502.5 0.0153864612855 142.277824027
503.125 0.0128184375327 47.8950689066
503.75 0.0100501996498 117.968967074
504.375 0.00445630230621 -45.5201895344
505.0 0.0234032735329 -66.6054745611
505.625 0.037033321511 -78.2602692553
506.25 0.053705650083 -103.135967533
506.875 0.0623533982546 -99.8735565215
507.5 0.0430328657685 -134.636936883
508.125 0.0767823587502 -82.2969956301
508.75 0.0530912654957 -159.378659593
509.375 0.0451060946828 -158.815884686
510.0 0.0338572290132 -122.24676731
510.625 0.0573673541895 -156.921414472
511.25 0.0446393598474 169.166851378
511.875 0.0547386238102 145.383151748
512.5 0.0438053855343 104.717205617
513.125 0.0616333069428 54.4583786336
513.75 0.0468969176849 11.8896070973
514.375 0.0449244854147 28.6639760251
515.0 0.055933210038 9.93531518106
515.625 0.106626912052 53.2390329413
516.25 0.079254508369 28.1567037386
516.875 0.103534149401 71.2318437643
517.5 0.111732828548 18.8928041209
518.125 0.221117855298 75.8204208758
518.75 0.0861921420666 12.8409666483
519.375 0.0780918827688 22.4168040572
520.0 0.106124492356 -1.14488832084
520.625 0.115575607351 -0.612851139962
521.25 0.0874540080395 -22.1881866601
521.875 0.064677626617 0.613286821228
522.5 0.100127640465 -31.4984533189
523.125 0.193489858442 -31.5294995505
523.75 0.194781396965 -66.7525489134
524.375 0.195469068554 -58.0695828974
525.0 0.071843183691 -42.2821105807
525.625 0.0354690872342 -45.4945618818
526.25 0.0426612110306 -9.38653258235
526.875 0.0545924267472 -23.5649891813
527.5 0.0529970129394 -25.2905370717
528.125 0.0420389383827 -55.5613684927
528.75 0.0628079210809 -71.3611733046
529.375 0.0977587777856 -108.309077066
530.0 0.0616477289279 -126.273942293
530.625 0.022500992128 -121.111886972
531.25 0.107693340934 -130.164810349
531.875 0.170444683523 -149.719976134
532.5 0.15799126605 -169.664067874
533.125 0.101274580937 175.373292192
533.75 0.121159961575 167.440275221
534.375 0.118695736742 -179.995055399
535.0 0.0890949934503 164.242388282
535.625 0.0726411578488 178.487582718
536.25 0.0591851741988 164.242524727
536.875 0.0722779449002 -159.232134889
537.5 0.10915324483 -146.188835093
538.125 0.0847977005834 -172.313469173
538.75 0.102036593215 -178.530103396
539.375 0.0743757506543 -165.088176224
540.0 0.100639711906 -155.153488051
540.625 0.103780558398 -151.546055632
541.25 0.118118158828 -138.975236247
541.875 0.0925052198964 -142.057429174
542.5 0.119486602907 -145.566159948
543.125 0.123049967322 -165.27781697
543.75 0.128700916112 159.898346895
544.375 0.0994726136187 136.480377142
545.0 0.0907421783238 92.3747196186
545.625 0.110721023718 83.7877096682
546.25 0.0855203698308 68.8987237334
546.875 0.0857799911062 56.5667303854
547.5 0.118518758754 58.1217960912
548.125 0.0944252553423 77.8600170775
548.75 0.0841218682614 90.3471131836
549.375 0.0987036144149 86.3245182497
550.0 0.0894744651191 127.014748287
550.625 0.0545451643579 156.763642933
551.25 0.0386777632608 -137.18960818
551.875 0.0711369675533 -166.241064855
552.5 0.117605247329 -165.769982977
553.125 0.0900885500826 -164.719341088
553.75 0.0904141321873 -167.996238069
554.375 0.115189321606 165.499862906
555.0 0.130903184975 163.595164022
555.625 0.103510437361 157.140383341
556.25 0.0911489029237 167.839095224
556.875 0.113430005957 168.17462408
557.5 0.108646049865 167.243553974
558.125 0.105325388001 163.847268013
558.75 0.0782104178577 -179.897764081
559.375 0.0731914960964 -172.444899339
560.0 0.0488912366514 -147.896986072
560.625 0.0617657966694 -143.697425507
561.25 0.0896429803094 -149.324066144
561.875 0.107427463617 -163.617719097
562.5 0.0952646605855 173.352918649
563.125 0.107817986305 145.175111769
563.75 0.131220450037 130.638863333
564.375 0.108730959594 120.627215408
565.0 0.0902547571084 119.624580249
565.625 0.0889047617913 115.685858155
566.25 0.0958680310517 154.678871664
566.875 0.0733986129713 -177.669058098
567.5 0.0686450874707 -177.155664919
568.125 0.0887611130867 -174.774735388
568.75 0.0586152953594 -138.209969863
569.375 0.0500547208889 -107.372779129
570.0 0.0585543804668 -106.66845392
570.625 0.0953166249142 -121.137935581
571.25 0.0898828861615 -115.947971896
571.875 0.0880014424449 -123.766436282
572.5 0.110188713436 -154.652558898
573.125 0.148646276973 -178.351293663
573.75 0.0944351903423 166.983507902
574.375 0.0799162899608 153.184557955
575.0 0.108341945316 153.16559149
575.625 0.114950107853 152.362713429
576.25 0.0888234873085 147.692427434
576.875 0.0849567333026 125.608699653
577.5 0.0849111104594 136.41642719
578.125 0.0638217708165 156.657934909
578.75 0.0471223628926 172.473699735
579.375 0.0545339613921 168.137255763
580.0 0.0662813022589 -170.212138052
580.625 0.0791979889642 -157.731467274
581.25 0.092653261306 -155.524391881
581.875 0.117457373626 -175.893492203
582.5 0.112333832578 -174.115613829
583.125 0.0961852129672 -171.432677491
583.75 0.0788111727215 -165.078634033
584.375 0.103664230104 -158.220095758
585.0 0.0967198693146 -144.780488317
585.625 0.0750007638225 -152.585055395
586.25 0.0682122750979 -125.357723007
586.875 0.0822610408169 -133.228347863
587.5 0.0694758481112 -140.007089605
588.125 0.0594509203171 -178.706971992
588.75 0.0721860373769 -157.207426236
589.375 0.0830128298388 -151.92043436
590.0 0.091568957355 -170.695481971
590.625 0.104252304282 162.789923451
591.25 0.124588069651 152.773412422
591.875 0.0976168573484 158.34771534
592.5 0.0651085269987 145.252806151
593.125 0.0608132468793 148.49961323
593.75 0.0628428016946 171.725923086
594.375 0.0582704766265 -152.211133845
595.0 0.0409570587864 -120.650282735
595.625 0.0589117011973 -102.380029324
596.25 0.0714324170372 -91.9702709075
596.875 0.0704479186277 -69.0324423773
597.5 0.0593849432785 -62.5591048847
598.125 0.0595960994193 -64.9215726567
598.75 0.0915487063538 -51.0112228481
599.375 0.0899952876891 -64.3283631466
600.0 0.0978344972207 -62.5346558066
600.625 0.0966283727936 -75.9801508392
601.25 0.083634595953 -73.5979612145
601.875 0.0679252702596 -87.4890501625
602.5 0.0615919242282 -91.0366962536
603.125 0.0455576800975 -59.0282589367
603.75 0.0271669790176 -54.8842530894
604.375 0.0548066858646 -8.76193981502
605.0 0.0694622330944 -10.2382063848
605.625 0.0488682624757 -0.807074845936
606.25 0.0179198278554 -25.5339346267
606.875 0.056161676068 54.9576626042
607.5 0.0612146432888 43.6517085588
608.125 0.0740260816471 35.2877419238
608.75 0.0514992072746 13.0141520183
609.375 0.0818476083297 38.4093317886
610.0 0.0810606526835 48.2000591583
610.625 0.0647966648098 42.9062539154
611.25 0.0400364171188 9.93523254746
611.875 0.0522422705464 75.7305571942
612.5 0.023880327234 92.8263997158
613.125 0.0151860529689 136.392438174
613.75 0.0373321887057 123.444606121
614.375 0.0292139197759 117.245056437
615.0 0.034303767281 120.707264373
615.625 0.0294989956808 130.868175126
616.25 0.0473733927966 136.274188824
616.875 0.0293193469383 127.737499529
617.5 0.0307512549616 122.062558722
618.125 0.0132547367122 126.350209035
618.75 0.0246476834784 141.208484476
619.375 0.00403716051696 110.421897847
620.0 0.00280991503126 22.1768634675
620.625 0.026101721443 -82.2672125596
621.25 0.0475462405274 -82.9939237247
621.875 0.0645391575671 -96.3779712465
622.5 0.0733772869485 -162.826888554
623.125 0.0744656829013 166.014621031
623.75 0.0558244088675 168.341016698
624.375 0.0311945791242 -158.500209166
625.0 0.0636074780673 -157.823375098
625.625 0.0497952136727 -159.161420683
626.25 0.0263447589418 -172.665183175
626.875 0.0276472526961 -10.3623984156
627.5 0.0244658912359 -97.4438873195
628.125 0.0354146319031 -23.3799022067
628.75 0.0421221609713 -18.4435120711
629.375 0.0644799924459 1.66353189541
630.0 0.0743813217938 0.452468592354
630.625 0.0705399415278 8.31863162393
631.25 0.0658908804248 1.68862170978
631.875 0.0789578284079 12.4538545095
632.5 0.0709439011125 -29.1034401752
633.125 0.0458067606332 5.22318517879
633.75 0.0434461086037 25.3188347038
634.375 0.0444214106837 23.9541187321
635.0 0.0464848618083 42.283625228
635.625 0.0262136659274 6.8439217358
636.25 0.0439637723913 34.6408612907
636.875 0.0635537676158 31.8815604513
637.5 0.052030301296 52.6174071024
638.125 0.0320498516176 62.6164416552
638.75 0.0741187425923 77.6247558019
639.375 0.105635917367 99.1416312232
640.0 0.0757016756348 108.940355051
640.625 0.0576080900291 102.301806124
641.25 0.0641873674158 122.295838292
641.875 0.0723652989251 153.629339135
642.5 0.0703520079922 164.590803892
643.125 0.0434716925662 140.165450132
643.75 0.066514994981 174.385753587
644.375 0.0767156668781 -178.47651225
645.0 0.0919780079884 -178.582155082
645.625 0.0927188186179 166.137908695
646.25 0.0944539121718 167.059935928
646.875 0.0730186454429 -177.327338648
647.5 0.0689000268327 -174.142888467
648.125 0.0972235008448 -173.02313208
648.75 0.0687442055938 -165.310936636
649.375 0.0445742035943 -149.140239993
650.0 0.0524375702908 -116.87858925
650.625 0.0834981274551 -88.3567248884
651.25 0.0522581784877 -66.2269318045
651.875 0.0586267572949 -40.5218898695
652.5 0.0834800364381 -23.9764528441
653.125 0.139071353884 -1.30857588932
653.75 0.103499940596 8.58240273119
654.375 0.118297151781 8.24477506027
655.0 0.121967197144 14.2577788212
655.625 0.106641891361 30.4605780015
656.25 0.0488081229807 16.0269041832
656.875 0.0607142303694 5.38497044903
657.5 0.0722054676748 21.6293246272
658.125 0.0796311002798 49.0900743468
658.75 0.0501641853953 66.4542629512
659.375 0.0830253849129 41.5399848844
660.0 0.129000789206 24.3535622673
660.625 0.119758180084 18.3573038582
661.25 0.109465703754 4.78900613928
661.875 0.121114808931 -13.5699917452
662.5 0.128078587086 -21.7580696471
663.125 0.118966667929 -15.4736432832
663.75 0.0884913729551 1.84464033122
664.375 0.0968075719947 56.5675404617
665.0 0.0725478188923 94.7541482436
665.625 0.0728729746187 112.403583052
666.25 0.0837732624831 130.714028173
666.875 0.124833473445 170.690086701
667.5 0.103019782497 -169.092725039
668.125 0.11110559663 179.331016229
668.75 0.129053234035 169.062723587
669.375 0.118849125601 178.844210486
670.0 0.0862492756325 -169.397266707
670.625 0.0970307887524 -174.074267183
671.25 0.0900009905966 176.438748921
671.875 0.096279133125 170.266357903
672.5 0.0742977498661 155.512019512
673.125 0.093744776737 149.620451809
673.75 0.111486631144 159.701501663
674.375 0.120046853513 169.092418115
675.0 0.117758241675 -174.238061548
675.625 0.140015393665 -151.63608821
676.25 0.124863666319 -125.454246562
676.875 0.113848237846 -118.519350843
677.5 0.126711422592 -127.604748097
678.125 0.143412557348 -117.092588854
678.75 0.0526674227807 -89.0920796175
679.375 0.0509399584742 -68.4330659848
680.0 0.0750525765572 -74.4940837569
680.625 0.131971070469 -79.0393972287
681.25 0.110986577236 -74.5193252612
681.875 0.101362278223 -92.8619982608
682.5 0.137274747815 -119.040330719
683.125 0.161965969357 -121.696572986
683.75 0.150048910032 -106.688855723
684.375 0.101987920763 -73.0665527887
685.0 0.13424510752 -38.1246190924
685.625 0.119507045653 1.02704353031
686.25 0.119298552504 19.9915609661
686.875 0.0749567626863 52.153029587
687.5 0.0746295002145 83.2721446232
688.125 0.0791218147302 113.125066351
688.75 0.106204553838 110.135759098
689.375 0.13449846912 124.113045657
690.0 0.134599568097 132.49680647
690.625 0.126389316602 123.767228538
691.25 0.1450029362 96.4531067453
691.875 0.201493712311 65.6038673959
692.5 0.139343378288 40.4905802412
693.125 0.0838042086738 -10.3845379999
693.75 0.085717724892 -36.3405550177
694.375 0.148760047136 -36.3288543211
695.0 0.122603787275 17.6122687843
695.625 0.102850264718 55.5950969406
696.25 0.122431566242 108.327666316
696.875 0.141413653356 172.356950655
697.5 0.151217146496 -149.327816006
698.125 0.130786013904 -125.307253089
698.75 0.136311173865 -132.833266022
699.375 0.115468061127 -128.513079373
700.0 0.0895523099464 -106.087301528
700.625 0.112465831089 -88.3951839304
701.25 0.108397887459 -69.975071221
701.875 0.0847051608913 -63.0708068705
702.5 0.0971725979568 -82.8368321718
703.125 0.171741946139 -120.969284594
703.75 0.179213240231 -151.155681778
704.375 0.131389897725 170.590351087
705.0 0.115034867755 151.780251188
705.625 0.136926234452 -161.941151313
706.25 0.142691923785 -110.585584122
706.875 0.0881823259019 -60.7336616141
707.5 0.07863789547 -41.1895714526
708.125 0.0900666292134 19.3714320216
708.75 0.113173766534 64.4035907178
709.375 0.105257695717 103.076375127
710.0 0.10343557122 130.445346659
710.625 0.109475903438 147.955009484
711.25 0.122007520945 171.568081373
711.875 0.143165847112 171.352627925
712.5 0.157790573689 139.192195042
713.125 0.117235458285 105.413660461
713.75 0.101340013596 46.6479865364
714.375 0.112081642658 23.8554231813
715.0 0.116142910939 27.856643911
715.625 0.085219661943 38.7439874679
716.25 0.0917311974122 91.8650161236
716.875 0.120564221724 108.746190991
717.5 0.136156208561 143.901658963
718.125 0.118045356344 166.77973538
718.75 0.0998457265397 167.587347269
719.375 0.11585784827 -169.3622502
720.0 0.134937269146 -120.795238622
720.625 0.116393423122 -74.1145601852
721.25 0.0979641316132 -31.3807517277
721.875 0.0842478223486 32.8765515281
722.5 0.0669034897864 73.3338299043
723.125 0.0679078345319 54.5197239191
723.75 0.101610858869 43.2363490362
724.375 0.111660889344 -1.07622982607
725.0 0.0939787156817 -42.8770819219
725.625 0.101845435422 -66.6420369483
726.25 0.0980573446016 -83.2733483099
726.875 0.110693392852 -31.9988857203
727.5 0.085743440735 -24.5992018553
728.125 0.0705855749688 2.56333518141
728.75 0.0818154467461 12.8271671833
729.375 0.0836724477064 16.5057272367
730.0 0.0676509133205 6.70020880215
730.625 0.0794369733898 31.0659372312
731.25 0.071497416878 63.6605307264
731.875 0.051306433452 100.302404257
732.5 0.100192622004 163.014281892
733.125 0.0880371498659 175.621563604
733.75 0.0733831782106 175.331698061
734.375 0.0462983659798 150.834943774
735.0 0.048346755364 154.825655127
735.625 0.0362966982966 127.868475656
736.25 0.0336880534194 142.988096644
736.875 0.0302430598557 -172.696958763
737.5 0.0758076954412 -178.880063268
738.125 0.108316325992 -173.308989181
738.75 0.0763790359903 -176.69492065
739.375 0.0202529760894 158.629557372
740.0 0.0951421606987 -137.648994023
740.625 0.0545053201882 -151.041939598
741.25 0.0452326973798 -147.279858328
741.875 0.0267008082844 -106.97427061
742.5 0.0154221039823 35.6536092574
743.125 0.0282683458744 74.3516212796
743.75 0.0387304698451 130.612727719
744.375 0.0399353085346 172.65950038
745.0 0.0674041247503 112.302969804
745.625 0.0638822280904 116.309034115
746.25 0.0659414258668 100.446418365
746.875 0.0608946945403 42.712815869
747.5 0.0248649627816 33.6039607648
748.125 0.0333815866763 -11.7733465854
748.75 0.0267742149468 -17.9287047611
749.375 0.0407316952979 -18.8868243808
750.0 0.0404326737636 -46.6288836344
