!Created with skrf (http://scikit-rf.org).
# GHz S MA R 50.0 
!freq magS11 angS11
500.0 0.0165042368619 158.480072783
500.625 0.0150267112451 30.6302822281
501.25 0.0143701362746 -168.421680655
501.875 0.0378685860717 -177.899774415
502.5 0.0164442116892 155.677781336
503.125 0.0283871234591 138.37172523
503.75 0.0102274039138 102.168991692
504.375 0.00587855638808 153.27062855
505.0 0.0238093033535 -70.4136020162
505.625 0.0137889838423 -68.6471342691
506.25 0.0400329840663 -106.038975905
506.875 0.0543440929894 -112.656907036
507.5 0.0580878228361 -105.534698043
508.125 0.0408224935082 -114.399025473
508.75 0.0516261561919 -142.29766209
509.375 0.0477748236876 -140.563460191
510.0 0.0496503528921 -105.90390029
510.625 0.0194222107646 167.78659076
511.25 0.0451413333836 177.200328408
511.875 0.0498567402054 140.814873057
512.5 0.0497345214221 110.706184946
513.125 0.0463916979462 18.7436800589
513.75 0.0464754854789 20.798946975
514.375 0.0441954551841 25.8636262571
515.0 0.0559844205877 5.84446883627
515.625 0.0848751216241 48.4463643063
516.25 0.0881430347967 32.4335237827
516.875 0.11094394471 70.2648935059
517.5 0.138640557998 23.029701958
518.125 0.19270741914 68.7992011569
518.75 0.0851293206917 6.4583573671
519.375 0.0841211489115 23.8431277462
520.0 0.0767967641514 -10.6172280014
520.625 0.104538213687 -3.24046729035
521.25 0.0896756582602 -21.9240969273
521.875 0.0671165222895 1.81345378452
522.5 0.108047055867 -30.485535908
523.125 0.177079690562 -36.4494151423
523.75 0.200717295472 -61.1092872085
524.375 0.203639894728 -51.1817829384
525.0 0.0727971288318 -46.0742880138
525.625 0.0350206466604 -42.9214159497
526.25 0.0389673067546 -20.2774901384
526.875 0.0697818840426 -16.6091767496
527.5 0.0420377804467 -38.5405510902
528.125 0.0371206573371 -56.2275062481
528.75 0.0727399202096 -71.1390486395
529.375 0.107121472824 -107.789053699
530.0 0.0330155490412 -146.423045833
530.625 0.028079870826 -128.685072824
531.25 0.117489056819 -133.85743722
531.875 0.204635003575 -148.540496815
532.5 0.112581688388 -175.043062324
533.125 0.0959149441923 175.568645991
533.75 0.109233170098 162.945500893
534.375 0.128751735966 179.952167813
535.0 0.0861767998318 161.245082491
535.625 0.0658343839484 176.007054214
536.25 0.0512937072816 161.381412915
536.875 0.0934421176482 -163.335033968
537.5 0.083123279613 -141.650575123
538.125 0.0928238948274 -172.469875708
538.75 0.0937486542508 176.431619076
539.375 0.0930857662861 -164.844205501
540.0 0.0776819666481 -153.336315582
540.625 0.112317025539 -152.501413151
541.25 0.124904161676 -140.614580711
541.875 0.10736871665 -146.115222572
542.5 0.100083286861 -141.158811416
543.125 0.127770630918 -165.501244908
543.75 0.121745043919 157.302661978
544.375 0.104655685788 135.981748673
545.0 0.0876094051795 89.5886872024
545.625 0.0989727368518 82.5064039959
546.25 0.0929591802391 68.9940623334
546.875 0.0884958475519 55.0758090516
547.5 0.0997268592048 57.6977578992
548.125 0.101212713632 78.3992276528
548.75 0.0855226478323 89.8925098589
549.375 0.110747388278 85.4842433187
550.0 0.0835709603541 122.928968903
550.625 0.0477951713778 155.406403941
551.25 0.0424684461514 -142.45701897
551.875 0.0700882353077 -168.690426568
552.5 0.0890970923803 -156.22576575
553.125 0.0901011430216 -166.016886026
553.75 0.084967036183 -167.105259623
554.375 0.11270088958 164.87027334
555.0 0.11760001796 165.727691316
555.625 0.0969686733297 158.367446802
556.25 0.0963381626092 164.66039751
556.875 0.120246466255 165.696061794
557.5 0.125204303854 164.498336207
558.125 0.0838141147193 165.100491433
558.75 0.0855769735467 177.795280041
559.375 0.0734623612008 -174.093518409
560.0 0.0365961346902 -141.485557471
560.625 0.0575228048153 -138.971201919
561.25 0.092175040685 -153.181278974
561.875 0.106712710915 -163.500767376
562.5 0.0981256569268 170.52882452
563.125 0.104237643601 146.835626232
563.75 0.122857667104 131.202205327
564.375 0.112697130957 118.649960689
565.0 0.0731729933298 122.86199873
565.625 0.0814049319864 118.099277137
566.25 0.0960308595862 151.710081321
566.875 0.0750912727574 -179.665726683
567.5 0.0791721726332 177.977265854
568.125 0.0735745318898 -167.183502937
568.75 0.0625741257382 -141.783325149
569.375 0.0451249720285 -105.260913467
570.0 0.0628872844665 -118.33404675
570.625 0.0894187708715 -114.559582911
571.25 0.0915760500438 -119.825412427
571.875 0.0883819809532 -127.131501844
572.5 0.115960737903 -160.77715696
573.125 0.134393273098 -170.070828685
573.75 0.0983753298125 164.743690779
574.375 0.0836591374878 149.120641386
575.0 0.111389408101 148.806840375
575.625 0.107470068879 156.487807358
576.25 0.0917963966153 144.255341333
576.875 0.0871789812103 125.589934119
577.5 0.0841711322006 133.846878171
578.125 0.0585178285154 159.833718741
578.75 0.0498229684385 163.235569373
579.375 0.0554080072723 162.599832664
580.0 0.07175681947 172.93978223
580.625 0.0771028855691 -143.129323193
581.25 0.0916411403077 -159.991566193
581.875 0.109652934668 -173.049182677
582.5 0.123123621213 177.894957767
583.125 0.0867433615241 -161.273030095
583.75 0.0815969994151 -164.947051683
584.375 0.101047600236 -154.37137641
585.0 0.0972659089998 -145.799341408
585.625 0.0654700078292 -134.156855046
586.25 0.0693984691326 -130.813104467
586.875 0.0795408363256 -131.505113857
587.5 0.0767144251111 -151.925775877
588.125 0.0561877624803 -158.792335451
588.75 0.0685664191962 -158.790383899
589.375 0.080290796101 -147.92858712
590.0 0.091456937374 -170.459421646
590.625 0.104479489171 168.782893958
591.25 0.121542172415 156.589578667
591.875 0.0990521036387 155.114530985
592.5 0.0643817806493 146.016260308
593.125 0.0661708574032 157.398327341
593.75 0.0709222259545 174.760223843
594.375 0.0538764151188 -145.912384886
595.0 0.0404546759184 -133.733970082
595.625 0.0580318702869 -97.6484902691
596.25 0.0744161116713 -85.2698017814
596.875 0.0681325638246 -73.1944771574
597.5 0.0592796126581 -60.7669445661
598.125 0.0803264518638 -45.8164490842
598.75 0.0858733462634 -56.6766438754
599.375 0.0950715504671 -59.7369207282
600.0 0.0928516131041 -76.2346718358
600.625 0.103566614021 -52.7117699176
601.25 0.0859874666568 -72.386479876
601.875 0.0646974387092 -82.8617633935
602.5 0.0613481635479 -90.8658663711
603.125 0.0432722380562 -52.2433364981
603.75 0.0315050145989 -33.7682821147
604.375 0.0470136484983 -16.3523329579
605.0 0.060453184946 -20.5090337745
605.625 0.0437162087232 -33.8337185746
606.25 0.0408642863807 37.8594763157
606.875 0.0496156891963 51.2052405303
607.5 0.0685122025674 47.1980781757
608.125 0.0550174226073 18.1268170047
608.75 0.0612541446661 22.4618269261
609.375 0.0733641265293 31.1621659456
610.0 0.0710592294944 41.4940195946
610.625 0.0514205715309 20.5988170387
611.25 0.0671378074631 52.3620003535
611.875 0.0467275321723 67.4490062303
612.5 0.027852833308 105.374730685
613.125 0.0179116838771 123.873690959
613.75 0.0562693064582 132.578517391
614.375 0.047127640752 123.25195485
615.0 0.0240879191741 108.78536471
615.625 0.0307850225377 132.636164805
616.25 0.0304052814562 139.430928565
616.875 0.0535948085405 133.148903654
617.5 0.0313809025167 121.445985751
618.125 0.0168127777199 130.246658666
618.75 0.0160835948905 144.217197845
619.375 0.0213765674014 145.476401465
620.0 0.00844040104834 -178.747250527
620.625 0.0354296537733 -66.6672663523
621.25 0.0509337502433 -137.916994281
621.875 0.0615698143817 -110.699277775
622.5 0.0728445832631 -161.376422116
623.125 0.0738466506527 168.97040701
623.75 0.0491072443935 175.737382088
624.375 0.044733028682 -177.335507638
625.0 0.049206368199 -156.435066766
625.625 0.0351273743025 -153.862806639
626.25 0.00162945694637 -60.43945428
626.875 0.0232317132416 -176.497615544
627.5 0.0163362243894 -80.4214449115
628.125 0.0422249982652 -41.5643499562
628.75 0.0531919525176 -0.705649427556
629.375 0.0387109871373 -47.4682015363
630.0 0.0625941929246 -8.30711919797
630.625 0.0775102618321 -3.44192485455
631.25 0.0716720785013 12.1062888916
631.875 0.0730900232812 -26.95284495
632.5 0.0630601714187 -23.6608244153
633.125 0.053856271128 -3.89519166148
633.75 0.0426410322679 16.4342800677
634.375 0.0509006710897 -1.682266282
635.0 0.0346513016073 20.6258594443
635.625 0.0305117066213 31.8048916872
636.25 0.0525689429505 45.0960762004
636.875 0.0812340187367 50.3174126545
637.5 0.0396412089325 3.63083505016
638.125 0.0335361162177 65.5893004075
638.75 0.0639935556319 68.9632973476
639.375 0.103041637829 97.0902061494
640.0 0.0692076409879 90.3528155557
640.625 0.0510505416751 98.8646162874
641.25 0.0763794714617 128.955211416
641.875 0.0810240992376 157.13796664
642.5 0.0446423102342 143.016435002
643.125 0.0460243870851 150.735952694
643.75 0.0592482524785 163.840903905
644.375 0.0948091262988 -169.716168232
645.0 0.0593010252522 165.649935236
645.625 0.0849063641017 165.217260639
646.25 0.091520067503 156.242868353
646.875 0.0739917237251 -179.255515187
647.5 0.0665946345575 -179.263171167
648.125 0.0853224858274 -177.154296736
648.75 0.0759931675249 -161.442474511
649.375 0.0480631385439 -149.594951847
650.0 0.0585934272979 -118.058751232
650.625 0.0548373749112 -89.2719832957
651.25 0.0619409044418 -61.5211275854
651.875 0.0677887028872 -41.4140286555
652.5 0.106368428422 -26.5857239643
653.125 0.0930065037265 -6.2670076217
653.75 0.111296285997 7.48755188215
654.375 0.115294095763 7.30469193213
655.0 0.103369306463 6.35860208813
655.625 0.0938701162092 25.1392037981
656.25 0.0581831912745 21.4951978123
656.875 0.0676706102732 8.71781333534
657.5 0.098088251765 23.6505394743
658.125 0.0427525023663 39.8580478581
658.75 0.052184767839 66.6198709267
659.375 0.0739226104918 39.1127615503
660.0 0.125036888163 24.35207284
660.625 0.100343252641 17.4431558289
661.25 0.103391374117 4.72053636503
661.875 0.131209645958 -13.2963273993
662.5 0.139722155065 -21.09236171
663.125 0.0893171895749 -18.1805882289
663.75 0.0900912108212 4.37729099645
664.375 0.0860750379653 51.0695074661
665.0 0.0845477874464 90.5834254042
665.625 0.0643495813289 112.159851424
666.25 0.0857193889915 130.722656371
666.875 0.126718694906 169.874684575
667.5 0.10654758725 -171.266346711
668.125 0.10234209927 -178.878087903
668.75 0.133256643568 166.404398296
669.375 0.131107546364 176.853847273
670.0 0.0962549386933 -171.378731526
670.625 0.0860886359841 -172.064687216
671.25 0.0996546789871 175.969298607
671.875 0.100333202649 168.171420323
672.5 0.0909310359819 151.61235711
673.125 0.0734315232527 155.441117041
673.75 0.11651607397 156.605068456
674.375 0.118136332699 168.017676112
675.0 0.114585878957 -174.213152355
675.625 0.125969237946 -150.850002748
676.25 0.123229410298 -127.2790122
676.875 0.114786899394 -120.889406363
677.5 0.130559685545 -130.058187138
678.125 0.117183466163 -116.694102163
678.75 0.0595014767463 -91.07128707
679.375 0.049725397302 -74.2442803504
680.0 0.0868973062754 -86.6533334755
680.625 0.0951720865157 -67.5975623379
681.25 0.103911426937 -73.6960029211
681.875 0.0974784378687 -94.2076032555
682.5 0.137004602334 -120.035282362
683.125 0.176465207734 -125.134454031
683.75 0.131832839077 -105.320673228
684.375 0.106996754847 -76.6019162231
685.0 0.120783744038 -41.029434971
685.625 0.141435503057 -5.01339984791
686.25 0.0862838719386 25.6575134858
686.875 0.0815176474519 50.1185532908
687.5 0.070604659552 87.2812437457
688.125 0.0879855055853 100.842095692
688.75 0.092877656491 124.935378177
689.375 0.136923777482 122.050343197
690.0 0.13198096299 131.552178755
690.625 0.125631386041 123.728581594
691.25 0.130767936255 100.570250788
691.875 0.187645144268 67.3744661008
692.5 0.151578935625 37.8592002407
693.125 0.0904377736684 -16.198519475
693.75 0.104553319357 -47.5942215694
694.375 0.120837930186 -19.1436181693
695.0 0.125008973684 14.77905639
695.625 0.0993707382876 53.7457559804
696.25 0.120142780354 107.940979263
696.875 0.142605091504 168.722223289
697.5 0.138029140235 -142.943763175
698.125 0.139725399254 -131.271993141
698.75 0.13666941626 -134.731042076
699.375 0.0926961840948 -115.531914954
700.0 0.092709895718 -109.35986342
700.625 0.102764241605 -86.1510160022
701.25 0.109247488441 -71.0590368086
701.875 0.0790149132167 -50.7024311348
702.5 0.0996958845491 -82.8345869555
703.125 0.17106640046 -128.206803718
703.75 0.185498016496 -154.968875073
704.375 0.134880967291 166.756166711
705.0 0.104499464313 165.624793441
705.625 0.138927036852 -166.179313263
706.25 0.12878801292 -108.891783147
706.875 0.101791192604 -72.1511023362
707.5 0.0703694538061 -25.7277243235
708.125 0.0897713165086 20.5458126344
708.75 0.111099797696 67.9249168982
709.375 0.106947223533 95.3344843032
710.0 0.1003440302 131.773221109
710.625 0.10742570333 155.69383459
711.25 0.114122689097 174.411691866
711.875 0.141898984198 158.423404579
712.5 0.142817833589 155.965393897
713.125 0.120395559656 103.392189459
713.75 0.0973283581559 44.2229385622
714.375 0.113022734219 21.4807559289
715.0 0.112728492309 20.8129925444
715.625 0.082678489256 54.5262690997
716.25 0.0865273437901 85.6090604971
716.875 0.112454274483 105.746172909
717.5 0.139925028276 132.821665772
718.125 0.114916021844 170.028375819
718.75 0.10243434766 172.110664493
719.375 0.112454092375 -175.412168236
720.0 0.131510999106 -130.224733588
720.625 0.116392322345 -83.8013809722
721.25 0.094122628845 -24.5291956497
721.875 0.0803782621214 40.5665099815
722.5 0.0680764210335 44.6777881424
723.125 0.10797035487 91.9038500416
723.75 0.115033867757 46.4875344231
724.375 0.103127518793 -8.93917973193
725.0 0.0916352171151 -45.6831036756
725.625 0.092748100801 -75.8835364383
726.25 0.127905844618 -53.1783793731
726.875 0.109939471239 -40.116922926
727.5 0.082116224407 -34.8727721262
728.125 0.063735882065 -29.3668548696
728.75 0.1116883947 37.674154224
729.375 0.0911333137312 21.216347142
730.0 0.0602058382221 -7.56463569784
730.625 0.0616878152642 20.1272527883
731.25 0.0559191594515 50.7632499398
731.875 0.0717592831776 117.695369042
732.5 0.0888747421542 158.327406644
733.125 0.0916575695002 -176.821384859
733.75 0.0630890483828 153.335941435
734.375 0.0581700299449 168.563062537
735.0 0.0369340373582 151.858087928
735.625 0.0354726348487 132.759342637
736.25 0.0222278791224 134.602025999
736.875 0.0524600919738 168.135442302
737.5 0.066134992182 177.820163786
738.125 0.0887437229293 -177.662061707
738.75 0.0568599442955 173.783814309
739.375 0.0564768113689 -173.788487027
740.0 0.0790995678804 -144.456697022
740.625 0.0632956392742 -143.778750548
741.25 0.0156791024413 -128.221903865
741.875 0.0590269479776 -100.60842656
742.5 0.0365514240978 -12.2043524617
743.125 0.0444886787219 66.2313699489
743.75 0.0272469350451 161.26741115
744.375 0.0805690432687 90.5025812199
745.0 0.0618269287933 113.28379236
745.625 0.0791977465886 108.525860058
746.25 0.0684888785442 104.464008829
746.875 0.0641828960155 47.965322851
747.5 0.0400974380994 14.1061372295
748.125 0.023021407746 -18.6358513491
748.75 0.0245306877448 -8.96475543448
749.375 0.0394366080537 12.0765643737
750.0 0.0571848526865 -128.03702851
