!Created with skrf (http://scikit-rf.org).
# GHz S RI R (50+0j) 
!freq	ReS11	ImS11	
500.0	-1.414150525	-5.041916874	
500.625	-0.1040204254	-1.054096417	
501.25	-0.6380297216	-2.070146342	
501.875	-1.566412156	-2.118711217	
502.5	-0.4523263403	-0.05968589935	
503.125	-0.1531526461	-0.1010569458	
503.75	0.249898581	0.4112790412	
504.375	-0.05268836703	0.04877437915	
505.0	0.1263586054	-0.22137837	
505.625	0.02389542336	0.1132959272	
506.25	-0.3723536804	-0.657982217	
506.875	0.7901291824	0.4062976077	
507.5	0.5197737312	-1.803979248	
508.125	-0.5625212194	-3.015692757	
508.75	-0.2845257632	-1.761675057	
509.375	0.7721934198	-5.056108841	
510.0	-1.838733805	0.1317436102	
510.625	-0.1180268623	-0.5409500917	
511.25	-0.6241410346	-0.1413433834	
511.875	-0.106929761	-0.1246581039	
512.5	-0.1460400899	0.2082484715	
513.125	-0.04082958891	-0.3042484526	
513.75	-0.3310399713	0.05530502429	
514.375	0.1082020743	-0.3211412666	
515.0	-1.489186352	0.2214489558	
515.625	2.33150661	-1.835138779	
516.25	-3.688465223	-1.955831496	
516.875	0.4150846693	0.001908630685	
517.5	-0.1168520739	-1.295244864	
518.125	0.1018695714	0.3782016396	
518.75	-0.3049234861	-0.954154887	
519.375	-0.08695813642	0.2388552425	
520.0	0.1689165573	0.1423910426	
520.625	0.6707159014	-0.2257730216	
521.25	-0.3601127176	-0.5730367549	
521.875	-0.1750129794	-0.2039751763	
522.5	-0.1867055689	0.2512845318	
523.125	-0.1962875803	-0.2342546037	
523.75	-0.2915205981	0.2369422815	
524.375	-0.2886866165	-0.1544218319	
525.0	0.127355181	0.6741884159	
525.625	-0.08355798567	-0.09467300496	
526.25	0.1720543553	0.07356561038	
526.875	-0.3211336802	-0.01432988412	
527.5	0.07942093198	0.8720361401	
528.125	0.1560426025	0.2467139624	
528.75	-0.1640557103	0.9960209415	
529.375	0.2821225983	-0.1076996822	
530.0	0.09931119473	0.8632859234	
530.625	0.290371528	0.3077202592	
531.25	1.462328203	0.8366249706	
531.875	-0.04838488587	-0.9178482806	
532.5	0.3698242298	-0.3046425524	
533.125	-0.627955645	-0.1716235137	
533.75	0.880914745	-0.6876241479	
534.375	-0.8297036413	-0.5055605667	
535.0	-0.2397341422	-0.3841702716	
535.625	-0.6975323606	0.5794989683	
536.25	0.09107279398	0.08161661121	
536.875	0.2127285048	0.1782889394	
537.5	0.2069412983	-0.2039004464	
538.125	0.1124425209	-0.0392359601	
538.75	0.5044322859	-0.3656408341	
539.375	-0.2769450735	-0.2201122053	
540.0	-0.2128315043	-0.4500084075	
540.625	-0.5888520783	0.01925814313	
541.25	-0.04099691252	0.07194497719	
541.875	-0.1092606534	-0.1191936615	
542.5	-0.2231800244	-0.1375989807	
543.125	-0.0885339395	0.07788119128	
543.75	-0.2629259434	-0.2387763816	
544.375	0.03704889414	0.3217313372	
545.0	-0.2228469553	0.02759826342	
545.625	0.3841653464	0.1430907051	
546.25	-0.0654119863	0.06029947556	
546.875	0.5944569882	-0.05610419604	
547.5	-0.1312311969	-0.2221853995	
548.125	0.1314221671	-0.3564189759	
548.75	-0.4135977261	-0.4154986147	
549.375	-0.2985143857	0.03172519476	
550.0	-0.1410650776	-0.1582545622	
550.625	-0.1326622942	0.1738120489	
551.25	-0.1627624832	-0.07468835094	
551.875	-0.1968335541	0.3122460312	
552.5	-0.04011912013	0.08208815602	
553.125	-0.07530405729	0.2081422438	
553.75	0.1328007656	0.0853234546	
554.375	0.1991964646	0.006945668124	
555.0	0.2524474682	-0.1683693642	
555.625	0.1821252028	-0.2787465803	
556.25	0.1442923718	-0.328862257	
556.875	-0.07876321772	-0.3910481096	
557.5	-0.2493533506	-0.2335335127	
558.125	-0.2575915015	-0.07998460014	
558.75	-0.2594003059	-0.02261519628	
559.375	-0.2677648121	0.08837633398	
560.0	-0.1746946917	0.1458706425	
560.625	-0.1731873269	0.2543478184	
561.25	0.0784238766	0.2882299701	
561.875	0.0160157719	0.01510805115	
562.5	0.09371824221	0.2238110386	
563.125	0.04581699506	0.09811345241	
563.75	0.4474397157	0.05461350253	
564.375	0.1417434241	-0.3098361064	
565.0	0.2716280315	-0.1872643548	
565.625	-0.1596076723	-0.5064128731	
566.25	-0.2831947752	-0.106210915	
566.875	-0.1787378904	-0.2241483439	
567.5	-0.4459813235	-0.380094077	
568.125	-0.4252961498	-0.1377321826	
568.75	-0.3757956426	-0.4284223235	
569.375	-0.6709887095	0.4566170489	
570.0	-0.1195379292	0.2593988676	
570.625	-0.4243790801	0.5260393889	
571.25	0.3425526662	0.2380662238	
571.875	-0.1871001133	0.3247760279	
572.5	0.5997771221	-0.2136076356	
573.125	-0.103937256	-0.08506570946	
573.75	0.416296978	-0.1429101225	
574.375	-0.1757273708	-0.4200518189	
575.0	0.1579799399	0.1983375374	
575.625	0.04742353983	-0.4649053702	
576.25	-0.05854219856	0.04893888678	
576.875	0.2398353072	-0.5459618671	
577.5	-0.2574915907	-0.4833745109	
578.125	-0.06559149074	-0.09546129691	
578.75	-0.01865914697	-0.4220114345	
579.375	-0.4305826289	-0.2359564935	
580.0	0.06180481265	0.1383777298	
580.625	-0.3358555737	-0.2710951933	
581.25	0.01046470914	0.324131157	
581.875	-0.2453336358	0.1435651269	
582.5	0.188062626	0.681224837	
583.125	0.3622464989	-0.1817227143	
583.75	-0.2473763911	0.3117728855	
584.375	0.507215982	-0.1430540635	
585.0	-0.1524963867	0.2853565245	
585.625	0.7159536831	-0.006456213691	
586.25	0.05685224769	-0.2950324915	
586.875	0.4548282332	-0.1343325139	
587.5	-0.3028955069	-0.5036369699	
588.125	0.07522841897	-0.01241307151	
588.75	0.305717797	-0.4939464982	
589.375	-0.07516981584	-0.5211902024	
590.0	0.07256440081	-0.2049091907	
590.625	-0.4574695818	-0.283707106	
591.25	-0.3188099042	0.433471114	
591.875	0.04230523562	0.1252720509	
592.5	-0.1409130828	0.2326464564	
593.125	0.007634608673	-0.06763150462	
593.75	0.1612304431	0.4797401248	
594.375	0.393954826	0.04750310425	
595.0	0.1162904836	0.2228442819	
595.625	0.5623368839	0.5490468676	
596.25	0.4206681178	-0.4065506328	
596.875	0.09207686396	0.416179928	
597.5	0.6647286285	0.2524180657	
598.125	0.1623270343	0.008383075612	
598.75	0.5594741716	0.5032933029	
599.375	0.3291528238	-0.3273788653	
600.0	0.4290953216	-0.05762479325	
600.625	0.4827035671	-0.6172001356	
601.25	-0.07871765348	-0.3996531803	
601.875	0.04395183023	-0.2900843317	
602.5	-0.3985056889	-0.06066766537	
603.125	-0.2838289368	0.1016246008	
603.75	-0.07152452865	0.2072038269	
604.375	-0.3284739085	-0.006571773738	
605.0	-0.1338474252	0.4169928376	
605.625	-0.1252956058	-0.1427031441	
606.25	-0.3981378499	0.3702107439	
606.875	-0.1351188515	0.1011951433	
607.5	-0.7870209382	0.3470036701	
608.125	0.398513242	0.633616708	
608.75	-0.02491970236	0.3853154124	
609.375	0.9360314373	-0.06273559183	
610.0	-0.0215633372	-0.3087151626	
610.625	0.5415455477	-0.3220620983	
611.25	-0.2558164316	-0.3790980064	
611.875	0.1090955085	-0.2836111099	
612.5	-0.7180246081	-0.03495029383	
613.125	-0.1295457969	-0.05465081171	
613.75	-0.4550385156	0.4322614583	
614.375	0.3491551112	0.04592576989	
615.0	-0.09506068216	0.4429554738	
615.625	0.243892707	-0.04316430573	
616.25	-0.4246096139	0.3016299426	
616.875	0.03695580315	0.7343571896	
617.5	-0.1842715693	0.09934491236	
618.125	-0.179185994	0.7782917982	
618.75	0.3216239089	0.2808633326	
619.375	-0.03732760992	0.4325439855	
620.0	0.5789178656	-0.01159917914	
620.625	0.2205179851	-0.1996202986	
621.25	-0.2961710356	-0.5183217181	
621.875	-0.303102878	-0.1213736876	
622.5	-0.6902529061	0.08291099053	
623.125	0.1424059021	0.3569580919	
623.75	0.1731507838	0.3005002711	
624.375	0.03866458981	-0.3946854333	
625.0	0.2081018647	0.2439809075	
625.625	-0.05472502333	-0.6279263329	
626.25	0.1357687967	0.0716359371	
626.875	-0.4138682517	-0.5344250597	
627.5	-0.4572171836	0.1577576993	
628.125	-0.01159623907	-0.1646695237	
628.75	-0.3571246429	-0.497914501	
629.375	-0.09044435435	-0.1199207962	
630.0	-0.4384175392	-0.4347872098	
630.625	-0.5393821916	0.348897133	
631.25	-0.1712605056	0.2125503715	
631.875	-0.2370921542	0.6841234341	
632.5	0.4567760876	0.4180559852	
633.125	0.4911865553	0.02526341365	
633.75	0.2279851752	-0.06045145961	
634.375	0.3649603897	-0.4887386694	
635.0	-0.2225079395	-0.02941286158	
635.625	-0.2630087513	-0.4892169571	
636.25	-0.3619547156	0.4268244106	
636.875	-0.05909602442	-0.08408280721	
637.5	-0.235495936	0.6020888289	
638.125	0.142774183	-0.09218663102	
638.75	-0.6294026066	0.4144224469	
639.375	0.3892298012	0.8434251091	
640.0	0.280254419	0.132382402	
640.625	0.3067308454	0.6428339774	
641.25	0.9358452449	-0.1572836772	
641.875	0.04923691423	-0.2585937477	
642.5	0.3354493844	-0.7342442694	
643.125	-0.4727749083	0.1889722807	
643.75	-0.02495998078	-0.427583868	
644.375	-0.7621909573	0.173223878	
645.0	0.02549756037	0.3430171175	
645.625	-0.1726099337	0.3004872583	
646.25	0.5386508919	0.5644034623	
646.875	0.215045429	-0.461526615	
647.5	-0.07725399671	0.4781037334	
648.125	0.7038087619	-0.2961934239	
648.75	0.05163932502	0.3290527134	
649.375	1.003690578	-0.9236156525	
650.0	-0.2688631009	-0.7529786527	
650.625	0.6063813737	0.009313585462	
651.25	0.9728853065	-1.194137695	
651.875	-0.2762282454	-0.5840502617	
652.5	0.6917094143	0.3749754079	
653.125	0.9824599874	-0.6216494812	
653.75	-0.0839224705	-0.4423752741	
654.375	0.4038603902	-0.8893589876	
655.0	-0.9898994991	0.1133945799	
655.625	-0.0120149475	0.1981388138	
656.25	-0.3855179839	0.5552441009	
656.875	0.6274476435	0.113163307	
657.5	-0.4027883916	0.1924521678	
658.125	0.5991516393	0.5734750423	
658.75	0.6915890277	-0.09483631553	
659.375	0.3866321268	-0.1352576523	
660.0	1.033973728	-0.7757140639	
660.625	-0.2551418606	-0.7778002707	
661.25	0.601169273	-0.3245739229	
661.875	0.7215387581	-0.937675333	
662.5	-0.02850520596	-0.6225299703	
663.125	0.8462303534	0.1551987025	
663.75	0.3158862114	-1.235361014	
664.375	-0.2895651213	-0.2703715679	
665.0	-0.3934967328	-0.7912201082	
665.625	-0.8694839726	0.6065190422	
666.25	-0.2195262825	0.1848291705	
666.875	0.2979530078	0.793843644	
667.5	0.5052052764	-0.1066844218	
668.125	0.2145564021	0.2436384335	
668.75	0.8035055432	-0.5015112683	
669.375	-0.09780119538	-0.5253868557	
670.0	0.06189539604	-0.3086627423	
670.625	0.1911945303	-0.5245098843	
671.25	-0.1621216934	-0.5659453813	
671.875	0.4319675238	-0.08649855659	
672.5	0.5391939594	-0.5846351	
673.125	0.1961843477	-0.3842951228	
673.75	0.6304408427	-0.2500571705	
674.375	-0.09931810593	-1.093752378	
675.0	-0.3069266599	0.07861614106	
675.625	-0.1723211324	-0.8228280142	
676.25	-0.8627512994	0.1804387036	
676.875	0.1906098399	0.06148079789	
677.5	-0.9010690547	-0.03978353005	
678.125	0.2036400711	0.3243140151	
678.75	-0.3163905239	0.4733398019	
679.375	1.010417747	0.1421535712	
680.0	-0.1993222236	-0.2236542401	
680.625	0.4848459556	0.02747143048	
681.25	0.3155179927	-0.3397401384	
681.875	0.02967017608	-0.01649220622	
682.5	0.3909874658	0.484199985	
683.125	0.8865045421	0.1257968441	
683.75	0.4373554451	-0.1267075821	
684.375	0.4275444986	0.4038370144	
685.0	1.229322944	-0.1137410391	
685.625	-0.0107962322	0.05168214331	
686.25	1.312991247	0.06137320372	
686.875	0.206401292	-0.899329385	
687.5	0.7404834052	0.152211462	
688.125	-0.06554279078	-1.993905959	
688.75	-0.780182433	0.5940276616	
689.375	-1.15259928	0.08353285061	
690.0	0.7868316911	1.055508414	
690.625	0.1107318437	0.1767106847	
691.25	1.193051066	1.114866606	
691.875	0.7998682311	0.1802247261	
692.5	1.271724004	0.7691825118	
693.125	1.726682366	-0.2141546267	
693.75	1.049154201	-0.6450672485	
694.375	1.063218371	-0.9274356013	
695.0	0.7889364593	-0.6347502893	
695.625	1.629964881	-0.0360954753	
696.25	1.103846201	-0.2968822231	
696.875	0.3630079152	1.240011045	
697.5	1.940291736	0.923174908	
698.125	0.567315816	0.2567335745	
698.75	1.694667669	-1.173410168	
699.375	-1.550553809	-0.2632010405	
700.0	-0.7725004778	-0.1037126754	
700.625	0.9429370711	1.0568397	
701.25	0.1001729452	0.02771487	
701.875	0.8114076264	1.12319637	
702.5	0.6983239595	-0.09404283572	
703.125	0.8764313067	0.7249587447	
703.75	1.066827258	-0.6682765327	
704.375	0.2171457726	-0.006878449431	
705.0	1.068733495	-0.6140797397	
705.625	0.1124020567	-0.2473652572	
706.25	0.5904822891	1.097662276	
706.875	1.224062617	0.1358342801	
707.5	0.02068459095	0.7578425818	
708.125	1.573230667	0.387813866	
708.75	0.1676577281	-0.9419260629	
709.375	-0.3729222996	-0.8325591391	
710.0	-0.5205876354	0.9785095937	
710.625	0.04778567959	0.08924543979	
711.25	0.3952885713	0.4206527921	
711.875	0.4357934898	0.1213555319	
712.5	0.7351755142	-0.001695686558	
713.125	0.510974944	-0.4035826808	
713.75	0.5711876142	-0.6159090344	
714.375	-0.3679947127	-0.6706094375	
715.0	0.3852205405	-0.0698903053	
715.625	-0.3009711258	-1.167666844	
716.25	-0.02264960019	0.07359473356	
716.875	1.697118309	-0.2928450192	
717.5	0.850769141	-1.59347526	
718.125	0.8878325435	1.817858624	
718.75	3.346995963	-1.536720881	
719.375	-0.00408735256	-1.452617545	
720.0	3.10267698	-1.073922526	
720.625	-0.5167233289	-3.97797818	
721.25	-0.4006533707	-1.095801711	
721.875	-0.2474583767	-3.028899583	
722.5	-2.59489802	-1.764307933	
723.125	-1.071745805	-0.1187054131	
723.75	-1.512253563	1.275931815	
724.375	0.5840220944	0.9704658284	
725.0	0.208558742	0.6511665074	
725.625	0.1404122418	1.23528859	
726.25	0.7708042872	2.282428847	
726.875	0.5910445332	0.8095245621	
727.5	-2.259048096	4.066357474	
728.125	2.326966612	6.85387226	
728.75	0.5024113538	0.7295880128	
729.375	-6.450356567	17.48328743	
730.0	7.983488027	5.61880372	
730.625	-7.597197699	4.164080098	
731.25	-2.129952602	20.9400045	
731.875	5.735291452	4.377136179	
732.5	-11.14239775	-1.619706649	
733.125	-7.616026234	3.497119536	
733.75	-0.410117859	4.127188985	
734.375	0.5939280646	1.505949201	
735.0	-0.9250235982	-2.518395855	
735.625	-0.3593577408	-0.08974334688	
736.25	-0.7151214529	1.577976969	
736.875	2.253199506	1.029724999	
737.5	0.7670355295	-0.1013768298	
738.125	4.779230956	0.7502117413	
738.75	6.7907701	-6.24174591	
739.375	-0.6832199601	-8.280427159	
740.0	3.290655473	8.042259218	
740.625	28.34403062	-3.116306376	
741.25	-12.33964486	-8.879195279	
741.875	-23.9443118	1.085359944	
742.5	-9.153926338	2.51639284	
743.125	9.972267522	-6.430451473	
743.75	-4.339746472	-6.55455338	
744.375	-0.3498240551	0.8814633913	
745.0	-0.2783739253	-0.02484440941	
745.625	0.2617941963	-0.2891063618	
746.25	0.2725392906	-0.01677307227	
746.875	-0.4967587484	0.274119918	
747.5	-0.06645937624	1.098080765	
748.125	0.03803703176	0.9988177917	
748.75	0.5413599571	1.841066961	
749.375	0.8344208737	0.763720021	
750.0	-0.09539498803	-0.1696929493	
