!Created with skrf (http://scikit-rf.org).
# GHz S MA R 50.0 
!freq magS11 angS11
500.0 0.0119901963006 140.542908773
500.625 0.0124347919685 145.444470763
501.25 0.0165791465465 -167.378726174
501.875 0.0279852454792 -177.637313138
502.5 0.0192318254905 161.615407046
503.125 0.0163235210345 112.096876109
503.75 0.00742878744439 120.405471167
504.375 0.0231279706473 -63.2616570954
505.0 0.00646878673937 -70.5833849066
505.625 0.0221895557129 -67.7475978427
506.25 0.0477141078536 -103.280813273
506.875 0.0768170670124 -92.5371421757
507.5 0.0391630733748 -152.769186522
508.125 0.0387434894326 -112.516782707
508.75 0.0576953895493 -130.713005843
509.375 0.0630167828096 -126.149005821
510.0 0.0304008795367 -148.156794675
510.625 0.0262620442002 -166.780887456
511.25 0.0513369119004 176.348483439
511.875 0.0623758459076 151.853328015
512.5 0.034963597823 87.560255084
513.125 0.0470820524107 41.8338672883
513.75 0.0519606279406 34.6167254284
514.375 0.0516853482998 27.1741689397
515.0 0.0539818401766 5.84743475752
515.625 0.10027528016 50.9688944737
516.25 0.0900024749913 30.0290742133
516.875 0.125311334298 70.9579598638
517.5 0.100946254119 15.4315100748
518.125 0.192289306898 70.9432372688
518.75 0.0918118112044 15.1364547953
519.375 0.0616288878977 13.9723307439
520.0 0.0883255053565 -3.52445266038
520.625 0.113057145511 -1.49995259121
521.25 0.0878728955833 -21.2218746374
521.875 0.0765886374223 2.48893174641
522.5 0.0933088088593 -33.4736857199
523.125 0.177678883151 -35.0412295965
523.75 0.206674446827 -57.6303121667
524.375 0.224414570463 -46.4995062961
525.0 0.0698575053381 -44.1409438539
525.625 0.0371631657059 -44.957260771
526.25 0.0575742419042 -5.23649349533
526.875 0.0402655867549 -37.0832411961
527.5 0.0463074225136 -28.511593363
528.125 0.0418650021733 -60.2106945219
528.75 0.062894395453 -70.4466358931
529.375 0.0734902497895 -114.487001484
530.0 0.0362726683461 -137.994671648
530.625 0.0340552522695 -139.381581105
531.25 0.140615960756 -140.246000032
531.875 0.135931487171 -148.532234505
532.5 0.128294567905 -171.005446439
533.125 0.0989032400791 174.017906058
533.75 0.130407206199 167.765192408
534.375 0.0955154333305 178.601679194
535.0 0.088038960574 163.061560701
535.625 0.0728404080043 179.1606083
536.25 0.0730429004726 163.327832334
536.875 0.0605522920256 -157.168112482
537.5 0.0868950303079 -141.462396146
538.125 0.0994052126998 -171.932621276
538.75 0.116466462908 -178.983843344
539.375 0.0574664432864 -165.794919079
540.0 0.0891163706933 -153.445638691
540.625 0.118469159865 -157.901218051
541.25 0.142204336345 -141.854722608
541.875 0.0859031710144 -141.167961782
542.5 0.101908369033 -138.943562093
543.125 0.128051043792 -165.600796563
543.75 0.141828672515 160.438101223
544.375 0.0878979636845 134.477163655
545.0 0.0885674705559 91.0452020582
545.625 0.108529748013 83.8572780153
546.25 0.0909812620071 69.5990806964
546.875 0.0966744589971 54.6540483628
547.5 0.109858335562 59.5397758848
548.125 0.104412025577 77.1967878369
548.75 0.100544258579 90.2002657849
549.375 0.0781569109994 86.5585738792
550.0 0.0880386920513 126.103171466
550.625 0.0542617330918 155.076010768
551.25 0.0412476839578 -138.326204777
551.875 0.0600342486316 -153.685444673
552.5 0.105573661687 -160.881637783
553.125 0.086383245024 -166.943327076
553.75 0.0958964678065 -173.716406663
554.375 0.105316844472 167.695911802
555.0 0.124899781271 164.408858794
555.625 0.0996146801132 157.844178368
556.25 0.0997906679068 163.346539774
556.875 0.127196787081 164.210715781
557.5 0.0984072155814 168.682362055
558.125 0.087615272305 166.198501423
558.75 0.0818235355972 179.370476178
559.375 0.0580375771195 -172.351213113
560.0 0.0426517512713 -143.068331482
560.625 0.0611036838239 -141.666447581
561.25 0.0900377413953 -149.915835055
561.875 0.103921229896 -162.60550434
562.5 0.0910402255081 173.699311123
563.125 0.106277369776 145.27508588
563.75 0.136121482667 129.51823842
564.375 0.0948572348271 123.660837153
565.0 0.0828319805939 121.702195867
565.625 0.0881088110676 116.256872484
566.25 0.0977413314997 153.429793761
566.875 0.0793219425101 177.569045986
567.5 0.065956611213 -172.139123724
568.125 0.0735070354216 -165.462458296
568.75 0.0616476658293 -141.230659449
569.375 0.0537095039127 -118.630374225
570.0 0.0594052129152 -95.7616074957
570.625 0.0922725026336 -114.264011686
571.25 0.0900915993653 -119.101919365
571.875 0.0909259190836 -132.010013781
572.5 0.108919158796 -150.824993186
573.125 0.133632871714 -169.590793113
573.75 0.0969164893253 164.121292844
574.375 0.0879778025006 145.29729823
575.0 0.105414430148 155.514196017
575.625 0.109904017814 155.724832549
576.25 0.0892955423576 145.574352256
576.875 0.0726296462137 131.660605923
577.5 0.0830526415871 136.213378425
578.125 0.0623040774944 158.539678829
578.75 0.0487993032201 164.608485065
579.375 0.0579075999059 155.434959334
580.0 0.0667220071935 -164.061464574
580.625 0.0784712094855 -143.451963999
581.25 0.0911241718726 -162.863938661
581.875 0.116867918473 176.33091395
582.5 0.107974011135 -166.674431518
583.125 0.0914433419657 -166.135300989
583.75 0.0781426379491 -164.562000965
584.375 0.105473911104 -165.062642187
585.0 0.0923333777864 -143.076823386
585.625 0.0711516504083 -141.114307041
586.25 0.0649909167351 -131.737043458
586.875 0.0850033326441 -145.175286857
587.5 0.0678655127428 -131.528019498
588.125 0.0585816032814 -169.940143481
588.75 0.0654489011197 -157.831414972
589.375 0.0813139853462 -161.941117121
590.0 0.0926597465398 -164.198402445
590.625 0.10528875296 165.918221552
591.25 0.121055001754 153.098225081
591.875 0.0951176040598 160.286776866
592.5 0.0651340713659 144.379129397
593.125 0.060882678807 150.863659931
593.75 0.06096636455 173.849811589
594.375 0.0597766094183 -161.867286304
595.0 0.0476267049227 -102.711855345
595.625 0.0582664542957 -100.421496041
596.25 0.0716375830308 -91.8836554119
596.875 0.0686162209237 -70.0894438458
597.5 0.0564884920139 -68.005300431
598.125 0.0700896841804 -56.7406675578
598.75 0.0810512920641 -58.9090765905
599.375 0.0804070702329 -73.4459044425
600.0 0.111265918627 -54.8595386779
600.625 0.101085425451 -58.0821067242
601.25 0.0773060294422 -73.2734607636
601.875 0.0685667214615 -98.4054672026
602.5 0.0596362150158 -82.5234461137
603.125 0.0427405945773 -58.2702560044
603.75 0.031888800948 -35.3124720199
604.375 0.0434473473028 -22.2471985161
605.0 0.051073851915 -33.0471827976
605.625 0.0625650857847 14.8804884825
606.25 0.034908988487 27.9703925414
606.875 0.0449765630675 54.8371574834
607.5 0.0429948324889 39.4724060231
608.125 0.0857080981583 37.7578864358
608.75 0.060576817227 20.7191712134
609.375 0.0661187183495 30.8817368893
610.0 0.059097666273 33.6281906909
610.625 0.0793769414853 52.3430670396
611.25 0.0631338658618 46.8136228874
611.875 0.0397300677811 60.9965977555
612.5 0.01015141589 20.3203564934
613.125 0.0318476130566 133.272180593
613.75 0.0461336054412 122.569071114
614.375 0.0440116803263 121.601124757
615.0 0.0367507403161 115.117702238
615.625 0.0241289901262 135.873250826
616.25 0.0536988121402 141.962014541
616.875 0.0498300605827 128.447345499
617.5 0.0293187576176 115.72572499
618.125 0.032539407641 135.41874196
618.75 0.0335085380326 146.755020691
619.375 0.0185552928749 136.683219017
620.0 0.0124939489831 -26.6105912757
620.625 0.0215626887901 -152.328825697
621.25 0.0406990824332 -111.668809474
621.875 0.0628412711691 -96.9618317625
622.5 0.0688066490068 -160.59941955
623.125 0.0629446418996 -178.502803152
623.75 0.062366082505 164.249555873
624.375 0.0411148798 -176.484897091
625.0 0.0410021947667 -150.570371912
625.625 0.0209288874713 -130.924413013
626.25 0.0477827541174 -175.674690347
626.875 0.0144143380547 175.423143655
627.5 0.024826286845 -45.9302373294
628.125 0.0547727091592 -3.64738989456
628.75 0.0351298182936 -57.3501719005
629.375 0.0418798773749 -19.0903131707
630.0 0.0727499384011 -2.2666969244
630.625 0.0838100862738 22.0314741599
631.25 0.0679443335655 -3.99970675991
631.875 0.068188042654 -20.1446523402
632.5 0.0624866836526 -14.8638802119
633.125 0.0529468910782 29.2609215179
633.75 0.0386880221157 0.234107019247
634.375 0.0436925247086 13.7873695722
635.0 0.0350073708647 30.6004277436
635.625 0.033426715367 43.9323372355
636.25 0.0681897049584 49.8475081188
636.875 0.0568289321509 12.5747298091
637.5 0.0410352401288 34.5779631335
638.125 0.0370866214783 56.5061027197
638.75 0.0992520594962 79.3452573999
639.375 0.0888212979066 85.9543160872
640.0 0.0679231709059 101.50288238
640.625 0.0578877124418 99.4784235567
641.25 0.0634940218374 125.684622034
641.875 0.0549660160725 135.073602995
642.5 0.0464269569868 150.086421371
643.125 0.0527179118119 158.304199751
643.75 0.0890433078404 178.528886048
644.375 0.0548177532931 171.96713378
645.0 0.0688472135588 175.944401742
645.625 0.0938123687089 164.603988109
646.25 0.102847632886 169.86163098
646.875 0.0732150328847 -179.735225647
647.5 0.0676321322686 -176.151923204
648.125 0.0964333870032 -172.755387313
648.75 0.0737262128839 -161.154651233
649.375 0.057431645808 -143.257587596
650.0 0.0445425801011 -117.425995415
650.625 0.0542591278567 -86.8380469081
651.25 0.068692756068 -61.7915624494
651.875 0.0768126418394 -42.383534885
652.5 0.0652639342632 -23.8717456785
653.125 0.103061290637 -2.20064510607
653.75 0.110542000338 7.47005018865
654.375 0.101979890257 6.67641325155
655.0 0.113362732751 11.3025779787
655.625 0.0971901030597 29.2397977326
656.25 0.0607309241906 23.35787652
656.875 0.0805470341523 9.30662814364
657.5 0.0578306665122 14.0349620993
658.125 0.062364147959 50.4520554949
658.75 0.0507203807268 61.2627902329
659.375 0.0958255471786 35.555020618
660.0 0.108187564946 26.6433326907
660.625 0.110687650956 19.0592476667
661.25 0.106659442533 3.36566321448
661.875 0.121289163091 -11.6483111684
662.5 0.104152495848 -22.3129199491
663.125 0.0935930967845 -16.3092657318
663.75 0.090957644366 2.22061705228
664.375 0.115874133695 55.2209662651
665.0 0.0638508214556 94.423999183
665.625 0.070432222875 111.247860856
666.25 0.0891146073267 132.573599122
666.875 0.108105571719 171.22003429
667.5 0.0982698626054 -168.400549748
668.125 0.106767188185 -179.236337708
668.75 0.128575122726 169.427895091
669.375 0.142024546834 177.374960105
670.0 0.0805203981501 -169.33911311
670.625 0.0850446988726 -169.868284334
671.25 0.106419298361 174.65264536
671.875 0.116938101432 167.117976803
672.5 0.0579163783848 159.636433706
673.125 0.0757003473669 157.504081436
673.75 0.111396754107 159.126140902
674.375 0.117598226187 169.25507597
675.0 0.114866787367 -174.219309431
675.625 0.127254564373 -147.911695456
676.25 0.130085700407 -124.90290634
676.875 0.122582447019 -121.736334732
677.5 0.124826063586 -128.747935709
678.125 0.117438689072 -114.681502973
678.75 0.0610475693474 -94.1124427707
679.375 0.0616287440822 -80.7471430129
680.0 0.0648750085492 -67.3861579801
680.625 0.116030384726 -73.1704983147
681.25 0.108138260305 -74.5075820729
681.875 0.104422931037 -93.9560680261
682.5 0.144752637738 -122.788535256
683.125 0.15760476119 -118.543474402
683.75 0.132516798126 -103.549253565
684.375 0.109242962095 -78.5753201247
685.0 0.144817143588 -42.7271414417
685.625 0.112069526307 0.913682568317
686.25 0.102468840326 22.4541224618
686.875 0.0784999035783 48.0797308248
687.5 0.0887242609264 76.8151790858
688.125 0.0723432540536 121.148562658
688.75 0.100097568159 116.660430033
689.375 0.131578227934 121.676569457
690.0 0.138817871838 132.557387501
690.625 0.118006388728 128.398407151
691.25 0.142634081385 99.6722913406
691.875 0.193713185686 67.9730555914
692.5 0.140582378486 40.8859928091
693.125 0.0974540650636 -18.6566858697
693.75 0.0811577687087 -27.1711241373
694.375 0.127366153248 -21.5592380099
695.0 0.119799407474 14.0647837927
695.625 0.104541063735 52.0969390717
696.25 0.116062433063 115.834510176
696.875 0.140028469402 172.901506726
697.5 0.140722181313 -141.642524616
698.125 0.139927702624 -132.778475928
698.75 0.133056037788 -131.243028101
699.375 0.101178966237 -122.385463301
700.0 0.0870320214707 -110.139953513
700.625 0.121924488344 -98.9124247945
701.25 0.0984717554993 -57.8655917102
701.875 0.0806686773562 -55.5407225281
702.5 0.097676564223 -81.7294154906
703.125 0.17150484568 -122.168558913
703.75 0.195301567426 -158.48523005
704.375 0.127440487325 171.994866026
705.0 0.107370641294 165.091683519
705.625 0.134326750737 -166.991453188
706.25 0.157097783113 -120.364891254
706.875 0.0808103310707 -51.0166601867
707.5 0.075347970521 -32.3499643076
708.125 0.0861871755579 20.6249587733
708.75 0.111826454255 56.8245755718
709.375 0.106510449744 113.960610765
710.0 0.104958306226 130.421065698
710.625 0.107475519756 154.140580307
711.25 0.117485465725 167.79203196
711.875 0.143957985536 177.309617135
712.5 0.149218790286 147.558821774
713.125 0.117111231704 102.304923489
713.75 0.1058491379 42.8085209439
714.375 0.115380992084 12.9522635388
715.0 0.114552547769 28.813189513
715.625 0.0887554132692 57.3320818679
716.25 0.0809577913674 84.0254194584
716.875 0.106406795371 90.8715968205
717.5 0.152527107663 160.013969503
718.125 0.118479003927 166.785183031
718.75 0.0989415497908 168.718094337
719.375 0.117106840792 -169.760547024
720.0 0.12698652254 -138.641388991
720.625 0.11305159628 -71.0200070298
721.25 0.0971647613359 -31.8724436584
721.875 0.0859620378547 13.9537740882
722.5 0.0839582074557 95.4923752406
723.125 0.091088557851 82.2736394187
723.75 0.103902108803 43.1029111723
724.375 0.112941737077 0.689696590179
725.0 0.0894660253005 -44.1943343457
725.625 0.100972742824 -61.235753722
726.25 0.126892344931 -56.8155594955
726.875 0.101570323885 -45.2369249876
727.5 0.0749991313345 -51.2975906154
728.125 0.1049962061 18.4981756779
728.75 0.0950938606509 26.729180579
729.375 0.0769525427159 19.6612606142
730.0 0.0678652149359 5.05200488846
730.625 0.0490281760117 5.03682812082
731.25 0.0719116321544 69.833403116
731.875 0.0715745220897 112.826765336
732.5 0.0775464235579 155.525445463
733.125 0.0597435341621 158.32791677
733.75 0.0910694942097 -179.514617438
734.375 0.05268100605 150.499117488
735.0 0.0467614573306 142.091706393
735.625 0.0552648275431 155.657519891
736.25 0.0435394442952 145.209133722
736.875 0.0403300388244 165.675905219
737.5 0.0789520894338 175.727229495
738.125 0.0667916134893 179.87706281
738.75 0.0872647265688 -172.661103374
739.375 0.0634028546366 -167.7436325
740.0 0.0573815709348 -137.582462884
740.625 0.0218143520627 -121.737240979
741.25 0.0839402050267 -151.524567016
741.875 0.0407164404637 -100.572196135
742.5 0.0231571411606 -11.0786979404
743.125 0.0202732473485 104.207029645
743.75 0.0605736582751 82.864900681
744.375 0.0483516634621 101.774127347
745.0 0.0606744997514 122.442702746
745.625 0.0686937751592 148.15931912
746.25 0.0880577366102 77.9670025897
746.875 0.0662256654803 42.375685898
747.5 0.0310516700753 21.525247094
748.125 0.0194346496954 -8.03500429129
748.75 0.0286022796408 58.1712629903
749.375 0.0532822562875 -63.3893365574
750.0 0.0313994457545 -110.335175266
