!Created with skrf (http://scikit-rf.org).
# GHz S RI R (50+0j) 
!freq	ReS11	ImS11	
500.0	-1.94720169	-5.872768944	
500.625	-0.3268384321	-1.430233636	
501.25	-1.091004692	-2.189560836	
501.875	-1.223887457	-1.683987402	
502.5	-0.4585481702	-0.02101891304	
503.125	-0.1621342212	-0.1101667698	
503.75	0.2495029009	0.4088404989	
504.375	-0.03510977788	0.06558789953	
505.0	0.1151129524	-0.220869486	
505.625	0.03903489936	0.1119499907	
506.25	-0.3918877056	-0.6672118149	
506.875	0.6861686664	0.4524592719	
507.5	0.6256023106	-1.702469671	
508.125	-0.3780290221	-3.218618363	
508.75	-0.1604400634	-1.594441454	
509.375	1.28123911	-4.474879218	
510.0	-2.15775545	-0.00654782224	
510.625	-0.09982791624	-0.5741388631	
511.25	-0.7173517639	-0.01773225582	
511.875	-0.1596282265	-0.125558838	
512.5	-0.08439057394	0.1675158316	
513.125	0.003513139013	-0.3427307483	
513.75	-0.3523608946	0.08798815561	
514.375	0.01377743991	-0.2445566932	
515.0	-1.113523425	0.2815359752	
515.625	2.149851717	-1.630707684	
516.25	-3.336427088	-1.775432264	
516.875	0.4901923782	-0.05755033043	
517.5	-0.1016756136	-1.324037535	
518.125	0.07207413295	0.3533613393	
518.75	-0.1422011267	-0.9662579564	
519.375	-0.0932480346	0.2592040637	
520.0	0.1503811658	0.1731117273	
520.625	0.7016281633	-0.2082482178	
521.25	-0.3458480574	-0.5619984844	
521.875	-0.1778440456	-0.2459273062	
522.5	-0.1938000511	0.256174238	
523.125	-0.2195170571	-0.1992968966	
523.75	-0.2908667722	0.2187055658	
524.375	-0.3398810929	-0.2088394348	
525.0	0.1318050435	0.6772402707	
525.625	-0.1029387656	-0.0759994349	
526.25	0.1495471842	0.09437986846	
526.875	-0.3271011332	-0.009128809522	
527.5	0.05843574132	0.8777187795	
528.125	0.04779267702	0.2742479551	
528.75	-0.2669689564	1.011702	
529.375	0.2828209605	-0.08534960038	
530.0	0.1489337565	0.9641156479	
530.625	0.2483333758	0.3313860855	
531.25	1.517982086	0.9348407441	
531.875	-0.02863235065	-0.9178596118	
532.5	0.349262242	-0.2997823271	
533.125	-0.6282469814	-0.1264545114	
533.75	0.8278028794	-0.6627401506	
534.375	-0.8121964356	-0.51950223	
535.0	-0.2470287376	-0.4338222742	
535.625	-0.7117757033	0.5998232887	
536.25	0.1053116832	0.1098836878	
536.875	0.2067827051	0.1741113632	
537.5	0.2156561169	-0.1990077482	
538.125	0.1125236613	-0.01915663665	
538.75	0.5335101223	-0.380366083	
539.375	-0.2596955782	-0.2146048447	
540.0	-0.2050648657	-0.4828893127	
540.625	-0.599802651	0.01297948882	
541.25	-0.05204952115	0.06521123039	
541.875	-0.08155571594	-0.1094513411	
542.5	-0.2239213618	-0.152534104	
543.125	-0.06937465724	0.08783036637	
543.75	-0.271783428	-0.228329253	
544.375	0.03722481699	0.3047036167	
545.0	-0.222748095	0.04601457353	
545.625	0.3752169121	0.1377092556	
546.25	-0.06582024916	0.07142666787	
546.875	0.6076783327	-0.05236574849	
547.5	-0.1170111884	-0.2290245682	
548.125	0.1499498988	-0.3537687631	
548.75	-0.405814502	-0.4313944977	
549.375	-0.2753388348	0.02229498566	
550.0	-0.1651569705	-0.1741512563	
550.625	-0.119589166	0.167204836	
551.25	-0.1789850225	-0.08806967793	
551.875	-0.2032844718	0.3035783929	
552.5	-0.03750402263	0.07829953274	
553.125	-0.08926231282	0.1957214683	
553.75	0.134489887	0.09565138461	
554.375	0.2021128682	0.01371681331	
555.0	0.2631365513	-0.1571591142	
555.625	0.1878493351	-0.2674320141	
556.25	0.162674305	-0.3275948644	
556.875	-0.0805750126	-0.3992423801	
557.5	-0.2404253922	-0.2500082352	
558.125	-0.2595103754	-0.09233782655	
558.75	-0.2610941488	-0.03557001594	
559.375	-0.275541101	0.07684905083	
560.0	-0.1823648969	0.1459727932	
560.625	-0.181401414	0.2434833053	
561.25	0.07254059218	0.288361921	
561.875	-0.001254580025	0.0279612862	
562.5	0.1154394458	0.2051274466	
563.125	0.0300618153	0.1343535316	
563.75	0.4565095886	0.04236867924	
564.375	0.1460330658	-0.2996556627	
565.0	0.2688300428	-0.1706150747	
565.625	-0.1136750924	-0.511184964	
566.25	-0.3094373034	-0.1270498415	
566.875	-0.1642105773	-0.2160317328	
567.5	-0.4384213109	-0.401116954	
568.125	-0.3835024103	-0.1534325476	
568.75	-0.4284393648	-0.4647110204	
569.375	-0.6331395647	0.4271936503	
570.0	-0.1899837886	0.238883646	
570.625	-0.4416012054	0.5282102438	
571.25	0.332238891	0.2632106843	
571.875	-0.2113558538	0.3094165207	
572.5	0.6103672992	-0.1754390079	
573.125	-0.09355650881	-0.1089943256	
573.75	0.4311382911	-0.1285409624	
574.375	-0.1893354003	-0.3984334614	
575.0	0.1991125997	0.191631938	
575.625	0.01183140022	-0.4559260322	
576.25	-0.02274133494	0.07022655013	
576.875	0.2537975781	-0.5459708067	
577.5	-0.2378526629	-0.4917363287	
578.125	-0.06116481208	-0.1113215775	
578.75	0.004133566695	-0.4269803032	
579.375	-0.4249982948	-0.250847591	
580.0	0.07051733021	0.1203079086	
580.625	-0.3414444371	-0.2654230833	
581.25	0.004072929766	0.2886711779	
581.875	-0.2682122014	0.1639757242	
582.5	0.1700602359	0.6916183084	
583.125	0.3660965332	-0.1723860771	
583.75	-0.2686329166	0.3210790243	
584.375	0.4947568791	-0.1437267325	
585.0	-0.1553074897	0.3152422705	
585.625	0.729426238	-0.02766940149	
586.25	0.03642796165	-0.2541532519	
586.875	0.503241325	-0.1345156262	
587.5	-0.298296386	-0.498151694	
588.125	0.07954810342	-0.009966683886	
588.75	0.3516234489	-0.4648899573	
589.375	-0.02386570892	-0.5384694171	
590.0	0.06988906568	-0.21229412	
590.625	-0.447912362	-0.3118802638	
591.25	-0.3047838684	0.4072883827	
591.875	-0.03042526588	0.1114438476	
592.5	-0.09665209476	0.2493693218	
593.125	-0.05282962613	-0.07171256225	
593.75	0.1598374993	0.4720847828	
594.375	0.4021700629	0.05923495055	
595.0	0.0794324793	0.2087298561	
595.625	0.5260213689	0.6235395537	
596.25	0.4184863116	-0.3901444123	
596.875	0.07245823674	0.423038595	
597.5	0.6685492474	0.2520384429	
598.125	0.08487825493	0.03724172921	
598.75	0.6120598059	0.5517961025	
599.375	0.29008622	-0.3134877328	
600.0	0.4563445152	-0.03194916789	
600.625	0.5223119776	-0.5785375345	
601.25	-0.0396008204	-0.4347721453	
601.875	0.04330764029	-0.2770103809	
602.5	-0.3702973652	-0.08628906647	
603.125	-0.3072208819	0.08476339403	
603.75	-0.09118235698	0.181685309	
604.375	-0.3240360257	0.01396131454	
605.0	-0.1381678742	0.3570356608	
605.625	-0.1405488085	-0.1125362679	
606.25	-0.3938002705	0.3279844609	
606.875	-0.1380884342	0.07797674374	
607.5	-0.7926390979	0.3221631378	
608.125	0.3975417598	0.6094161266	
608.75	-0.03786256441	0.4158049186	
609.375	0.9472071464	-0.031049194	
610.0	-0.0148122544	-0.2698998281	
610.625	0.5682651837	-0.3283809651	
611.25	-0.2528919593	-0.3811112963	
611.875	0.1490675228	-0.2948147421	
612.5	-0.7173107691	-0.06266598744	
613.125	-0.1282210267	-0.07602237932	
613.75	-0.4789006227	0.422630873	
614.375	0.3277936863	0.0535043894	
615.0	-0.09731061378	0.4271870321	
615.625	0.2316375371	-0.05608174342	
616.25	-0.4419397754	0.3304064231	
616.875	0.03608535299	0.7196495432	
617.5	-0.181916675	0.08087555679	
618.125	-0.2131868486	0.7872111468	
618.75	0.2975322286	0.2911030486	
619.375	-0.04153654282	0.438618501	
620.0	0.5789223771	0.01421472253	
620.625	0.2501950475	-0.1829481274	
621.25	-0.2708025118	-0.5200209643	
621.875	-0.3015101648	-0.148207027	
622.5	-0.6758239484	0.05255184656	
623.125	0.09575633367	0.3447502259	
623.75	0.1805683136	0.3072910827	
624.375	0.05008355798	-0.387862215	
625.0	0.2012896185	0.2618161711	
625.625	-0.03546616501	-0.6332937585	
626.25	0.1464061246	0.07094656497	
626.875	-0.3968196618	-0.5435650216	
627.5	-0.4437682626	0.1583366122	
628.125	0.03183982077	-0.2094382492	
628.75	-0.4095583724	-0.4592896045	
629.375	-0.03020365168	-0.1340132113	
630.0	-0.4663967146	-0.4302096273	
630.625	-0.5384315768	0.3391849569	
631.25	-0.1699633955	0.2171809326	
631.875	-0.2734692793	0.6482005107	
632.5	0.4103874694	0.4660039709	
633.125	0.5011506846	0.04474563146	
633.75	0.2288326815	-0.03622252681	
634.375	0.3440271363	-0.5075368729	
635.0	-0.1325925925	-0.04241801084	
635.625	-0.297642305	-0.4658679627	
636.25	-0.3457161744	0.3906820101	
636.875	-0.1146348535	-0.08723483394	
637.5	-0.2276455826	0.6009762881	
638.125	0.1533199327	-0.09621687416	
638.75	-0.6511569918	0.3737127464	
639.375	0.3402794244	0.8581467274	
640.0	0.2866837031	0.1589156699	
640.625	0.3068927221	0.6689795512	
641.25	0.9131224381	-0.1766881315	
641.875	0.112275314	-0.1775218134	
642.5	0.3081777086	-0.8125697776	
643.125	-0.4185841337	0.1900516168	
643.75	-0.01999276091	-0.442584029	
644.375	-0.7763372519	0.1330580137	
645.0	-0.007187840659	0.3711065813	
645.625	-0.1640871829	0.2536365715	
646.25	0.5406312481	0.5794599008	
646.875	0.1890481927	-0.4403497905	
647.5	-0.02808270939	0.4893359224	
648.125	0.6367019461	-0.3343063876	
648.75	0.158331226	0.4072279575	
649.375	0.9819174248	-0.9371173159	
650.0	-0.2518167624	-0.743187098	
650.625	0.6150214851	0.03056579174	
651.25	1.0162215	-1.178121092	
651.875	-0.2472849038	-0.5735515937	
652.5	0.7147805309	0.3824309923	
653.125	0.9726718351	-0.6547886314	
653.75	-0.04374749336	-0.3378733567	
654.375	0.3994631749	-0.9874733384	
655.0	-0.9718259671	0.09550183369	
655.625	-0.01307641707	0.1960353583	
656.25	-0.4109760117	0.5261279028	
656.875	0.6124381578	0.1645496952	
657.5	-0.4002076223	0.1644106839	
658.125	0.5799257863	0.5892061636	
658.75	0.6737414864	-0.06620652484	
659.375	0.453674344	-0.05648136069	
660.0	0.9961727304	-0.8855918053	
660.625	-0.2015326228	-0.6670890309	
661.25	0.637300924	-0.3509836252	
661.875	0.7469633722	-0.934584692	
662.5	-0.008633852821	-0.647910164	
663.125	0.8045805293	0.1966940873	
663.75	0.3478612296	-1.22614387	
664.375	-0.2509242868	-0.274879691	
665.0	-0.4185002165	-0.8780870961	
665.625	-0.7683277461	0.6456873767	
666.25	-0.3185550739	0.1662934025	
666.875	0.3111558539	0.8160587622	
667.5	0.5081657858	-0.08804383381	
668.125	0.1856804455	0.2221643753	
668.75	0.8267375561	-0.4210793993	
669.375	-0.0680562634	-0.562623613	
670.0	0.06073367428	-0.3111278947	
670.625	0.1858361394	-0.5558974421	
671.25	-0.1827851815	-0.4818873604	
671.875	0.5232003628	-0.2002456619	
672.5	0.4729935698	-0.5586472354	
673.125	0.2230594371	-0.3482809088	
673.75	0.6524122974	-0.2322400268	
674.375	-0.03036456709	-1.141219078	
675.0	-0.3376686842	0.08280735267	
675.625	-0.1335995691	-0.8261731909	
676.25	-0.8490876535	0.1611516683	
676.875	0.2160002208	0.0001656337511	
677.5	-0.9577411156	0.03916532284	
678.125	0.2093476089	0.233320307	
678.75	-0.3779785564	0.5416098396	
679.375	1.036446324	0.1203723411	
680.0	-0.1842649055	-0.2151112345	
680.625	0.4770536596	0.04517946098	
681.25	0.3311228678	-0.3373214967	
681.875	0.04952705414	-0.0177586544	
682.5	0.3941671956	0.4934715971	
683.125	0.8678814036	0.0948095206	
683.75	0.4289232748	-0.03691491852	
684.375	0.4572423206	0.4249837213	
685.0	1.143887673	-0.1427218547	
685.625	0.01045342955	0.1181768779	
686.25	1.319911242	0.07253077266	
686.875	0.1817406809	-0.9403251635	
687.5	0.736926173	0.1721064256	
688.125	-0.02637547732	-2.019139269	
688.75	-0.7268826531	0.5594382747	
689.375	-1.325412347	0.11005915	
690.0	0.8298837187	1.069752809	
690.625	-0.01174194893	0.2136932807	
691.25	1.280677443	1.119280431	
691.875	0.7780480982	0.2294433384	
692.5	1.262294735	0.810845976	
693.125	1.713153847	-0.1633549797	
693.75	1.078786797	-0.617738408	
694.375	1.068470475	-0.9233384763	
695.0	0.7429641685	-0.5986248202	
695.625	1.566294014	-0.03369097909	
696.25	1.083244954	-0.2107501898	
696.875	0.423359725	1.310756796	
697.5	1.770876214	0.9256623833	
698.125	0.6035498271	0.3365182069	
698.75	1.773754813	-1.102033126	
699.375	-1.524261499	-0.3480390753	
700.0	-0.9740790755	-0.09951692156	
700.625	0.872257629	1.162802231	
701.25	0.06235205036	0.03904965342	
701.875	0.8535661887	1.153135329	
702.5	0.6120926826	-0.05327663491	
703.125	0.8780898624	0.7586632789	
703.75	1.069081534	-0.6579982648	
704.375	0.2528271695	0.04428155821	
705.0	1.076706529	-0.6168086027	
705.625	0.07550773852	-0.2232002537	
706.25	0.5746475425	1.113667885	
706.875	1.198739357	0.153816968	
707.5	0.01773538693	0.777622986	
708.125	1.568612837	0.3529136364	
708.75	0.1278289008	-0.9350073197	
709.375	-0.2974482546	-0.9378693065	
710.0	-0.4940514375	1.013750745	
710.625	-0.006861256723	0.08218879204	
711.25	0.4381510269	0.4576877557	
711.875	0.4595017585	0.1626313653	
712.5	0.7478642712	-0.02717387965	
713.125	0.4836690375	-0.3288897932	
713.75	0.6115166447	-0.6245166878	
714.375	-0.3810729436	-0.6553595238	
715.0	0.4391859108	-0.1256502622	
715.625	-0.3480845137	-1.089487039	
716.25	0.08046081869	0.09595118227	
716.875	1.706138683	-0.3530983877	
717.5	0.7400910547	-1.515236738	
718.125	0.9899842801	1.919288105	
718.75	3.435668058	-1.37427697	
719.375	0.06455930689	-1.452187693	
720.0	3.093897929	-0.9026168936	
720.625	-0.4757558934	-3.889029087	
721.25	-0.1198073964	-1.1098267	
721.875	-0.3291389874	-3.168183085	
722.5	-2.564184474	-1.698985446	
723.125	-1.012310257	-0.2473560637	
723.75	-1.575723009	1.260441462	
724.375	0.5804729588	0.954779343	
725.0	0.2374864887	0.6573976824	
725.625	0.04285498503	1.227816863	
726.25	0.7824560559	2.326972169	
726.875	0.3758520882	0.8078214785	
727.5	-1.820895612	4.196086257	
728.125	1.515731413	6.714552382	
728.75	-0.6681232217	0.6036454448	
729.375	-6.333016216	17.65582712	
730.0	9.685933409	7.52730476	
730.625	-7.283096904	5.031519119	
731.25	-3.084376615	19.82268106	
731.875	4.693929922	4.389623158	
732.5	-10.83420494	-3.074207186	
733.125	-8.074664773	3.626239839	
733.75	-0.4516737029	3.839699054	
734.375	0.7064730852	2.20325293	
735.0	-1.074717228	-2.247732472	
735.625	-0.4782937986	-0.2060913308	
736.25	-0.7963239175	1.606708625	
736.875	2.157345803	1.158796584	
737.5	1.025452157	-0.5268897188	
738.125	4.512733694	1.365884447	
738.75	7.581276543	-5.765613145	
739.375	-0.9034298486	-7.691071004	
740.0	5.174676453	9.929699599	
740.625	19.93917637	-6.079433796	
741.25	-14.44037554	-6.784666678	
741.875	-20.60805284	-2.217745209	
742.5	-0.8749635437	6.769871411	
743.125	9.917244688	-5.919690182	
743.75	-2.967754115	-5.780860364	
744.375	-0.7489918448	0.8187154183	
745.0	-0.364681022	0.05731855023	
745.625	0.2874514289	-0.2816654574	
746.25	0.1788376591	-0.03516458027	
746.875	-1.191415285	0.4611054668	
747.5	-0.05360165418	0.8961780314	
748.125	-0.351321461	1.077581694	
748.75	1.463157261	1.780857819	
749.375	1.124684328	0.7398890176	
750.0	-0.9455060385	-0.5334581938	
