!Created with skrf (http://scikit-rf.org).
# GHz S MA R 50.0 
!freq magS11 angS11
500.0 0.0199301559906 163.392323513
500.625 0.00814035155897 115.119303464
501.25 0.0131443912543 -55.5513486898
501.875 0.045722666152 -179.627809994
502.5 0.0140042509817 142.872542334
503.125 0.0128349569856 37.8119333683
503.75 0.0186823316627 129.152086995
504.375 0.00189885099564 156.501890548
505.0 0.0155276254568 -70.5589779205
505.625 0.0352055925226 -77.2538527264
506.25 0.0458496625007 -104.803217847
506.875 0.0561479170667 -112.557884113
507.5 0.0426426310719 -128.27026412
508.125 0.068298392423 -81.7735421764
508.75 0.053259144603 -157.452524951
509.375 0.044149811381 -165.12782757
510.0 0.0305144132192 -124.303608404
510.625 0.0550946632828 -157.2670633
511.25 0.041664682465 165.287000806
511.875 0.0472883850363 141.962768707
512.5 0.0402043921013 98.6473885151
513.125 0.0637909272385 54.9862410353
513.75 0.051515431544 12.191652684
514.375 0.0449433916724 28.4575639768
515.0 0.0502894303347 6.57308195644
515.625 0.0924541260733 51.6054534479
516.25 0.085015512588 27.0758744917
516.875 0.105614211929 70.8210150043
517.5 0.115531568148 18.8575277288
518.125 0.211730577114 73.9232665673
518.75 0.0802925241655 8.4861901149
519.375 0.0711961768368 17.9292575009
520.0 0.107006825838 -1.04942178988
520.625 0.10595698658 -5.08378250723
521.25 0.0827378645833 -24.4223615143
521.875 0.0648493584748 1.38289051258
522.5 0.0946379656366 -32.769577768
523.125 0.192316957619 -32.0930475799
523.75 0.19593453478 -65.9204794595
524.375 0.191814635049 -58.9440727591
525.0 0.0688725092154 -44.9059836641
525.625 0.034613838406 -62.6268978279
526.25 0.0402415780879 -14.8707873053
526.875 0.0497754697938 -26.7076310892
527.5 0.0522261460856 -24.2474529096
528.125 0.0357758069017 -59.8769373616
528.75 0.0622432015884 -71.8447063255
529.375 0.0869842440871 -112.847769454
530.0 0.0593173578282 -126.490582209
530.625 0.0202282148798 -122.924450748
531.25 0.0994330114801 -129.849038732
531.875 0.158450410447 -147.35015815
532.5 0.157717269003 -170.570437202
533.125 0.0920448011689 173.495072703
533.75 0.108871591456 169.73467633
534.375 0.108790734805 177.288129361
535.0 0.0872122500196 163.316143322
535.625 0.0664842553693 177.001973379
536.25 0.0538580685348 165.168970039
536.875 0.072234875817 -158.724242995
537.5 0.108276318735 -146.015271758
538.125 0.0841879633901 -173.027948319
538.75 0.0959455722393 179.55548575
539.375 0.0684612587509 -164.617198888
540.0 0.0996671776897 -156.443280143
540.625 0.09820797091 -152.689430749
541.25 0.110571755486 -139.464501985
541.875 0.0950082821103 -142.139877845
542.5 0.118290021841 -144.404223327
543.125 0.1160234934 -165.134348701
543.75 0.12076040169 159.662190793
544.375 0.0945803019982 134.348017353
545.0 0.08775806516 92.5495727146
545.625 0.101859493678 85.0646075929
546.25 0.0891663912512 67.5738525438
546.875 0.0883422322682 56.1748905499
547.5 0.117563598395 58.5659451965
548.125 0.0899708498218 76.1189341252
548.75 0.0786875932889 90.2723474476
549.375 0.0914157290646 83.7698376091
550.0 0.0908207014114 127.40705113
550.625 0.0468668688939 157.784952648
551.25 0.0389942304692 -138.25186136
551.875 0.0638241448065 -162.659239277
552.5 0.119813157262 -166.838765502
553.125 0.0830953003121 -162.570813601
553.75 0.0885637312599 -168.161243932
554.375 0.112532936288 165.622567141
555.0 0.130977956974 163.463283638
555.625 0.1022817248 156.915861409
556.25 0.0916633700973 165.567766303
556.875 0.113783753183 168.034616883
557.5 0.105035251615 166.452914709
558.125 0.104773641034 163.460510761
558.75 0.0796345917663 178.39409209
559.375 0.0659416734669 -174.66974032
560.0 0.047850252766 -149.365472753
560.625 0.0598527610059 -142.323181803
561.25 0.0889257728722 -149.168474102
561.875 0.107552834031 -163.65714372
562.5 0.0937058402983 173.57730207
563.125 0.103399918077 147.111754826
563.75 0.126728497472 132.839784845
564.375 0.101356154688 120.428517391
565.0 0.0909958672976 118.652501638
565.625 0.0830191726272 117.011058955
566.25 0.0924734812619 155.285061205
566.875 0.0747239910288 -178.665025364
567.5 0.071336203555 -176.390075724
568.125 0.0876295187697 -173.676271244
568.75 0.0540049605313 -136.721903956
569.375 0.0473257822809 -102.551771638
570.0 0.0586946384616 -102.797636908
570.625 0.0941727748848 -120.22533736
571.25 0.0898904895894 -117.919951743
571.875 0.0865332419632 -122.396729783
572.5 0.111520327485 -154.768637047
573.125 0.146558725476 -177.171703006
573.75 0.0908712449471 167.613966817
574.375 0.079950923664 152.337346545
575.0 0.107109671213 154.914718612
575.625 0.113330727044 152.724200279
576.25 0.0891384750395 147.663227684
576.875 0.0781464723345 126.248818744
577.5 0.0829610727926 137.205031603
578.125 0.0612508292236 159.114391739
578.75 0.0460713436358 167.330012988
579.375 0.0553731498338 166.63915358
580.0 0.0659590748108 -173.752651855
580.625 0.0789586279998 -156.559476541
581.25 0.0903802499043 -156.637366651
581.875 0.112361170094 -173.16008899
582.5 0.110590305704 -171.536458093
583.125 0.095283707211 -172.642661108
583.75 0.0785713378282 -160.605084713
584.375 0.101312942908 -155.18394706
585.0 0.0970619758856 -145.720964069
585.625 0.0754071046398 -152.946132424
586.25 0.0663378947826 -123.455857548
586.875 0.0800859183006 -129.415266046
587.5 0.0677399934687 -137.7536429
588.125 0.0606628486232 178.830865388
588.75 0.0678615389381 -149.321142647
589.375 0.0850776558768 -149.68104319
590.0 0.0910633852202 -169.639538153
590.625 0.104236871951 162.662429928
591.25 0.116120055068 157.364482228
591.875 0.0950527763392 159.796728494
592.5 0.0648156759627 144.498658449
593.125 0.061221511483 147.811601409
593.75 0.0620812275617 -175.833709515
594.375 0.0581592695385 -144.146648679
595.0 0.0401682238972 -111.999514603
595.625 0.059292771028 -103.39759528
596.25 0.071917617294 -84.7761430751
596.875 0.068284007362 -68.6557057674
597.5 0.0581209963142 -63.8812687865
598.125 0.0585090794307 -66.5799647875
598.75 0.0904822510889 -51.7447354478
599.375 0.0917430279889 -60.0425920259
600.0 0.103687808057 -59.7704607266
600.625 0.0971654890798 -75.136222218
601.25 0.0807132732065 -67.1413180053
601.875 0.0694813087092 -82.310248988
602.5 0.0616370098535 -93.1132049206
603.125 0.0446038717322 -61.7247703262
603.75 0.0279452045346 -52.2030209932
604.375 0.0533405043345 -11.1274882398
605.0 0.0702695878586 -8.83098016064
605.625 0.0549340438851 4.59179316891
606.25 0.0189926126221 -22.386135798
606.875 0.0580447170345 56.6279429363
607.5 0.0703182641509 44.9268916283
608.125 0.0716994342777 32.6071763929
608.75 0.053830560338 15.0934560893
609.375 0.078472163344 37.7398965688
610.0 0.080768693928 47.9255906523
610.625 0.0734359989845 45.3463224011
611.25 0.0422641243485 13.2246430447
611.875 0.0528615299804 77.8261425451
612.5 0.027005888856 95.6860380141
613.125 0.0177726999287 133.853447628
613.75 0.0363514873622 124.961925173
614.375 0.0326861295401 116.729722678
615.0 0.0388294926988 118.216705019
615.625 0.0297945801291 133.935910639
616.25 0.048334514216 135.395240398
616.875 0.032882619588 124.203336068
617.5 0.0357896598487 123.667436698
618.125 0.0160348322694 127.704326823
618.75 0.0326696274581 139.586696632
619.375 0.00790186296273 117.919443285
620.0 0.0123975083788 136.462613486
620.625 0.0213524532336 -107.85643831
621.25 0.0499694727259 -81.9127683866
621.875 0.0624893129296 -107.905044186
622.5 0.0745607263213 -166.014005369
623.125 0.0711381216622 167.634583293
623.75 0.0616964649075 163.430970807
624.375 0.0335200351894 -164.271168086
625.0 0.0598543396711 -158.064905721
625.625 0.0521631274927 -161.723338134
626.25 0.0357238267867 -179.070708189
626.875 0.0240085437564 -7.02765591684
627.5 0.0277543312618 -104.082065526
628.125 0.0347321686962 -33.9093801553
628.75 0.0379828998773 -30.4830261199
629.375 0.0633273765758 0.986419711826
630.0 0.0633288730958 -8.08708546143
630.625 0.0663394054871 -1.60782128243
631.25 0.0665032717363 1.30502590976
631.875 0.0763016638084 10.8841517512
632.5 0.0745342876994 -31.6128955213
633.125 0.0467959070327 -1.84950812516
633.75 0.0434979055798 17.4705824391
634.375 0.0451469827962 25.866198656
635.0 0.0431221855906 39.0480697098
635.625 0.0266361697811 12.2082840368
636.25 0.0424260010755 32.2524828943
636.875 0.0583975082512 25.2773505783
637.5 0.0543157050107 53.8949169499
638.125 0.0259507160617 39.3205347427
638.75 0.0658716806193 74.0079616652
639.375 0.10123186334 92.8399107912
640.0 0.075199364682 107.584630595
640.625 0.055595594651 89.8323733419
641.25 0.0633244237172 121.649669721
641.875 0.0618038523251 145.838963874
642.5 0.0682537813421 163.67022408
643.125 0.0449174578259 138.585867614
643.75 0.0606430016225 170.035115773
644.375 0.0694299721995 179.237489986
645.0 0.0913726307705 -179.160132657
645.625 0.0879157747835 158.614032666
646.25 0.0854623775242 162.14697495
646.875 0.0736627640929 -178.490849266
647.5 0.0664362144591 -175.363999639
648.125 0.0865049661741 -175.662887788
648.75 0.0734606143596 -165.313292963
649.375 0.0469620773455 -147.372214659
650.0 0.0464070377724 -117.578928361
650.625 0.0800981844387 -87.6964793728
651.25 0.0548228328742 -67.9727664305
651.875 0.0559183412859 -39.2708842077
652.5 0.0766743358167 -24.4961786478
653.125 0.136887403914 -1.53449175295
653.75 0.10748626057 6.97350724047
654.375 0.114665938557 6.73336532474
655.0 0.122988667917 14.0670199941
655.625 0.104394835248 29.1803181223
656.25 0.0519423625371 14.5035156437
656.875 0.0618706641425 5.22733837465
657.5 0.0720461542157 18.2026632433
658.125 0.0815621695096 49.08327242
658.75 0.0401478983589 68.9925753048
659.375 0.0789693809208 44.535207218
660.0 0.12301763592 25.2469857454
660.625 0.11858507106 17.6799954052
661.25 0.0997425958892 5.39757359615
661.875 0.119726781332 -12.3064959332
662.5 0.118317685823 -23.5961212284
663.125 0.117742748231 -16.1081995954
663.75 0.0767965338644 -0.505954952752
664.375 0.0902481536429 51.3921385003
665.0 0.07351940274 92.3945775175
665.625 0.0671546586854 111.668776887
666.25 0.0812452404532 130.975441601
666.875 0.122690194233 170.341531118
667.5 0.0983383007833 -169.58978826
668.125 0.110100288956 179.077075304
668.75 0.125323285347 166.881239887
669.375 0.117508911276 179.63710539
670.0 0.0873028836299 -169.599044445
670.625 0.0957679874185 -173.274501212
671.25 0.0868166790493 175.454980738
671.875 0.0890055387153 170.529831671
672.5 0.0699658300087 150.986042734
673.125 0.0918017732717 149.950763273
673.75 0.109761404743 159.079978616
674.375 0.119385255598 167.52159755
675.0 0.115367513516 -175.304600228
675.625 0.138650751987 -151.926539749
676.25 0.122322611381 -125.219314377
676.875 0.115804700222 -119.927420658
677.5 0.125005420209 -126.927221748
678.125 0.140153868031 -118.017909379
678.75 0.049109596836 -92.8692154181
679.375 0.0467862658524 -68.7734216805
680.0 0.0705927065079 -76.3544430031
680.625 0.132206112946 -80.5777196142
681.25 0.103415515688 -72.8278681063
681.875 0.0994612032838 -92.3355132992
682.5 0.139869352436 -119.695154374
683.125 0.164284651439 -121.851103
683.75 0.148165269188 -107.768768659
684.375 0.0985031360906 -74.7442126101
685.0 0.128758716309 -39.609418763
685.625 0.125950644711 -0.7348620831
686.25 0.120424081816 18.371302819
686.875 0.0658199185986 51.9149886437
687.5 0.0688306149106 85.7725778139
688.125 0.0721070108165 110.728595943
688.75 0.106696837101 107.878959066
689.375 0.124105671399 128.182604759
690.0 0.132528421537 133.276258135
690.625 0.122466686079 124.162621831
691.25 0.146128681162 96.4025644742
691.875 0.199709152035 65.8831999847
692.5 0.138923134613 40.3195399237
693.125 0.0840313306637 -12.4315731925
693.75 0.0873923115515 -35.0250596526
694.375 0.147274181649 -36.5886163686
695.0 0.113046261306 20.8419512328
695.625 0.101484862135 54.4297329054
696.25 0.11737875505 108.753003978
696.875 0.138808210729 172.320360163
697.5 0.148996593142 -149.87346633
698.125 0.130864936625 -128.778971466
698.75 0.136715134638 -134.020361795
699.375 0.11553253284 -129.540633745
700.0 0.084480750733 -102.01500248
700.625 0.109684772498 -85.7221593474
701.25 0.1019456482 -66.4763546189
701.875 0.0835363948288 -63.8946212939
702.5 0.0984146200176 -78.150283435
703.125 0.171067956101 -121.145635965
703.75 0.181706538644 -151.897912536
704.375 0.129231458832 170.9796232
705.0 0.115495727406 152.461058487
705.625 0.13282991382 -157.339216514
706.25 0.139258126169 -106.826605578
706.875 0.0843270860482 -61.0140773941
707.5 0.0783303517155 -41.8411903358
708.125 0.0858390696505 26.2325525579
708.75 0.112250835415 68.2079648908
709.375 0.101103512177 106.671740832
710.0 0.103295479662 128.766804034
710.625 0.107767683827 148.070837207
711.25 0.118296658293 173.179848849
711.875 0.146137263351 170.879708523
712.5 0.157531130846 137.48215983
713.125 0.114683857979 110.833984842
713.75 0.102493510765 46.8731432601
714.375 0.114963350644 20.955325504
715.0 0.115012521525 28.8528960469
715.625 0.0849370985553 40.084984907
716.25 0.0904995400704 92.6097341308
716.875 0.126239548967 111.745292454
717.5 0.141195643679 149.336192763
718.125 0.117913573365 164.377092372
718.75 0.0999580673582 172.077597605
719.375 0.114734344852 -167.173609254
720.0 0.134997028032 -120.271755857
720.625 0.114321496249 -76.2397532955
721.25 0.100663251875 -24.4274932035
721.875 0.0833913325867 38.2160184438
722.5 0.0676385013795 81.3009191694
723.125 0.0689257083211 53.7904630207
723.75 0.120267358171 46.6191011807
724.375 0.115581503838 -0.369089167889
725.0 0.0930425352206 -43.6940558438
725.625 0.102214896367 -66.3093714589
726.25 0.101943165231 -81.6514783242
726.875 0.110209647941 -32.2855375366
727.5 0.0878766242772 -22.2027857493
728.125 0.0799711376609 9.25074864399
728.75 0.0807152346962 12.7282570514
729.375 0.0899471997966 25.9268686571
730.0 0.0736703712962 3.03778787927
730.625 0.0747015888477 27.1976178643
731.25 0.0725882031545 63.7650675865
731.875 0.0556617206594 101.032178727
732.5 0.0990442317549 162.837182221
733.125 0.0943424417327 177.39806652
733.75 0.0794633727237 172.203627203
734.375 0.0526625549162 174.022750677
735.0 0.0567023255325 149.175665488
735.625 0.0400834680445 134.075348233
736.25 0.04377830551 144.682801417
736.875 0.0322519639167 -179.297194546
737.5 0.0815382446124 178.422293434
738.125 0.109167021747 -174.269764152
738.75 0.0771529446803 -177.704344352
739.375 0.0292137597231 166.180165995
740.0 0.100246671631 -136.870089488
740.625 0.0628272628131 -153.476160069
741.25 0.058237118774 -145.922168326
741.875 0.0251238423484 -110.09605949
742.5 0.0152179740116 12.9079819258
743.125 0.0391299839081 52.1911438131
743.75 0.0445133880524 106.311462945
744.375 0.0397427964281 171.356432505
745.0 0.0896386562373 105.129372714
745.625 0.0746568659833 108.866180745
746.25 0.078366566086 92.2197148541
746.875 0.0681610997138 39.5117666123
747.5 0.0318799749905 15.7871590991
748.125 0.0309797663258 -8.68463692503
748.75 0.0365819762423 -28.9074716887
749.375 0.0471936700988 -35.6269148063
750.0 0.0403380115311 -47.2142729058
