!Created with skrf (http://scikit-rf.org).
# GHz S MA R 50.0 
!freq magS11 angS11
500.0 0.0134336563147 149.066761866
500.625 0.0153951292833 164.865354314
501.25 0.0205350982522 -166.635226371
501.875 0.0327296434409 -175.049544081
502.5 0.0154941154098 138.749722962
503.125 0.0175594708756 108.564017078
503.75 0.00333274657657 126.467991029
504.375 0.0224288015553 -61.4408373441
505.0 0.0134546624281 -57.9032052942
505.625 0.0268182780955 -76.1832011434
506.25 0.0433768703071 -102.656569593
506.875 0.0728161860031 -98.5949068554
507.5 0.0419061925087 -157.396218255
508.125 0.039204824748 -112.482490704
508.75 0.0564892190589 -136.212152868
509.375 0.0645138690026 -125.595676545
510.0 0.0265292742344 -166.054943993
510.625 0.0300707746122 -162.656209852
511.25 0.0520493318801 178.662212795
511.875 0.0606164995792 152.494595249
512.5 0.0375249756077 94.4243881955
513.125 0.0485120469321 42.7308699253
513.75 0.0516242083731 27.4248595968
514.375 0.0546494277647 33.3315509002
515.0 0.0503699935191 5.5956437871
515.625 0.0948004124181 53.4622915177
516.25 0.0902053717671 30.7570639147
516.875 0.127762889168 71.0079726687
517.5 0.096927506654 12.551565241
518.125 0.187887803765 67.9291823035
518.75 0.0879928649762 15.5772152942
519.375 0.0681148691041 17.368369135
520.0 0.0913702382222 -2.41268549135
520.625 0.10708253901 -2.35789387456
521.25 0.0820901011713 -22.8183812514
521.875 0.0758050698482 3.42474883337
522.5 0.0936242322708 -34.5197383799
523.125 0.171436906725 -35.7338424102
523.75 0.203392871663 -59.9889896097
524.375 0.226061159855 -45.0837081088
525.0 0.0678291227848 -44.9020524572
525.625 0.0376472887206 -41.1315008129
526.25 0.0554956223842 -4.0158182543
526.875 0.0422382418382 -32.0141861339
527.5 0.0473885675129 -26.0964034147
528.125 0.0453499336121 -55.0114507075
528.75 0.0632335748302 -69.4289166673
529.375 0.0808801644609 -110.162941711
530.0 0.0359651853602 -136.280744071
530.625 0.0297475159922 -132.87272908
531.25 0.143990187488 -140.249501458
531.875 0.14097389632 -146.93291528
532.5 0.133457350198 -169.134297491
533.125 0.105196715639 175.830418682
533.75 0.125112521476 168.973478528
534.375 0.102919890731 -179.840672096
535.0 0.0858322165838 164.554978367
535.625 0.069363519831 -179.392192289
536.25 0.072141326798 165.234111546
536.875 0.0588433300574 -157.069441612
537.5 0.0873291411956 -140.887619256
538.125 0.0951284472013 -172.357583849
538.75 0.114750367458 -177.814648447
539.375 0.0584168711381 -163.904518287
540.0 0.0931981885256 -153.345293754
540.625 0.116183826513 -153.082768865
541.25 0.143089680883 -140.719456561
541.875 0.0817004062188 -138.597621851
542.5 0.101370713703 -137.204425861
543.125 0.130513476915 -166.0984895
543.75 0.140302844435 161.366674245
544.375 0.09161325455 135.89660167
545.0 0.0871108138066 93.9440102659
545.625 0.10465352263 86.4344693923
546.25 0.0918644905166 71.0957200049
546.875 0.0964473764232 56.0384962886
547.5 0.111688471236 60.1342292063
548.125 0.10294342881 77.6294083397
548.75 0.0995672159583 91.3131132918
549.375 0.0847303608451 87.6679407197
550.0 0.0856802050395 127.625505238
550.625 0.0547562029638 157.533563211
551.25 0.0413522164149 -136.940008661
551.875 0.0677264760776 -155.472796409
552.5 0.107619775864 -159.242796728
553.125 0.0894860819722 -165.889514607
553.75 0.0959117697679 -172.331802788
554.375 0.110745491014 167.694792274
555.0 0.125496138296 165.117563466
555.625 0.0979521406475 159.780965818
556.25 0.0971094017685 164.911455528
556.875 0.128245845458 164.449930369
557.5 0.0975438405411 169.639738171
558.125 0.0884270353715 167.175647759
558.75 0.0820512293748 -179.56064018
559.375 0.0621893932657 -171.022042155
560.0 0.0446269988646 -143.733297241
560.625 0.0609137979883 -138.007897798
561.25 0.089948398655 -147.969287569
561.875 0.108139501415 -162.606820924
562.5 0.0900492245045 176.618238549
563.125 0.109135267131 144.954106429
563.75 0.134421630955 131.935934987
564.375 0.0986934679609 124.003779013
565.0 0.0833571088465 122.693509648
565.625 0.0855522284057 118.897530501
566.25 0.0920229105946 156.864215986
566.875 0.0790719914313 178.80201516
567.5 0.0633265053818 -168.207928312
568.125 0.0728297658722 -162.597787021
568.75 0.062848792033 -142.90819637
569.375 0.0534332360094 -116.453058448
570.0 0.0601696462725 -94.4881327847
570.625 0.0906880163618 -109.649115429
571.25 0.0913746690357 -117.753649135
571.875 0.0913268726853 -131.040821518
572.5 0.107662394096 -147.778648215
573.125 0.131710590914 -168.518611267
573.75 0.0993107344302 164.128913346
574.375 0.0881398514956 146.195137911
575.0 0.101303180776 157.739473778
575.625 0.106834793526 159.373170841
576.25 0.0871980315038 148.245186583
576.875 0.0759618692617 130.137162862
577.5 0.0798499272211 139.131849926
578.125 0.0598259814507 162.353451352
578.75 0.0485379730733 166.245402608
579.375 0.0580973020346 157.118859568
580.0 0.0653735109101 -158.671003159
580.625 0.0794560052142 -141.493220995
581.25 0.0896281014036 -160.799395449
581.875 0.117213587977 177.498123484
582.5 0.107683734842 -165.636077885
583.125 0.0911441857526 -166.581052478
583.75 0.0803638951393 -166.177428372
584.375 0.105406264579 -160.843404336
585.0 0.0948380795809 -144.084408532
585.625 0.0702699569222 -141.523185895
586.25 0.0635690629787 -132.942329389
586.875 0.0845557674574 -143.518620927
587.5 0.0674755241921 -130.184092708
588.125 0.0578637888711 -168.758075501
588.75 0.0663662014274 -159.559069171
589.375 0.0820033872042 -158.997269029
590.0 0.0942507315563 -166.91095726
590.625 0.106630203526 166.001489382
591.25 0.12269270454 150.725659149
591.875 0.0948668679649 160.939697585
592.5 0.0660268597848 142.325649857
593.125 0.0643132287645 153.947771784
593.75 0.0676210329319 168.406309946
594.375 0.0594864424875 -155.376409428
595.0 0.0454177509662 -107.193868661
595.625 0.0581267510397 -98.1739206917
596.25 0.0732815577144 -90.1409886513
596.875 0.0689410714676 -68.8431056872
597.5 0.0563663615561 -67.4145649084
598.125 0.0705333607336 -53.8664052922
598.75 0.0826217534063 -57.0386566635
599.375 0.0816147647596 -71.9579730578
600.0 0.111467707137 -54.3149775061
600.625 0.100797575299 -59.5822665796
601.25 0.081643555921 -76.944272111
601.875 0.0672357306338 -92.9766980287
602.5 0.0612559721304 -88.0174944204
603.125 0.0435486436708 -53.6139727586
603.75 0.0344299105534 -25.0426455498
604.375 0.0443340810293 -16.5283092998
605.0 0.0486992132186 -34.0555646906
605.625 0.0621813607704 16.410567602
606.25 0.0318780516208 28.2315397354
606.875 0.0458600714375 57.5612776516
607.5 0.0506183715421 41.637571206
608.125 0.0903296325294 39.8780920348
608.75 0.0658138029957 23.4952079563
609.375 0.0694357504647 33.7777725098
610.0 0.0576115180008 32.6834449674
610.625 0.0788750602719 53.608094307
611.25 0.0591734051308 46.9893808358
611.875 0.0442316853988 70.3817114636
612.5 0.0104821637744 40.3156182283
613.125 0.0255429391034 128.117228296
613.75 0.0448038936947 127.562645994
614.375 0.0497087322738 123.817013281
615.0 0.0370286276954 116.919160159
615.625 0.0185096872664 140.544006889
616.25 0.0659292414223 137.795696069
616.875 0.0590123969574 132.779117778
617.5 0.0362350651076 120.752570981
618.125 0.0236484837885 134.761534543
618.75 0.03489822338 147.783193794
619.375 0.0249987981733 141.463541936
620.0 0.00695551917214 1.60789675306
620.625 0.0219419507392 -122.971178557
621.25 0.0410563747139 -111.701581781
621.875 0.0614168300476 -101.108308832
622.5 0.070043181167 -166.941905473
623.125 0.0629699783174 -177.724550316
623.75 0.0633470410587 166.430213305
624.375 0.0467090244229 -179.378928036
625.0 0.046583026143 -151.276577646
625.625 0.018894938121 -123.372638833
626.25 0.0472029487421 -174.242366089
626.875 0.0105678934681 171.498546403
627.5 0.0204760890412 -68.8650599174
628.125 0.0510071790484 -3.81576884972
628.75 0.0330135726482 -44.3339061767
629.375 0.0386604767038 -11.4169346016
630.0 0.0743280296144 7.6216954185
630.625 0.0828106745188 21.6654370776
631.25 0.0681187655398 -10.678971065
631.875 0.0666536376849 -16.6309845919
632.5 0.0652651856445 -20.1564035619
633.125 0.0500496644409 26.695288175
633.75 0.0396745197353 12.391344014
634.375 0.0420015307054 14.652574404
635.0 0.0307689627943 24.2818671385
635.625 0.0319968623385 36.8595429931
636.25 0.0706779417514 50.6693305247
636.875 0.0575631774526 12.7345206944
637.5 0.0392928660857 36.8529858797
638.125 0.0434333575139 62.1751792621
638.75 0.0977765517512 80.5087957757
639.375 0.0921539231162 92.0282505829
640.0 0.0696774146276 104.356605701
640.625 0.0594905576458 107.380610793
641.25 0.0611648762664 126.082196551
641.875 0.057070154612 146.237949456
642.5 0.0483757179781 149.540616364
643.125 0.0505319170659 153.057183446
643.75 0.0873752404697 -179.562026573
644.375 0.0572583137941 176.468944848
645.0 0.0730188713157 178.007929488
645.625 0.0973044153307 169.822312628
646.25 0.098315181687 169.518434187
646.875 0.0795163796874 -175.226658788
647.5 0.0650256170535 -174.136473027
648.125 0.0906039099947 -171.797615447
648.75 0.0734470099526 -159.02512484
649.375 0.0568117048085 -141.477422116
650.0 0.0456166142354 -118.007415583
650.625 0.0528122329781 -87.1250828848
651.25 0.0640056070872 -62.2451919262
651.875 0.0779180286142 -41.8089699905
652.5 0.0654354092931 -23.2075743373
653.125 0.106723505516 -1.28569433969
653.75 0.110957425045 8.2154662451
654.375 0.107879125318 7.91109951239
655.0 0.115042849611 13.6142022155
655.625 0.0895581179976 30.7220260742
656.25 0.0571523849981 23.4571330859
656.875 0.081022462745 10.6161280016
657.5 0.0560380956403 14.0631640406
658.125 0.0610808874877 54.5829627268
658.75 0.05328592312 62.1904332326
659.375 0.0961098712127 37.5567724586
660.0 0.117778126246 27.6814886127
660.625 0.112051998367 19.8432835662
661.25 0.113036158584 5.74940001329
661.875 0.121575656164 -9.44446346417
662.5 0.109945320878 -18.7392054568
663.125 0.0921210348117 -16.0232122336
663.75 0.0939117547112 2.64693322316
664.375 0.113749098048 57.5589508215
665.0 0.0582741065477 92.4284008729
665.625 0.0670076482827 114.978094434
666.25 0.0843159717545 135.836204406
666.875 0.117592817085 172.409930104
667.5 0.0994731189224 -165.373485785
668.125 0.104435043665 -176.940792407
668.75 0.127886391723 171.05021364
669.375 0.142709287785 178.924967684
670.0 0.0740592475633 -169.189493455
670.625 0.0802787357098 -167.189562189
671.25 0.0983147005618 177.522647907
671.875 0.117002798895 169.163639955
672.5 0.0629967920663 161.708263251
673.125 0.0743895960239 161.042701527
673.75 0.111997390195 161.67398559
674.375 0.122629799688 169.257336404
675.0 0.115100833193 -171.59501593
675.625 0.120035414554 -146.942255405
676.25 0.125178872635 -123.487457372
676.875 0.122146256881 -120.526092062
677.5 0.122428129786 -127.044407822
678.125 0.10976087349 -113.501886101
678.75 0.059126174629 -91.6675735245
679.375 0.0612784668114 -78.6565939066
680.0 0.0641451548959 -64.2841111932
680.625 0.116842236663 -71.1387545917
681.25 0.110492858234 -72.6849789185
681.875 0.104289230594 -91.1577752991
682.5 0.146061986173 -121.382958041
683.125 0.149224175039 -115.587590157
683.75 0.126708167459 -101.503643297
684.375 0.108291334078 -77.244912692
685.0 0.140256003325 -40.3254001704
685.625 0.107249984804 3.06017263173
686.25 0.104270466122 24.4419047649
686.875 0.0805465537115 48.0793501891
687.5 0.0888450713226 79.8454509019
688.125 0.0725754285062 123.997233598
688.75 0.104049742938 118.906370921
689.375 0.13626928828 122.763206383
690.0 0.136383423924 135.330005383
690.625 0.120775710335 127.710194708
691.25 0.141499044213 99.4087295438
691.875 0.190403648819 71.5871744166
692.5 0.138124516448 42.702985548
693.125 0.0968625981303 -16.9817568257
693.75 0.0795685266149 -23.7213423069
694.375 0.12569972398 -20.7684309972
695.0 0.121237597353 14.4981544866
695.625 0.104378472357 55.8118616953
696.25 0.117223279762 114.672471903
696.875 0.137599537109 175.469797475
697.5 0.139773874322 -138.171066017
698.125 0.139479360068 -129.363764654
698.75 0.138518035852 -131.99352948
699.375 0.104329954443 -120.523094287
700.0 0.0908766229821 -108.99347904
700.625 0.120715457445 -96.0685127778
701.25 0.100208517451 -59.2598108807
701.875 0.0813192620267 -56.6772535838
702.5 0.0986702761535 -82.7496080696
703.125 0.174232081117 -118.787664591
703.75 0.194398224653 -156.737619849
704.375 0.123282509741 175.753990635
705.0 0.107640213149 167.650880306
705.625 0.136863875873 -164.231192039
706.25 0.154984855365 -117.684905602
706.875 0.0805223409575 -49.0127712919
707.5 0.0745161711346 -34.2519989779
708.125 0.0925371957293 18.0222993942
708.75 0.112542856836 62.4876691922
709.375 0.102677337557 112.083748405
710.0 0.103375002477 132.613601743
710.625 0.109369970284 159.715443505
711.25 0.119109083109 170.588840553
711.875 0.144389203848 -179.951071801
712.5 0.152099844938 149.675891764
713.125 0.117183146993 102.773745091
713.75 0.103030356535 46.843128588
714.375 0.114566722033 14.7613613668
715.0 0.111542607266 33.3721737489
715.625 0.087896596444 63.6808880744
716.25 0.0832232180735 86.8869146398
716.875 0.107097757652 92.4475917075
717.5 0.146123044788 156.928794781
718.125 0.116749325983 169.520212031
718.75 0.102848997444 167.388355138
719.375 0.118831058467 -167.813286622
720.0 0.124798671015 -137.770422101
720.625 0.112017408686 -65.111442528
721.25 0.09690491698 -26.460350047
721.875 0.0832674955129 17.7254352833
722.5 0.0822000251663 94.5567092088
723.125 0.0909994991584 80.7189865433
723.75 0.100336105255 40.6640622706
724.375 0.113169790454 1.90434405762
725.0 0.0863131967505 -47.3292829984
725.625 0.110518563196 -56.1684725181
726.25 0.125720597938 -55.0579914776
726.875 0.104904358237 -38.6080911245
727.5 0.0732771418995 -51.3347882336
728.125 0.103432718931 17.7744088067
728.75 0.0846071839213 26.1670207792
729.375 0.0812699531124 15.1492011177
730.0 0.0714441220293 4.90442479526
730.625 0.048714528198 7.87932081625
731.25 0.0870161666109 73.7596932012
731.875 0.0823494582001 120.275445272
732.5 0.0829239937984 161.026151512
733.125 0.0618384967813 162.282640046
733.75 0.0960998248557 -172.114220564
734.375 0.058763845831 158.116242835
735.0 0.05581560083 151.232758371
735.625 0.0434696972906 151.170595762
736.25 0.0453164855348 143.649800931
736.875 0.0509686110231 166.154832911
737.5 0.0804350673573 177.795097049
738.125 0.0628906832234 -177.400976548
738.75 0.0980180729349 -166.096586902
739.375 0.0699963356247 -158.171570658
740.0 0.0754419417337 -136.485553078
740.625 0.0269580545768 -128.249735631
741.25 0.0751655964415 -152.053108127
741.875 0.0381768607052 -108.723639683
742.5 0.0323154760562 -18.4417507608
743.125 0.0247517775375 82.7021058278
743.75 0.0572103420801 101.267585762
744.375 0.0469700347256 107.26318176
745.0 0.0683245068732 128.738797848
745.625 0.0679591179596 147.242894549
746.25 0.0810057694991 84.8671687591
746.875 0.067629572843 40.7816277552
747.5 0.0338962382053 15.3397753402
748.125 0.0204732903741 -11.2789608236
748.75 0.0302688399865 63.8263029109
749.375 0.0454085341657 -51.9239512867
750.0 0.0288299449801 -103.015975274
