!Created with skrf (http://scikit-rf.org).
# GHz S MA R 50.0 
!freq magS11 angS11
500.0 0.01475507445 163.905855105
500.625 0.0131512408524 37.8344437029
501.25 0.0131750862857 -163.632835854
501.875 0.0294236490424 -172.941144794
502.5 0.0163557104839 138.257132315
503.125 0.0285951569472 134.678178432
503.75 0.0139937370285 106.844640839
504.375 0.00164598918428 113.506337412
505.0 0.0268008986484 -75.7786482771
505.625 0.00669084132046 -80.085857541
506.25 0.0341760780778 -110.578450895
506.875 0.0575117684222 -121.244715981
507.5 0.0555361425801 -108.501677284
508.125 0.0499986800293 -101.815817982
508.75 0.0549916008028 -129.021633201
509.375 0.0476667730775 -146.085937199
510.0 0.0493418914153 -109.270076328
510.625 0.0215442686378 -175.414088253
511.25 0.0458420386362 176.498947772
511.875 0.0485180865802 133.204470303
512.5 0.0486424135608 110.750335771
513.125 0.0460902913335 16.9444439103
513.75 0.0561603898468 34.757625704
514.375 0.0496143365204 27.0840876491
515.0 0.0459462540724 -3.19870690113
515.625 0.076532896812 44.7402430121
516.25 0.0945567899405 29.3879215497
516.875 0.110533037401 69.5563096957
517.5 0.136507056252 22.0165365056
518.125 0.195923431216 67.6865784003
518.75 0.0795780499677 3.17506069601
519.375 0.0855446413187 21.9951873242
520.0 0.0712351632493 -15.6526960913
520.625 0.0980252925334 -8.36476751872
521.25 0.0856737322273 -28.493125574
521.875 0.067780512291 -0.388623205767
522.5 0.0990973092467 -34.0091894368
523.125 0.181591391422 -36.9279227633
523.75 0.20992687715 -57.9283459492
524.375 0.207566945051 -53.4802187748
525.0 0.0715086506329 -54.4972916675
525.625 0.0339688096258 -53.799941343
526.25 0.0394766341854 -19.0817506212
526.875 0.0688818763429 -18.3387205917
527.5 0.0357376331049 -48.4451309693
528.125 0.0369982180672 -61.3709913712
528.75 0.0694864210687 -76.3732766966
529.375 0.109752254058 -109.543424375
530.0 0.0423691132333 -142.972976651
530.625 0.0318947521058 -136.393587195
531.25 0.11839830326 -136.063677465
531.875 0.201345803187 -150.005096306
532.5 0.117323343083 -175.171521465
533.125 0.0937807259676 174.494917339
533.75 0.102309843688 164.081633868
534.375 0.130167122965 178.018837575
535.0 0.0787957371839 158.547423337
535.625 0.0614233478745 174.283492498
536.25 0.0549991510301 157.92795724
536.875 0.0907440404463 -164.904966554
537.5 0.0908495366167 -144.899756444
538.125 0.100049559011 -173.237568806
538.75 0.0981308196708 178.04690352
539.375 0.092217470215 -166.144317964
540.0 0.0678875754008 -152.549850036
540.625 0.115468944747 -155.727554012
541.25 0.128592904509 -142.38268946
541.875 0.105970521935 -146.903177864
542.5 0.106484888903 -142.450905684
543.125 0.126709511095 -165.86237174
543.75 0.127461953396 158.767249836
544.375 0.10650185276 135.52454755
545.0 0.0807877516401 88.3404649715
545.625 0.0945956418601 82.3025103546
546.25 0.0976146343896 66.7088862733
546.875 0.0911120082617 53.6526247398
547.5 0.0895516002443 57.3291868655
548.125 0.104954701849 76.9795101006
548.75 0.0904657314826 89.2573169842
549.375 0.112174577228 83.4732424517
550.0 0.0740877963168 119.966709441
550.625 0.0443509868799 154.654399991
551.25 0.0427865425315 -149.662117478
551.875 0.0700332902148 -171.684493001
552.5 0.0867533796706 -157.663538385
553.125 0.0871142569026 -165.713860399
553.75 0.0839049407418 -168.627898959
554.375 0.114880714402 161.366097561
555.0 0.108738088149 164.817213271
555.625 0.0974477312343 156.401610384
556.25 0.100335433097 161.779792021
556.875 0.119152861734 164.378176554
557.5 0.124510126274 163.728824631
558.125 0.0907127790384 163.234629469
558.75 0.0885993186703 175.210167616
559.375 0.0765228566795 -177.205171976
560.0 0.0321604913393 -139.57558741
560.625 0.0563540903311 -139.70200568
561.25 0.0857845716781 -152.832059945
561.875 0.106537039431 -166.56453925
562.5 0.0960094816043 170.162771697
563.125 0.103257002306 145.962773177
563.75 0.1214553761 131.293726763
564.375 0.114012276504 117.086654562
565.0 0.0722795007162 122.066122218
565.625 0.0789604152393 117.656898705
566.25 0.0886440925712 151.523458565
566.875 0.0762318272899 177.445767519
567.5 0.0791924253137 176.616218205
568.125 0.078870672187 -172.155203732
568.75 0.0626354563383 -145.152820922
569.375 0.0485811919006 -112.284608439
570.0 0.0616101096334 -118.949773416
570.625 0.0904625967915 -117.290152308
571.25 0.0920707189111 -123.568600491
571.875 0.0886223619746 -129.180039384
572.5 0.114744339969 -161.710130561
573.125 0.13737877431 -174.936510966
573.75 0.0989280408934 163.200034967
574.375 0.0839394366312 147.380695234
575.0 0.108766317806 149.24078571
575.625 0.108386562726 154.013243075
576.25 0.0879612921072 145.803768314
576.875 0.0873081308868 122.999155095
577.5 0.0778698430246 135.049359679
578.125 0.0591226468963 160.217044035
578.75 0.0509134198827 156.529910179
579.375 0.0553666638328 159.739410744
580.0 0.0702559016617 171.007785714
580.625 0.0753026148924 -150.40393322
581.25 0.0898283925037 -164.527150199
581.875 0.113602418621 -177.075265011
582.5 0.122171675227 177.316183756
583.125 0.0855223020197 -160.591531499
583.75 0.0810172499815 -164.137294865
584.375 0.0970243518142 -154.892563048
585.0 0.0994376909952 -150.015736507
585.625 0.0666786387295 -137.317159771
586.25 0.0694310343098 -134.059944256
586.875 0.0816581505083 -137.249527702
587.5 0.0772586540204 -152.801974801
588.125 0.0561137984004 -161.09384684
588.75 0.0682740378877 -157.486421811
589.375 0.0820698729938 -148.514700013
590.0 0.0898447931556 -175.301503743
590.625 0.107053604101 171.854444777
591.25 0.122812284852 155.464345752
591.875 0.0987579563558 153.860783318
592.5 0.0664563025851 140.637092201
593.125 0.0639413999037 163.176657549
593.75 0.0656656648612 176.648066004
594.375 0.0557902172501 -143.120459437
595.0 0.0403538133036 -137.242894591
595.625 0.0617266029768 -92.2997502794
596.25 0.0756458308202 -83.5317692626
596.875 0.0670269713199 -79.4832789112
597.5 0.0563427830448 -68.6483978906
598.125 0.0783086481337 -46.4607774565
598.75 0.081495558968 -64.124333588
599.375 0.0917024971639 -64.630651854
600.0 0.0940272682415 -76.0041968912
600.625 0.103357323977 -57.6014988037
601.25 0.0836155719067 -70.6754535463
601.875 0.0692625696941 -79.7989063088
602.5 0.0616982988795 -97.7758500485
603.125 0.0442440603635 -40.1626480354
603.75 0.0304234154141 -38.9071865851
604.375 0.0417166018169 -26.3218899734
605.0 0.0612732055395 -21.2712634032
605.625 0.0457625147806 -31.9608568618
606.25 0.0353546686575 29.230523206
606.875 0.0460096395838 47.8583001657
607.5 0.07252307361 47.8748099058
608.125 0.0573733252641 17.4369625379
608.75 0.0614992522425 21.5268394295
609.375 0.0641452434785 26.0950087285
610.0 0.07330206614 39.5981503095
610.625 0.0555969924977 22.7355817473
611.25 0.0622241778702 42.5332069855
611.875 0.0444573917895 58.6825605147
612.5 0.0293049462027 104.96248987
613.125 0.010206154352 137.569044118
613.75 0.0701755764464 125.069895889
614.375 0.0455794705182 121.191476215
615.0 0.025264017202 114.526144532
615.625 0.0231682777456 134.160321334
616.25 0.0317647905927 139.381577134
616.875 0.0505482115292 123.671343989
617.5 0.038183474059 135.357792356
618.125 0.00876753020236 127.659656255
618.75 0.0301801719909 147.254142251
619.375 0.0211939645259 143.648576725
620.0 0.0160974243301 157.377681144
620.625 0.0365251330786 -66.6162481899
621.25 0.0510463408242 -141.334696281
621.875 0.0634360396924 -118.456416228
622.5 0.0815675648228 -166.577152309
623.125 0.0705295195214 171.729066786
623.75 0.0608785881621 167.963918612
624.375 0.0450225933322 -175.988277514
625.0 0.0390177200941 -150.496478851
625.625 0.0380716207974 -155.464486692
626.25 0.00430455848326 165.951758687
626.875 0.0131895152419 174.889488475
627.5 0.0160949642463 -59.0021545697
628.125 0.033232095949 -49.3778942285
628.75 0.0516860192276 -1.40039389734
629.375 0.0369118780655 -45.833334406
630.0 0.0613870581622 -9.3554617336
630.625 0.0733741932304 1.86063302478
631.25 0.0714793314524 11.0923909496
631.875 0.0677691546947 -20.0532468583
632.5 0.0615329981996 -19.8389952808
633.125 0.0548753563008 -7.98094021771
633.75 0.0484793388936 22.4782193523
634.375 0.0509133710209 -20.7818888201
635.0 0.0360835488813 18.876947587
635.625 0.0353328059268 42.8399579377
636.25 0.0515660989121 41.939311433
636.875 0.0770727653464 48.2493870117
637.5 0.0414547549704 0.408214301955
638.125 0.0271840772957 55.8800974751
638.75 0.070071888686 70.5914749327
639.375 0.108375033605 97.0839781354
640.0 0.0660983010497 81.8456097676
640.625 0.0528577996896 93.2264522522
641.25 0.0704864891533 119.212035272
641.875 0.0827294781574 155.588416779
642.5 0.0475322977139 154.094196957
643.125 0.0494309885297 155.601829723
643.75 0.0616061682861 167.087607201
644.375 0.0934222220994 -171.327919508
645.0 0.0611621736849 168.543288638
645.625 0.0843647573515 161.624388575
646.25 0.0824581252973 155.594575101
646.875 0.0775147641594 -179.316617858
647.5 0.0580722040479 172.61581499
648.125 0.0773708447549 -178.880364979
648.75 0.0822448526423 -161.211462305
649.375 0.0511152165281 -150.503197446
650.0 0.0482467958826 -124.257925292
650.625 0.0621565905713 -91.7739063178
651.25 0.0696831964848 -65.3639310241
651.875 0.0653513589323 -42.6671843255
652.5 0.103143259438 -27.1451214298
653.125 0.104266052808 -4.64750530999
653.75 0.116493501957 6.34202906376
654.375 0.12082576142 5.87647796577
655.0 0.0939624593068 0.795534751898
655.625 0.0954948079787 23.736290039
656.25 0.0650016794455 21.6319871867
656.875 0.069465369047 4.03736177726
657.5 0.095821001002 21.8636101122
658.125 0.0427325309852 36.2699668634
658.75 0.047651925222 66.2667936964
659.375 0.0746931926409 38.2418115905
660.0 0.129941076598 22.0035233566
660.625 0.0898931799454 16.2114039321
661.25 0.102507947942 3.35422422148
661.875 0.127465489164 -16.1374763741
662.5 0.140915820297 -22.769963229
663.125 0.100657445599 -17.6590787998
663.75 0.0871863429627 2.88275213364
664.375 0.0947239620411 50.8218631239
665.0 0.0848265166809 88.4110459499
665.625 0.0621716612959 110.375990448
666.25 0.0746071236885 126.989379811
666.875 0.127816568547 164.392185356
667.5 0.0982660107048 -172.676883098
668.125 0.101883610337 178.641039795
668.75 0.130199735956 164.825380318
669.375 0.129542721434 175.192368401
670.0 0.0970900985723 -172.708388765
670.625 0.0863804162287 -175.195642474
671.25 0.105044254837 174.248417121
671.875 0.105829819139 165.287162095
672.5 0.0908593468687 149.54012696
673.125 0.0781209876616 151.568339613
673.75 0.11076270588 156.165219839
674.375 0.118758450128 165.18894413
675.0 0.103031916032 -176.413465778
675.625 0.127508360846 -152.273916395
676.25 0.116189895528 -126.857818467
676.875 0.119619684937 -122.690805147
677.5 0.122387810246 -130.259304679
678.125 0.124805166397 -120.057634094
678.75 0.0623829106308 -94.6346896678
679.375 0.0539968665852 -77.6504858236
680.0 0.0858445554761 -87.4471266639
680.625 0.0943660500576 -69.8230926695
681.25 0.102966183872 -73.5311969837
681.875 0.0925455930341 -93.4792583497
682.5 0.138645281932 -123.564394265
683.125 0.1753593703 -126.78430313
683.75 0.137438152691 -105.80510248
684.375 0.110189231518 -78.6321623747
685.0 0.122771670197 -40.0793237609
685.625 0.141299102313 -6.56861668717
686.25 0.0894606639776 23.2822458611
686.875 0.079731065556 47.9045878593
687.5 0.0778402209286 81.4148458757
688.125 0.0868959965259 100.478745571
688.75 0.0913788713614 123.58107912
689.375 0.133483869511 123.390186623
690.0 0.126887074658 132.585995888
690.625 0.126136268179 120.336407507
691.25 0.128381131978 104.2922727
691.875 0.187180959524 65.239427612
692.5 0.148833401378 35.4044081699
693.125 0.0916646048349 -17.8721661704
693.75 0.102812427199 -48.4142508211
694.375 0.128116542514 -27.4224634293
695.0 0.121614432882 14.4804615257
695.625 0.0955682595467 54.8226753542
696.25 0.120270868638 103.002073253
696.875 0.132244672809 170.754779361
697.5 0.141621732522 -146.169998301
698.125 0.142597078506 -136.018627408
698.75 0.139943999605 -137.418692246
699.375 0.0937902158238 -117.472866777
700.0 0.09118942647 -109.758235836
700.625 0.10584963131 -93.3391827678
701.25 0.111277684647 -75.1310729084
701.875 0.0759606426434 -47.8517598767
702.5 0.0989334492751 -81.7513847099
703.125 0.161022830644 -125.897355981
703.75 0.188056841421 -156.211968472
704.375 0.13363843391 167.284184106
705.0 0.107861310518 160.035675011
705.625 0.137967139569 -165.866732071
706.25 0.14328087678 -113.733439118
706.875 0.102240757555 -73.0652566053
707.5 0.0685160673643 -20.537841746
708.125 0.0914908859294 19.9274465367
708.75 0.106931189839 68.0703019351
709.375 0.10675461915 93.0397069067
710.0 0.102142967981 136.131535746
710.625 0.106116546088 152.002243208
711.25 0.116031851754 174.847543395
711.875 0.143155574417 157.765693887
712.5 0.144069573959 154.437497301
713.125 0.121615393118 104.762682178
713.75 0.0984544886643 47.1660384034
714.375 0.114044894885 13.0711482663
715.0 0.116836373976 27.5291513973
715.625 0.0851989228282 49.8199624463
716.25 0.0863236516783 81.0603820688
716.875 0.114684043527 100.106818895
717.5 0.138692582822 130.688496964
718.125 0.117804231783 175.248104193
718.75 0.10279079558 172.333464072
719.375 0.109615049614 178.33253062
720.0 0.13281405822 -131.073549562
720.625 0.116630274202 -85.226835256
721.25 0.100519160677 -21.1328659089
721.875 0.0854375604298 35.0207577364
722.5 0.0697646499619 43.4825308141
723.125 0.102549870857 87.1821380964
723.75 0.111835913741 44.7717747569
724.375 0.0999370018221 -6.50416155577
725.0 0.085415247241 -48.1879152809
725.625 0.0939483801577 -75.8760706536
726.25 0.123937123425 -63.4162336427
726.875 0.110394514431 -45.8114736314
727.5 0.0818424415292 -37.9932019448
728.125 0.0653626823695 -30.0808605844
728.75 0.123870920984 40.1085957299
729.375 0.0912696970148 21.7888216465
730.0 0.0588673165195 -2.74031979443
730.625 0.0649997200968 16.6190910862
731.25 0.0597024272783 50.8167212924
731.875 0.0695624791767 111.702800917
732.5 0.0847351338946 151.913598773
733.125 0.0914815390909 177.581996124
733.75 0.0622462009119 152.683647212
734.375 0.0736002782457 169.676810117
735.0 0.0551480489175 167.187144901
735.625 0.0235047508054 110.762271061
736.25 0.0380802401469 150.933841309
736.875 0.0493657938898 170.821727313
737.5 0.0662136947673 -179.933664807
738.125 0.0920627734309 -177.16754195
738.75 0.0582013272822 171.265698907
739.375 0.0511778432524 -168.59516555
740.0 0.0632329074009 -146.164180492
740.625 0.0702136608327 -148.904512414
741.25 0.0167935729443 -137.06022867
741.875 0.0775246976578 -111.276277569
742.5 0.0315949129961 -13.2870735506
743.125 0.0458673605486 55.948274069
743.75 0.0281230243665 159.307004084
744.375 0.0766394403555 87.1550853751
745.0 0.0665275002431 106.713306643
745.625 0.0651829889185 109.945880239
746.25 0.0707452913012 106.564664805
746.875 0.0753478874 38.3784767281
747.5 0.044124898728 9.28360849555
748.125 0.0164840305114 -4.97108035324
748.75 0.019415639205 0.864442282745
749.375 0.0382674032205 8.5831935634
750.0 0.0552671767169 -130.272109186
