!Created with skrf (http://scikit-rf.org).
# GHz S RI R (50+0j) 
!freq	ReS11	ImS11	
500.0	0.5054033614	-1.030666413	
500.625	-0.2176835574	-0.7482762315	
501.25	0.1525360219	-0.7099028299	
501.875	-0.3709049166	-0.4110929236	
502.5	-0.01475599994	-0.05553512224	
503.125	-0.08329339047	-0.02412186601	
503.75	0.05430359166	0.06708664594	
504.375	0.01832205983	0.03353089368	
505.0	0.02093394131	-0.04860814752	
505.625	-0.001048950545	0.002596415303	
506.25	-0.07982859926	-0.1327160371	
506.875	0.08830100731	0.1063221859	
507.5	0.1035968848	-0.4802439943	
508.125	-0.1687848474	-0.7061086614	
508.75	0.2383740626	-0.3869762577	
509.375	-0.04177247704	-1.243788433	
510.0	-0.4364890288	-0.127861886	
510.625	-0.03243558455	-0.06367740392	
511.25	-0.1230897448	-0.09481729439	
511.875	-0.06334997639	0.03512307344	
512.5	-0.02658434009	0.009237699517	
513.125	-0.02537549898	-0.0835223513	
513.75	-0.03162977162	0.01245981215	
514.375	-0.04769315924	-0.07762397595	
515.0	-0.1528754099	0.1228628036	
515.625	0.1999788079	-0.7182551635	
516.25	-0.5866686174	-0.4677220169	
516.875	0.0608188048	-0.1592877106	
517.5	0.01328550363	-0.2355584422	
518.125	0.007938015166	0.02799608942	
518.75	-0.02806284413	-0.1802888351	
519.375	-0.04780659918	0.05258575475	
520.0	0.07267751472	0.007220159951	
520.625	0.1394192136	-0.02378325872	
521.25	-0.02748175883	-0.2506755021	
521.875	-0.1177983278	0.02589344525	
522.5	-0.03769861615	-0.03732806365	
523.125	-0.09693866334	0.0976200878	
523.75	0.01165653214	-0.07597271202	
524.375	-0.284359373	-0.001025349569	
525.0	0.09184306048	0.09912340342	
525.625	-0.05568081273	0.02077744792	
526.25	0.07170999091	-0.0350105343	
526.875	-0.1138963925	0.02807654041	
527.5	0.02390711322	0.2419426274	
528.125	0.03229400105	0.1195349251	
528.75	-0.0084228785	0.2255405722	
529.375	0.0782976751	0.02334897005	
530.0	-0.01980367853	0.1245987332	
530.625	0.1844761826	0.3273377099	
531.25	0.5612132247	0.06007105936	
531.875	0.1933431988	-0.0578033808	
532.5	-0.110445412	-0.1794249245	
533.125	0.04809513634	0.09024040706	
533.75	0.1482631674	-0.2793737061	
534.375	-0.09670373517	-0.1311587997	
535.0	-0.1712498478	-0.1697200328	
535.625	-0.1662240399	0.1554221221	
536.25	0.01248680799	0.04269520996	
536.875	0.09104997531	0.04932134133	
537.5	0.04768676334	-0.06993393951	
538.125	0.07191549381	0.004640703606	
538.75	0.1327411983	-0.1358663522	
539.375	-0.08148567176	-0.09658415074	
540.0	-0.07636641834	-0.1555717032	
540.625	-0.1996247407	-0.02577637868	
541.25	-0.1129903369	0.03769622768	
541.875	-0.02209653396	-0.05804163215	
542.5	-0.09913532225	-0.05248896139	
543.125	-0.01491886854	-0.05259484414	
543.75	-0.147579498	-0.09427958005	
544.375	0.01773930013	0.05439125604	
545.0	-0.05413556819	0.06180437245	
545.625	0.1146288462	0.0376029866	
546.25	0.01326909613	0.03736651086	
546.875	0.1688253502	-0.02398136583	
547.5	0.004695900622	-0.1001533133	
548.125	0.01467261413	-0.1312574301	
548.75	-0.1466048912	-0.1560886386	
549.375	-0.1007584638	-0.00390033782	
550.0	-0.05986350186	-0.04154628922	
550.625	-0.05706354438	0.04475420129	
551.25	-0.04961157734	-0.004367801339	
551.875	-0.0874986753	0.07491730306	
552.5	-0.0131027009	0.05940031825	
553.125	-0.02936464828	0.05750644684	
553.75	0.05307950944	0.03891620671	
554.375	0.07608622778	0.00329879531	
555.0	0.09287670541	-0.06590175931	
555.625	0.07000579545	-0.1018391556	
556.25	0.05606091943	-0.1197619051	
556.875	-0.0292301091	-0.1456549714	
557.5	-0.09164295712	-0.09472052421	
558.125	-0.1032295097	-0.03086271617	
558.75	-0.09710299459	-0.007337404137	
559.375	-0.106376326	0.02518662501	
560.0	-0.07550624387	0.06622877986	
560.625	-0.06485186873	0.0913292729	
561.25	0.02322291559	0.1114291625	
561.875	0.01257440607	0.01559167408	
562.5	0.02135809437	0.08278094384	
563.125	0.05466151673	0.02908480178	
563.75	0.1236828386	0.04172736782	
564.375	0.1285609941	-0.1244080875	
565.0	0.03589361361	-0.1013788715	
565.625	0.02472981319	-0.1621949357	
566.25	-0.1661420282	-0.07658990443	
566.875	-0.05973350231	-0.06398988928	
567.5	-0.1546790965	-0.1548307065	
568.125	-0.170090092	-0.0484798267	
568.75	-0.1437345179	-0.1234866822	
569.375	-0.2922222543	0.1657800891	
570.0	-0.01633096113	0.1560884011	
570.625	-0.140982276	0.1135942647	
571.25	0.05647235397	0.1731537038	
571.875	-0.04142719521	0.010553416	
572.5	0.1934323116	0.02813245712	
573.125	-0.01675713522	-0.1395127842	
573.75	0.07157531138	-0.01271080429	
574.375	0.0175105089	-0.1710443017	
575.0	-0.0222259303	0.04172796151	
575.625	0.1032138301	-0.1171771296	
576.25	-0.03834213122	-0.1191277221	
576.875	0.03686304798	-0.05792485354	
577.5	0.03470920384	-0.2207239166	
578.125	-0.1499049028	-0.1177095748	
578.75	0.008559574783	-0.0483180597	
579.375	-0.09557806297	-0.1742204626	
580.0	-0.09801096244	0.09813023635	
580.625	-0.04534003431	-0.1740672087	
581.25	-0.09239720267	0.177843161	
581.875	-0.007354505048	-0.02659540595	
582.5	-0.04430990627	0.2018355635	
583.125	0.1786405128	0.0729455735	
583.75	-0.06886550857	-0.003230181628	
584.375	0.1410146661	0.08859326125	
585.0	0.04269636865	-0.02494122202	
585.625	0.1339523076	0.09465909846	
586.25	0.1852168112	-0.1348453941	
586.875	0.01906298106	-0.03986415459	
587.5	0.06000188643	-0.1571136436	
588.125	-0.0891894122	-0.1576800308	
588.75	0.03470381219	-0.03771935486	
589.375	0.1253816492	-0.1996484131	
590.0	-0.1278263968	-0.108818718	
590.625	-0.08191841284	-0.08120162608	
591.25	-0.2258997155	0.1421022494	
591.875	0.1053631909	0.09942118285	
592.5	-0.09780878846	0.01150597452	
593.125	0.06719429204	0.07738021166	
593.75	-0.05046570406	0.1068672011	
594.375	0.2564458962	0.1246127413	
595.0	0.1260779536	-0.02024227645	
595.625	0.09150382624	0.1304917775	
596.25	0.2087866293	0.0007489528821	
596.875	0.07280814934	-0.0139919452	
597.5	0.1193037934	0.1489016639	
598.125	0.2120571021	0.07361260256	
598.75	0.09206217081	0.03735824134	
599.375	0.2239031845	-0.02072237087	
600.0	0.1440648038	-0.1902383979	
600.625	0.05725818824	-0.1073144474	
601.25	0.132915833	-0.1664828956	
601.875	-0.1498332188	-0.1412511245	
602.5	-0.02529629824	-0.001499581388	
603.125	-0.2005601941	0.02204735057	
603.75	0.03611843196	0.1176718657	
604.375	-0.08172016359	-0.02691802952	
605.0	-0.0784740505	0.2217683165	
605.625	0.03979369287	-0.002827188623	
606.25	-0.2000512264	0.02076812162	
606.875	-0.1238852699	0.16922291	
607.5	-0.1941307984	0.09543190941	
608.125	-0.05956968512	0.2644731949	
608.75	0.1456007824	0.1240584117	
609.375	0.1254097488	0.002664660027	
610.0	0.1233954299	-0.1028757153	
610.625	0.02205467325	-0.183359132	
611.25	0.03354191994	-0.06751920002	
611.875	-0.1189554277	-0.2034733102	
612.5	-0.1776095734	0.04931916844	
613.125	-0.1383538098	-0.06890154728	
613.75	-0.1362852963	0.2208819563	
614.375	0.1122999515	-0.02038456719	
615.0	-0.02840840479	0.1533856525	
615.625	0.1012311832	0.03198483637	
616.25	-0.1102187106	0.05993165026	
616.875	-0.04430539799	0.255652345	
617.5	-0.005337717037	0.1351137749	
618.125	-0.0935212447	0.1390383183	
618.75	0.04240424366	0.221475972	
619.375	0.08486812029	0.2091538344	
620.0	0.1428919483	-0.007373232445	
620.625	0.1325390017	-0.1785674214	
621.25	-0.1008779464	-0.08834102023	
621.875	-0.08219654873	-0.08861607699	
622.5	-0.2870208005	0.04782084656	
623.125	0.08415016945	0.1472660195	
623.75	0.04345019554	0.09297104945	
624.375	0.09366902413	-0.1334149086	
625.0	0.01303352063	0.05281353139	
625.625	0.0920488494	-0.1381786502	
626.25	-0.1009150298	-0.06479972184	
626.875	-0.05257755193	-0.118932152	
627.5	-0.2096183141	-0.05013612232	
628.125	-0.08855457618	-0.01856289959	
628.75	-0.01924917032	-0.1477510634	
629.375	-0.1620975542	-0.1470520405	
630.0	-0.1571117368	-0.04895220743	
630.625	-0.1547739211	0.007880775097	
631.25	-0.1509967454	0.2148219886	
631.875	0.02501192959	0.1776722761	
632.5	0.07849213808	0.2263872004	
633.125	0.3175788551	0.03926419913	
633.75	0.07327582695	-0.05915908193	
634.375	0.1374336568	-0.1220126728	
635.0	-0.142811329	-0.1734841918	
635.625	-0.02902557716	-0.07429299929	
636.25	-0.2599047697	0.04933021447	
636.875	0.02535596555	0.1539758985	
637.5	-0.06928979207	0.007265119981	
638.125	-0.0788684303	0.1786704729	
638.75	0.02214771796	0.06264990919	
639.375	-0.0976598467	0.2546111573	
640.0	0.2236691578	0.2400932388	
640.625	0.1660041725	0.05330417704	
641.25	0.2322787971	0.09231523196	
641.875	0.178205704	-0.253742166	
642.5	-0.06403098697	-0.1162676843	
643.125	-0.04308619165	-0.1929203723	
643.75	-0.3241415246	-0.04149863192	
644.375	0.008390173689	-0.03128722663	
645.0	-0.2524904473	0.1884460345	
645.625	0.2305911538	0.1649542545	
646.25	-0.06495647125	0.05219063332	
646.875	0.26380205	0.04270041439	
647.5	-0.1053813611	-0.0700812271	
648.125	0.278680881	0.1962043233	
648.75	0.2004667659	-0.2159748845	
649.375	0.1134795147	-0.09344980096	
650.0	0.3227953618	-0.2836705331	
650.625	-0.01086876667	-0.3908111036	
651.25	0.1252889115	-0.05350049795	
651.875	0.4013469958	-0.1793356502	
652.5	0.186022702	-0.2300377514	
653.125	0.1736101998	0.03903598709	
653.75	0.2896011461	-0.2748540913	
654.375	-0.18558199	-0.2247207976	
655.0	-0.1176972901	-0.1198370425	
655.625	-0.4127291051	0.1845784418	
656.25	0.1838800229	0.1156612689	
656.875	-0.166122893	0.05570463809	
657.5	0.2038294034	0.1484337146	
658.125	0.005901550897	0.0374374719	
658.75	0.3437073451	0.257910861	
659.375	0.2285271191	-0.3540563394	
660.0	0.1286831517	-0.1290142588	
660.625	0.2410598734	-0.3123463542	
661.25	0.05601477435	-0.3972375791	
661.875	0.1138726322	-0.06260620613	
662.5	0.3677158116	-0.1949772428	
663.125	0.1591923667	-0.2747316926	
663.75	0.134315184	-0.1362379015	
664.375	0.003372790524	-0.4251500697	
665.0	-0.2977258178	-0.08060854869	
665.625	-0.2065124454	-0.009797919613	
666.25	-0.175275215	0.3041449113	
666.875	0.1975701758	0.1357861782	
667.5	0.03313244335	0.1277219693	
668.125	0.35472371	-0.04716794547	
668.75	0.03761420868	-0.1466574416	
669.375	0.2321958835	-0.09032613581	
670.0	-0.05126326299	-0.3643520216	
670.625	-0.03987331681	0.03192652008	
671.25	0.167008047	-0.1955740492	
671.875	0.004109305524	-0.2349572422	
672.5	0.09547639527	-0.04617913906	
673.125	0.3257361375	-0.1562278552	
673.75	0.03376526003	-0.2745546461	
674.375	0.07201838642	-0.1323145085	
675.0	-0.02654502128	-0.2965889948	
675.625	-0.2680322437	-0.02710820995	
676.25	-0.03096911001	-0.07426281039	
676.875	-0.2491388546	-0.005709268862	
677.5	-0.06946539154	0.1099463038	
678.125	-0.1474636971	0.006767951645	
678.75	0.0330734636	0.3426839071	
679.375	0.1805371996	-0.1369352502	
680.0	0.1011661741	0.0995363546	
680.625	0.1707180154	-0.1866648746	
681.25	-0.188405878	0.02057817364	
681.875	0.3494808764	0.2515361784	
682.5	0.2127641156	-0.1706589997	
683.125	0.0413650123	0.144218668	
683.75	0.3812032251	0.1518266049	
684.375	0.3204710805	-0.161729694	
685.0	0.148906039	0.2421886803	
685.625	0.4143516349	-0.02179951663	
686.25	0.2179871359	-0.1531502903	
686.875	0.1978526033	0.01864834163	
687.5	0.2624779244	-0.4392737916	
688.125	-0.1405542078	-0.2527142374	
688.75	-0.2432806222	-0.2828781999	
689.375	-0.3678306494	0.3571552138	
690.0	0.2220881259	0.2212282912	
690.625	0.02292964664	0.3279683449	
691.25	0.490531174	0.2282924913	
691.875	0.1979993692	0.09044818073	
692.5	0.5453774354	0.4347401314	
693.125	0.6858703414	-0.3732891421	
693.75	0.2735876117	-0.1045566596	
694.375	0.57753187	-0.3119113827	
695.0	0.3441189632	-0.4296320724	
695.625	0.3308082741	0.06171081088	
696.25	0.5318571668	0.3212474371	
696.875	0.4242362503	0.1867204666	
697.5	0.3100227333	0.4151681683	
698.125	0.5007925916	0.3123273934	
698.75	0.3845870226	-0.4932778369	
699.375	-0.1927628512	-0.1856862214	
700.0	-0.3965388263	0.2615516725	
700.625	0.2382483523	0.3549106917	
701.25	0.05772110117	0.1098019681	
701.875	0.3067089351	0.359135773	
702.5	0.3731192898	0.01575723327	
703.125	0.2368816367	0.2061191193	
703.75	0.4742185664	-0.1403559169	
704.375	0.1194175075	-0.2758145003	
705.0	0.2043167457	0.03412722304	
705.625	0.3479560639	-0.06612389446	
706.25	0.139212999	0.1703654453	
706.875	0.1692193702	0.339542099	
707.5	0.363045745	0.336088821	
708.125	0.3839569394	0.08803461515	
708.75	0.1604543145	-0.2827796362	
709.375	-0.2581765573	-0.3040946214	
710.0	-0.07320072635	0.2318201142	
710.625	-0.08554171667	0.008071902496	
711.25	0.2616134173	0.1698679454	
711.875	0.04894690401	0.07299227417	
712.5	0.3742701953	0.02995221994	
713.125	0.183228229	-0.275175396	
713.75	0.08776218921	-0.08970153285	
714.375	0.07044845198	-0.2954167207	
715.0	-0.1250453056	-0.1529101261	
715.625	0.08088207323	-0.1095894226	
716.25	0.1931923242	-0.3373828323	
716.875	0.2153973288	-0.2120376737	
717.5	0.4161506443	0.1125840737	
718.125	0.7530140935	-0.01517613632	
718.75	0.6235787549	-0.2442529162	
719.375	0.6436283834	-0.1365611953	
720.0	1.085678876	-0.9073151266	
720.625	-0.1072444369	-0.6870460046	
721.25	0.4659927484	-0.5691065486	
721.875	-0.4441233701	-1.322426073	
722.5	-0.4861523367	-0.2026215956	
723.125	-0.7515090405	-0.3609541711	
723.75	-0.3140832348	0.6489706392	
724.375	0.07103577833	0.1718363684	
725.0	0.04214180739	0.5211802505	
725.625	0.4102290646	0.3133012564	
726.25	-0.1091980728	0.3819438296	
726.875	-0.1879195162	0.989186234	
727.5	0.2676356799	1.352613862	
728.125	-0.05117467671	0.9810739788	
728.75	-0.7195055633	2.757294469	
729.375	0.4509385653	3.235581555	
730.0	-0.08328165275	1.781483654	
730.625	-1.510079793	3.895495474	
731.25	0.6370571346	3.545743245	
731.875	-1.229264426	0.5740782153	
732.5	-3.460665213	0.6985504958	
733.125	-2.036802226	1.769879413	
733.75	-0.5389850496	0.253525225	
734.375	1.256813705	0.9603108678	
735.0	-0.4246427197	-0.3520999507	
735.625	-0.3069460925	-0.1728257748	
736.25	-0.07648229243	0.8032450273	
736.875	0.4062764941	-0.1061664498	
737.5	0.7227283128	0.7545610576	
738.125	1.663122318	-0.9538227239	
738.75	0.5533582165	-1.178313704	
739.375	1.561704608	0.3469858043	
740.0	4.273740784	-2.132032127	
740.625	-0.6169608782	-2.234901222	
741.25	-2.899536762	3.089892486	
741.875	-2.340128852	3.314265182	
742.5	0.7512804731	-0.1997203109	
743.125	0.9890868693	-2.359652817	
743.75	-0.5425509256	-1.006609115	
744.375	-0.1077240931	0.002775049487	
745.0	-0.07579193852	0.2633123214	
745.625	-0.1167839261	-0.07473953048	
746.25	0.06228392617	-0.1564055664	
746.875	-0.2468205847	0.09355927418	
747.5	-0.01269574699	0.1335681856	
748.125	-0.01378381971	0.4906593765	
748.75	0.4232054759	0.3568599561	
749.375	0.09978127791	0.256961888	
750.0	-0.3837192626	0.1474773813	
