!Created with skrf (http://scikit-rf.org).
# GHz S RI R (50+0j) 
!freq	ReS11	ImS11	
500.0	0.00637815979	-0.4057940777	
500.625	0.5119177802	-0.9461647289	
501.25	-0.7017877434	-0.3258286457	
501.875	-0.005195969375	-0.2883604613	
502.5	-0.08135559235	-0.1693567402	
503.125	-0.02305560228	0.02099597068	
503.75	-0.03438205142	0.09998812912	
504.375	0.02517102933	-0.03371531397	
505.0	0.02716902513	0.01387816265	
505.625	-0.01476680059	-0.08248679598	
506.25	0.009495687877	0.03899178154	
506.875	-0.2611178628	-0.1175093216	
507.5	-0.1228526011	0.04928466957	
508.125	0.4322528102	-0.5556365001	
508.75	0.4150937657	-1.09240214	
509.375	-0.2974494988	-0.6043058879	
510.0	-0.2790470576	-0.3777165355	
510.625	-0.1827330222	-0.18640408	
511.25	-0.02034034083	-0.02274415542	
511.875	-0.1020235783	-0.05104231383	
512.5	-0.001931019994	0.01692134047	
513.125	0.0262036139	-0.01688424417	
513.75	-0.06486313049	-0.08319120804	
514.375	-0.02912608169	0.07585398594	
515.0	0.06744825377	-0.2581372257	
515.625	-0.01003499957	0.3056332201	
516.25	0.3140898953	-0.8335081362	
516.875	-0.398837089	-0.46444142	
517.5	-0.001471969731	-0.0104289737	
518.125	-0.06215409999	-0.06445489953	
518.75	-0.08385341472	-0.02099739657	
519.375	-0.05736168335	0.01592914193	
520.0	0.1173487575	0.06345074422	
520.625	0.1140487749	-0.02606917977	
521.25	0.009800058567	-0.1395571951	
521.875	-0.179011245	-0.09741762766	
522.5	-0.009908758149	0.08161670181	
523.125	-0.049554466	-0.05927508062	
523.75	-0.1525811392	0.08384855915	
524.375	0.003822032275	-0.01022983636	
525.0	-0.1646527017	0.1675767886	
525.625	0.1255844721	-0.0147011063	
526.25	-0.08150462988	0.02869938756	
526.875	0.01171220262	0.008166550223	
527.5	-0.1091073229	0.09359183176	
528.125	0.1529118588	0.1625321736	
528.75	0.07487050868	0.08381438957	
529.375	0.02803154817	0.05393658386	
530.0	0.04506764361	0.09866838039	
530.625	0.009829588485	0.1790500307	
531.25	0.4609416907	0.1564496292	
531.875	0.2498703009	-0.2664876698	
532.5	0.03215454523	-0.02145371629	
533.125	0.07462870396	-0.2445825769	
533.75	0.1114160573	-0.03904223202	
534.375	-0.07508908653	-0.3647096446	
535.0	-0.1829916964	-0.001707226339	
535.625	-0.123389135	0.03032796653	
536.25	0.004945371925	0.1155555821	
536.875	0.05289923956	-0.02638404757	
537.5	0.08544107328	-0.01608286718	
538.125	0.07575434136	-0.1125483996	
538.75	0.08669296457	-0.05084916731	
539.375	-0.07213868507	-0.1660216657	
540.0	-0.1886020333	-0.0657458668	
540.625	-0.09851551923	-0.0265441425	
541.25	-0.1151245768	-0.01499055539	
541.875	-0.07128736501	0.02612106104	
542.5	0.01256835191	-0.06409491463	
543.125	-0.1460235342	-0.02357473284	
543.75	-0.01010909645	-0.006983027884	
544.375	-0.1146027907	0.05003839889	
545.0	0.03251167357	0.01287360631	
545.625	-0.01894214379	0.1212378769	
546.25	0.1349076277	-0.0110243612	
546.875	0.05398510387	0.00444211921	
547.5	0.1008932482	-0.1370230611	
548.125	-0.1049085322	-0.1192736252	
548.75	-0.05329950537	-0.08288238311	
549.375	-0.1263330961	-0.100580326	
550.0	-0.04737612921	0.05080414294	
550.625	-0.0506977218	-0.02980111799	
551.25	-0.05920458563	0.06085486098	
551.875	-0.04639210071	0.03625486309	
552.5	-0.05069757113	0.08728796462	
553.125	0.01152210319	0.05339946409	
553.75	0.03679256508	0.0481659174	
554.375	0.08848615288	-0.0130870465	
555.0	0.08097420839	-0.06111967159	
555.625	0.08114961953	-0.09652414306	
556.25	0.05147583538	-0.1301258379	
556.875	-0.03855319704	-0.13551274	
557.5	-0.08804125872	-0.08920785102	
558.125	-0.1114150127	-0.03247370675	
558.75	-0.09863435587	0.007873783645	
559.375	-0.09604745818	0.01590561054	
560.0	-0.09137367865	0.07996980148	
560.625	-0.02046867037	0.1004647844	
561.25	-0.01451727671	0.08170488577	
561.875	0.05502482515	0.04987605684	
562.5	-0.01731520408	0.02899512378	
563.125	0.09391965345	0.09027373994	
563.75	0.1070246013	-0.03412519804	
564.375	0.1177529847	-0.04574241936	
565.0	0.06604380748	-0.1778327712	
565.625	-0.07143920109	-0.08688864964	
566.25	-0.07213000041	-0.1345248211	
566.875	-0.171102138	-0.03078468095	
567.5	-0.04475885914	-0.06170253789	
568.125	-0.1624495784	-0.2144178269	
568.75	-0.1970848232	0.03566168249	
569.375	-0.1704006307	0.01178029341	
570.0	-0.1516707367	0.2803728382	
570.625	0.0578035912	0.1334990387	
571.25	-0.06656546668	0.07622842068	
571.875	0.1317541083	0.06491987135	
572.5	0.009545183075	0.02378495019	
573.125	0.1697906509	-0.1389682823	
573.75	-0.06309619761	-0.1303929875	
574.375	0.05497510842	0.01591242097	
575.0	0.006196539872	-0.1280294518	
575.625	0.01683757549	0.02011620146	
576.25	0.1078067893	-0.12668685	
576.875	-0.08514625097	-0.1562651142	
577.5	0.0009512309286	-0.05980359601	
578.125	0.04709876741	-0.216771744	
578.75	-0.1902751355	-0.09147159714	
579.375	0.002440147596	-0.003901875977	
580.0	-0.124832753	-0.1477831294	
580.625	0.01092548465	0.09240918371	
581.25	-0.1712880858	-0.02147508872	
581.875	0.1041754517	0.2268722791	
582.5	0.04425241415	-0.02029034741	
583.125	-0.005714163968	0.127734088	
583.75	0.1472667085	-0.04809015733	
584.375	-0.07747947487	0.07257663946	
585.0	0.1929451187	0.06710185611	
585.625	0.06960639589	-0.0675354472	
586.25	0.1591881717	0.03075343907	
586.875	0.06043325916	-0.2152548642	
587.5	-0.01836639122	-0.04566925894	
588.125	0.04737417179	-0.1580244138	
588.75	-0.03744650296	-0.1754724408	
589.375	0.02475164258	-0.04123011831	
590.0	-0.03276583467	-0.2524046534	
590.625	-0.1792597346	0.05964433805	
591.25	-0.06805456334	-0.0292163741	
591.875	-0.1104191438	0.1805174797	
592.5	0.1096124218	0.008029890801	
593.125	-0.1184165377	0.1070772353	
593.75	0.1066101051	-0.0347788531	
594.375	0.04329970025	0.1199269034	
595.0	0.2423051405	0.1164467392	
595.625	0.1587492508	-0.04009116922	
596.25	0.146770403	0.1253285244	
596.875	0.211494473	-0.002421967647	
597.5	0.09491693294	-0.001068759166	
598.125	0.09292871518	0.1572720195	
598.75	0.2346378726	0.03614401384	
599.375	0.1180444732	-0.04259411065	
600.0	0.1710469726	-0.1154963123	
600.625	0.1165380886	-0.2275770599	
601.25	-0.03940988519	-0.1250082096	
601.875	-0.006620311156	-0.1859700692	
602.5	-0.1677859984	0.06109161726	
603.125	-0.02597084604	-0.008170749057	
603.75	-0.2258610773	0.1088284669	
604.375	0.01050253145	0.1347079841	
605.0	-0.09437269869	-0.01953255537	
605.625	-0.02272627005	0.1787607504	
606.25	-0.03717276747	-0.00416643879	
606.875	-0.2200548787	0.09100942068	
607.5	-0.08388973765	0.2266371759	
608.125	-0.0560638859	0.2050467019	
608.75	0.1951720352	0.1453932018	
609.375	0.2297811234	-0.1137413495	
610.0	0.07458337125	-0.04921736577	
610.625	0.08405296931	-0.1233918419	
611.25	-0.06834844649	-0.1633475831	
611.875	-0.0002108855475	-0.06921223804	
612.5	-0.2233440722	-0.1132595143	
613.125	-0.1033508051	0.1440083876	
613.75	-0.1164261652	0.02696688267	
614.375	0.1029463243	0.1964265419	
615.0	0.01965194181	-0.08090676224	
615.625	-0.06181157301	0.1873043428	
616.25	0.06349098857	0.07341573785	
616.875	-0.1427449301	0.156133486	
617.5	-0.07252044809	0.2849136715	
618.125	0.07397015363	0.1640228168	
618.75	-0.01975970857	0.1371844076	
619.375	0.0492476817	0.1245933318	
620.0	0.1712580472	-0.006751695691	
620.625	0.06398630175	-0.09380251886	
621.25	-0.1215203009	-0.2313481437	
621.875	-0.2801791446	0.05019476025	
622.5	-0.1669146771	-0.01456987216	
623.125	-0.02786478924	0.2488199105	
623.75	0.1047231667	-0.05835030995	
624.375	0.07339650231	0.04586508805	
625.0	-0.02830403046	-0.08892808604	
625.625	0.08497545857	-0.01658509535	
626.25	-0.05981290194	-0.1866140981	
626.875	-0.1403265703	0.003448672472	
627.5	-0.07395469355	-0.08433899683	
628.125	-0.1675897086	-0.06295052756	
628.75	-0.07349413475	-0.07574683074	
629.375	-0.05148879508	-0.1744486898	
630.0	-0.1924940873	-0.1425448095	
630.625	-0.1550535167	0.0798244524	
631.25	-0.1522022807	0.1236227196	
631.875	-0.005301457873	0.2892342018	
632.5	0.1476262341	0.0856031972	
633.125	0.1419981875	0.115679292	
633.75	0.1918665526	-0.1476758282	
634.375	0.01831280884	-0.04832777011	
635.0	0.06975736126	-0.222690737	
635.625	-0.1837340671	-0.003948485376	
636.25	-0.08111876937	-0.006730136857	
636.875	-0.1564987151	0.1674422258	
637.5	0.06108022702	0.0723727952	
638.125	-0.1387530542	0.01860442787	
638.75	-0.02534469051	0.2409253465	
639.375	0.02781291966	0.1137632291	
640.0	0.0684364873	0.2975859823	
640.625	0.3103430902	0.1376965913	
641.25	0.1758423438	-0.04786732659	
641.875	0.2115001274	-0.071250603	
642.5	-0.05528545603	-0.3049778408	
643.125	-0.0601012529	0.006235698925	
643.75	-0.09985018253	-0.2017384011	
644.375	-0.234320978	0.1955270396	
645.0	-0.0853278997	-0.02167695462	
645.625	0.009482360844	0.4810596275	
646.25	0.2206388308	-0.1025390804	
646.875	-0.001025500798	0.09509726294	
647.5	0.1868784809	-0.04923369055	
648.125	-0.08000469264	0.07758857706	
648.75	0.3987641112	-0.02567688236	
649.375	0.08679302668	-0.3271587889	
650.0	0.1030325404	-0.127477391	
650.625	0.3062575749	-0.2949938972	
651.25	0.03004667763	-0.3313461859	
651.875	0.1749570962	0.006192720603	
652.5	0.4016628747	-0.1194470194	
653.125	0.1501484619	-0.2093902324	
653.75	0.1900235281	-0.0627674608	
654.375	-0.06213764321	-0.4160505024	
655.0	-0.2629349101	0.05184834166	
655.625	-0.08793676871	-0.03226482863	
656.25	-0.01963573017	0.3188661892	
656.875	0.1056944218	-0.1020787658	
657.5	-0.06047880294	0.3164436965	
658.125	0.2492967352	0.05974549483	
658.75	0.03348574582	0.09526928401	
659.375	0.4784361511	-0.06130647884	
660.0	0.05984083138	-0.3935932158	
660.625	0.1174084774	-0.1499049601	
661.25	0.2401346764	-0.336795334	
661.875	0.1101721447	-0.3413591807	
662.5	0.1538562918	-0.03535733558	
663.125	0.3652405446	-0.2275807733	
663.75	0.002232048143	-0.2685387827	
664.375	0.05191365037	-0.2290167694	
665.0	-0.3088741619	-0.2705746583	
665.625	-0.2176534998	0.1904031026	
666.25	-0.1255565483	0.1377381562	
666.875	0.1385611337	0.2814187388	
667.5	0.1708739721	-0.04331526773	
668.125	0.1562954921	0.1651444294	
668.75	0.2263894095	-0.2659234916	
669.375	-0.004221623445	-0.1217904374	
670.0	0.1497446461	-0.206211713	
670.625	-0.141102638	-0.2940995026	
671.25	0.0542869919	0.01160408372	
671.875	0.2274633851	-0.234540829	
672.5	0.08158309074	-0.1818003358	
673.125	0.1485283497	-0.06141814408	
673.75	0.2575625921	-0.2297782275	
674.375	-0.0817715175	-0.2625743323	
675.0	0.01358801151	-0.1433502852	
675.625	-0.2331950961	-0.1979412168	
676.25	-0.1751620055	0.09325792086	
676.875	-0.04426314912	-0.0871498221	
677.5	-0.2398319142	0.08244629313	
678.125	-0.001084582992	0.1159862335	
678.75	-0.1080793562	0.1739469387	
679.375	0.352371974	0.1140248255	
680.0	-0.1036284381	-0.1495753673	
680.625	0.1756796522	0.05212721049	
681.25	0.07102031699	-0.2770329444	
681.875	-0.08074140486	0.113012767	
682.5	0.3212836307	0.2402980148	
683.125	0.07849679574	-0.1966397788	
683.75	0.1409968889	0.2374622504	
684.375	0.3974413796	0.0393117689	
685.0	0.213127473	-0.1484290684	
685.625	0.2827509313	0.203718445	
686.25	0.4200194381	-0.1229419841	
686.875	0.1828527676	-0.1137995135	
687.5	0.308155393	-0.1329323878	
688.125	-0.1108812372	-0.4846352413	
688.75	-0.2803092259	0.01103846571	
689.375	-0.2752882226	0.1895366839	
690.0	0.1708083443	0.450594702	
690.625	0.1758712529	0.03316978574	
691.25	0.2173092211	0.4527198178	
691.875	0.6116286435	0.04110061714	
692.5	0.3102022112	0.1702464134	
693.125	0.7122845315	0.1155184842	
693.75	0.3324541895	-0.5032466741	
694.375	0.3489892417	-0.08407448109	
695.0	0.4829317583	-0.5263641936	
695.625	0.3497290571	-0.1971696448	
696.25	0.2947276295	0.1575403771	
696.875	0.4147208553	0.445616889	
697.5	0.3237329759	0.3181023303	
698.125	0.3763068419	0.250652067	
698.75	0.5132357242	-0.3613333001	
699.375	-0.497875555	-0.2757374405	
700.0	-0.1047769284	0.2776703509	
700.625	0.1125592972	0.4119518457	
701.25	0.2296624642	0.008383981669	
701.875	0.1010466852	0.2670457345	
702.5	0.5000581948	0.299122101	
703.125	0.2948195276	-0.07380693689	
703.75	0.3222493845	0.06095428095	
704.375	0.306311657	-0.2860979817	
705.0	0.06376462674	-0.1166892504	
705.625	0.3314123286	-0.01625216584	
706.25	0.2996900435	0.0525393495	
706.875	0.178678518	0.288755181	
707.5	0.2075767496	0.4026854487	
708.125	0.3479293714	0.2912915018	
708.75	0.1990677202	-0.2659536178	
709.375	-0.1393789443	-0.2635175402	
710.0	-0.1744970716	0.2752008643	
710.625	0.1538805722	-0.01132260844	
711.25	0.0660389067	0.2425802937	
711.875	0.2864558059	-0.1066322641	
712.5	0.2186003126	0.09829006754	
713.125	0.35912646	-0.2279629618	
713.75	0.00457077605	-0.2474491658	
714.375	0.1014795162	-0.1308486979	
715.0	-0.06160035097	-0.2799259772	
715.625	-0.05323814767	-0.1130650458	
716.25	0.2149184628	-0.1415691995	
716.875	0.3136453987	-0.3087336935	
717.5	0.2974948016	-0.0664123097	
718.125	0.6406315226	0.2237816109	
718.75	0.806746028	0.002734219196	
719.375	0.4222133513	-0.3382020828	
720.0	0.7306925365	-0.5680730898	
720.625	0.06284372136	-1.371305505	
721.25	-0.1803381879	-0.1326399631	
721.875	0.02935002902	-1.081210736	
722.5	-1.001808498	-0.5917912154	
723.125	-0.3484097519	-0.1406769304	
723.75	-0.7586144615	0.4748271828	
724.375	0.2519856163	0.3765693677	
725.0	-0.006668762568	0.2399998	
725.625	0.2178175912	0.5881575587	
726.25	0.2780825701	0.4363292457	
726.875	-0.2830365898	0.6071672859	
727.5	-0.1300242222	1.449464154	
728.125	0.6299381099	1.487498336	
728.75	-0.7385948513	1.547798862	
729.375	-1.083150236	4.025622851	
730.0	1.018930093	2.679698687	
730.625	-1.13554946	2.554046411	
731.25	-1.140334605	4.574930848	
731.875	-0.05136035748	2.706595851	
732.5	-2.792110104	-0.6546058563	
733.125	-2.867585079	0.7086578	
733.75	0.1715924671	1.17268066	
734.375	0.01442668562	0.7612245963	
735.0	-0.1714120003	-0.9911352397	
735.625	-0.09661663147	0.1106289615	
736.25	-0.3474095015	0.5718539659	
736.875	0.7569491396	0.4196928453	
737.5	0.2830298252	0.01094398491	
738.125	1.770452994	0.06854706693	
738.75	1.236683999	-2.006439633	
739.375	0.3655255854	-0.9203424586	
740.0	3.397804788	1.203169242	
740.625	5.062649429	-2.664476926	
741.25	-1.801311687	-1.34312237	
741.875	-5.091854145	0.5700261261	
742.5	-2.448807611	-0.3532627487	
743.125	1.130454079	-0.7001994038	
743.75	-0.02218176936	-1.335351734	
744.375	-0.353157798	0.1266705201	
745.0	-0.1616177991	-0.01214397603	
745.625	0.09858814244	-0.1231797612	
746.25	0.06881392826	-0.06243199505	
746.875	-0.2964552111	0.01147265796	
747.5	0.05793808252	0.3058639288	
748.125	0.03923860905	0.290438214	
748.75	0.2107176655	0.5013624944	
749.375	0.255041903	0.3754585701	
750.0	-0.2914081933	0.1228921393	
