!Created with skrf (http://scikit-rf.org).
# GHz S RI R (50+0j) 
!freq	ReS11	ImS11	
500.0	-0.7815203683	-1.739710373	
500.625	0.8074850719	-1.790626861	
501.25	-2.052390002	-2.540240459	
501.875	-1.960765945	-1.078513992	
502.5	-0.01525579723	-0.152414389	
503.125	-0.4247308328	0.07473780002	
503.75	0.1513252768	-0.04069216686	
504.375	0.1716247103	0.04117187847	
505.0	-0.09866913928	-0.07644665435	
505.625	0.2716043693	-0.2667408206	
506.25	-0.6258775572	0.1305231378	
506.875	0.238855292	-0.5890711438	
507.5	-0.8416897005	-2.193988794	
508.125	-1.193834981	-1.323507451	
508.75	3.234593259	-2.549840314	
509.375	-3.803656387	-4.784561886	
510.0	-0.7343752303	-0.5740637132	
510.625	-1.085398112	-0.9736504772	
511.25	-0.09567078691	0.03461652478	
511.875	-0.4709639311	-0.2737917989	
512.5	-0.05735501167	0.2161672125	
513.125	-0.1199258229	-0.2246973369	
513.75	0.02226104227	-0.1068809523	
514.375	-0.5785314093	-0.3611861513	
515.0	0.843680189	1.212138462	
515.625	-1.523965244	-2.745682743	
516.25	-0.3398714869	0.7829450754	
516.875	0.2537783185	-2.817734177	
517.5	-1.093255218	-0.4134627633	
518.125	0.286912637	-0.2639191055	
518.75	-0.8284472282	-0.5966726709	
519.375	-0.1014365126	0.02761068992	
520.0	0.4271003133	0.3508105343	
520.625	0.4710686873	-0.412774957	
521.25	-0.01183738384	-0.4503716725	
521.875	-0.5825770357	-0.2265441222	
522.5	0.03006754325	0.06664647583	
523.125	-0.242409382	0.1305622629	
523.75	-0.01388868785	-0.1400577136	
524.375	-0.7027249338	0.2770241643	
525.0	0.1126279475	-0.00352950658	
525.625	-0.06252592711	0.3018039153	
526.25	0.05032363178	-0.2605648943	
526.875	-0.1878669787	0.3606373533	
527.5	0.1051812919	0.2601947316	
528.125	-0.2891818091	0.9858243981	
528.75	0.5496362124	0.9104830776	
529.375	-0.1578005703	0.1309469302	
530.0	0.3606114874	0.4255566558	
530.625	-0.2852692004	1.088892741	
531.25	1.617321361	-0.07904047401	
531.875	0.4097742128	-0.2358096962	
532.5	-0.1733880987	-0.5938427192	
533.125	0.3282661731	0.3838176986	
533.75	0.1698590494	-0.8137139815	
534.375	-0.04685429438	-0.3925818403	
535.0	-1.063334859	-0.7143892257	
535.625	-0.1582075001	0.4689308848	
536.25	-0.1022950038	0.1749303177	
536.875	0.3716279727	0.08336451472	
537.5	0.04221489542	-0.128781053	
538.125	0.5139870905	-0.06486871645	
538.75	0.1364241355	-0.4143633451	
539.375	0.01388908119	-0.3891237163	
540.0	-0.6067814215	-0.5253869627	
540.625	-0.2824815769	0.1362982495	
541.25	-0.189759178	-0.07524527121	
541.875	-0.1604993407	-0.09961205768	
542.5	-0.1714466454	-0.01552978861	
543.125	-0.02204952166	-0.2671605304	
543.75	-0.4297243736	0.1011116897	
544.375	0.01380452613	-0.07527704489	
545.0	-0.02210142706	0.3621933409	
545.625	0.05207339605	-0.08508221566	
546.25	0.3480839661	0.4156290632	
546.875	0.1766407499	-0.3402264284	
547.5	0.2755975504	-0.0564339367	
548.125	-0.07456466524	-0.6478801393	
548.75	-0.4157039585	-0.109055734	
549.375	-0.08329591979	-0.2316552068	
550.0	-0.3628024932	0.04423245369	
550.625	0.02366252353	-0.02494099332	
551.25	-0.3517122848	0.09971923021	
551.875	-0.03634861363	0.1681169804	
552.5	-0.2160618642	0.1544383311	
553.125	-0.003123653616	0.2023900409	
553.75	0.08798929276	0.1099815086	
554.375	0.2586743517	0.03533655359	
555.0	0.2460702605	-0.1901377973	
555.625	0.2190977917	-0.2463001641	
556.25	0.1918471979	-0.3540071603	
556.875	-0.08180595914	-0.4132940274	
557.5	-0.2346967121	-0.2609969682	
558.125	-0.2808183176	-0.1209275481	
558.75	-0.2946535039	-0.005988477139	
559.375	-0.2364224655	0.05496606638	
560.0	-0.2706768558	0.143711165	
560.625	-0.1222057706	0.3319089451	
561.25	0.03660604495	0.1547446011	
561.875	0.05659229611	0.2150472528	
562.5	0.02928765407	0.006528044913	
563.125	0.1649667404	0.3197966898	
563.75	0.3532174509	-0.1339950444	
564.375	0.2433392262	-0.05284442571	
565.0	0.3122860156	-0.4499239513	
565.625	-0.1952044429	-0.3536256965	
566.25	-0.1359658408	-0.2131153865	
566.875	-0.40412457	-0.3436982743	
567.5	-0.4026154538	-0.07412914108	
568.125	-0.1605486511	-0.5150814172	
568.75	-0.7722413783	-0.159744167	
569.375	-0.3539563002	0.1778188283	
570.0	-0.6045365072	0.4524955294	
570.625	0.07674008866	0.667037992	
571.25	-0.1007750665	-0.06392530968	
571.875	0.3026797262	0.5464288834	
572.5	0.04978992813	-0.2330783394	
573.125	0.4753389801	-0.003795424054	
573.75	0.04761826898	-0.5961611474	
574.375	-0.0719876295	0.1485718926	
575.0	0.2747173544	-0.3766322891	
575.625	-0.1493320512	0.06985643824	
576.25	0.4519553168	-0.2538089461	
576.875	-0.2033180421	-0.5483762247	
577.5	-0.07959896843	-0.105005327	
578.125	0.1480052625	-0.4487838046	
578.75	-0.4043839744	-0.4628270779	
579.375	-0.1555730393	0.07556467846	
580.0	-0.01557267396	-0.332745511	
580.625	-0.2325003875	0.1948866765	
581.25	-0.2346087995	-0.167144732	
581.875	-0.07573940615	0.7077898577	
582.5	0.4521460487	0.1768406269	
583.125	-0.2550129239	0.03964014758	
583.75	0.5619956775	0.3421436893	
584.375	-0.3261448398	-0.1148492713	
585.0	0.5702072973	0.4110369187	
585.625	0.1951897195	-0.3205114186	
586.25	0.4403014131	0.2685602075	
586.875	0.1865916534	-0.6776170128	
587.5	-0.07918776156	-0.03756329028	
588.125	0.246695779	-0.4408104498	
588.75	-0.09130292192	-0.5991286504	
589.375	0.04232310118	-0.1035260389	
590.0	0.09270286198	-0.5918307771	
590.625	-0.5526375856	-0.02728173461	
591.25	-0.1975163186	0.1507614821	
591.875	-0.2716661933	0.3176819626	
592.5	0.2173302045	0.07657186066	
593.125	-0.2312384689	0.2212219868	
593.75	0.2719936647	0.2211212468	
594.375	0.08824135016	0.162214245	
595.0	0.4190504584	0.6763558105	
595.625	0.7735861666	-0.2215938796	
596.25	-0.04668820583	0.2884976943	
596.875	0.7674091394	0.2136737449	
597.5	0.1728630111	-0.1080856132	
598.125	0.3250993133	0.6907951878	
598.75	0.5059317221	-0.1122035391	
599.375	0.3102233872	0.19392953	
600.0	0.6792704619	-0.4196151302	
600.625	0.1867617788	-0.5522530418	
601.25	0.221207456	-0.2346870588	
601.875	-0.08149523536	-0.4561782567	
602.5	-0.3434597409	-0.05042395218	
603.125	-0.2032859434	0.1550810401	
603.75	-0.327212273	0.04286564982	
604.375	-0.329862741	0.3278135069	
605.0	-0.07744632394	0.02253394694	
605.625	-0.3273041894	0.2581439645	
606.25	-0.04993340682	0.1101071632	
606.875	-0.7142961585	-0.09175354906	
607.5	-0.2208940575	0.7945917317	
608.125	-0.1907326306	0.1906236594	
608.75	0.4762129565	0.8794291864	
609.375	0.2453589155	-0.3500941643	
610.0	0.5803775272	0.05283274059	
610.625	0.2103439594	-0.6202054	
611.25	0.04063889869	-0.08061708513	
611.875	-0.4334897373	-0.5845946877	
612.5	-0.2318185716	-0.02700613358	
613.125	-0.5835210111	-0.09802702395	
613.75	-0.00202348133	0.5155753896	
614.375	-0.1382744469	0.2576850681	
615.0	0.3786846029	0.05360158672	
615.625	-0.3212248366	0.1451588937	
616.25	0.07450267695	0.6221105004	
616.875	-0.1250291502	0.1139355027	
617.5	-0.4523714787	0.7081553143	
618.125	0.2420131397	0.5494230669	
618.75	-0.2367098636	0.2948642315	
619.375	0.3857844445	0.583265492	
620.0	0.2559920195	0.02339705272	
620.625	0.4589531283	-0.3728543946	
621.25	-0.2161435347	-0.3231672242	
621.875	-0.4623519085	-0.3896330478	
622.5	-0.5023863425	0.2009282888	
623.125	-0.2240743209	0.3139929464	
623.75	0.5465237276	0.1526045418	
624.375	-0.1593828707	0.005172830761	
625.0	0.4131117046	-0.4990422946	
625.625	-0.06192546272	0.1381754624	
626.25	0.1155188371	-0.5667219539	
626.875	-0.564127602	-0.05631772148	
627.5	0.01963990475	-0.1995567597	
628.125	-0.5274739905	-0.3254439482	
628.75	-0.09908269433	-0.03396405962	
629.375	-0.0796750729	-0.6197660444	
630.0	-0.6395098583	-0.1080906284	
630.625	-0.285463946	-0.006832470203	
631.25	-0.5731365289	0.3928008162	
631.875	-0.0256267869	0.6683376905	
632.5	0.3889997395	0.4686711998	
633.125	0.3484500711	0.1578985703	
633.75	0.646299286	-0.07004355646	
634.375	-0.03236176404	-0.2330434722	
635.0	0.1740646644	-0.3906749751	
635.625	-0.5686456328	-0.1320348686	
636.25	-0.1879194523	-0.1072712351	
636.875	-0.4040182956	0.4814160883	
637.5	0.2556621292	0.1817767015	
638.125	-0.554523497	-0.09839617392	
638.75	-0.09680000937	0.8280686	
639.375	0.1374309589	0.1779332233	
640.0	-0.04708605805	0.7854378958	
640.625	0.8827484389	0.4028018872	
641.25	0.3262318569	-0.08679509604	
641.875	0.9529880986	-0.3414308905	
642.5	-0.3611539367	-0.4129803048	
643.125	0.1599616297	-0.2935225612	
643.75	-0.6551111219	-0.4297990125	
644.375	-0.1970369838	0.3321059649	
645.0	-0.4258609074	-0.05869308692	
645.625	0.006278029184	0.8552779916	
646.25	0.5892217612	-0.01932363462	
646.875	-0.181862794	0.1274272628	
647.5	0.7110919533	-0.09233903853	
648.125	-0.1526937814	0.4237545027	
648.75	1.17205287	-0.1878928421	
649.375	0.04950733453	-0.8033019108	
650.0	0.6002515941	0.05961727507	
650.625	0.9260615891	-1.367954033	
651.25	-0.3583989681	-0.578821402	
651.875	0.7696312773	0.3528559427	
652.5	1.183785751	-0.5651001539	
653.125	0.1311781852	-0.3825624567	
653.75	1.055927606	-0.2332787026	
654.375	-0.4453343939	-0.9889062471	
655.0	-0.2259104021	-0.003802140542	
655.625	-0.901579938	0.006088584311	
656.25	0.4740879518	0.8178216376	
656.875	-0.192865776	-0.1778960987	
657.5	0.1542774016	0.5677847121	
658.125	0.4595690899	0.1532762249	
658.75	0.251657056	0.410880602	
659.375	1.267349104	-0.4088178524	
660.0	0.1723205718	-0.7028974677	
660.625	0.5687360802	-0.4097235899	
661.25	0.8051324349	-1.104340303	
661.875	-0.1768948059	-0.6533186285	
662.5	0.892038883	0.2126982397	
663.125	0.9774405659	-0.9068970252	
663.75	-0.02973296429	-0.4132121987	
664.375	0.4853245044	-0.9000549679	
665.0	-1.059383103	-0.3130674659	
665.625	-0.411933151	-0.1817778088	
666.25	-0.6211136341	0.8572924597	
666.875	0.5715713059	0.4033525277	
667.5	-0.01234794424	0.2534257968	
668.125	0.8726539958	0.1556627065	
668.75	0.3290899599	-0.5110131439	
669.375	0.2027090997	-0.2790068219	
670.0	0.2743354015	-0.6771749757	
670.625	-0.288355241	-0.383560271	
671.25	0.380723572	-0.3445630928	
671.875	0.3213187624	-0.5890497089	
672.5	0.2120736667	-0.2582683268	
673.125	0.8435091964	-0.1277210537	
673.75	0.4304147635	-1.002221446	
674.375	-0.2123379828	-0.2043492336	
675.0	0.3666014772	-0.7612813246	
675.625	-0.9214915561	-0.5232354818	
676.25	0.1078848753	0.1880831856	
676.875	-0.8830055219	-0.3620076389	
677.5	0.02800209432	0.3659764997	
678.125	-0.7118385491	-0.1639678276	
678.75	0.4699640365	1.010196872	
679.375	0.09266783341	-0.07736196812	
680.0	0.4533716197	0.1676667492	
680.625	0.4432529517	-0.4595899867	
681.25	-0.2181441069	-0.1418947509	
681.875	0.3866199214	0.5372605047	
682.5	0.727067533	0.07693958963	
683.125	0.4269095871	0.0336661599	
683.75	0.4580775694	0.5548356002	
684.375	1.078390132	-0.173932953	
685.0	0.1229202204	0.2305015911	
685.625	1.110744048	0.3391575256	
686.25	0.6807257922	-0.7229619322	
686.875	0.3557044083	0.6671377058	
687.5	1.616211205	-1.356480365	
688.125	-0.7236886926	-0.413583655	
688.75	-0.4835509021	-1.350943767	
689.375	-0.9263151075	1.368139528	
690.0	0.1418122774	0.2135610252	
690.625	0.7419496699	1.371584736	
691.25	0.5992117266	0.1952723528	
691.875	0.7394721628	1.055616167	
692.5	1.738732862	0.6275711874	
693.125	1.39248168	-0.1642485973	
693.75	1.381539208	-0.413069783	
694.375	1.077552308	-0.7904752285	
695.0	1.478767208	-0.5944252817	
695.625	0.9911037145	-0.4536450659	
696.25	0.9055118725	0.9455514621	
696.875	1.690217789	0.9903615704	
697.5	0.3811758434	0.7689666418	
698.125	1.818199471	1.566028112	
698.75	0.642807305	-1.5187456	
699.375	0.1971761388	-1.135215913	
700.0	-1.248112274	1.370830823	
700.625	0.4754925914	0.2244745132	
701.25	0.5311830982	1.180170843	
701.875	0.6074373379	0.02671374937	
702.5	0.4805222091	0.9958278886	
703.125	1.432265213	0.1484456033	
703.75	0.4823727796	0.03433705318	
704.375	1.10463593	-0.5712405592	
705.0	0.2554913163	-0.4350146048	
705.625	0.8834324528	0.7102454246	
706.25	1.000000865	0.01167652784	
706.875	0.02978924573	0.7042371522	
707.5	0.9280015331	1.43289217	
708.125	0.8436955073	-0.1047286022	
708.75	1.259628835	-0.3452478872	
709.375	-1.050493989	-0.9684612919	
710.0	-0.2520468673	0.1743233752	
710.625	-0.06414333255	0.785179823	
711.25	0.2798833884	0.001084404906	
711.875	0.4286868396	0.5139267446	
712.5	0.6985680769	-0.06187252226	
713.125	0.9892381266	-0.2357659137	
713.75	0.129323784	-0.7972719582	
714.375	0.3832363295	-0.1879995343	
715.0	-0.3151691861	-0.9008995972	
715.625	-0.04056742459	-0.07643590485	
716.25	1.178789732	-0.8891201198	
716.875	0.1097152866	-1.08932528	
717.5	1.004715923	1.162198115	
718.125	3.187181641	-0.03242482775	
718.75	0.5668672541	-1.466261841	
719.375	3.3667131	1.096206411	
720.0	0.9796317138	-3.988319279	
720.625	0.7566084019	-1.189853791	
721.25	1.102550384	-3.178243305	
721.875	-1.712494384	-2.743872528	
722.5	-0.1248637568	-2.07957482	
723.125	-2.668412222	-0.8743454061	
723.75	-0.7830151157	1.309579574	
724.375	-0.1046014006	0.8120264727	
725.0	0.04038062242	1.220923981	
725.625	1.033840864	1.296572603	
726.25	-0.04521290702	0.8288838419	
726.875	-1.269020156	3.001937395	
727.5	1.154633881	4.610213149	
728.125	-1.807128743	1.326415185	
728.75	-2.705598341	10.22106848	
729.375	3.200123593	8.814164248	
730.0	-11.43318671	6.134622702	
730.625	10.65662356	19.23537098	
731.25	4.332388066	1.15675417	
731.875	-13.43156843	1.598202554	
732.5	-13.86799041	3.457721486	
733.125	-4.093987824	3.10145339	
733.75	-5.245944158	1.329041122	
734.375	3.024019575	0.7468306081	
735.0	0.1550789451	-0.8349594991	
735.625	-1.700006432	-0.8287074682	
736.25	0.8991797415	1.745364842	
736.875	-0.183973666	0.8306700621	
737.5	3.091687989	1.960747631	
738.125	5.487834305	-2.11481212	
738.75	0.9192767772	-4.888373551	
739.375	9.567622294	5.977396371	
740.0	15.1839276	-17.51070118	
740.625	-10.00574892	1.20939168	
741.25	8.521131051	29.28107872	
741.875	11.79843141	3.221920178	
742.5	6.888679876	-14.16289173	
743.125	-5.218884479	-9.598827253	
743.75	-1.551624981	-0.1874430414	
744.375	-0.3168846666	-1.544290436	
745.0	0.3038361552	1.062649562	
745.625	-0.1672034196	0.2480060923	
746.25	-0.02212663361	-0.63274419	
746.875	-0.2917362555	0.1790858125	
747.5	-0.8271145908	0.9002831906	
748.125	0.2529324218	1.867863391	
748.75	0.5984935162	1.078898747	
749.375	-0.1568715975	1.445873927	
750.0	-1.001247	2.289914826	
