!Created with skrf (http://scikit-rf.org).
# GHz S RI R (50+0j) 
!freq	ReS11	ImS11	
500.0	0.1383844141	-0.9186085511	
500.625	2.068330915	-4.003928322	
501.25	-2.219532142	-2.317134172	
501.875	-1.12418118	-0.08521547862	
502.5	0.05119510968	-0.3770087911	
503.125	-0.3634947723	0.2114173799	
503.75	-0.01540553191	-0.04452657625	
504.375	0.1953987926	-0.02260866311	
505.0	-0.08311819617	0.04200378437	
505.625	0.107317284	-0.408689877	
506.25	-0.2204479586	0.3485759526	
506.875	-0.687869872	-0.9502299256	
507.5	-1.710520771	-1.043420316	
508.125	0.1341529362	-0.2521007794	
508.75	3.185773109	-3.950256771	
509.375	-3.479494128	-3.158984249	
510.0	-0.787507906	-0.877403696	
510.625	-1.284179647	-0.892622889	
511.25	-0.0203510206	-0.1440182537	
511.875	-0.61916752	-0.1355236903	
512.5	-0.06161121208	0.1525611665	
513.125	-0.02037669306	-0.1708155364	
513.75	-0.03301098112	-0.2989270961	
514.375	-0.7124063857	0.04714952646	
515.0	1.65300127	0.0873527056	
515.625	-2.251624455	-1.474641684	
516.25	1.402942823	-0.3968427491	
516.875	-1.239163028	-2.857856727	
517.5	-0.6833635314	0.2555307152	
518.125	-0.01106952914	-0.5061854804	
518.75	-0.5227767243	0.02090616384	
519.375	-0.1787963443	0.01494070459	
520.0	0.5095985399	0.2133102737	
520.625	0.3542490734	-0.3255403845	
521.25	0.2086073995	-0.592867513	
521.875	-0.6082013618	0.003950058548	
522.5	0.001711545902	-0.03813348074	
523.125	-0.2045434424	0.1741967688	
523.75	-0.1077501678	-0.2592883956	
524.375	-0.4439360416	0.4067972955	
525.0	-0.1757084536	-0.01405536813	
525.625	0.1362857617	0.3843440716	
526.25	-0.1985308031	-0.2444559821	
526.875	0.008349470065	0.2967550017	
527.5	-0.1731276886	0.1723511283	
528.125	-0.01087912644	1.239114359	
528.75	0.5724890796	0.4104391843	
529.375	-0.0855165799	0.3543436297	
530.0	0.2758726578	0.2389206279	
530.625	0.1143342543	1.457886907	
531.25	1.029985493	-0.381294824	
531.875	0.700183634	-0.1350084565	
532.5	-0.5615347116	-0.454466397	
533.125	0.6997317552	0.0239993602	
533.75	-0.06047647759	-0.6531447104	
534.375	0.1649404888	-0.6902942768	
535.0	-1.201644281	-0.116484916	
535.625	-0.1526081095	0.1348978983	
536.25	-0.1103183137	0.2847251049	
536.875	0.3420284364	-0.01620945792	
537.5	0.07215537814	-0.02292429283	
538.125	0.4647006335	-0.2168113002	
538.75	0.1310149265	-0.2806411824	
539.375	-0.01845347485	-0.4829340657	
540.0	-0.6583723235	-0.3140680546	
540.625	-0.1411741445	-0.07003472893	
541.25	-0.3163292327	-0.06359455277	
541.875	-0.1280215203	0.03345223385	
542.5	-0.04528269055	-0.06318660466	
543.125	-0.221423016	-0.2991425989	
543.75	-0.2550684966	0.2397595201	
544.375	-0.1555849496	-0.1275040979	
545.0	0.1439823081	0.3096328919	
545.625	-0.1089336102	0.03385820871	
546.25	0.5420086542	0.1886058732	
546.875	0.00365678109	-0.135550058	
547.5	0.4405831382	-0.2147074519	
548.125	-0.3220662179	-0.5236744421	
548.75	-0.1856129426	-0.09796742122	
549.375	-0.2003282338	-0.3380470585	
550.0	-0.2793629933	0.1478113174	
550.625	-0.04498968228	-0.1288149456	
551.25	-0.2587739795	0.211876141	
551.875	-0.1019637516	0.04495337426	
552.5	-0.2041824894	0.2641746656	
553.125	0.02240333873	0.1363938097	
553.75	0.08823000342	0.1374857608	
554.375	0.2577225065	0.001737994498	
555.0	0.2220022866	-0.1739797194	
555.625	0.2201504122	-0.2422804039	
556.25	0.169486675	-0.3592030622	
556.875	-0.08756441913	-0.3898286789	
557.5	-0.2181361063	-0.25594118	
558.125	-0.2856825356	-0.1139506741	
558.75	-0.262227749	0.0127149429	
559.375	-0.2362612888	0.01851676911	
560.0	-0.279057325	0.1836206733	
560.625	-0.06913406262	0.2893690394	
561.25	-0.02428965181	0.1624960895	
561.875	0.119658378	0.192691288	
562.5	-0.03827982209	0.02468127099	
563.125	0.2582930316	0.2628408726	
563.75	0.2004607104	-0.0746504439	
564.375	0.4266020152	-0.1096143623	
565.0	0.1247316145	-0.5087866985	
565.625	-0.08117867158	-0.2072507273	
566.25	-0.1627818745	-0.3500461011	
566.875	-0.4869425782	-0.2045980544	
567.5	-0.2230689037	-0.08745198941	
568.125	-0.2508654119	-0.5986283808	
568.75	-0.6856822292	-0.02342574235	
569.375	-0.4121080814	0.00626119048	
570.0	-0.4784017321	0.6816431125	
570.625	0.1100712008	0.3382614252	
571.25	-0.3428275267	0.1843214762	
571.875	0.5340084023	0.1957903	
572.5	-0.06075527267	0.1393627561	
573.125	0.5427119244	-0.3280880791	
573.75	-0.1478945281	-0.4418804265	
574.375	0.1647143198	0.1356113822	
575.0	0.00945151675	-0.4329359053	
575.625	0.1569950446	0.1442567718	
576.25	0.2768295066	-0.5073999834	
576.875	-0.2874324578	-0.2443781597	
577.5	0.2513866246	-0.1525735554	
578.125	-0.05838644036	-0.6601801574	
578.75	-0.3878220125	-0.1780369637	
579.375	0.0001915278971	-0.02435824539	
580.0	-0.2256113068	-0.3374178687	
580.625	-0.006275466662	0.1715749276	
581.25	-0.499403251	-0.04600052729	
581.875	0.2056818223	0.5683485773	
582.5	0.1354383489	-0.02512889634	
583.125	-0.153594933	0.4787907115	
583.75	0.5380634149	-0.2191592656	
584.375	-0.3313706933	0.3631010988	
585.0	0.6348633665	0.05579663525	
585.625	-0.01547717803	-0.06710175252	
586.25	0.6590891474	0.0601435703	
586.875	-0.08641488364	-0.4896601189	
587.5	0.1800188434	-0.1239543406	
588.125	-0.02053090138	-0.6227944742	
588.75	-0.2175986888	-0.2594379831	
589.375	0.4095145312	-0.06872303776	
590.0	-0.2252580644	-0.633940257	
590.625	-0.3719521937	0.01495264862	
591.25	-0.2728909454	0.07465842434	
591.875	-0.2507195836	0.4118873681	
592.5	0.1621755409	-0.05116038485	
593.125	-0.1273689221	0.2656294184	
593.75	0.1263725323	0.1206034754	
594.375	0.1615016107	0.4575478572	
595.0	0.7568247928	0.3382656768	
595.625	0.1613437987	-0.2151526523	
596.25	0.2913816308	0.5487321448	
596.875	0.6956584977	-0.1853259197	
597.5	0.0005253465803	0.1689809117	
598.125	0.5526707249	0.5383193576	
598.75	0.2640035474	-0.04512733082	
599.375	0.5646168452	0.2589117799	
600.0	0.3940128637	-0.5985198622	
600.625	0.1655087614	-0.2287608029	
601.25	0.3801643253	-0.3892388268	
601.875	-0.2608786241	-0.4836855367	
602.5	-0.210006169	-0.02476218731	
603.125	-0.2102040854	0.08266684791	
603.75	-0.4033724196	0.1122073952	
604.375	-0.1136275764	0.360040007	
605.0	-0.2501689758	-0.05188113527	
605.625	-0.1694365504	0.3700669284	
606.25	-0.1377985835	-0.08756959579	
606.875	-0.7487300812	0.2811008786	
607.5	-0.02772582755	0.3877471446	
608.125	-0.4759358209	0.4202255307	
608.75	0.8529222538	0.5297815828	
609.375	0.1155483286	0.0513128177	
610.0	0.7052818072	-0.2258313006	
610.625	0.01774002284	-0.4801540083	
611.25	0.3206791358	-0.24163484	
611.875	-0.4867581468	-0.2153218312	
612.5	-0.1949508613	-0.172796855	
613.125	-0.6672460372	0.06257680169	
613.75	0.09390942099	0.1760520981	
614.375	-0.04269357347	0.4132945366	
615.0	0.23275564	-0.1821926464	
615.625	-0.2622037644	0.4250447478	
616.25	0.2226065858	0.2999028865	
616.875	-0.4420310642	0.2220795541	
617.5	-0.1295446518	0.8197752346	
618.125	0.1291561768	0.2294876718	
618.75	-0.2241229012	0.6243895267	
619.375	0.4160710181	0.3112125308	
620.0	0.2589960895	0.21204445	
620.625	0.3246895233	-0.4716085567	
621.25	-0.07032023551	-0.3426870405	
621.875	-0.5787102157	-0.2734300272	
622.5	-0.3810660428	0.1231687705	
623.125	-0.2865884569	0.42818861	
623.75	0.4244646499	-0.06954973935	
624.375	0.1047813006	0.1414109159	
625.0	-0.1588112658	-0.3906056353	
625.625	0.2953757242	0.09158973081	
626.25	-0.203320127	-0.6225740208	
626.875	-0.2770176534	0.1426361433	
627.5	-0.2186974177	-0.4506197995	
628.125	-0.4720913384	-0.07271492858	
628.75	0.03470379354	-0.1724049363	
629.375	-0.2691568267	-0.5918472223	
630.0	-0.3561469156	0.02671855206	
630.625	-0.5707721665	-0.09133105973	
631.25	-0.4501152998	0.5825950676	
631.875	0.08558967609	0.514632666	
632.5	0.2267223236	0.4043663587	
633.125	0.4629807301	0.2638960773	
633.75	0.5181405366	-0.3105200663	
634.375	0.05669728507	-0.1070925082	
635.0	0.1261397018	-0.5257959101	
635.625	-0.3992187599	0.1218697402	
636.25	-0.4778619854	-0.1585294336	
636.875	-0.110806198	0.5436650195	
637.5	0.05430584514	-0.08632301095	
638.125	-0.6019013435	0.4322004461	
638.75	0.3582677863	0.3516273995	
639.375	-0.4503532057	0.3372465805	
640.0	0.3926588074	0.9487557402	
640.625	0.6880619844	0.09413630574	
641.25	0.2642940062	0.1690337608	
641.875	0.7203647385	-0.7308963645	
642.5	-0.205021718	-0.1820726995	
643.125	-0.04710372238	-0.6282120309	
643.75	-0.698436037	0.08267879278	
644.375	0.07153555052	-0.2724433661	
645.0	-0.7126586349	0.4604098854	
645.625	0.3441876766	0.5642976248	
646.25	0.2813889929	-0.08773883385	
646.875	0.1690851789	0.462155357	
647.5	0.2054221269	-0.5358379509	
648.125	0.280084525	0.6401886493	
648.75	0.9036769034	-0.5933084623	
649.375	-0.02988430271	-0.2381203548	
650.0	1.206844415	-0.6100802636	
650.625	-0.1081893046	-1.271284733	
651.25	0.09691124071	0.1607604411	
651.875	1.363423583	-0.2706648245	
652.5	0.4859645952	-0.8273393529	
653.125	0.2631649545	0.2313676083	
653.75	0.8659058214	-0.7952768985	
654.375	-0.5160246385	-0.4583606518	
655.0	-0.1794389418	-0.5388133334	
655.625	-0.9201691025	0.7405293676	
656.25	0.4319189706	0.08032589213	
656.875	-0.2753482968	0.2587276368	
657.5	0.4044461533	0.3167197919	
658.125	0.1195249965	0.07574865904	
658.75	0.6893988499	0.6886005194	
659.375	0.8157913355	-0.6984910945	
660.0	0.2942711652	-0.4337287685	
660.625	0.7930665661	-0.6818943881	
661.25	-0.01756352506	-1.167971278	
661.875	0.399561559	0.03908768306	
662.5	1.163186573	-0.5722011029	
663.125	0.3474444254	-0.8721112066	
663.75	0.3394305081	-0.08569854072	
664.375	0.0850313248	-1.247408696	
665.0	-0.6546454206	-0.03816397975	
665.625	-0.7754582788	-0.2558720671	
666.25	-0.191283625	1.007011129	
666.875	0.1320829896	0.06799378511	
667.5	0.476006342	0.5805390904	
668.125	0.6691434867	-0.2533398338	
668.75	0.1579949516	-0.2257905902	
669.375	0.5082157504	-0.3708026645	
670.0	-0.04687766183	-0.8036695491	
670.625	-0.08852349915	-0.1788304166	
671.25	0.3432493234	-0.4452334167	
671.875	0.1621718275	-0.5999658326	
672.5	0.3690798247	-0.002708964429	
673.125	0.6884196261	-0.6419628447	
673.75	0.04527529635	-0.5365640589	
674.375	0.3456914519	-0.2399486067	
675.0	-0.0766028888	-1.073002985	
675.625	-0.8091640817	0.1966980077	
676.25	0.04649574728	-0.510852006	
676.875	-0.8215962448	0.276387956	
677.5	0.1213009399	-0.01229005949	
678.125	-0.8905682764	0.3668268264	
678.75	0.578339974	0.2787208391	
679.375	0.129924298	0.4066369998	
680.0	0.7223696577	-0.1532325341	
680.625	-0.155698982	-0.5351251988	
681.25	0.1019685105	0.5144989914	
681.875	0.7040204999	-0.001167462628	
682.5	0.3970672197	0.02723363518	
683.125	0.2806533546	0.1806801491	
683.75	0.9124913462	0.5261878142	
684.375	0.5425213084	-0.3918261341	
685.0	0.4544217308	0.5607827377	
685.625	1.16733348	-0.1362515923	
686.25	-0.06525743993	-0.3280887083	
686.875	1.601385991	0.2661964947	
687.5	0.04157097788	-1.553312975	
688.125	0.4392545434	-0.2241733019	
688.75	-1.400424382	-1.174678331	
689.375	-0.1310217336	1.173433346	
690.0	-0.526302811	0.6401348278	
690.625	1.172309127	0.5872620141	
691.25	0.2554682816	0.4635075536	
691.875	1.141910909	1.154455321	
692.5	1.396970516	0.03264437157	
693.125	1.339719494	0.15458905	
693.75	1.452108533	-0.5014661978	
694.375	1.018274482	-0.8729784627	
695.0	1.161271795	-0.9232767855	
695.625	0.7776018629	-0.1751162949	
696.25	1.536727764	0.9017795552	
696.875	1.205198857	0.2718323653	
697.5	0.2888917275	1.391415959	
698.125	2.245168944	0.4342838739	
698.75	0.3790029808	-0.4669989905	
699.375	-0.7495812787	-1.863289803	
700.0	-0.3767573625	1.36582969	
700.625	-0.2441812776	0.2933947996	
701.25	1.116597757	0.5496085196	
701.875	0.160370574	0.3234419278	
702.5	0.9601950121	1.002956209	
703.125	0.8406924232	-0.2999003344	
703.75	0.9401362629	0.2362649177	
704.375	0.6994750459	-0.7884334834	
705.0	0.2404456174	-0.06951013977	
705.625	1.347420677	-0.02161777698	
706.25	0.3411027092	0.003773790162	
706.875	0.3004055446	1.153515152	
707.5	1.343962774	0.6558993581	
708.125	0.5320731661	0.4193628229	
708.75	1.196039362	-1.026032454	
709.375	-0.8966287055	-0.42357972	
710.0	-0.6248094622	0.1791722064	
710.625	0.4004948116	0.6400878143	
711.25	-0.05618559518	0.1737795003	
711.875	0.6307394844	0.4617233245	
712.5	0.6291638078	-0.01466542237	
713.125	0.7869590951	-0.5761011285	
713.75	0.05328665973	-0.4024750634	
714.375	0.4572292802	-0.7246547395	
715.0	-0.5087685371	-0.4718711561	
715.625	0.440004501	-0.1398613129	
716.25	0.3896297574	-1.453831197	
716.875	0.05303646149	-0.005172143113	
717.5	2.123968971	0.5931110678	
718.125	2.037759746	-1.63442887	
718.75	0.3908107145	1.521270808	
719.375	4.141226485	-2.452091464	
720.0	-0.3412217461	-1.505730328	
720.625	1.412166306	-1.61627118	
721.25	0.0001484073651	-3.856993649	
721.875	-0.9225465084	-1.262343278	
722.5	-1.211895486	-2.778218846	
723.125	-2.372250946	-0.1022359836	
723.75	-0.4404929402	0.8230496593	
724.375	-0.4728079637	1.183420135	
725.0	0.8546135306	1.04647649	
725.625	0.4937557689	0.6919157416	
726.25	-0.4631317342	1.470395492	
726.875	-0.174444013	3.526177687	
727.5	1.652094562	2.023477478	
728.125	-4.250485855	4.933258276	
728.75	0.601013528	11.3615181	
729.375	0.5637381039	1.379187282	
730.0	-6.77522555	15.61373194	
730.625	9.197256266	6.6327591	
731.25	-8.639110847	1.237538481	
731.875	-13.66444261	8.75225029	
732.5	-6.260210453	8.462957335	
733.125	-3.236695586	-1.971179137	
733.75	-4.134930325	5.012035574	
734.375	2.092167757	0.4413812734	
735.0	0.7889258615	-0.6752298564	
735.625	-2.170640625	0.9647264481	
736.25	-0.06795928859	0.05644888344	
736.875	0.7760330265	2.379951674	
737.5	3.498073276	0.3055099168	
738.125	3.205693138	-3.158120208	
738.75	1.299502454	1.358833013	
739.375	14.89830408	-4.689789389	
740.0	-1.745637009	-14.97096576	
740.625	1.170390159	20.32977117	
741.25	12.57028269	22.52281668	
741.875	7.285722035	-9.184002236	
742.5	-10.27188881	-12.63489727	
743.125	-8.888611112	-0.254349817	
743.75	4.276786622	-1.270146764	
744.375	-2.930148979	-1.169077196	
745.0	0.5900920292	-0.1280517564	
745.625	0.2079033518	0.3007073111	
746.25	-0.2117751113	-0.4476719822	
746.875	0.05066382128	0.07566245978	
747.5	-0.5612410386	1.107830997	
748.125	0.4301904135	1.181699647	
748.75	0.4418103973	0.9651978523	
749.375	0.1068032905	1.351531122	
750.0	-0.1519499794	0.1882985975	
