!Created with skrf (http://scikit-rf.org).
# GHz S RI R (50+0j) 
!freq	ReS11	ImS11	
500.0	-0.3965218739	-0.8966869085	
500.625	0.4215622854	-0.4403239283	
501.25	-0.5547853616	-0.7237969157	
501.875	-0.245958063	-0.1406944111	
502.5	0.008201581868	-0.1163122131	
503.125	-0.07700365083	0.04199120943	
503.75	0.005431504164	0.01886289311	
504.375	0.0566016789	-0.006417521367	
505.0	-0.01489789894	-0.01419141663	
505.625	0.0335299587	-0.08195658379	
506.25	-0.1257580381	-0.003627445031	
506.875	-0.0007132337386	-0.1716726415	
507.5	-0.3956201782	-0.4301694659	
508.125	-0.1281296113	-0.2311163032	
508.75	0.7690857853	-0.6340056709	
509.375	-0.4094804744	-1.426730087	
510.0	-0.2064586748	-0.1481174266	
510.625	-0.08600460615	-0.2383892737	
511.25	-0.1103410168	0.01330239939	
511.875	-0.0528844026	-0.07017945588	
512.5	-0.03717412208	0.05028173018	
513.125	-0.02913823909	-0.03124165992	
513.75	-0.0006153167296	-0.04209863747	
514.375	-0.1162088355	-0.01509050281	
515.0	0.3873743295	-0.01314399924	
515.625	-0.2819618576	-0.4786950755	
516.25	-0.1611944501	-0.08985007975	
516.875	-0.03080674069	-0.5212723005	
517.5	-0.1690708395	-0.05957047391	
518.125	0.04197306221	-0.01908337503	
518.75	-0.1253440452	-0.09246547542	
519.375	-0.01528606215	0.03781766269	
520.0	0.09428639974	0.05494345472	
520.625	0.1714464718	-0.06406513425	
521.25	-0.09484147719	-0.1879327044	
521.875	-0.03769987515	-0.04874356362	
522.5	-0.06175488612	0.005766863138	
523.125	0.04340370913	-0.02826006668	
523.75	-0.1998300109	-0.04320312118	
524.375	-0.07860059022	0.1594368347	
525.0	-0.06836087537	-0.006645929735	
525.625	0.02343188124	0.1255580698	
526.25	-0.05272043214	-0.08599672676	
526.875	-0.02769756282	0.1083567356	
527.5	-0.04239152693	0.06707084131	
528.125	-0.04714022986	0.2231150527	
528.75	0.1044291926	0.2436055142	
529.375	0.006511319641	-0.01673773036	
530.0	0.0494612986	0.2319269396	
530.625	0.1703003461	0.07376621479	
531.25	0.2524709745	0.09745658373	
531.875	0.2464655166	-0.1838486272	
532.5	-0.1264601771	-0.01497238158	
533.125	0.1349201257	-0.1225157769	
533.75	-0.05340985817	-0.1658920199	
534.375	0.0287029159	-0.2434486612	
535.0	-0.3202296207	-0.117189936	
535.625	-0.06727325309	0.0954725527	
536.25	-0.0256020404	0.07741253286	
536.875	0.1142418086	-0.009173230296	
537.5	0.01979242396	-0.01878510094	
538.125	0.1565458757	-0.064835166	
538.75	0.05133195931	-0.1247068255	
539.375	-0.02906190699	-0.1278075857	
540.0	-0.1592271006	-0.1439887197	
540.625	-0.1248310067	0.0542101043	
541.25	-0.04558940075	-0.0138005405	
541.875	-0.06466536878	-0.05282150625	
542.5	0.00468065565	-0.01526334893	
543.125	-0.09441743295	-0.08567679382	
543.75	-0.1306730919	0.08668055201	
544.375	-0.05743619613	-0.01420770494	
545.0	0.02350683732	0.1360829669	
545.625	0.009142065814	0.01215349672	
546.25	0.1315035966	0.06526087692	
546.875	0.06706507946	-0.07544758916	
547.5	0.05955534389	-0.04753527809	
548.125	-0.05496183207	-0.1887814689	
548.75	-0.1545257864	-0.03355275632	
549.375	-0.0524999916	-0.06376687229	
550.0	-0.112744314	0.01283989057	
550.625	-0.006553737674	0.008035125578	
551.25	-0.1027976378	0.03104025862	
551.875	-0.02441653901	0.07177582239	
552.5	-0.04479185192	0.04969526911	
553.125	0.004639086305	0.06860115108	
553.75	0.03783475018	0.02562959711	
554.375	0.09037788868	-0.004115794857	
555.0	0.07985219065	-0.08226794914	
555.625	0.0659586795	-0.0954376272	
556.25	0.05187825227	-0.1281792382	
556.875	-0.04427842301	-0.1385066653	
557.5	-0.09724116487	-0.08005931045	
558.125	-0.1066060248	-0.02803126407	
558.75	-0.1039823991	0.01060602732	
559.375	-0.08955301157	0.03105262589	
560.0	-0.0872663402	0.06157171245	
560.625	-0.04021036946	0.1211457417	
561.25	0.02791997755	0.07049630202	
561.875	0.01239398892	0.05819008507	
562.5	0.04318603442	0.02514850811	
563.125	0.03970348859	0.07984994536	
563.75	0.1615449633	-0.02264631729	
564.375	0.06755980831	-0.08489939881	
565.0	0.1013169896	-0.1134004035	
565.625	-0.07938087998	-0.1587970583	
566.25	-0.07115326049	-0.05419421851	
566.875	-0.1478168786	-0.10371452	
567.5	-0.1916355036	-0.0212021123	
568.125	-0.07008841097	-0.1253914789	
568.75	-0.2700394395	-0.06271877445	
569.375	-0.09870223497	0.1644086725	
570.0	-0.1447403597	0.1156821761	
570.625	-0.03178318083	0.2433296333	
571.25	0.04601089426	0.03535190674	
571.875	0.04196574425	0.141612666	
572.5	0.1021946639	-0.1106196079	
573.125	0.06314965653	-0.01805963406	
573.75	0.08375273043	-0.1753789176	
574.375	-0.0823108348	-0.03572439868	
575.0	0.1216984401	-0.02822199053	
575.625	-0.04603761297	-0.1077059484	
576.25	0.04887316886	-0.01665920271	
576.875	0.01584123162	-0.1942418556	
577.5	-0.1212397333	-0.160646833	
578.125	-0.007712390781	-0.05963904282	
578.75	-0.07561608381	-0.1824435816	
579.375	-0.1659242264	0.01688479995	
580.0	0.08588728195	-0.05740917936	
580.625	-0.1582701931	0.01509188481	
581.25	-0.001696092743	0.03238010293	
581.875	-0.1235624553	0.2167111354	
582.5	0.1846318067	0.1489768672	
583.125	-0.01496693547	-0.03762372471	
583.75	0.0440508466	0.1189563473	
584.375	0.04724567862	-0.06164949159	
585.0	0.04120027551	0.1192875262	
585.625	0.2188433339	-0.07453390508	
586.25	0.03989209052	-0.08111735899	
586.875	0.1459183077	-0.1154446092	
587.5	-0.09966306838	-0.1593887752	
588.125	0.01113849966	-0.05242724758	
588.75	0.07457699055	-0.1827144023	
589.375	-0.04459750517	-0.1740100652	
590.0	0.0008683180187	-0.09541395797	
590.625	-0.2820517292	-0.1074438009	
591.25	-0.01904082296	0.1796237634	
591.875	-0.04668799663	0.02854734416	
592.5	0.01793817889	0.1280617531	
593.125	-0.1058221511	-0.1051123638	
593.75	0.1052051944	0.2126144019	
594.375	0.0942005832	-0.04429858383	
595.0	0.07817395981	0.1154393221	
595.625	0.2541843565	0.008559170585	
596.25	0.1011179407	-0.06040663356	
596.875	0.1099296963	0.09972246629	
597.5	0.2148451381	0.03882052348	
598.125	0.07077640173	0.06631598422	
598.75	0.1576321536	0.1251153358	
599.375	0.1783208268	-0.1031945281	
600.0	0.08848059479	-0.09927228976	
600.625	0.1595047745	-0.1611226118	
601.25	-0.01075569002	-0.2334781477	
601.875	-0.06883073496	-0.0221002109	
602.5	-0.1568046769	-0.08221804095	
603.125	-0.01198464821	0.1631440994	
603.75	-0.05485381446	-0.01976808187	
604.375	-0.1625674837	0.1041060407	
605.0	0.06804654154	0.06916342492	
605.625	-0.171470235	0.02689848486	
606.25	-0.05750650037	0.1545929831	
606.875	-0.07002819616	0.03095541126	
607.5	-0.1583523236	0.2450862042	
608.125	0.05615712883	0.2052370916	
608.75	0.09998226094	0.09831673703	
609.375	0.2787126832	0.00570605132	
610.0	0.1145284831	-0.1783046085	
610.625	0.04256229204	-0.1054698729	
611.25	0.0300894673	-0.2268778512	
611.875	-0.1290979736	-0.01340711705	
612.5	-0.06451154032	-0.07791941838	
613.125	-0.2689666691	0.08329693971	
613.75	0.0879633057	0.1520954695	
614.375	-0.07015436115	0.0921514594	
615.0	0.143607027	0.06626049487	
615.625	-0.05737087184	-0.02032206941	
616.25	-0.01461763526	0.2348216155	
616.875	0.06841237074	0.1594735847	
617.5	-0.1187838086	0.1393157508	
618.125	-0.02371017028	0.2897223109	
618.75	-0.01584240686	0.1821318997	
619.375	0.0292898085	0.1511417743	
620.0	0.1748827463	0.06316316545	
620.625	0.005995976632	-0.1278233422	
621.25	-0.02282738961	-0.062390169	
621.875	-0.2579747651	-0.0748224861	
622.5	-0.1108708251	0.1336890162	
623.125	-0.1081357442	0.1353652189	
623.75	0.2204768519	0.07245392907	
624.375	-0.04294962826	-0.03882948336	
625.0	0.1139334025	-0.05728972686	
625.625	-0.04809588384	-0.07731311121	
626.25	0.02165956129	-0.1091920563	
626.875	-0.1918277086	-0.1044742032	
627.5	-0.1136646426	0.04669820193	
628.125	-0.06237497269	-0.0921106884	
628.75	-0.1466717797	-0.1181417839	
629.375	-0.09472206327	-0.0850345071	
630.0	-0.1774649932	-0.1238511376	
630.625	-0.244599888	0.0778197624	
631.25	-0.03602071526	0.2096132134	
631.875	-0.07501081913	0.2343864264	
632.5	0.2098680909	0.1624776338	
633.125	0.1408682761	-0.06117014611	
633.75	0.1959907911	-0.01694416258	
634.375	-0.01491140678	-0.2928390131	
635.0	0.01658692178	-0.0486407383	
635.625	-0.1935350072	-0.1275481035	
636.25	-0.08193492815	0.1492979105	
636.875	-0.05035604858	0.02692525647	
637.5	-0.09912862515	0.1756753756	
638.125	0.02994200316	0.02832552087	
638.75	-0.1573848766	0.1396639004	
639.375	0.09203612001	0.2801451492	
640.0	0.1415875659	0.1050147759	
640.625	0.2002755463	0.2050732072	
641.25	0.3129690053	-0.1068404163	
641.875	0.05543338808	-0.1161554204	
642.5	0.08229079563	-0.2241378774	
643.125	-0.2394591648	-0.06190824634	
643.75	0.02639986019	0.04294892613	
644.375	-0.265189388	-0.0607001436	
645.0	0.01687615513	0.2658706892	
645.625	-0.02464523643	0.06388770598	
646.25	0.2758432873	0.2385015668	
646.875	0.02287782827	-0.1435773813	
647.5	0.08576844421	0.2532911683	
648.125	0.1892538989	-0.103551405	
648.75	0.1242446536	0.03120470499	
649.375	0.3438725962	-0.2775450547	
650.0	-0.04675752034	-0.3892927678	
650.625	0.1092545193	-0.1104340408	
651.25	0.2966035437	-0.265688094	
651.875	0.1114233258	-0.3078882682	
652.5	0.1565553102	0.03370224297	
653.125	0.3681396547	-0.1543669328	
653.75	0.02003179529	-0.2407687558	
654.375	0.06145608524	-0.2204200205	
655.0	-0.4515645041	-0.2073173668	
655.625	-0.02680647527	0.2498119098	
656.25	-0.06542791398	0.08820311572	
656.875	0.1405503415	0.212714852	
657.5	-0.05807973651	-0.1159233137	
658.125	0.1928681563	0.3792063941	
658.75	0.3278660675	-0.09700370528	
659.375	0.1410168613	-0.02385678248	
660.0	0.3152012154	-0.2621980952	
660.625	-0.09603666055	-0.4213029229	
661.25	0.1072706333	-0.1096776753	
661.875	0.2817840653	-0.2769947985	
662.5	0.15446155	-0.2845497017	
663.125	0.1626961023	-0.08179299959	
663.75	0.2277631205	-0.3449401365	
664.375	-0.1765304073	-0.2242377343	
665.0	-0.1424622	-0.1939543137	
665.625	-0.3729962994	0.09393219372	
666.25	0.04039301528	0.2575774648	
666.875	0.02014629216	0.1664432642	
667.5	0.2925030637	0.1333800259	
668.125	0.1143919981	-0.1135703962	
668.75	0.2090229628	-0.04711456431	
669.375	0.05978626893	-0.3623521787	
670.0	-0.05732986424	-0.02560167869	
670.625	0.09984789604	-0.1993528264	
671.25	-0.02722373061	-0.2485989318	
671.875	0.0818784285	0.02129595565	
672.5	0.302998827	-0.1649564264	
673.125	0.09576910911	-0.238190691	
673.75	0.1038173943	-0.1184384485	
674.375	0.1132004353	-0.2819003636	
675.0	-0.2449510159	-0.1345327252	
675.625	-0.04100416705	-0.08496108729	
676.25	-0.2622608976	-0.05985765053	
676.875	-0.08893323987	0.1185019364	
677.5	-0.1200035693	-0.0784518176	
678.125	-0.159802741	0.2599772926	
678.75	0.1183418959	0.08520378381	
679.375	0.06401251278	0.1730728001	
680.0	0.2951844679	-0.1700441375	
680.625	-0.2090589956	-0.05616838762	
681.25	0.2281483817	0.1374152321	
681.875	0.1611185309	-0.1385034869	
682.5	0.02371023337	0.07099303452	
683.125	0.4493879032	0.2090558947	
683.75	0.271796398	-0.1800123075	
684.375	0.1055373049	0.1798049824	
685.0	0.3728748512	-0.03596776147	
685.625	0.1844891503	-0.1346862198	
686.25	0.2683616429	0.1101118335	
686.875	0.4240110016	-0.2994010069	
687.5	0.1075802392	-0.2215828534	
688.125	0.04903273082	-0.367344064	
688.75	-0.4623634884	-0.1656616545	
689.375	-0.03878842737	0.3335445638	
690.0	-0.06854478217	0.3227900387	
690.625	0.4007424629	0.2162840594	
691.25	0.1537930692	0.01902556485	
691.875	0.3951814702	0.4749197236	
692.5	0.6944618469	-0.003282422115	
693.125	0.3593238424	0.02741030871	
693.75	0.7089858056	-0.1927390694	
694.375	0.3100851036	-0.5546830618	
695.0	0.1876166287	-0.1321826115	
695.625	0.6299550309	-0.02411434037	
696.25	0.5023082548	-0.072807906	
696.875	0.3918440441	0.4231298419	
697.5	0.3712208082	0.5194243148	
698.125	0.6067925422	-0.07411926491	
698.75	0.3096646475	-0.1868699067	
699.375	-0.2576602899	-0.3248504236	
700.0	-0.1511235171	0.4375632438	
700.625	0.1149892487	0.1065773385	
701.25	0.3173141091	0.307816444	
701.875	0.3439776957	-0.03741962498	
702.5	0.1843358687	0.2579131301	
703.125	0.5070082858	0.1303998175	
703.75	0.2248517581	-0.233402081	
704.375	0.3163844724	-0.04465208582	
705.0	0.2947001799	-0.2259398682	
705.625	0.1080590149	-0.07892107882	
706.25	0.2872973892	0.206944286	
706.875	0.3382464996	0.2313823419	
707.5	0.3371111692	0.3985024219	
708.125	0.4229033912	0.1565033127	
708.75	0.2847127064	-0.3300189523	
709.375	-0.2103456531	-0.07346224834	
710.0	-0.02245941654	-0.01654776283	
710.625	0.1786720902	0.1581759274	
711.25	-0.01382257517	0.00779557611	
711.875	0.2438221387	0.2014138927	
712.5	0.243862936	-0.263066432	
713.125	0.1849787769	-0.0431264479	
713.75	0.1843495729	-0.307151953	
714.375	-0.1047353601	-0.1930268622	
715.0	0.06386605458	-0.1207099741	
715.625	-0.02029215576	-0.3150006492	
716.25	0.0007516327168	-0.1443725893	
716.875	0.2899639065	-0.07169865618	
717.5	0.5914168014	-0.1863890778	
718.125	0.5826446958	-0.1271764262	
718.75	0.7162753459	0.0501759953	
719.375	0.6304155959	-0.7306952317	
720.0	-0.08206268904	-0.7076033069	
720.625	0.4427348173	-0.445030676	
721.25	-0.4083478389	-0.9585708658	
721.875	-0.1652422398	-0.2445852718	
722.5	-0.5835118101	-0.8523429067	
723.125	-0.8606214003	0.2252716321	
723.75	-0.141270233	0.258998884	
724.375	-0.07249485091	0.5698252338	
725.0	0.3377175258	0.204898733	
725.625	-0.03123346678	0.2687064921	
726.25	0.0123097579	0.7679095496	
726.875	0.2775481716	0.773206661	
727.5	-0.1747119768	0.689383737	
728.125	0.01986247047	2.113568781	
728.75	1.028050799	2.183720738	
729.375	-0.9175520841	1.90280801	
730.0	0.5326339171	4.806484315	
730.625	1.579867216	2.658598981	
731.25	-0.9193580284	1.494767129	
731.875	-2.808883078	2.783806627	
732.5	-1.643324503	1.85646038	
733.125	-1.071629863	-0.7191772097	
733.75	-1.061120508	1.845221772	
734.375	0.7384085848	-0.07710570625	
735.0	0.2090930816	-0.3876068199	
735.625	-0.6160923517	0.3351308115	
736.25	0.1493150632	-0.06866753013	
736.875	0.2070713816	0.7588949621	
737.5	1.164854815	-0.1327512878	
738.125	0.5712985446	-0.6218523452	
738.75	1.667503353	0.1339360943	
739.375	2.422819859	-2.816670395	
740.0	-0.04571864367	-1.458435206	
740.625	2.111315779	2.999867633	
741.25	3.880694819	1.71219992	
741.875	0.4058341005	-3.08037922	
742.5	-2.282050607	-3.53149713	
743.125	-0.9875500822	-1.26853069	
743.75	0.3056828105	-0.4802690987	
744.375	-0.6739567575	-0.3510335362	
745.0	0.1879176179	0.01448912744	
745.625	0.08965552113	0.1122409357	
746.25	-0.07721129664	-0.1120171433	
746.875	-0.06455581017	-0.02906495157	
747.5	-0.1518218094	0.3413724052	
748.125	0.2246950878	0.4222852259	
748.75	0.1373977979	0.2579164451	
749.375	0.05735135692	0.4254271522	
750.0	-0.1889689762	0.3797878452	
