!Created with skrf (http://scikit-rf.org).
# GHz S RI R (50+0j) 
!freq	ReS11	ImS11	
500.0	0.01452041939	-0.377609944	
500.625	0.4694743714	-0.8994215764	
501.25	-0.6035792945	-0.2963226916	
501.875	-0.08961004383	-0.2854520341	
502.5	-0.09163094034	-0.1628595256	
503.125	-0.03382577156	0.02395708914	
503.75	-0.03574578928	0.08802177636	
504.375	0.02385328861	-0.03952244673	
505.0	0.01754938287	0.009792821887	
505.625	-0.01237861241	-0.0821586303	
506.25	-0.01165293261	0.03708507638	
506.875	-0.288584116	-0.09002018084	
507.5	-0.2656522374	-0.006122438623	
508.125	0.3523245302	-0.3889022036	
508.75	0.4104756634	-1.136386504	
509.375	-0.225445729	-0.7391788248	
510.0	-0.2233996358	-0.3476151299	
510.625	-0.1578427137	-0.1744262865	
511.25	-0.01171334397	0.004398920795	
511.875	-0.1243671614	-0.05132350704	
512.5	0.006915701732	0.04475950682	
513.125	-0.0002339187318	-0.03238114318	
513.75	-0.06865602037	-0.07315866841	
514.375	-0.0007729398321	0.09912679704	
515.0	0.06009417749	-0.2367791576	
515.625	-0.1127027225	0.1977009507	
516.25	0.2524859229	-0.5620767206	
516.875	-0.5693244504	-0.1960825756	
517.5	-0.0702115617	0.004051123771	
518.125	-0.03541729062	-0.07000787598	
518.75	-0.07795600607	-0.01760875456	
519.375	-0.04867548867	0.004564262523	
520.0	0.1141101682	0.06437840929	
520.625	0.1053219497	-0.06307068122	
521.25	-0.004094096507	-0.1286246341	
521.875	-0.08110654178	-0.01756310179	
522.5	-0.002177911895	0.08344343546	
523.125	-0.06616018273	-0.0609390756	
523.75	-0.1487098673	0.09531859607	
524.375	0.01305989641	0.01033681182	
525.0	-0.1598469007	0.1512594212	
525.625	0.1296942631	0.01922469343	
526.25	-0.07161311731	0.03677563173	
526.875	0.02560618125	0.04187829241	
527.5	-0.1010229923	0.08653850917	
528.125	0.1429720624	0.2296788579	
528.75	0.1380722574	0.08395531479	
529.375	-0.01266299173	0.07648405782	
530.0	0.1518066057	0.09418903518	
530.625	-0.02482707447	0.1485553331	
531.25	0.2417887924	0.1555762914	
531.875	0.07454707746	-0.2541642009	
532.5	0.0760182131	-0.05410697014	
533.125	0.04007777731	-0.1907895673	
533.75	0.08496939274	-0.03301743568	
534.375	-0.1327788151	-0.3325051092	
535.0	-0.1828983476	0.004360750152	
535.625	-0.1234936032	0.03815652246	
536.25	0.003216248403	0.1146899833	
536.875	0.05357836991	-0.02516956864	
537.5	0.08445451474	-0.0156661091	
538.125	0.07898265341	-0.1179340186	
538.75	0.08244835868	-0.07066364029	
539.375	-0.06508332005	-0.1902738535	
540.0	-0.2009772966	-0.06553279936	
540.625	-0.08697054754	-0.02574103053	
541.25	-0.06904383574	-0.03174750348	
541.875	-0.02456502264	0.02802657056	
542.5	-0.02916697459	-0.1045042841	
543.125	-0.1325520297	-0.01072387845	
543.75	0.02306516741	0.01968804721	
544.375	-0.0900304876	0.06850424865	
545.0	0.037052662	0.0201684436	
545.625	-0.01247949571	0.09991232322	
546.25	0.1256777925	-0.01453215923	
546.875	0.02875711028	-0.01853239786	
547.5	0.09650175988	-0.1331455191	
548.125	-0.1072613634	-0.1200876799	
548.75	-0.05245921332	-0.06684384173	
549.375	-0.1315931191	-0.08777105929	
550.0	-0.04779334576	0.05189604874	
550.625	-0.05347698579	-0.02762293568	
551.25	-0.05467929047	0.06787294973	
551.875	-0.05003013041	0.03608620343	
552.5	-0.04700130989	0.08913125714	
553.125	0.01085416565	0.05283283374	
553.75	0.03190481494	0.04359519246	
554.375	0.08904763736	-0.01734584673	
555.0	0.07621648197	-0.06533845814	
555.625	0.0747102935	-0.09839662867	
556.25	0.04640542477	-0.1299125853	
556.875	-0.0426437063	-0.1324941799	
557.5	-0.09236278632	-0.08716115411	
558.125	-0.1111253982	-0.02589375963	
558.75	-0.097983026	0.01155754443	
559.375	-0.09460843807	0.02084021888	
560.0	-0.09007376314	0.08133304912	
560.625	-0.01854084627	0.1032811205	
561.25	-0.008607125162	0.08002472346	
561.875	0.05881948295	0.05392869792	
562.5	-0.01153598772	0.02587861505	
563.125	0.09539571841	0.08597352403	
563.75	0.1022655546	-0.03894474045	
564.375	0.125885075	-0.05474163724	
565.0	0.05647084445	-0.178578513	
565.625	-0.07146986882	-0.09202568498	
566.25	-0.0765203231	-0.1277400643	
566.875	-0.2243082248	-0.03937485819	
567.5	-0.07158012788	-0.05000150199	
568.125	-0.1609922735	-0.1761050853	
568.75	-0.2136135348	0.03631771669	
569.375	-0.1552864006	0.006175507544	
570.0	-0.1317417628	0.2539527674	
570.625	0.05235391635	0.1376471461	
571.25	-0.05040289037	0.0853617312	
571.875	0.1515951352	0.05319507927	
572.5	0.0217359105	0.008119161312	
573.125	0.1455971539	-0.1267930248	
573.75	-0.05522530175	-0.1413510965	
574.375	0.06474722683	0.03437216599	
575.0	0.0265667556	-0.124511977	
575.625	0.001342684766	0.01188229059	
576.25	0.1033729585	-0.1303964152	
576.875	-0.09626194836	-0.1403431138	
577.5	-0.006556320391	-0.05777719468	
578.125	0.02935157285	-0.2099031334	
578.75	-0.1732175918	-0.07820535474	
579.375	0.04474360545	0.03652754596	
580.0	-0.09672027456	-0.1188575577	
580.625	-0.02100675211	0.06056719449	
581.25	-0.139609207	-0.007784742071	
581.875	0.1241014858	0.2393773138	
582.5	0.09133457818	0.01885951593	
583.125	-0.01032618906	0.1108590865	
583.75	0.1473755305	-0.02924114854	
584.375	-0.0785983568	0.071519519	
585.0	0.2061958736	0.04383268693	
585.625	0.07548849784	-0.07575113436	
586.25	0.1480056205	0.01925936872	
586.875	0.03720638223	-0.2174953287	
587.5	-0.051706718	-0.04396696096	
588.125	0.04625193341	-0.1496465065	
588.75	-0.03981775872	-0.1910803128	
589.375	-0.001100699227	-0.04296342713	
590.0	-0.0268960217	-0.2487070333	
590.625	-0.1904058537	0.07360201726	
591.25	-0.05813375559	-0.007332949983	
591.875	-0.08059403192	0.1630223866	
592.5	0.1463694664	-0.05735678872	
593.125	-0.1155076802	0.1148497842	
593.75	0.1118341484	-0.01404928098	
594.375	0.04387534836	0.1143109283	
595.0	0.2108311047	0.1355185784	
595.625	0.1732653332	-0.04901844866	
596.25	0.1086235544	0.1032919998	
596.875	0.2202628695	0.02032359304	
597.5	0.06750786905	0.02132176744	
598.125	0.09444569488	0.1442876104	
598.75	0.242132803	0.02720530998	
599.375	0.1242530537	-0.03552374265	
600.0	0.1864587516	-0.109394757	
600.625	0.09394574211	-0.2449946199	
601.25	-0.0424915379	-0.1225524782	
601.875	-0.005232089386	-0.1792463711	
602.5	-0.1772886872	0.0867726333	
603.125	-0.01242538695	0.004348740995	
603.75	-0.1971992235	0.07871891227	
604.375	-0.0150652564	0.1566921074	
605.0	-0.1739615246	-0.005083305527	
605.625	-0.09913462221	0.1499971612	
606.25	0.001246698315	0.04455949455	
606.875	-0.2232623023	0.06609409992	
607.5	-0.06176044933	0.2054702504	
608.125	-0.005386802023	0.1372844175	
608.75	0.1727299782	0.1615420894	
609.375	0.2440679943	-0.1385856616	
610.0	0.1308568681	-0.1552835377	
610.625	0.1482729657	-0.172787619	
611.25	-0.1152042472	-0.1513850651	
611.875	0.001074731766	-0.06796262919	
612.5	-0.2141961458	-0.1164006347	
613.125	-0.09773570957	0.1706449032	
613.75	-0.114665204	0.03410342329	
614.375	0.09759766938	0.1957997495	
615.0	0.03350594614	-0.07860072479	
615.625	0.03574810684	0.2022242512	
616.25	0.09369598995	0.1149489393	
616.875	-0.0968694318	0.0977727599	
617.5	-0.0938424513	0.2774305603	
618.125	-0.0008091729981	0.1940983097	
618.75	-0.03266598124	0.1269326874	
619.375	0.09225557016	0.1591322201	
620.0	0.1822126369	-0.01609123552	
620.625	0.09370664767	-0.079476721	
621.25	-0.1382105078	-0.2271560922	
621.875	-0.2323182809	0.04249828722	
622.5	-0.1776802258	-0.01158374041	
623.125	-0.08478323738	0.28068839	
623.75	0.1106020053	-0.0474191561	
624.375	0.0695009268	0.03504148619	
625.0	-0.03151453401	-0.09380577066	
625.625	0.05949678812	-0.01655969066	
626.25	-0.06870876445	-0.1927858378	
626.875	-0.1474978798	0.0115953479	
627.5	-0.06914163849	-0.08105994271	
628.125	-0.154017784	-0.06315857011	
628.75	-0.06452532898	-0.03244798917	
629.375	-0.04449994961	-0.17938894	
630.0	-0.1957065965	-0.1027270021	
630.625	-0.1612245721	0.1290856038	
631.25	-0.152238014	0.1673721728	
631.875	0.05019349372	0.2689358685	
632.5	0.1511850022	0.08846720059	
633.125	0.1243034373	0.1195294579	
633.75	0.2281209844	-0.1822005228	
634.375	0.004608294692	-0.05395564415	
635.0	0.04133527702	-0.2055193049	
635.625	-0.1801347159	-0.002974607311	
636.25	-0.05091972381	0.0148993778	
636.875	-0.1264691724	0.1752621712	
637.5	0.06536171236	0.07575904473	
638.125	-0.1299507671	0.02636448543	
638.75	-0.02616186511	0.2479353635	
639.375	0.04815326087	0.1123562799	
640.0	0.0762209373	0.2780481658	
640.625	0.3115652568	0.1283067156	
641.25	0.1511652127	-0.0616414095	
641.875	0.2214314265	-0.09520023201	
642.5	-0.1230500479	-0.2651001801	
643.125	-0.04932722431	0.003137655984	
643.75	-0.08619410502	-0.2152334661	
644.375	-0.1658391715	0.1376950693	
645.0	-0.1177712698	0.01082157706	
645.625	-0.002453543553	0.4408177954	
646.25	0.2076422347	-0.1109838499	
646.875	-0.03509819374	0.1524646516	
647.5	0.1967454605	-0.03124213983	
648.125	-0.05475395914	0.04448158875	
648.75	0.3714923489	-0.03559028052	
649.375	0.05815818683	-0.3865450999	
650.0	0.08238987794	-0.1366321447	
650.625	0.2592226906	-0.3064955717	
651.25	0.03376650208	-0.3307029219	
651.875	0.1385084447	0.01576488354	
652.5	0.3826046428	-0.1211313474	
653.125	0.1301318162	-0.217276306	
653.75	0.1955111243	-0.07708925479	
654.375	-0.06671940095	-0.4424259346	
655.0	-0.2812485641	0.074734831	
655.625	-0.09688243167	0.001925047041	
656.25	0.01179945665	0.2892774898	
656.875	0.1817202375	-0.2062543784	
657.5	-0.03888641437	0.2286260853	
658.125	0.2475228801	0.05757546907	
658.75	0.06446273512	0.04625681113	
659.375	0.4743862716	-0.06762303431	
660.0	0.04252978822	-0.4141828367	
660.625	0.09055971766	-0.1503377801	
661.25	0.2340200529	-0.3296447701	
661.875	0.1086763472	-0.3351396562	
662.5	0.1424085022	-0.06965828446	
663.125	0.3359402881	-0.2152736751	
663.75	-0.0009664505855	-0.294488398	
664.375	0.03050993717	-0.2216511052	
665.0	-0.3059754643	-0.2574393174	
665.625	-0.2182315454	0.2071605051	
666.25	-0.1147583639	0.153913931	
666.875	0.1557950063	0.2920340534	
667.5	0.1784047788	-0.04487244906	
668.125	0.1654768708	0.1163786539	
668.75	0.2036758452	-0.2383602316	
669.375	-0.05170792007	-0.08681278904	
670.0	0.1125124999	-0.1832643415	
670.625	-0.06837676185	-0.2699735751	
671.25	0.01326292455	-0.009678401541	
671.875	0.2432309632	-0.2594658768	
672.5	0.1119393092	-0.2161703818	
673.125	0.1225918315	-0.08919686276	
673.75	0.2368366805	-0.2219713395	
674.375	-0.1312850559	-0.2162358912	
675.0	0.008383679688	-0.1377471283	
675.625	-0.2212052842	-0.1868770789	
676.25	-0.187200661	0.09642295407	
676.875	-0.06004698871	-0.07885617042	
677.5	-0.2560390159	0.07976806415	
678.125	0.007631244362	0.1236760573	
678.75	-0.08960660006	0.1626214128	
679.375	0.3793490002	0.1189832008	
680.0	-0.03549135555	-0.1657913597	
680.625	0.1623514033	0.04853092253	
681.25	0.08931333557	-0.2490937079	
681.875	-0.04689740559	0.07802604443	
682.5	0.5450759941	0.19281137	
683.125	0.2160104995	-0.1796114437	
683.75	0.08909127439	0.1172898194	
684.375	0.3732418587	0.06984254488	
685.0	0.2066650076	-0.1453361873	
685.625	0.106343894	0.1513547315	
686.25	0.4527917466	-0.1124123947	
686.875	0.1421543026	-0.1638145345	
687.5	0.2863122811	-0.1841010396	
688.125	-0.1147290832	-0.5613620204	
688.75	-0.293299638	0.04907551529	
689.375	-0.2977996407	0.2071715968	
690.0	0.2140834124	0.4283493415	
690.625	0.1925369318	-0.007470063724	
691.25	0.2246854473	0.4373288159	
691.875	0.6205111106	0.08062053948	
692.5	0.3603440659	0.1009194667	
693.125	0.8622264332	0.08109012372	
693.75	0.549302058	-0.4600369821	
694.375	0.186882002	-0.2208245141	
695.0	0.5439661881	-0.44010403	
695.625	0.3900820985	-0.2543122043	
696.25	0.4480152267	0.210508363	
696.875	0.4571633893	0.4862577186	
697.5	0.5212973485	0.1543518827	
698.125	0.3448398263	0.2287351761	
698.75	0.3305621529	-0.2821810115	
699.375	-0.5242126965	-0.2363275277	
700.0	-0.09744087368	0.2275297478	
700.625	0.0682804802	0.3887661076	
701.25	0.2957339498	-0.02605049056	
701.875	0.1088123543	0.2430370409	
702.5	0.4761370739	0.2850241644	
703.125	0.3182223927	-0.08705735057	
703.75	0.4152770689	0.03973576486	
704.375	0.3391784081	-0.2846728921	
705.0	0.07109645386	-0.1909821362	
705.625	0.3154977282	0.06250485937	
706.25	0.2536149162	0.06210238658	
706.875	0.1324880056	0.1475273456	
707.5	0.2176458536	0.3752101769	
708.125	0.3870593581	0.1870980379	
708.75	0.1355570889	-0.3278188519	
709.375	-0.1623525895	-0.2740485166	
710.0	-0.1608135839	0.2803414265	
710.625	0.0657260537	0.003772724248	
711.25	0.08014074297	0.2406505103	
711.875	0.1898071232	-0.06105642187	
712.5	0.2202248253	0.09001640942	
713.125	0.3383018633	-0.220804639	
713.75	0.004237488094	-0.2553202351	
714.375	0.07862984352	-0.1619839961	
715.0	-0.04752394972	-0.2908375169	
715.625	-0.07668858972	-0.09923021449	
716.25	0.2113437719	-0.1407658883	
716.875	0.3184702499	-0.2630651671	
717.5	0.2455875147	-0.1155023085	
718.125	0.6201718574	0.157232046	
718.75	0.7639368244	-0.1554824051	
719.375	0.2518984963	-0.2679987993	
720.0	0.5076633711	-0.2068562013	
720.625	-0.1261045019	-0.9753747289	
721.25	-0.1727700565	-0.2464843205	
721.875	0.01049580082	-1.087818386	
722.5	-0.8574829066	-0.4491907884	
723.125	-0.3894142508	-0.09215504478	
723.75	-0.6883660737	0.4237528149	
724.375	0.2243480906	0.369367912	
725.0	-0.04036312938	0.2171540117	
725.625	0.1860917102	0.5776553933	
726.25	0.2733566529	0.4081676988	
726.875	-0.2588997161	0.6127630696	
727.5	-0.1475444737	1.477271197	
728.125	0.614382479	1.350189406	
728.75	-0.4981381547	1.52807017	
729.375	-1.07333999	3.804163471	
730.0	1.482449124	2.531009068	
730.625	-0.1347552962	1.458517106	
731.25	-0.9981450099	4.230090595	
731.875	-0.3706707688	1.999832814	
732.5	-2.607396012	-0.2533858856	
733.125	-2.874976206	0.9032644227	
733.75	0.002541567603	1.165553499	
734.375	0.143339707	0.6562130561	
735.0	-0.2350530965	-0.82380869	
735.625	0.04734465257	0.1073770115	
736.25	-0.3056688207	0.5082217974	
736.875	0.7036768195	0.4613715666	
737.5	0.4144971928	-0.09153466859	
738.125	1.713647688	0.2703518181	
738.75	1.394659936	-2.024061198	
739.375	0.3648012785	-0.9953889231	
740.0	3.236336527	0.951904264	
740.625	4.082066441	-2.820105546	
741.25	-1.570918055	-0.9357531687	
741.875	-4.55498968	0.03475870964	
742.5	-1.814143438	-0.3634543595	
743.125	0.846982701	-0.8073230045	
743.75	-0.229901072	-1.449718662	
744.375	-0.3456548528	0.1946798417	
745.0	-0.1391027607	-0.01209554879	
745.625	0.1202284227	-0.1194094464	
746.25	0.09510412903	-0.03335473998	
746.875	-0.2790671595	0.004103122952	
747.5	0.05485372622	0.3199676351	
748.125	0.08335702676	0.3060900508	
748.75	0.2547097502	0.5079938321	
749.375	0.2522121533	0.3282483616	
750.0	-0.3039664865	0.1805631662	
