!Created with skrf (http://scikit-rf.org).
# GHz S RI R (50+0j) 
!freq	ReS11	ImS11	
500.0	-2.009959797	-2.604276805	
500.625	0.4758832875	-1.569098281	
501.25	-1.391895013	-3.175828254	
501.875	-2.306592741	-1.222766611	
502.5	-0.1790117908	-0.0137394043	
503.125	-0.324863225	-0.09041094552	
503.75	0.354871103	0.1570575254	
504.375	0.08423240927	0.1154172135	
505.0	-0.03825878174	-0.1983583238	
505.625	0.2454647677	-0.01121034623	
506.25	-0.7333954355	-0.2971784062	
506.875	0.6064049011	-0.2626903016	
507.5	0.07693736812	-2.16388161	
508.125	-1.187737983	-2.331210065	
508.75	1.409848437	-1.004047156	
509.375	-1.230798369	-7.830219367	
510.0	-1.20081986	0.2202438909	
510.625	-0.1318100822	-0.8577559991	
511.25	-0.4434252457	0.1545684863	
511.875	-0.3801383838	-0.328654834	
512.5	-0.06971689728	0.1734411382	
513.125	-0.1677422081	-0.2936432694	
513.75	-0.08990157372	0.03866531151	
514.375	-0.2141168583	-0.5095517045	
515.0	-0.7795790969	1.25585146	
515.625	0.2635404162	-4.200857804	
516.25	-2.654868518	0.09528459876	
516.875	0.9942539481	-1.518735838	
517.5	-0.8061320213	-1.066001909	
518.125	0.2977436653	0.07133142221	
518.75	-0.6581678537	-0.9323086019	
519.375	-0.02999785581	0.1621438714	
520.0	0.2656534308	0.3535677568	
520.625	0.6202329566	-0.3520364619	
521.25	-0.1726662271	-0.4832925214	
521.875	-0.4441612121	-0.3833404587	
522.5	-0.05417131742	0.2017289143	
523.125	-0.2974891787	0.006177823602	
523.75	-0.1476393211	0.01133236351	
524.375	-0.7380300304	-0.09133433405	
525.0	0.3161616769	0.2769307771	
525.625	-0.1561738212	0.1486217359	
526.25	0.2042495803	-0.1205047629	
526.875	-0.3492696966	0.2324651479	
527.5	0.2495857315	0.5394187563	
528.125	-0.2743152437	0.5774664251	
528.75	0.1537248557	1.143524381	
529.375	0.008141994453	-0.08107461661	
530.0	0.3517328927	0.6984600917	
530.625	-0.06983399702	0.6499644311	
531.25	1.968763011	0.3826257476	
531.875	0.2122261656	-0.377243114	
532.5	0.05858944748	-0.5880883029	
533.125	-0.2219417082	0.4312503567	
533.75	0.4373324656	-0.9742093358	
534.375	-0.3906475546	-0.3356729156	
535.0	-0.5554741555	-0.7422791243	
535.625	-0.3691345899	0.6845235525	
536.25	-0.0294307216	0.108204418	
536.875	0.308416539	0.1604561923	
537.5	0.1178450332	-0.2119111558	
538.125	0.3123746678	0.073147743	
538.75	0.3332638928	-0.5399875005	
539.375	-0.07962749533	-0.2475035258	
540.0	-0.3948750884	-0.6049358058	
540.625	-0.4769692499	0.157004844	
541.25	-0.1125324488	-0.05183153275	
541.875	-0.1279860713	-0.1250644384	
542.5	-0.2169349132	-0.07998684428	
543.125	0.02767253	-0.08628445702	
543.75	-0.4470606901	-0.1149235784	
544.375	0.1281530035	0.1035067001	
545.0	-0.1961913976	0.267695925	
545.625	0.2728765603	-0.05487012726	
546.25	0.05518744266	0.3176339183	
546.875	0.4535720475	-0.3593574939	
547.5	0.0726186728	-0.04905856219	
548.125	0.09072775239	-0.5477998176	
548.75	-0.5047828986	-0.2736437252	
549.375	-0.1120014998	-0.05167338493	
550.0	-0.3203988341	-0.1140762625	
550.625	-0.006684796627	0.1136715795	
551.25	-0.300206943	-0.03927884042	
551.875	-0.09360950916	0.2874919974	
552.5	-0.1539248337	0.08494105593	
553.125	-0.04203252063	0.220005271	
553.75	0.1131085104	0.09348827449	
554.375	0.2304839833	0.04069231914	
555.0	0.2658387981	-0.1816873814	
555.625	0.2035149833	-0.2593042348	
556.25	0.1840832071	-0.3416227657	
556.875	-0.08207519655	-0.41772429	
557.5	-0.2377659654	-0.2580993681	
558.125	-0.2714519707	-0.1044932752	
558.75	-0.287446832	-0.02603096248	
559.375	-0.2528960012	0.07727294588	
560.0	-0.2294310286	0.1257764688	
560.625	-0.1728423734	0.3085407889	
561.25	0.0979317646	0.2162137416	
561.875	-0.03585786673	0.1418138957	
562.5	0.1348922213	0.07721748941	
563.125	0.05258502286	0.2603222237	
563.75	0.46224204	-0.06225090235	
564.375	0.1357248915	-0.1704318854	
565.0	0.3654349846	-0.3187275237	
565.625	-0.1884908629	-0.4442310511	
566.25	-0.2131277736	-0.1352485125	
566.875	-0.2625493473	-0.3434109883	
567.5	-0.5304377632	-0.2298147653	
568.125	-0.1338582213	-0.2693081582	
568.75	-0.7119977519	-0.386496797	
569.375	-0.4264704812	0.3912500305	
570.0	-0.4355124082	0.227389973	
570.625	-0.2243334395	0.7512183073	
571.25	0.185652574	-0.005883840394	
571.875	-0.01914533382	0.5361525042	
572.5	0.3437289597	-0.3559820255	
573.125	0.1555507306	0.07705333321	
573.75	0.3716724255	-0.5093067195	
574.375	-0.2705163419	-0.08545061218	
575.0	0.4077832817	-0.07214979636	
575.625	-0.2214876005	-0.2621894825	
576.25	0.3245676531	0.03546327497	
576.875	0.002659183885	-0.6356000622	
577.5	-0.2610391206	-0.2923727458	
578.125	0.1075161406	-0.2354404047	
578.75	-0.162773819	-0.5489932158	
579.375	-0.4005467812	0.01602399748	
580.0	0.1375804152	-0.1321304965	
580.625	-0.4304562559	-0.002191015411	
581.25	0.007360244688	0.003415173005	
581.875	-0.3381280805	0.5039094894	
582.5	0.4597210187	0.4813108488	
583.125	0.008554187987	-0.2056747813	
583.75	0.09727723088	0.5708614427	
584.375	0.04639396669	-0.3536277451	
585.0	0.1972803236	0.5890891952	
585.625	0.5318384575	-0.29405994	
586.25	0.05748238685	0.08745618292	
586.875	0.4925943953	-0.5148030152	
587.5	-0.312505871	-0.200486646	
588.125	0.2459344729	-0.2282489885	
588.75	0.1562313519	-0.6415779668	
589.375	-0.115721269	-0.2837400519	
590.0	0.1456752527	-0.4039516751	
590.625	-0.607354008	-0.2207880536	
591.25	-0.1902866913	0.3152037492	
591.875	-0.2088225335	0.1128589024	
592.5	0.08352134051	0.2922775166	
593.125	-0.266813634	-0.009086010082	
593.75	0.2825514071	0.3544488974	
594.375	0.2502845779	0.04207184773	
595.0	0.1413010427	0.5112478624	
595.625	0.918958806	0.3018106381	
596.25	-0.021642342	-0.1511641621	
596.875	0.4817854123	0.4950843003	
597.5	0.5394722271	-0.0718251515	
598.125	-0.00486035753	0.4268138583	
598.75	0.7611781359	0.2063206419	
599.375	0.2102164032	-0.03809085171	
600.0	0.6505743814	-0.1642661357	
600.625	0.3318467604	-0.6324808827	
601.25	0.0449247353	-0.2559370082	
601.875	-0.01724351016	-0.4257155279	
602.5	-0.3288243015	-0.04017652488	
603.125	-0.2841852672	0.1855290483	
603.75	-0.1896715154	0.01997986094	
604.375	-0.4292623411	0.1980820986	
605.0	0.04452692873	0.2240152417	
605.625	-0.3967793728	0.04942674928	
606.25	-0.1211729852	0.323658376	
606.875	-0.3718869697	-0.1516219104	
607.5	-0.6682814619	0.8021127111	
608.125	0.1446855076	0.2366139914	
608.75	0.122875149	0.7421598263	
609.375	0.7810054951	-0.3636306923	
610.0	0.2572697805	0.1018686876	
610.625	0.4121610524	-0.5455308724	
611.25	-0.1428997687	-0.2153184491	
611.875	-0.02361001493	-0.5734964587	
612.5	-0.4011223746	0.122665759	
613.125	-0.4382331049	-0.2145728419	
613.75	-0.2539991529	0.5537869934	
614.375	-0.01440886102	0.03568603926	
615.0	0.2640547582	0.2658368157	
615.625	-0.1839226876	-0.1266086336	
616.25	-0.2638658777	0.6231671652	
616.875	0.1361545187	0.3577347728	
617.5	-0.5098597085	0.3905876389	
618.125	0.1037325352	0.7550091394	
618.75	0.04738180297	0.1717567365	
619.375	0.1186189581	0.6733277373	
620.0	0.4155928769	-0.03207943074	
620.625	0.4020347805	-0.2324104588	
621.25	-0.2969817685	-0.4248876339	
621.875	-0.3272146691	-0.3258879748	
622.5	-0.6112207702	0.1882949338	
623.125	-0.124798357	0.2186706515	
623.75	0.3909594883	0.312833453	
624.375	-0.1314219131	-0.2236979616	
625.0	0.4526478962	0.02284976694	
625.625	-0.3602728133	-0.1895617394	
626.25	0.2436848221	-0.3048437553	
626.875	-0.5768879526	-0.3208787435	
627.5	-0.1651345229	0.1228459502	
628.125	-0.1853556729	-0.4891339578	
628.75	-0.3628149673	-0.1195523065	
629.375	0.06148472962	-0.3949169374	
630.0	-0.6210176594	-0.3589991573	
630.625	-0.3255063598	0.2848592818	
631.25	-0.4735921116	0.2018089016	
631.875	-0.128152814	0.7449656683	
632.5	0.3558115383	0.4837351911	
633.125	0.4319530012	0.04780761506	
633.75	0.4320177195	0.1295305251	
634.375	0.02431190044	-0.5385058806	
635.0	0.160076708	-0.191188902	
635.625	-0.4903274124	-0.3727406097	
636.25	-0.09360574322	0.2647994953	
636.875	-0.500286544	0.1568336021	
637.5	0.1575080951	0.4818640281	
638.125	-0.200657931	-0.2504836635	
638.75	-0.4695088463	0.7713760543	
639.375	0.394296948	0.4903450332	
640.0	-0.06964889169	0.3802241797	
640.625	0.6799049998	0.7012472671	
641.25	0.6351854836	-0.3167019068	
641.875	0.4767213325	0.01631969267	
642.5	-0.2508876063	-0.9344321932	
643.125	-0.03447285797	0.01354510974	
643.75	-0.331153481	-0.6152136269	
644.375	-0.5342724495	0.3445012664	
645.0	-0.08850016077	0.06765223667	
645.625	-0.2850732318	0.6574353548	
646.25	0.7457294987	0.2220607158	
646.875	-0.1104532732	-0.2610128143	
647.5	0.4314069458	0.4995787727	
648.125	-0.04431300179	-0.3516986886	
648.75	0.9587700697	0.4046344062	
649.375	0.481432036	-1.138914857	
650.0	-0.04461983525	-0.2045303616	
650.625	1.194450225	-0.5060763381	
651.25	0.1212911005	-1.362629539	
651.875	0.1179590689	0.1941625832	
652.5	1.24829016	0.05886478772	
653.125	0.5186889526	-0.7418404714	
653.75	0.377581576	0.0838229483	
654.375	-0.07655768673	-1.250324243	
655.0	-0.6860221598	0.1598785109	
655.625	-0.3706513157	-0.1266256759	
656.25	-0.1346463254	0.9232205232	
656.875	0.3334584264	-0.322778098	
657.5	-0.1521605994	0.5803937372	
658.125	0.5843457228	0.3425002303	
658.75	0.4415263521	0.00631948982	
659.375	1.019066891	0.1740489167	
660.0	0.4312690023	-1.174101065	
660.625	0.215147231	-0.3454558995	
661.25	0.8441242723	-0.6412280302	
661.875	0.3609688638	-1.152770694	
662.5	0.1327030374	0.04714503005	
663.125	1.283971521	-0.3707643912	
663.75	-0.04029388539	-0.9113784099	
664.375	0.2984590384	-0.4032322017	
665.0	-0.9285948877	-0.899161457	
665.625	-0.3117337673	0.3431976011	
666.25	-0.6717143503	0.4623048893	
666.875	0.5093942684	0.7086792766	
667.5	0.2551722108	-0.07829456007	
668.125	0.5595907873	0.437804096	
668.75	0.5762248748	-0.6235855367	
669.375	0.0739794068	-0.3944544048	
670.0	0.247756593	-0.409765232	
670.625	-0.06055101346	-0.7292688631	
671.25	0.09260594241	-0.08718379669	
671.875	0.4904792088	-0.5275947586	
672.5	0.332280193	-0.4975949858	
673.125	0.3959682579	-0.05080783236	
673.75	0.8901913466	-0.6799877891	
674.375	-0.4269014243	-0.757138474	
675.0	0.3128579575	-0.1615398534	
675.625	-0.5992300601	-0.805981874	
676.25	-0.5066444822	0.4466956963	
676.875	-0.1803192551	-0.6201466571	
677.5	-0.54065688	0.5960741507	
678.125	-0.1750579272	-0.1396690375	
678.75	-0.2329351321	1.061653401	
679.375	0.6277033438	-0.3384329948	
680.0	0.1328163269	0.1520103446	
680.625	0.5229048692	-0.1855130192	
681.25	0.102443528	-0.3675223584	
681.875	0.01218485026	0.2972466601	
682.5	0.7040711639	0.4509050853	
683.125	0.6414394192	-0.08982887958	
683.75	0.2910820617	0.2033820567	
684.375	0.9986075066	0.49878503	
685.0	0.470999274	-0.4809866977	
685.625	0.681693798	0.6507114344	
686.25	1.178052989	-0.4768079081	
686.875	-0.1048681252	-0.1998799968	
687.5	1.647101646	-0.2517887648	
688.125	-0.8281329423	-1.595953256	
688.75	-0.005324637808	-0.4358304527	
689.375	-1.500356355	0.9442495937	
690.0	0.6416665457	0.6445063722	
690.625	-0.08530389223	1.078579062	
691.25	1.219121799	0.3716937547	
691.875	0.6506314042	0.7058452215	
692.5	1.480692053	0.8137439177	
693.125	1.627545896	-0.2862539388	
693.75	1.275840753	-0.4920285711	
694.375	0.9973466351	-0.8583413169	
695.0	1.120350274	-0.3431581384	
695.625	1.43077998	-0.5637440221	
696.25	0.6140986222	0.3222787094	
696.875	1.252517031	1.72236733	
697.5	1.102158159	0.4716773424	
698.125	0.9409765912	1.374709599	
698.75	1.524458602	-1.706221062	
699.375	-0.473629714	-0.2210782839	
700.0	-1.688336886	0.6592470381	
700.625	0.8375902806	0.5943121858	
701.25	-0.09207869079	0.775368653	
701.875	1.212179775	0.4563888458	
702.5	0.2724879694	0.569483647	
703.125	1.252858924	0.5555388138	
703.75	0.5233943041	-0.588512517	
704.375	0.9985734549	-0.03977913852	
705.0	0.4726277262	-0.7059495687	
705.625	0.1552740686	0.4143472104	
706.25	1.315106162	0.6649346461	
706.875	0.3187147738	0.2344140433	
707.5	0.4006817425	1.350778091	
708.125	1.508993633	0.03598333918	
708.75	0.6081985656	-0.3195640806	
709.375	-0.684033581	-1.324202522	
710.0	-0.2085896652	0.6819034333	
710.625	-0.2547514905	0.3814108352	
711.25	0.4536735034	0.2722840609	
711.875	0.3356200424	0.3421004179	
712.5	0.788722375	-0.0107109876	
713.125	0.6682382064	-0.1185410099	
713.75	0.4541965517	-0.8553426892	
714.375	-0.2338900989	-0.1160729624	
715.0	0.3284846356	-0.9173148039	
715.625	-0.3910380629	-0.3823930541	
716.25	0.8793278786	-0.06042487122	
716.875	1.269559042	-1.399882802	
717.5	-0.07744161201	0.08664525988	
718.125	2.902012506	1.261353162	
718.75	2.333616961	-1.699851285	
719.375	0.5749387736	0.4440837558	
720.0	3.411295549	-3.39100675	
720.625	-0.9480710931	-2.17006879	
721.25	1.013262294	-2.344538085	
721.875	-0.5074717933	-3.77114641	
722.5	-1.483904982	-1.035524817	
723.125	-1.868766627	-1.459755881	
723.75	-1.121662125	1.535936643	
724.375	0.1816371501	0.7949646446	
725.0	0.1065006595	0.7820664596	
725.625	0.4277816425	1.780029266	
726.25	1.032606628	1.18045462	
726.875	-1.367612898	1.662256692	
727.5	-0.5984533138	5.519466341	
728.125	2.84750468	3.722011729	
728.75	-8.164441983	5.162096998	
729.375	1.882883488	16.02986399	
730.0	1.382273817	1.630091985	
730.625	-13.87482043	14.11845829	
731.25	10.65610539	14.66907122	
731.875	-5.418275381	-2.783655175	
732.5	-12.82766716	1.077952753	
733.125	-7.607123398	2.983992264	
733.75	-1.029662799	1.088030417	
734.375	3.014303673	3.10653072	
735.0	-0.5614665912	-0.9490484428	
735.625	-0.8557208336	-0.4701674562	
736.25	-0.3922287063	2.362432185	
736.875	1.356310509	0.1048595455	
737.5	1.512850177	1.917189571	
738.125	5.909582857	-0.4281845514	
738.75	4.319464503	-7.466839567	
739.375	-0.9182344111	0.4903622773	
740.0	24.5664228	-1.156296673	
740.625	4.413630066	-21.77741174	
741.25	-13.06577221	12.31642344	
741.875	-6.535241116	16.23317172	
742.5	10.42291602	-0.9175198991	
743.125	1.276348995	-14.93235745	
743.75	-2.233168534	-3.111910658	
744.375	-0.0114253941	-0.2207020282	
745.0	-0.4025352532	0.7238388223	
745.625	-0.1921606223	-0.3042517661	
746.25	0.1662291771	-0.5589564596	
746.875	-0.4061407316	-0.01169335126	
747.5	-0.1052599275	0.6164618456	
748.125	0.4253921981	1.762685209	
748.75	1.22578381	1.041831519	
749.375	-0.2078517278	1.090554174	
750.0	-0.2182256803	1.649818593	
