!Created with skrf (http://scikit-rf.org).
# GHz S MA R 50.0 
!freq magS11 angS11
500.0 0.017818621875 -179.50587614
500.625 0.00856062404841 136.970519449
501.25 0.018552246569 -164.32549467
501.875 0.0168340320099 -98.1308756927
502.5 0.0205342161041 165.506276925
503.125 0.00986779429835 61.5278662156
503.75 0.0119301325434 -31.4357331945
504.375 0.00173107739562 -153.123057106
505.0 0.0160046902041 -61.9596474673
505.625 0.0363746714081 -75.6622923618
506.25 0.0412283075584 -107.271255532
506.875 0.0630560228444 -97.6376953439
507.5 0.0421481297145 -124.934731443
508.125 0.0442817755903 -103.316072599
508.75 0.0905841655542 -117.995551607
509.375 0.047769945078 -178.412896117
510.0 0.0261325575114 -133.481008496
510.625 0.0363776025556 -164.527454597
511.25 0.0741315993861 -171.958146422
511.875 0.055222844812 145.35738014
512.5 0.0429977520025 103.986108306
513.125 0.0633086890052 49.3274795031
513.75 0.074485959779 46.6298143108
514.375 0.0400112889256 16.8158568449
515.0 0.0486191633226 4.63520675581
515.625 0.0882951928802 48.4081206022
516.25 0.111281299248 28.4563545909
516.875 0.0889155679239 67.1099739785
517.5 0.116379373331 17.5610151672
518.125 0.197831290165 67.4292611663
518.75 0.0914904908166 13.0738072663
519.375 0.0729151314395 19.5772808251
520.0 0.106787898481 -3.89963935242
520.625 0.107633644602 -6.80478098248
521.25 0.0955032272123 -22.2384802018
521.875 0.0587509250707 -6.29203690912
522.5 0.0897625259758 -37.3377041702
523.125 0.181829017598 -36.1240786608
523.75 0.236827188316 -55.2761072783
524.375 0.19258974942 -65.5373268882
525.0 0.0711771383709 -45.9386918211
525.625 0.0457371762356 -27.5473893829
526.25 0.0440049133624 -16.3453191622
526.875 0.0571528182695 -22.8538526808
527.5 0.0559536992864 -27.4147931849
528.125 0.0442244469009 -58.9093443372
528.75 0.0757883901822 -74.0238722038
529.375 0.0946576829715 -110.429883024
530.0 0.0469458459363 -141.300354
530.625 0.0484588119355 -155.46572472
531.25 0.0857351474722 -129.701628705
531.875 0.177632451462 -151.075620526
532.5 0.143427433198 -174.516477205
533.125 0.103843920097 173.76051673
533.75 0.123575423109 164.422197225
534.375 0.11842847586 177.056873771
535.0 0.0894748462198 162.14642192
535.625 0.0675814004728 175.622784769
536.25 0.0567601676604 159.299877098
536.875 0.0798459021992 -163.151915777
537.5 0.0914120881839 -147.287541903
538.125 0.116520562786 -177.798549289
538.75 0.100695377609 176.75508681
539.375 0.0805561224625 -165.463560947
540.0 0.0989780001687 -158.990767345
540.625 0.145189547812 -162.493861115
541.25 0.105648213271 -143.1112229
541.875 0.0950737145088 -144.105926124
542.5 0.102141677691 -142.403520322
543.125 0.149346803756 -170.285222654
543.75 0.122946325864 157.567381493
544.375 0.0999828373139 134.809122873
545.0 0.0899573491135 89.9445656893
545.625 0.103719484062 81.3898653752
546.25 0.104706807318 64.7276131211
546.875 0.0794845648213 52.4775034719
547.5 0.120725112243 55.4838562916
548.125 0.13418281938 74.8591591608
548.75 0.0789914553137 88.0127671608
549.375 0.102245143331 83.2534578086
550.0 0.0945664856338 123.108925339
550.625 0.053196825483 151.07360252
551.25 0.0443446174629 -154.476368335
551.875 0.0654354465382 -167.054192637
552.5 0.118724583005 -171.445493745
553.125 0.0970150362867 -173.231445929
553.75 0.0896407047846 -171.845326737
554.375 0.108254155557 164.251069176
555.0 0.132372422881 160.327027609
555.625 0.100404031801 155.792370635
556.25 0.106187706854 156.609738046
556.875 0.106261164084 167.301320448
557.5 0.117548172856 165.084985592
558.125 0.0946290955772 162.659054133
558.75 0.0921486232363 173.466162077
559.375 0.06938652119 -176.968028796
560.0 0.0494763706601 -153.940303406
560.625 0.0581641336351 -144.365452041
561.25 0.0917306240209 -157.966670119
561.875 0.10456637702 -165.326189055
562.5 0.0910145267504 173.293086444
563.125 0.106429788038 142.537674473
563.75 0.136959203287 127.187593721
564.375 0.108236259482 117.905509069
565.0 0.0926320311609 116.479414767
565.625 0.0840674041641 114.33360335
566.25 0.103780548381 145.188736951
566.875 0.0707118330413 -178.920647496
567.5 0.0716781902094 -178.494476262
568.125 0.0752601924202 -171.724476001
568.75 0.0783279882782 -157.233785683
569.375 0.0475316966702 -108.50317381
570.0 0.0598115909979 -112.61919987
570.625 0.089393547423 -118.341199172
571.25 0.0937809755433 -127.984642401
571.875 0.0849855922101 -122.746719807
572.5 0.112925003106 -156.820879604
573.125 0.133948444753 -174.548356311
573.75 0.112293531553 156.516815805
574.375 0.0769566132747 153.502135569
575.0 0.102348026443 154.136802234
575.625 0.110244775189 152.598211665
576.25 0.0949046022578 141.484202004
576.875 0.0815447095435 124.989135774
577.5 0.0858951062216 133.190148048
578.125 0.0627399542479 155.704920228
578.75 0.0529564179577 151.125710907
579.375 0.0525647420753 169.512840145
580.0 0.0660687625258 179.900494429
580.625 0.0753759657684 -149.576800364
581.25 0.085958616082 -172.545583878
581.875 0.114239181715 -176.274864083
582.5 0.117924931997 -177.998551049
583.125 0.0988257767885 -176.090857275
583.75 0.0836779966674 -173.436513908
584.375 0.100340488749 -163.221877907
585.0 0.0942357173155 -146.522083415
585.625 0.0730797610612 -151.511580108
586.25 0.0728922106611 -152.907890383
586.875 0.0806547922225 -133.007183573
587.5 0.0744457484987 -146.533501815
588.125 0.0607950988605 174.69286359
588.75 0.0675477091561 -178.273822344
589.375 0.0867468120305 -156.643234735
590.0 0.0930643305427 -169.862142213
590.625 0.103981101552 160.193164982
591.25 0.122154693122 149.969399883
591.875 0.105740188303 148.315035796
592.5 0.0637554191413 145.844144649
593.125 0.0623731631827 142.139379674
593.75 0.0780497637282 161.838708819
594.375 0.0588374485313 -160.717150545
595.0 0.0419345666266 -126.302988889
595.625 0.0575809754673 -107.616262863
596.25 0.0735958357942 -91.4426515939
596.875 0.0641694770107 -86.7725651851
597.5 0.0602058543215 -61.8467007869
598.125 0.0565451560582 -72.3806936727
598.75 0.0679491685914 -78.0035904636
599.375 0.0903881013138 -63.6249534227
600.0 0.103774190599 -69.3207160779
600.625 0.097368634893 -66.9442025548
601.25 0.0851818440954 -81.9701802464
601.875 0.0680706479055 -93.155063491
602.5 0.0649465502758 -89.347843095
603.125 0.0473564954693 -69.6596643668
603.75 0.0313879933165 -42.2716585755
604.375 0.0276470912941 -49.7076439614
605.0 0.0757388014965 -8.60081866406
605.625 0.0527162006956 -13.1664522979
606.25 0.023925594242 13.9348346383
606.875 0.0146359155491 39.0897468912
607.5 0.0553840227241 38.9791972282
608.125 0.0747831823402 24.3931618161
608.75 0.0595545619027 16.736300321
609.375 0.0438473652138 16.7575806832
610.0 0.0892665355762 50.7611208118
610.625 0.0653071495577 33.3366957664
611.25 0.0533871155383 35.511003495
611.875 0.02881801984 5.98643792494
612.5 0.0194050737049 90.6842062579
613.125 0.0250113082771 122.667261205
613.75 0.0314953856698 124.038015673
614.375 0.042022103121 116.779781939
615.0 0.0176041517572 98.7994823315
615.625 0.0355002320405 132.853502094
616.25 0.0621639028609 131.403703386
616.875 0.0497639896959 129.943318293
617.5 0.0200173513316 105.841779698
618.125 0.0263375606818 127.688571309
618.75 0.0400968863771 134.989943354
619.375 0.0181524998308 137.726454403
620.0 0.00584243690144 -5.77079978398
620.625 0.0217180841049 -83.1142383566
621.25 0.0478480672896 -82.6352394747
621.875 0.0594374621939 -107.600099755
622.5 0.0693376983409 -152.765819241
623.125 0.0847762693968 162.562061556
623.75 0.0682781806521 158.969069057
624.375 0.0410327753431 -176.946586598
625.0 0.0310363135643 -106.458915911
625.625 0.0653957665122 -162.422705305
626.25 0.0221910420343 171.969106281
626.875 0.0068664491254 -113.888515346
627.5 0.0524122541067 -12.6012311289
628.125 0.0398010502247 -26.863581669
628.75 0.0389842999058 -11.6677368203
629.375 0.0552255437161 -6.75586911496
630.0 0.0692816972318 -0.665016735531
630.625 0.0712272333096 -0.18210462671
631.25 0.0665871639755 -8.12096118282
631.875 0.0718091276853 -10.9411325838
632.5 0.0739489421716 11.3923697168
633.125 0.04843724275 3.62635208533
633.75 0.0428618226636 3.29673176712
634.375 0.0488091195633 24.4829432441
635.0 0.0374514983884 25.9712704209
635.625 0.0554398899497 45.0895599837
636.25 0.0384456143377 12.7617302504
636.875 0.0642417238164 36.5281525236
637.5 0.0534045195717 48.9198160302
638.125 0.0498512573858 66.3731651874
638.75 0.0709277819411 68.7083722259
639.375 0.0956765597317 91.6932547698
640.0 0.0785291667215 107.576617618
640.625 0.057579544101 105.026066569
641.25 0.080616421326 125.081065721
641.875 0.0715810377177 149.465825805
642.5 0.0583741233818 145.531342377
643.125 0.0740627465724 159.650555651
643.75 0.0668669352673 163.132627611
644.375 0.0772311621687 -175.186636181
645.0 0.0825896220673 173.284037818
645.625 0.0938692787411 166.209017858
646.25 0.101571162329 162.811439018
646.875 0.071843605216 173.355129303
647.5 0.0675179701133 -177.448005806
648.125 0.0871893271756 -178.131027404
648.75 0.092297784407 -160.949744905
649.375 0.0416296226367 -163.605047308
650.0 0.0399161493661 -125.451017159
650.625 0.0575404519536 -95.2866203122
651.25 0.0836120420774 -70.0146522071
651.875 0.0479840301155 -45.3403260665
652.5 0.088524101538 -26.843273854
653.125 0.114441008185 -7.70150149515
653.75 0.123632007864 4.10028272567
654.375 0.111142691119 4.06024739017
655.0 0.127201130598 10.1610546396
655.625 0.10192384036 23.4094448842
656.25 0.0753484049723 20.0356714599
656.875 0.0516343444462 -3.95900667944
657.5 0.0816436681996 18.6349342756
658.125 0.0795258697778 41.5424626416
658.75 0.0651787407723 54.8249337276
659.375 0.0769529755251 37.8774307951
660.0 0.118340198573 21.0363866714
660.625 0.121133145582 13.9612796787
661.25 0.111884821546 1.62449581378
661.875 0.13505349054 -17.1562537816
662.5 0.130750986833 -24.4056046123
663.125 0.101493640784 -22.4559941133
663.75 0.11259416389 0.742198811514
664.375 0.0936915416598 47.5538436503
665.0 0.0689125987218 86.8673788746
665.625 0.067511680903 107.84658106
666.25 0.0920784648354 124.445908508
666.875 0.114562294214 166.987867523
667.5 0.0958439379131 -170.33442857
668.125 0.104839001567 177.663912789
668.75 0.138713870381 161.361380179
669.375 0.107906169462 173.44468806
670.0 0.0818713014527 -173.056139541
670.625 0.0847778054861 -174.045690483
671.25 0.128460439091 167.407572108
671.875 0.0860739161944 165.067687205
672.5 0.0837754384064 150.912243966
673.125 0.0743933553007 149.964757458
673.75 0.12086327759 151.512493177
674.375 0.11269789401 165.113658724
675.0 0.11780299806 -178.099367118
675.625 0.125169392685 -154.635083154
676.25 0.133517420438 -130.491142054
676.875 0.109967508946 -120.987248641
677.5 0.121842994808 -131.31885848
678.125 0.120182694334 -123.462240115
678.75 0.0850664625484 -99.6731010055
679.375 0.0445627122505 -71.7604277802
680.0 0.0783851433965 -83.7348669854
680.625 0.128938915066 -85.1169767264
681.25 0.109913705035 -78.4738027077
681.875 0.103850409376 -99.44666359
682.5 0.12538429754 -120.784682047
683.125 0.162300897899 -123.025829806
683.75 0.13181242031 -107.517444901
684.375 0.127885919931 -85.6061369883
685.0 0.136186298273 -43.1595318473
685.625 0.130004459765 -5.40469875158
686.25 0.116573118254 15.2112466101
686.875 0.10228690432 37.1756478079
687.5 0.0679003572281 79.4418478866
688.125 0.0824387612473 104.712596686
688.75 0.102643400579 105.282895609
689.375 0.146904640799 110.617275156
690.0 0.143041600118 126.243616509
690.625 0.122558040798 122.624724766
691.25 0.144426860407 91.9773759149
691.875 0.194863498196 62.9346728092
692.5 0.161352505702 33.502772969
693.125 0.0786918817763 -12.8004903363
693.75 0.0958993360636 -44.2267751022
694.375 0.1280172486 -32.7547819771
695.0 0.139253400579 2.82905148059
695.625 0.107132595406 46.6396322688
696.25 0.115055374537 107.90449644
696.875 0.137269060396 170.583272849
697.5 0.136145696009 -146.279886755
698.125 0.147464725478 -142.145444876
698.75 0.131623946345 -136.22103122
699.375 0.112659529688 -131.362876545
700.0 0.101510757476 -122.467360791
700.625 0.107414763679 -92.5654098744
701.25 0.103823127472 -72.4724969643
701.875 0.0843594354434 -70.7529800361
702.5 0.0967855220761 -90.9282682807
703.125 0.168060912348 -133.041358236
703.75 0.17580044399 -152.264840461
704.375 0.128244051397 170.486982641
705.0 0.105336534444 157.189030712
705.625 0.146493702345 177.627693903
706.25 0.139895302318 -115.527740582
706.875 0.0959867275541 -67.2899036164
707.5 0.0808844919424 -49.0981197152
708.125 0.0914105955964 5.950472771
708.75 0.110801768926 56.215196014
709.375 0.105816983003 97.8164473425
710.0 0.103326729397 125.040926599
710.625 0.104937932964 150.438705914
711.25 0.116879042085 164.291899844
711.875 0.142005910817 163.357375997
712.5 0.154542302797 134.962473821
713.125 0.134201829043 91.0091526322
713.75 0.109574637915 35.8466832509
714.375 0.112018307478 22.6868671871
715.0 0.118558870562 26.1409160692
715.625 0.0834285724659 51.5357369113
716.25 0.0720471161607 58.5447767572
716.875 0.124886103508 109.488122017
717.5 0.141390932936 136.739352716
718.125 0.118784838699 159.35689079
718.75 0.100818924732 165.506089521
719.375 0.107828664414 174.161652708
720.0 0.140046815061 -120.177075668
720.625 0.120782932499 -72.398640515
721.25 0.100098529091 -28.9325184024
721.875 0.079269736783 30.7174262077
722.5 0.0720210171257 59.219281444
723.125 0.0738167641139 64.6790659903
723.75 0.103883453151 33.861661978
724.375 0.0985959532757 -17.7218242827
725.0 0.0917514248861 -44.5406491449
725.625 0.111043927358 -64.6935743928
726.25 0.117029534004 -68.2506988625
726.875 0.0964477099824 -71.9604273931
727.5 0.093136076285 -21.5151734799
728.125 0.0778652448707 -10.8114547361
728.75 0.0779681843874 1.62562390447
729.375 0.0827142939522 9.92840381286
730.0 0.0581659557399 -17.6091539861
730.625 0.0894775343728 30.8914218506
731.25 0.0857509617049 66.1258223725
731.875 0.068871262168 110.629938643
732.5 0.0477769821391 134.807027553
733.125 0.0884437327033 171.352580835
733.75 0.0917783089855 174.779373385
734.375 0.0571437088851 162.949914446
735.0 0.0345420741347 119.153817692
735.625 0.0505901692719 135.621775253
736.25 0.0527037476908 140.897191326
736.875 0.0426350771088 168.640621262
737.5 0.0509192243337 -175.764676466
738.125 0.125100101246 -173.704526081
738.75 0.0910867041803 -172.29420872
739.375 0.0528598346879 -169.327541417
740.0 0.0113623643741 -61.2952806117
740.625 0.0522048161042 -149.090613092
741.25 0.0373852120423 -154.568215217
741.875 0.0251923314885 -111.700432285
742.5 0.0252212963546 -19.6472479581
743.125 0.0269242089913 78.3921955748
743.75 0.0335484028721 111.688731198
744.375 0.0414148002915 137.885746797
745.0 0.0515480392597 160.529623714
745.625 0.069080468972 113.403415006
746.25 0.0704079447773 87.1369297917
746.875 0.0675452743672 32.8685449995
747.5 0.0364399725388 11.787414672
748.125 0.0171795583317 62.0548768708
748.75 0.0418446010057 -36.7496623714
749.375 0.0326100022405 -20.688855821
750.0 0.0385570926627 -70.5477443996
