!Created with skrf (http://scikit-rf.org).
# GHz S RI R (50+0j) 
!freq	ReS11	ImS11	
500.0	-1.060764046	-3.775874305	
500.625	1.239497689	-1.854118292	
501.25	-2.176579088	-2.599546887	
501.875	-1.570514141	-0.9958993306	
502.5	-0.1977188758	-0.02818159417	
503.125	-0.3211600294	-0.1153648079	
503.75	0.3566035009	0.228435534	
504.375	0.05529522073	0.1099275597	
505.0	-0.02884846935	-0.2264173563	
505.625	0.2423611888	0.01599531255	
506.25	-0.6925599981	-0.3124120984	
506.875	0.6122554402	-0.4756083353	
507.5	-0.4480649942	-2.184229545	
508.125	-1.48693301	-2.242757819	
508.75	1.78775461	-0.9906812848	
509.375	-0.01564174038	-5.741856729	
510.0	-1.507129988	0.3674023523	
510.625	-0.2503572437	-0.8168190465	
511.25	-0.3713339666	0.1377278115	
511.875	-0.138807686	-0.2922038265	
512.5	-0.09604080919	0.2062224298	
513.125	-0.1108744776	-0.2500185386	
513.75	-0.1492719547	0.01446190241	
514.375	-0.2341561025	-0.5121982631	
515.0	-0.4529127113	1.385226091	
515.625	0.2726319302	-4.081256027	
516.25	-2.722576612	0.2416947406	
516.875	1.053559938	-1.345323429	
517.5	-0.8758797562	-1.040492387	
518.125	0.331959987	0.0387032137	
518.75	-0.6258573322	-0.8033292567	
519.375	-0.06237079025	0.1255451656	
520.0	0.2818019436	0.3441522876	
520.625	0.6338044097	-0.2969053982	
521.25	-0.1913403611	-0.545587652	
521.875	-0.4227836535	-0.3297685258	
522.5	-0.0924606612	0.1756739725	
523.125	-0.2828776021	-0.01224100517	
523.75	-0.07998439727	0.1263969143	
524.375	-0.6539832419	-0.05078506153	
525.0	0.2975182146	0.2651093652	
525.625	-0.1506473435	0.1462282222	
526.25	0.1936697059	-0.1432716026	
526.875	-0.3666388227	0.2775972237	
527.5	0.2630876603	0.5154608302	
528.125	-0.2519507042	0.5943025796	
528.75	0.2437157641	1.162752324	
529.375	-0.03394649919	-0.06448283755	
530.0	0.3949916657	0.6662495775	
530.625	-0.1542870235	0.6140852096	
531.25	1.754332141	0.3338806854	
531.875	-0.06947710038	-0.2735453847	
532.5	0.136359891	-0.7154710906	
533.125	-0.1321577802	0.312352675	
533.75	0.4227684057	-0.9355657676	
534.375	-0.4365822502	-0.181703549	
535.0	-0.5814533118	-0.6884977566	
535.625	-0.3564469366	0.6239382098	
536.25	-0.05899721845	0.1186993822	
536.875	0.3208322822	0.146460847	
537.5	0.1286527718	-0.2150343959	
538.125	0.2873370754	0.0581907901	
538.75	0.3629961186	-0.5027424235	
539.375	-0.1118279793	-0.2398604741	
540.0	-0.3792284938	-0.580679026	
540.625	-0.4745284385	0.1700815751	
541.25	-0.08375328388	-0.1044179231	
541.875	-0.1798442292	-0.08934406985	
542.5	-0.1944752357	-0.05728784006	
543.125	0.002026932261	-0.1072322086	
543.75	-0.4213106587	-0.0992692665	
544.375	0.1905351295	0.1136047984	
545.0	-0.2113369139	0.2529859247	
545.625	0.2823859804	-0.03280780872	
546.25	0.009839040248	0.3510061998	
546.875	0.4568489138	-0.3404395481	
547.5	0.09026625682	-0.03104002863	
548.125	0.07144534655	-0.5799363748	
548.75	-0.4983068585	-0.2540801697	
549.375	-0.111436768	-0.0416699644	
550.0	-0.312028389	-0.116439231	
550.625	-0.02115093539	0.1176970056	
551.25	-0.2958151263	-0.05388134926	
551.875	-0.09212417179	0.2922437248	
552.5	-0.1607156745	0.07846878433	
553.125	-0.03681856861	0.226975224	
553.75	0.1015385573	0.09793005735	
554.375	0.2341348996	0.03996935245	
555.0	0.2657238195	-0.1834757558	
555.625	0.2024358981	-0.2571049946	
556.25	0.1901016102	-0.3379042063	
556.875	-0.07823482772	-0.4186521981	
557.5	-0.2375984979	-0.2592993021	
558.125	-0.2656072546	-0.1063228414	
558.75	-0.2880476432	-0.02306370503	
559.375	-0.2477897313	0.07748501057	
560.0	-0.2374098515	0.1219549254	
560.625	-0.1681589764	0.316007806	
561.25	0.09663134908	0.2198516352	
561.875	-0.03893917887	0.1231252565	
562.5	0.1410231193	0.1078992227	
563.125	0.0462782332	0.2383618361	
563.75	0.4586608824	-0.05401047525	
564.375	0.1326945018	-0.1550281251	
565.0	0.3780351696	-0.3494971189	
565.625	-0.2113771199	-0.4175528403	
566.25	-0.1886889966	-0.1517032485	
566.875	-0.2739579251	-0.3418168182	
567.5	-0.5361257768	-0.2424507321	
568.125	-0.1484668865	-0.2140283286	
568.75	-0.6944505952	-0.4338722548	
569.375	-0.4497593045	0.4211022347	
570.0	-0.4307068699	0.2012791727	
570.625	-0.1875712546	0.747485162	
571.25	0.14602637	-0.02427559248	
571.875	0.01361618059	0.538946884	
572.5	0.3104067119	-0.37884357	
573.125	0.1570074087	0.07593831257	
573.75	0.401008093	-0.4680374741	
574.375	-0.2778798987	-0.1455691953	
575.0	0.3851696936	-0.01175730616	
575.625	-0.2143542755	-0.2832630332	
576.25	0.3474651162	0.0138965244	
576.875	-0.03980842271	-0.6496128627	
577.5	-0.2592599578	-0.2542551078	
578.125	0.137770467	-0.253913562	
578.75	-0.1744847084	-0.5489393944	
579.375	-0.4351768369	-0.01756088997	
580.0	0.1629253758	-0.07511415845	
580.625	-0.4700544156	-0.05817761329	
581.25	0.03656649742	0.03163983635	
581.875	-0.3429990407	0.4948980567	
582.5	0.4665965172	0.4419976509	
583.125	-0.03493204666	-0.1668126176	
583.75	0.1499412037	0.5240764631	
584.375	0.02709813686	-0.363591569	
585.0	0.2044546458	0.5954418889	
585.625	0.5554653681	-0.2669243831	
586.25	0.04998292347	0.003084948124	
586.875	0.4942854337	-0.4078619179	
587.5	-0.3211805168	-0.2207350942	
588.125	0.2446630983	-0.2408811086	
588.75	0.1263662408	-0.6344341823	
589.375	-0.1077000585	-0.2474179962	
590.0	0.2018660651	-0.4824655024	
590.625	-0.625744196	-0.1693722341	
591.25	-0.1856704176	0.3347407242	
591.875	-0.16763906	0.07866006567	
592.5	0.02388614678	0.3499915475	
593.125	-0.2289158143	-0.1002867355	
593.75	0.305306475	0.396418753	
594.375	0.2363511978	0.0510817635	
595.0	0.1762355717	0.5330548486	
595.625	0.883690843	0.2287647449	
596.25	-0.04004629206	-0.1204809	
596.875	0.555285403	0.508038609	
597.5	0.5433400889	-0.05076960761	
598.125	0.0261402667	0.3814265734	
598.75	0.7262182942	0.2423770883	
599.375	0.2584449016	-0.080963196	
600.0	0.6760977547	-0.1875881924	
600.625	0.2982927383	-0.63384562	
601.25	0.04708113751	-0.2716812657	
601.875	0.002682451812	-0.4348278106	
602.5	-0.3567886756	-0.002266945002	
603.125	-0.2700234029	0.1718652572	
603.75	-0.1725481209	0.01406151742	
604.375	-0.4678430128	0.169680066	
605.0	0.09117823592	0.2134362218	
605.625	-0.4451049337	-0.02051415932	
606.25	-0.1100143612	0.3642335356	
606.875	-0.3731636458	-0.1514268954	
607.5	-0.6418477566	0.7877119472	
608.125	0.1369744386	0.1908193678	
608.75	0.1293836932	0.7499688299	
609.375	0.7411085673	-0.4538563231	
610.0	0.2493038006	0.04385980073	
610.625	0.3877622813	-0.6194953267	
611.25	-0.1293231836	-0.1908659919	
611.875	-0.0279000586	-0.6009701515	
612.5	-0.4198204527	0.04950045391	
613.125	-0.4356261964	-0.2315207697	
613.75	-0.2614247485	0.5208892466	
614.375	0.008069913597	0.03893734434	
615.0	0.3208962084	0.3440653919	
615.625	-0.1595398789	-0.1180769542	
616.25	-0.239707978	0.6207701434	
616.875	0.1588180818	0.3318347555	
617.5	-0.524248315	0.4326269851	
618.125	0.1262175244	0.7503665079	
618.75	0.01326916305	0.1827729983	
619.375	0.1471974538	0.6618341481	
620.0	0.4310206124	-0.03936506164	
620.625	0.4221650326	-0.2546930175	
621.25	-0.2988612973	-0.4108588651	
621.875	-0.3403070857	-0.3056068779	
622.5	-0.6116945003	0.2648090863	
623.125	-0.1114764648	0.209323812	
623.75	0.3718108067	0.2768077778	
624.375	-0.1245657665	-0.2141361367	
625.0	0.515019906	-0.006766600661	
625.625	-0.2922313404	-0.1472769073	
626.25	0.3137465529	-0.3827003434	
626.875	-0.6289228006	-0.2857842807	
627.5	-0.1624983534	0.1196565271	
628.125	-0.1456474601	-0.4331046612	
628.75	-0.3876537482	-0.1719858976	
629.375	0.0120022995	-0.3445598248	
630.0	-0.5749273242	-0.3806487749	
630.625	-0.3361232125	0.2677044199	
631.25	-0.5249451026	0.228431734	
631.875	-0.08792012594	0.7712525131	
632.5	0.3495873831	0.4155395696	
633.125	0.4197883581	0.1059538148	
633.75	0.4402374871	0.1171021149	
634.375	0.04504575997	-0.5788674326	
635.0	0.1512235461	-0.1193582934	
635.625	-0.524028811	-0.454323327	
636.25	-0.1230316656	0.3251575382	
636.875	-0.5732623522	0.0751189521	
637.5	0.1639144266	0.4829321923	
638.125	-0.2299320772	-0.1837341702	
638.75	-0.4324464846	0.7752403539	
639.375	0.4418143627	0.3607458451	
640.0	-0.1304778306	0.4706097489	
640.625	0.6852736997	0.6855790784	
641.25	0.6843544873	-0.3152335643	
641.875	0.3770748739	0.01660977889	
642.5	-0.1354164785	-0.9968921774	
643.125	-0.06243670397	0.03060481727	
643.75	-0.3400089174	-0.6029016496	
644.375	-0.4882394577	0.4009132988	
645.0	-0.1469791558	-0.04220339656	
645.625	-0.1898968659	0.7546379539	
646.25	0.7132725157	0.1793874451	
646.875	-0.0995931532	-0.2571593915	
647.5	0.3962425306	0.5130102643	
648.125	0.03212743325	-0.4039001279	
648.75	0.9363480428	0.492738824	
649.375	0.5029842912	-1.140192036	
650.0	-0.00874122833	-0.2119837359	
650.625	1.228281254	-0.5893608917	
651.25	0.002818010354	-1.345958164	
651.875	0.144149882	0.2133255833	
652.5	1.300930262	0.01849322018	
653.125	0.5374971081	-0.7292655532	
653.75	0.3073171075	0.06409735236	
654.375	-0.0506917184	-1.259101529	
655.0	-0.6756283044	0.158737435	
655.625	-0.4049465094	-0.138606877	
656.25	-0.07015666935	0.9683163229	
656.875	0.2711981961	-0.3569180437	
657.5	-0.1121865458	0.616143442	
658.125	0.5796926388	0.3418979761	
658.75	0.4733309011	-0.02243418048	
659.375	0.9203764898	0.2241575034	
660.0	0.5246226997	-1.238160558	
660.625	0.1616779031	-0.3363657786	
661.25	0.8279808838	-0.6619729242	
661.875	0.2744730886	-1.147711604	
662.5	0.257203036	0.165240729	
663.125	1.301313064	-0.4793613318	
663.75	-0.04098876609	-0.8941026328	
664.375	0.2485692204	-0.4001724189	
665.0	-0.8066554675	-0.911960665	
665.625	-0.4067826876	0.4279189999	
666.25	-0.6367424059	0.4391065405	
666.875	0.5306170653	0.6860923041	
667.5	0.177020729	-0.03018927621	
668.125	0.7174910104	0.3882755115	
668.75	0.4636655426	-0.6424077168	
669.375	0.08380570109	-0.3431815992	
670.0	0.2494926057	-0.4170578809	
670.625	0.02775922963	-0.7416222105	
671.25	-0.08944632823	-0.1241354418	
671.875	0.6027168395	-0.4378607111	
672.5	0.3753651712	-0.574845927	
673.125	0.3728385768	-0.05069840849	
673.75	0.7926339542	-0.7758876533	
674.375	-0.3640306982	-0.5744590621	
675.0	0.3182329856	-0.2815693818	
675.625	-0.6616935376	-0.7962962214	
676.25	-0.5065913195	0.4531162523	
676.875	-0.09784698406	-0.5042499222	
677.5	-0.6642866172	0.4699137404	
678.125	-0.1425816359	-0.04748729461	
678.75	-0.283926053	0.9353715387	
679.375	0.6739154614	-0.2756457278	
680.0	0.2354679017	0.2119986403	
680.625	0.5036689119	-0.2553297267	
681.25	0.0187048236	-0.3837320868	
681.875	0.06180072878	0.4677699019	
682.5	0.7765579503	0.3668722092	
683.125	0.6179705917	-0.06345686528	
683.75	0.2516654724	0.115314551	
684.375	0.9799505489	0.5990998446	
685.0	0.576181831	-0.6300610097	
685.625	0.5677265059	0.7247141299	
686.25	1.213159996	-0.4812567682	
686.875	-0.04420752468	-0.1465366389	
687.5	1.645585975	-0.3636791351	
688.125	-1.106041873	-1.446404944	
688.75	0.0348345652	-0.5013077941	
689.375	-1.464335489	0.8453989577	
690.0	0.6035542833	0.6414081496	
690.625	-0.05232603431	0.9788098299	
691.25	1.179502257	0.4754601393	
691.875	0.7036340104	0.6982266016	
692.5	1.545361302	0.8072645884	
693.125	1.661242612	-0.2621230745	
693.75	1.336930398	-0.2676451139	
694.375	1.021075432	-0.9683281252	
695.0	1.196879256	-0.4540581809	
695.625	1.467402089	-0.6044811285	
696.25	0.5679011487	0.2928986318	
696.875	1.277994759	1.752255152	
697.5	1.143193548	0.3076394897	
698.125	0.9252795108	1.483757093	
698.75	1.503843761	-1.685304057	
699.375	-0.3634557691	-0.2360725934	
700.0	-1.627048593	0.6091839608	
700.625	0.790688827	0.6101776891	
701.25	-0.1117977083	0.8000625926	
701.875	1.149840647	0.4736820423	
702.5	0.4469971447	0.5241368786	
703.125	1.304376522	0.5568022572	
703.75	0.5839739208	-0.5139578563	
704.375	0.963256399	-0.09584916417	
705.0	0.4637883062	-0.7828602236	
705.625	0.3220842471	0.306893273	
706.25	1.195680362	0.5828869488	
706.875	0.1618516518	0.09054168202	
707.5	0.4087661179	1.361372441	
708.125	1.4921079	0.08485849125	
708.75	0.6353735952	-0.3925222981	
709.375	-0.6437482504	-1.242653906	
710.0	-0.2537708146	0.6709847488	
710.625	-0.16833047	0.4189684246	
711.25	0.4253284162	0.2770460601	
711.875	0.3376420738	0.3109359317	
712.5	0.8439311545	0.03544024768	
713.125	0.6187076119	-0.2656918981	
713.75	0.4404470823	-0.8686909683	
714.375	-0.2342063843	-0.1549024808	
715.0	0.3304632406	-0.8529516032	
715.625	-0.5283271481	-0.3680498091	
716.25	0.8271296843	-0.03425976754	
716.875	1.300832231	-1.252367004	
717.5	-0.2379122968	0.1976867488	
718.125	2.895546545	1.10675662	
718.75	2.156901566	-1.818888252	
719.375	0.7194493178	1.166049611	
720.0	3.298220039	-3.612046083	
720.625	-0.8593829306	-2.064889091	
721.25	0.8685875143	-2.276020022	
721.875	-0.3582766215	-3.554479456	
722.5	-1.741282278	-0.9585055949	
723.125	-1.745483352	-1.509954785	
723.75	-1.065935342	1.495716286	
724.375	0.1967486287	0.7117987478	
725.0	0.07613940868	0.9197919544	
725.625	0.6169913455	1.610403578	
726.25	0.9180934947	1.073838379	
726.875	-1.295250291	1.682226214	
727.5	-0.5584699844	5.451267031	
728.125	3.511776478	3.653706721	
728.75	-7.562770193	5.184006271	
729.375	4.272223541	16.69517272	
730.0	1.003371235	1.316158016	
730.625	-13.5017616	23.42597547	
731.25	9.190631179	12.30161512	
731.875	-8.204648536	-1.930667998	
732.5	-13.32816361	2.140374585	
733.125	-7.570916242	2.791647024	
733.75	-0.7051508321	1.372438257	
734.375	2.527761864	3.151743989	
735.0	-0.7067792215	-1.107165685	
735.625	-0.8233814523	-0.4651413197	
736.25	-0.3402944877	2.400631013	
736.875	1.028169663	-0.0258917508	
737.5	2.143303619	2.311443278	
738.125	5.653561997	-1.209556516	
738.75	3.774270997	-6.414898909	
739.375	-1.476432728	0.5931217691	
740.0	27.33367501	-4.608278999	
740.625	4.6800331	-17.33410425	
741.25	-10.2602991	9.101809574	
741.875	1.21924856	21.83138892	
742.5	10.86557365	-5.037237664	
743.125	-0.5921768611	-15.38820432	
743.75	-2.744868266	-2.332458337	
744.375	0.2645826226	-0.483882996	
745.0	-0.3010774807	0.8451884625	
745.625	-0.1647150231	-0.1935594856	
746.25	0.2969634106	-0.3861617668	
746.875	-0.8500163865	-0.1189364095	
747.5	-0.01007967919	0.6953625995	
748.125	-0.1441090951	1.670116406	
748.75	1.268589527	1.236228366	
749.375	-0.004698037852	0.8173819407	
750.0	-0.5577973847	1.359317433	
