!Created with skrf (http://scikit-rf.org).
# GHz S RI R (50+0j) 
!freq	ReS11	ImS11	
500.0	-0.1364295479	-0.7122867578	
500.625	0.5941964416	-0.6092555725	
501.25	-0.615202717	-0.7277106646	
501.875	-0.1846439596	-0.1538127949	
502.5	0.02353121482	-0.1209354472	
503.125	-0.09478572473	0.03023657137	
503.75	0.02620909315	0.01961027443	
504.375	0.03740130113	0.01332891199	
505.0	-0.01264947046	-0.02559476092	
505.625	0.04360621102	-0.08049958362	
506.25	-0.1154254747	0.009546157545	
506.875	-0.1375878584	-0.2389064021	
507.5	-0.3977177857	-0.2644371886	
508.125	0.1246952175	-0.1643202433	
508.75	0.8151963972	-0.803894713	
509.375	-0.0009737144687	-1.569278925	
510.0	-0.4964445176	-0.001304371325	
510.625	0.0339052594	-0.1624159463	
511.25	-0.1667959149	-0.02145630495	
511.875	-0.01756467599	-0.08669806352	
512.5	0.003043840928	0.0655062322	
513.125	-0.008420364428	-0.0236175906	
513.75	-0.009100120352	-0.06392424551	
514.375	-0.1302878779	0.02394726087	
515.0	0.2304333139	0.06808770613	
515.625	-0.02413596669	-0.6125584047	
516.25	-0.06767457188	-0.1036027357	
516.875	0.133644657	-0.417931293	
517.5	-0.1123336857	-0.2179593409	
518.125	0.04291465643	-0.005092798602	
518.75	-0.1374806218	-0.03377472017	
519.375	-0.02979732218	0.009859525898	
520.0	0.1017696776	0.05762271786	
520.625	0.1667832161	-0.08527838655	
521.25	0.01935018927	-0.2242467558	
521.875	-0.05113622342	-0.0414780643	
522.5	-0.1133293197	0.02418593547	
523.125	0.07241749835	0.01107517922	
523.75	-0.1238506993	-0.1120755093	
524.375	-0.1119236285	0.1552362517	
525.0	-0.06364881747	-0.003364176305	
525.625	0.04076842721	0.1290858288	
526.25	-0.05145897839	-0.08283254946	
526.875	-0.0282786576	0.1062692895	
527.5	-0.02508395926	0.06403123613	
528.125	-0.06255181497	0.233948046	
528.75	0.09241503457	0.09319735114	
529.375	0.005541488557	0.002349725286	
530.0	0.03233594845	0.168482332	
530.625	0.1073242983	0.2701619913	
531.25	0.2139382908	0.1508123701	
531.875	0.2908104459	-0.2138891988	
532.5	-0.1803724193	-0.08765548205	
533.125	0.1508715993	-0.1234641541	
533.75	-0.06866663628	-0.1527484817	
534.375	0.01567904732	-0.2597713623	
535.0	-0.2955502984	-0.06146824085	
535.625	-0.07860700148	0.06873616921	
536.25	-0.03255422386	0.08467963792	
536.875	0.1148599693	-0.002551938451	
537.5	0.02149780859	-0.03027375475	
538.125	0.1301194762	-0.04275405847	
538.75	0.06941738413	-0.1419509397	
539.375	-0.01823295433	-0.1203334025	
540.0	-0.1657565924	-0.1540614012	
540.625	-0.1157687723	0.01889944884	
541.25	-0.07692921526	-0.05134333527	
541.875	-0.0857315653	0.02643097596	
542.5	-0.002430247174	-0.01376744013	
543.125	-0.06692875227	-0.09849504538	
543.75	-0.09382796783	0.0660182722	
544.375	-0.01792550882	-0.01797476193	
545.0	-0.004416254376	0.1037356173	
545.625	0.02597035868	0.001418293449	
546.25	0.1017261823	0.1058212451	
546.875	0.0778798135	-0.08178640681	
547.5	0.09456595454	-0.05577934388	
548.125	-0.06875825973	-0.1947646013	
548.75	-0.1121987782	-0.03947574695	
549.375	-0.05022413354	-0.07863153955	
550.0	-0.1103292234	0.01043727501	
550.625	-0.008331154301	0.01900298488	
551.25	-0.07845385764	-0.003520097392	
551.875	-0.04665694166	0.08603043209	
552.5	-0.03326290183	0.04131507852	
553.125	-0.002469710279	0.07135499726	
553.75	0.03241569752	0.03421545622	
554.375	0.09048191412	-0.001718950644	
555.0	0.07927566511	-0.07247658004	
555.625	0.07300790176	-0.0943826796	
556.25	0.05723912788	-0.1276767982	
556.875	-0.03994256927	-0.1430037601	
557.5	-0.09428245067	-0.08695515834	
558.125	-0.1043053461	-0.03477154197	
558.75	-0.1066710778	0.002679858906	
559.375	-0.09173706417	0.0290323729	
560.0	-0.09017185683	0.05866000184	
560.625	-0.04492291808	0.1177576676	
561.25	0.02625473312	0.06264024971	
561.875	0.007794785391	0.06309107045	
562.5	0.03515426319	0.02566347358	
563.125	0.03865064172	0.08402573382	
563.75	0.1629419097	-0.01989291786	
564.375	0.06949265277	-0.08402802934	
565.0	0.1065982564	-0.1111774547	
565.625	-0.07706405882	-0.1577646784	
566.25	-0.07108473337	-0.03041269059	
566.875	-0.1267133849	-0.1216302293	
567.5	-0.1680919619	-0.04718689746	
568.125	-0.04395863634	-0.1170417954	
568.75	-0.2808939773	-0.09270479363	
569.375	-0.132584749	0.1346720961	
570.0	-0.145469038	0.1215668427	
570.625	-0.02461203219	0.2394587288	
571.25	0.02503406703	0.001956079192	
571.875	0.04433530614	0.1417939608	
572.5	0.1088730332	-0.08571199811	
573.125	0.05099590404	-0.002825621991	
573.75	0.1159266596	-0.1618763419	
574.375	-0.08213648233	-0.06555506968	
575.0	0.100184507	-0.001651780914	
575.625	-0.04086344588	-0.1091119304	
576.25	0.08179567681	-0.02339511421	
576.875	-0.001602018285	-0.2053407214	
577.5	-0.08604697409	-0.1193599778	
578.125	0.01130171445	-0.0784627984	
578.75	-0.03466912546	-0.2155896339	
579.375	-0.1983939852	-0.01047287995	
580.0	0.05614237188	-0.01946517229	
580.625	-0.1906287021	-0.01505468595	
581.25	0.04736325355	0.01312599587	
581.875	-0.1016339836	0.1725179713	
582.5	0.1700035749	0.1491476009	
583.125	-0.0338278906	-0.03161387544	
583.75	0.07792259474	0.1194173252	
584.375	0.008000646046	-0.06053457715	
585.0	0.0568628096	0.1479552668	
585.625	0.225734391	-0.07159142244	
586.25	0.04165919709	-0.08293798957	
586.875	0.1220957522	-0.07125026332	
587.5	-0.07510609379	-0.1866427477	
588.125	0.002449085992	-0.04486324056	
588.75	0.07684641699	-0.1886769942	
589.375	-0.03275759862	-0.1500978547	
590.0	0.02549839262	-0.1064259942	
590.625	-0.2652973665	-0.08618040961	
591.25	-0.03062816942	0.1644042168	
591.875	-0.07785252851	-0.02757976254	
592.5	0.002367199881	0.150044734	
593.125	-0.05447327155	-0.06623709156	
593.75	0.09055260603	0.2130208937	
594.375	0.0767617553	-0.03153663634	
595.0	0.08251497066	0.1493992477	
595.625	0.2471998596	0.06127600972	
596.25	0.09745178376	-0.05412184043	
596.875	0.1554813267	0.1174382022	
597.5	0.2075445414	0.04905981628	
598.125	0.08595015843	0.05283192632	
598.75	0.1714282706	0.1165059541	
599.375	0.206233391	-0.1047276743	
600.0	0.093795845	-0.07944201844	
600.625	0.1490661317	-0.1776560106	
601.25	-0.01129111001	-0.216661125	
601.875	-0.05642167991	-0.04312520509	
602.5	-0.1674643342	-0.09395649223	
603.125	-0.05984649416	0.1446889768	
603.75	-0.03604862851	-0.003912212742	
604.375	-0.1940352112	0.1264339958	
605.0	0.03543323684	0.1092621618	
605.625	-0.1356261281	-0.01536190714	
606.25	-0.009240831772	0.1216768969	
606.875	-0.1520326529	-0.02773536211	
607.5	-0.1459271481	0.253884946	
608.125	0.09119214901	0.2220830417	
608.75	0.08362474177	0.1004972244	
609.375	0.2203846776	-0.04572663356	
610.0	0.1377074575	-0.1922004907	
610.625	0.01687667742	-0.07041405455	
611.25	0.0684995207	-0.163772282	
611.875	-0.1558614876	-0.06598875859	
612.5	-0.05186736241	-0.1040140446	
613.125	-0.2566395304	0.08045479454	
613.75	0.04191927302	0.1153215092	
614.375	-0.05433983126	0.131117107	
615.0	0.160582069	0.005975304862	
615.625	-0.07386844432	-0.006624292781	
616.25	-0.1000940443	0.21375157	
616.875	0.04463852894	0.1925233687	
617.5	-0.08713257911	0.2834446204	
618.125	-0.01941310365	0.2570475855	
618.75	0.1164232895	0.1236152241	
619.375	-0.001450497534	0.1580009369	
620.0	0.1446660484	0.1027228085	
620.625	0.04422722597	-0.137272922	
621.25	-0.04465125853	-0.09300706176	
621.875	-0.2645300954	-0.07881757262	
622.5	-0.1637270704	0.2248313634	
623.125	-0.08155006761	0.1108068862	
623.75	0.1996561907	0.04266136197	
624.375	-0.04319298434	-0.03327520723	
625.0	0.1255869024	-0.03935632838	
625.625	-0.03983494174	-0.06921787443	
626.25	0.03163487876	-0.1215331298	
626.875	-0.1820732096	-0.1098639872	
627.5	-0.1243784138	0.03076947817	
628.125	-0.05332099966	-0.08722660629	
628.75	-0.1290410543	-0.1374712206	
629.375	-0.1075117968	-0.1136519023	
630.0	-0.1681018125	-0.1418057622	
630.625	-0.2250259953	0.1110964783	
631.25	-0.08561358721	0.1141026503	
631.875	-0.09031988548	0.1856867024	
632.5	0.2134774257	0.2191438979	
633.125	0.1268714408	-0.0533851555	
633.75	0.1563974648	0.01252180395	
634.375	0.04524405279	-0.2378748139	
635.0	-0.004635800532	-0.043775796	
635.625	-0.158760533	-0.1860706923	
636.25	-0.1020342393	0.1461583379	
636.875	-0.06860601946	0.02828938998	
637.5	-0.05328157809	0.2016531499	
638.125	-0.01044842567	-0.009345778212	
638.75	-0.1466238197	0.1930823919	
639.375	0.09405301434	0.272904441	
640.0	0.1313443404	0.1124066013	
640.625	0.1505976015	0.194170588	
641.25	0.3603075176	0.06175581117	
641.875	0.04903671287	-0.2088143937	
642.5	0.1128790206	-0.1346491845	
643.125	-0.2632458509	-0.1137612584	
643.75	0.02963199242	-0.07554236588	
644.375	-0.2743616058	0.008123014671	
645.0	0.04805125015	0.250565912	
645.625	-0.07136199102	0.1273877235	
646.25	0.3165878363	0.284589133	
646.875	0.0725451167	-0.201416635	
647.5	-0.01298074127	0.1634531796	
648.125	0.2398735738	-0.04200853257	
648.75	0.06270976849	-0.06614092255	
649.375	0.3746805507	-0.2245313864	
650.0	-0.0183579432	-0.3220177384	
650.625	0.1779403405	-0.1065182515	
651.25	0.3042575009	-0.3454227879	
651.875	0.04983732632	-0.2421175402	
652.5	0.2056316693	0.0566864677	
653.125	0.3887803483	-0.1124833518	
653.75	0.07294560068	-0.3569724231	
654.375	-0.005332886669	-0.1207067734	
655.0	-0.3920965926	-0.2383827538	
655.625	-0.02728853094	0.2369044498	
656.25	-0.09989262365	0.01505131963	
656.875	0.1732226504	0.173378174	
657.5	-0.0968550921	-0.02526012056	
658.125	0.2453569154	0.3527842494	
658.75	0.2965890725	-0.1019687987	
659.375	0.1484669944	-0.03265883842	
660.0	0.342837557	-0.2326333061	
660.625	0.003978924504	-0.4522039504	
661.25	0.07233502157	-0.1247052842	
661.875	0.3204835254	-0.2896239809	
662.5	0.1497787509	-0.2864165959	
663.125	0.1804664855	-0.04147379254	
663.75	0.2214388787	-0.3644242785	
664.375	-0.1584160393	-0.2233204638	
665.0	-0.1425874947	-0.1853646114	
665.625	-0.3770500527	0.07881320028	
666.25	0.04508679246	0.2864726512	
666.875	-0.0009570538874	0.1615415959	
667.5	0.2658358708	0.09193546353	
668.125	0.1053516255	-0.08156933957	
668.75	0.2572284418	0.02262512625	
669.375	0.06344150219	-0.3484674274	
670.0	-0.06306475887	-0.09597742379	
670.625	0.1148230163	-0.187202993	
671.25	-0.02497613971	-0.2732735314	
671.875	0.03539729025	-0.05031505089	
672.5	0.3204253349	-0.1676591804	
673.125	0.0576499206	-0.1975516053	
673.75	0.1954250931	-0.1144880858	
674.375	0.09266157683	-0.3349931529	
675.0	-0.2185295697	-0.1564342307	
675.625	-0.03778486831	-0.09474890088	
676.25	-0.2439357802	-0.07694861925	
676.875	-0.1540652467	0.123212972	
677.5	-0.04727797991	-0.05174614387	
678.125	-0.2246830771	0.2304234715	
678.75	0.1363663582	0.08520635864	
679.375	0.1263742027	0.1766554958	
680.0	0.2006336322	-0.2330891689	
680.625	-0.1115338388	0.05601887099	
681.25	0.2449748109	0.0156224748	
681.875	0.07068181288	-0.2520647478	
682.5	-0.005628973522	0.09371606552	
683.125	0.2553078689	0.2364736099	
683.75	0.3622469093	-0.1403926878	
684.375	0.07449277738	0.1213008353	
685.0	0.367666972	0.02969073959	
685.625	0.2448850847	-0.15864217	
686.25	0.3193806534	0.1280429007	
686.875	0.2577307963	-0.3445195774	
687.5	0.1472678916	-0.1852963515	
688.125	0.08534638841	-0.4194375347	
688.75	-0.5005681772	-0.1293132665	
689.375	-0.05176817047	0.3530656648	
690.0	-0.07254624132	0.1865172157	
690.625	0.3998518086	0.3309607545	
691.25	0.2199980098	0.01021525146	
691.875	0.3248537226	0.4413737541	
692.5	0.6995207078	-0.1655939022	
693.125	0.3953081504	0.04477962356	
693.75	0.6799799667	-0.1965400067	
694.375	0.1111267437	-0.5037637492	
695.0	0.2918446504	-0.04095691958	
695.625	0.5856379902	-0.3797305579	
696.25	0.424679734	-0.03427703529	
696.875	0.2458926665	0.2288969718	
697.5	0.3290755608	0.4358939606	
698.125	0.5614746839	0.1401037007	
698.75	0.2869779724	-0.2524536458	
699.375	-0.2913864776	-0.3364464098	
700.0	-0.1527539398	0.4126097276	
700.625	0.08173523603	0.1255255309	
701.25	0.3234807693	0.2583084995	
701.875	0.281521786	0.02066748912	
702.5	0.178223555	0.2614924031	
703.125	0.5382011918	0.1238468919	
703.75	0.2580008573	-0.2383317322	
704.375	0.2298369444	-0.01942905476	
705.0	0.2346802378	-0.2373488263	
705.625	0.1101192831	-0.0545288194	
706.25	0.2661024371	0.2161939583	
706.875	0.3324773121	0.1995321167	
707.5	0.2241585723	0.2805154063	
708.125	0.3959393818	0.1912499455	
708.75	0.4075820996	-0.2256245019	
709.375	-0.2852616157	-0.1439985184	
710.0	-0.2149742768	0.07842802376	
710.625	0.1668562353	0.1947843642	
711.25	-0.07088767785	-0.120451312	
711.875	0.290947434	0.1591865545	
712.5	0.2428445448	-0.2283644332	
713.125	0.197114835	-0.03557589942	
713.75	0.1977176107	-0.3029205404	
714.375	-0.09742477267	-0.221964532	
715.0	0.04035194308	-0.09142965466	
715.625	0.03107545521	-0.2874973097	
716.25	0.01643580193	-0.2034042583	
716.875	0.3256162497	-0.0419299485	
717.5	0.5515151593	-0.189027818	
718.125	0.3187199665	-0.02764756647	
718.75	0.8434580929	0.03407652458	
719.375	0.6992628431	-0.4945564346	
720.0	0.1646221314	-0.4765206926	
720.625	0.5114998236	-0.8659517508	
721.25	-0.4432936967	-1.077681906	
721.875	-0.4636927811	-0.1442127664	
722.5	-0.4155273498	-0.8659777563	
723.125	-0.9234770037	0.1762246446	
723.75	-0.2107930207	0.2174784556	
724.375	-0.1484072669	0.7640795321	
725.0	0.3209571222	0.1396729508	
725.625	-0.01702783697	0.3849901152	
726.25	0.08747939025	0.8269062294	
726.875	0.2559085878	0.7876175049	
727.5	-0.1605080253	0.7322276574	
728.125	-0.3423801022	1.95839845	
728.75	0.6325881446	2.581888667	
729.375	-0.4355584778	1.614205304	
730.0	-1.053633659	4.000333936	
730.625	1.905666769	2.265640303	
731.25	-1.684689963	2.34652346	
731.875	-2.635180123	3.604713745	
732.5	-1.120837422	1.835501401	
733.125	-1.894480217	-0.796095268	
733.75	-0.7537174012	1.637663465	
734.375	0.7634976107	-0.02108728356	
735.0	0.296052767	-0.1502098573	
735.625	-0.7891329836	0.184025247	
736.25	0.1244859595	0.150310686	
736.875	0.2498856564	0.7429719876	
737.5	1.16366572	-0.3520563658	
738.125	0.4647335281	-0.3909613517	
738.75	2.09066595	-0.3336377711	
739.375	2.160947073	-3.024849807	
740.0	-0.1504017018	-1.526771159	
740.625	1.484796913	3.226451441	
741.25	3.950008903	4.235138788	
741.875	0.6452290475	-1.580138241	
742.5	-1.73863398	-3.059851881	
743.125	-1.212215964	-1.539158621	
743.75	0.3904153224	-0.3513892821	
744.375	-0.6980404997	-0.2691152748	
745.0	0.1845920086	0.01262576845	
745.625	0.07869403135	0.1025360606	
746.25	-0.1010814589	-0.142323873	
746.875	-0.1031424727	-0.005011376421	
747.5	-0.1647938937	0.3341409082	
748.125	0.2810408698	0.4190530982	
748.75	0.1729136345	0.2594215397	
749.375	0.0714966377	0.4801749838	
750.0	-0.1546079297	0.2583568286	
