!Created with skrf (http://scikit-rf.org).
# GHz S RI R (50+0j) 
!freq	ReS11	ImS11	
500.0	-1.243534625	-2.189349811	
500.625	1.772112225	-2.86702595	
501.25	-1.389141957	-2.619821589	
501.875	-2.080896906	-0.4188328898	
502.5	0.03228094765	-0.1525105082	
503.125	-0.4240449837	0.04677925372	
503.75	0.1783603761	-0.03619060316	
504.375	0.171887533	0.05553925724	
505.0	-0.1057135255	-0.07613019171	
505.625	0.2639246108	-0.2446213175	
506.25	-0.5959525218	0.1888922412	
506.875	0.09210803529	-0.7766390023	
507.5	-0.9723777786	-2.135945318	
508.125	-1.197625766	-0.9336612508	
508.75	2.902955472	-2.234079705	
509.375	-2.503488296	-5.297428737	
510.0	-0.7681819258	-0.2527999706	
510.625	-0.6302267797	-1.084990817	
511.25	-0.1245570507	0.05374786484	
511.875	-0.5639345865	-0.2980137345	
512.5	-0.06140131127	0.1862216173	
513.125	-0.1818953224	-0.2338054524	
513.75	-0.02528653672	-0.1408158451	
514.375	-0.5585254863	-0.3323649574	
515.0	0.8587738687	1.24408672	
515.625	-0.933293516	-3.227708454	
516.25	-0.5416723276	0.6255961786	
516.875	0.02271929103	-2.674788191	
517.5	-1.126363731	-0.2603729779	
518.125	0.266812953	-0.3464207673	
518.75	-0.7458427889	-0.3957542563	
519.375	-0.06320638454	0.0472963493	
520.0	0.3824986727	0.3571636867	
520.625	0.4105073534	-0.3968601773	
521.25	0.04225893404	-0.431261969	
521.875	-0.5310606007	-0.2292841609	
522.5	0.02225184621	0.09253670644	
523.125	-0.3125594588	0.2046279845	
523.75	-0.1729452759	-0.1178778016	
524.375	-0.6618160158	0.2915288949	
525.0	0.06462673622	0.01911221309	
525.625	-0.05509437651	0.3098398338	
526.25	0.03469275014	-0.2781619641	
526.875	-0.1717925777	0.3813625111	
527.5	0.04910351786	0.2731133627	
528.125	-0.2823357831	0.9897403071	
528.75	0.5543145323	0.8872361569	
529.375	-0.1497466861	0.1502756166	
530.0	0.423375403	0.3767276387	
530.625	-0.1330396667	0.9207078219	
531.25	1.588420938	-0.1112016592	
531.875	0.3614354372	-0.04939616166	
532.5	-0.2113082688	-0.5994490818	
533.125	0.4053458217	0.4639163644	
533.75	0.08515455359	-0.9291460088	
534.375	-0.03588314709	-0.3619285288	
535.0	-0.9679355499	-0.5979507837	
535.625	-0.08876528071	0.451729541	
536.25	-0.1036249063	0.1831272409	
536.875	0.3620711994	0.08513641221	
537.5	0.04725077833	-0.1329904888	
538.125	0.4763921439	-0.05150427574	
538.75	0.154039553	-0.416946973	
539.375	0.008609401228	-0.3653363624	
540.0	-0.5828337698	-0.5228325666	
540.625	-0.2681968831	0.1405867807	
541.25	-0.1953073997	-0.08707509113	
541.875	-0.1620625978	-0.1073727035	
542.5	-0.1665237767	0.00904267897	
543.125	-0.04423215439	-0.2587076458	
543.75	-0.428250333	0.1121328737	
544.375	0.01959060006	-0.08227289283	
545.0	-0.02729595712	0.3328642513	
545.625	0.0434123795	-0.1056945563	
546.25	0.3120837182	0.3571917074	
546.875	0.1766226162	-0.3189434775	
547.5	0.2726818538	-0.06749498011	
548.125	-0.08718113621	-0.6360315175	
548.75	-0.3912891247	-0.1028315667	
549.375	-0.080157016	-0.2229248054	
550.0	-0.352607222	0.03476112746	
550.625	0.02868057351	-0.02126330129	
551.25	-0.3421372595	0.09022373459	
551.875	-0.03471623585	0.1616947812	
552.5	-0.218732288	0.161560004	
553.125	0.006907419281	0.1984251652	
553.75	0.08577977987	0.1099755805	
554.375	0.2560170311	0.02809291281	
555.0	0.2393563586	-0.1852757646	
555.625	0.2122358851	-0.2455360741	
556.25	0.183303211	-0.3534559689	
556.875	-0.08834337458	-0.397662672	
557.5	-0.2247329846	-0.2519192876	
558.125	-0.2777431506	-0.1212271017	
558.75	-0.2846943063	-0.004469488252	
559.375	-0.2329322602	0.05138103514	
560.0	-0.2681995763	0.1400756726	
560.625	-0.1166730735	0.3228494886	
561.25	0.03856366459	0.1569495764	
561.875	0.04467098191	0.2071476913	
562.5	0.04281389426	0.009398510092	
563.125	0.1571830705	0.3118509573	
563.75	0.3517382673	-0.1393050364	
564.375	0.2432033355	-0.04945977454	
565.0	0.301112273	-0.4617065106	
565.625	-0.1949175537	-0.3226529572	
566.25	-0.1304581646	-0.2260732437	
566.875	-0.4086524677	-0.323851834	
567.5	-0.3940845365	-0.06511647205	
568.125	-0.1415048244	-0.510047074	
568.75	-0.7636520934	-0.1708668236	
569.375	-0.3412935091	0.1910587434	
570.0	-0.6138036649	0.4245533209	
570.625	0.07969302162	0.6583689696	
571.25	-0.09322570909	-0.04209027294	
571.875	0.3121502778	0.5383483214	
572.5	0.006990403131	-0.2128328171	
573.125	0.4893077301	-0.02398549248	
573.75	0.03714687803	-0.5792230115	
574.375	-0.07056944691	0.1403622963	
575.0	0.2799890591	-0.3648033662	
575.625	-0.1495359744	0.07714701348	
576.25	0.4406390108	-0.2612521354	
576.875	-0.2093441238	-0.5425756043	
577.5	-0.0852468016	-0.1025433472	
578.125	0.1429542894	-0.4592552287	
578.75	-0.3988818523	-0.4525773868	
579.375	-0.157586407	0.07295021693	
580.0	-0.01554798485	-0.3268593398	
580.625	-0.2232615194	0.1978886555	
581.25	-0.2465487916	-0.1546402622	
581.875	-0.04883986029	0.6932721158	
582.5	0.4378328093	0.1541983697	
583.125	-0.2410163801	0.06064546464	
583.75	0.5641106309	0.3313927385	
584.375	-0.3518354204	-0.1038062078	
585.0	0.5493332789	0.4120895829	
585.625	0.2118559182	-0.3130584652	
586.25	0.4117068258	0.2582726422	
586.875	0.1733262607	-0.6642938271	
587.5	-0.03927599676	-0.02496877025	
588.125	0.2269619303	-0.4520797718	
588.75	-0.1218380432	-0.5671265544	
589.375	0.06850225966	-0.05552438195	
590.0	0.08928704678	-0.6063838552	
590.625	-0.559579039	-0.023030289	
591.25	-0.1893761294	0.1633547037	
591.875	-0.2878894522	0.2730121336	
592.5	0.2293104307	0.1193408492	
593.125	-0.2539651501	0.2130331315	
593.75	0.250908666	0.2078539374	
594.375	0.08915402105	0.1812646265	
595.0	0.4595231812	0.6544100552	
595.625	0.7248461117	-0.2032993932	
596.25	-0.05544116075	0.33171267	
596.875	0.7387635405	0.2173255467	
597.5	0.2002635834	-0.1017487283	
598.125	0.2843218554	0.6328696562	
598.75	0.5326495749	-0.06976652589	
599.375	0.3132010368	0.1919422033	
600.0	0.6575849004	-0.4671216117	
600.625	0.1530094705	-0.5189112162	
601.25	0.2576411287	-0.229458137	
601.875	-0.1237316508	-0.491503483	
602.5	-0.3422985366	-0.004625191919	
603.125	-0.1804078828	0.123442846	
603.75	-0.2837489969	0.03413054596	
604.375	-0.2926591607	0.349522406	
605.0	-0.04966581123	-0.003010330375	
605.625	-0.3744708194	0.2597028874	
606.25	-0.02594314847	0.1038645403	
606.875	-0.702228216	-0.07038101445	
607.5	-0.1607844935	0.8007868139	
608.125	-0.2616948477	0.1673850203	
608.75	0.5692705679	0.8946771072	
609.375	0.3317316899	-0.3437411973	
610.0	0.5679377535	0.02831540831	
610.625	0.1371569957	-0.6257895344	
611.25	0.06552867668	-0.08291913977	
611.875	-0.3727831347	-0.578249549	
612.5	-0.1700719653	-0.01392648986	
613.125	-0.5358292487	-0.07070409777	
613.75	-0.11900284	0.4416166121	
614.375	-0.265324358	0.2520221089	
615.0	0.3247994663	0.0304407465	
615.625	-0.2729356913	0.175911068	
616.25	0.1251976713	0.6597007328	
616.875	-0.1534887524	0.04750318039	
617.5	-0.4179703502	0.7311978909	
618.125	0.2015886878	0.5187607092	
618.75	-0.2173329808	0.2985025005	
619.375	0.3898940395	0.5306302021	
620.0	0.2575165818	0.07537108779	
620.625	0.4370462669	-0.3644671664	
621.25	-0.2407346437	-0.3463804196	
621.875	-0.4976668156	-0.3920558967	
622.5	-0.4678735922	0.2204955732	
623.125	-0.1908325512	0.323890886	
623.75	0.5193873459	0.1415047747	
624.375	-0.197542742	0.05626741635	
625.0	0.3304501727	-0.3721448187	
625.625	-0.04308383291	0.1409845797	
626.25	0.1089048051	-0.6238746718	
626.875	-0.5518535382	-0.03417155419	
627.5	0.0005378893837	-0.1696450952	
628.125	-0.5199117969	-0.3169214419	
628.75	-0.09923651579	-0.05098287665	
629.375	-0.0826110508	-0.5800098163	
630.0	-0.6374119598	-0.1004631614	
630.625	-0.287404525	-0.01863663053	
631.25	-0.5717626992	0.4113861772	
631.875	0.01056489633	0.6672972499	
632.5	0.348533959	0.4355744757	
633.125	0.3286448287	0.143594186	
633.75	0.6179352189	-0.08218187899	
634.375	-0.02449536757	-0.2544709455	
635.0	0.2137736811	-0.3832420665	
635.625	-0.5424339756	-0.1600114169	
636.25	-0.1596341453	-0.1027150304	
636.875	-0.4149566379	0.521267074	
637.5	0.2233889639	0.1615073241	
638.125	-0.5562012586	-0.05862499731	
638.75	-0.005827359673	0.8432488937	
639.375	0.09184217776	0.124750109	
640.0	-0.01543544413	0.7973707385	
640.625	0.8785179365	0.3743530563	
641.25	0.3459422202	-0.1237990891	
641.875	0.8927362322	-0.2558199908	
642.5	-0.3685470397	-0.4415778985	
643.125	0.1447996311	-0.2862674981	
643.75	-0.6706973374	-0.4015824191	
644.375	-0.107453957	0.3294435984	
645.0	-0.5467096335	-0.04854082165	
645.625	0.1177917811	0.8244755187	
646.25	0.5631905894	-0.04379639927	
646.875	-0.1564508483	0.1283621772	
647.5	0.6868925472	-0.06317202416	
648.125	-0.2111760636	0.3906275268	
648.75	1.140629684	-0.141250942	
649.375	0.04496332952	-0.804434328	
650.0	0.6067810633	0.05024164875	
650.625	0.84583279	-1.411207686	
651.25	-0.3488094111	-0.5420765268	
651.875	0.8440162649	0.3248264526	
652.5	1.107028625	-0.6797705101	
653.125	0.1101573895	-0.3481368925	
653.75	0.9985372157	-0.2353113608	
654.375	-0.44953204	-0.9773282333	
655.0	-0.2444635287	0.02349330354	
655.625	-0.8981224015	0.02799952132	
656.25	0.4712814128	0.7894135956	
656.875	-0.221558181	-0.1546542708	
657.5	0.2011676906	0.549807681	
658.125	0.4248960514	0.1247929508	
658.75	0.2847245252	0.4267938764	
659.375	1.233401094	-0.4470071086	
660.0	0.1650011497	-0.6897109391	
660.625	0.541962701	-0.4261586244	
661.25	0.7572467415	-1.108822312	
661.875	-0.1620287534	-0.6385600502	
662.5	0.9130900837	0.172838573	
663.125	0.9078067642	-0.9374076365	
663.75	-0.04308091027	-0.3879614451	
664.375	0.4670162541	-0.9260953223	
665.0	-1.048981391	-0.2623179896	
665.625	-0.4019440815	-0.1760845562	
666.25	-0.5837129382	0.8543626779	
666.875	0.5643085602	0.366007075	
667.5	-0.004410512689	0.2903310915	
668.125	0.8777767057	0.07989355693	
668.75	0.2934419475	-0.5107332587	
669.375	0.2185921958	-0.2636219207	
670.0	0.2414149856	-0.6841109594	
670.625	-0.2869903473	-0.3745782009	
671.25	0.3673201088	-0.324997509	
671.875	0.3172023138	-0.5891786862	
672.5	0.2002546316	-0.2739739361	
673.125	0.8284547174	-0.1672494589	
673.75	0.3501273959	-0.9696520986	
674.375	-0.1628459514	-0.1954769187	
675.0	0.3265337949	-0.7599120646	
675.625	-0.9520578334	-0.4635518258	
676.25	0.1392518075	0.1725533584	
676.875	-0.8587640355	-0.344736659	
677.5	0.03148639415	0.3700217659	
678.125	-0.7154684945	-0.1331383854	
678.75	0.4941942801	0.9724020729	
679.375	0.0624680242	-0.05538707504	
680.0	0.4932889277	0.1340335661	
680.625	0.4290747724	-0.4789946783	
681.25	-0.2584741841	-0.05859745861	
681.875	0.4793817807	0.503497133	
682.5	0.7153813391	0.04285017286	
683.125	0.4741402434	0.03007836374	
683.75	0.4277041364	0.5267140667	
684.375	1.071991702	-0.147187013	
685.0	0.1106493065	0.1736518875	
685.625	1.077621501	0.3365561812	
686.25	0.6196004531	-0.7115876872	
686.875	0.3982180693	0.6661002992	
687.5	1.429799126	-1.51568185	
688.125	-0.6718369627	-0.1958255213	
688.75	-0.5161745248	-1.26405167	
689.375	-0.8477464187	1.392635073	
690.0	0.1249161453	0.1943577801	
690.625	0.6870553858	1.283223015	
691.25	0.6834034456	0.2074673184	
691.875	0.7763148829	1.107598262	
692.5	1.706532516	0.6580159961	
693.125	1.322391719	-0.192516721	
693.75	1.491479336	-0.4183105105	
694.375	1.01564567	-0.8534596211	
695.0	1.404266334	-0.5783173837	
695.625	0.9560263729	-0.4829745428	
696.25	0.9716432133	0.9290880494	
696.875	1.733176242	0.9244206235	
697.5	0.3022517492	0.6895700058	
698.125	1.837829247	1.351672493	
698.75	0.5756544219	-1.474021691	
699.375	0.07517269344	-1.14513242	
700.0	-1.125410669	1.40934752	
700.625	0.3866254143	0.118514736	
701.25	0.4975680155	1.113893781	
701.875	0.7010550905	0.1522615921	
702.5	0.5266507199	1.034082217	
703.125	1.316307903	0.1718660403	
703.75	0.4925773373	0.004634765778	
704.375	1.162506251	-0.6262608585	
705.0	0.1969088973	-0.4572235757	
705.625	0.8995933416	0.7219851293	
706.25	1.002039244	-0.1509995345	
706.875	0.03105025715	0.7422524137	
707.5	0.9144546822	1.33800718	
708.125	0.7699071399	-0.1602322493	
708.75	1.252964382	-0.4710859488	
709.375	-1.039130187	-0.8760424311	
710.0	-0.2392870066	0.2440767483	
710.625	0.02574812614	0.6727614167	
711.25	0.2758147179	0.06452743318	
711.875	0.4365566074	0.448330218	
712.5	0.7663343614	-0.1059380883	
713.125	0.9442235261	-0.273232628	
713.75	0.09218916056	-0.7933310919	
714.375	0.3334905978	-0.252844465	
715.0	-0.3229316948	-0.8714201442	
715.625	-0.03064017984	-0.009117433323	
716.25	1.162215944	-0.8877949265	
716.875	0.02668038856	-1.099163376	
717.5	1.043103414	1.110039248	
718.125	3.056135761	-0.05953555146	
718.75	0.2712508709	-1.449360393	
719.375	3.17487758	0.9398549945	
720.0	0.5900229039	-3.765156696	
720.625	0.8377191487	-1.28252697	
721.25	1.020720405	-2.97991667	
721.875	-1.79877083	-2.540410084	
722.5	-0.2984298797	-1.939124018	
723.125	-2.612151621	-0.7297594087	
723.75	-0.7325464477	1.345248737	
724.375	-0.1785500762	0.7658743748	
725.0	0.1218025562	1.200644038	
725.625	1.064272967	1.132129069	
726.25	-0.02532697158	0.8242252285	
726.875	-1.243103993	3.016656901	
727.5	1.278460058	4.701047296	
728.125	-1.382700397	1.195558814	
728.75	-4.476723419	12.35204314	
729.375	3.937046072	8.376144097	
730.0	-8.742418263	5.229135118	
730.625	5.144727868	24.79173426	
731.25	2.620407095	-0.7086234676	
731.875	-14.07185443	3.80100996	
732.5	-12.41382045	5.976803604	
733.125	-3.810314275	3.482141834	
733.75	-4.881860794	1.364679912	
734.375	3.146954433	0.6402884867	
735.0	0.01339922587	-0.85820036	
735.625	-1.783610334	-0.7203779267	
736.25	1.092178174	1.559447485	
736.875	-0.3461908839	1.111191249	
737.5	3.503575194	1.465560501	
738.125	5.189216273	-2.020228994	
738.75	0.07477323086	-4.60638968	
739.375	9.45622361	5.124283869	
740.0	15.45269683	-17.69364136	
740.625	-6.873391049	-0.4549438988	
741.25	1.658455933	28.9268316	
741.875	14.59570951	2.474295251	
742.5	4.689073222	-16.18109498	
743.125	-6.71225174	-12.30712039	
743.75	-1.244763117	-0.0071647501	
744.375	-0.276262884	-1.784128546	
745.0	0.4635837403	0.8067652155	
745.625	-0.130128958	0.2490562037	
746.25	-0.1643301385	-0.5197510463	
746.875	-0.8942892661	0.5308965428	
747.5	-0.6102218886	0.7578764628	
748.125	0.3286943089	1.827839085	
748.75	1.031485248	1.218649962	
749.375	1.24947294	0.5870322842	
750.0	-0.4142130668	1.837516369	
