!Created with skrf (http://scikit-rf.org).
# GHz S RI R (50+0j) 
!freq	ReS11	ImS11	
500.0	0.6797502101	-0.8289740896	
500.625	2.150859059	-4.128549726	
501.25	-2.330155441	-2.31622968	
501.875	-1.006191561	-0.3630135768	
502.5	0.1015846438	-0.4523406314	
503.125	-0.3593706506	0.2057734597	
503.75	-0.0009350906378	-0.04896332012	
504.375	0.2149044873	-0.02194554253	
505.0	-0.09183133492	0.03425291148	
505.625	0.1171793976	-0.4052864482	
506.25	-0.1804702293	0.3504944466	
506.875	-0.838161199	-0.9955042459	
507.5	-1.872977517	-0.6856311545	
508.125	0.4288242825	-0.2461165086	
508.75	3.199074804	-3.355036026	
509.375	-2.211386085	-3.521979	
510.0	-0.9131334893	-0.7408347649	
510.625	-1.688572695	-0.841624744	
511.25	0.005211541616	-0.1611959158	
511.875	-0.5823619805	-0.137909539	
512.5	-0.07394709624	0.1744621912	
513.125	-0.09152469882	-0.222113309	
513.75	0.008507870646	-0.3415549907	
514.375	-0.6771053956	-0.03705622038	
515.0	1.530318848	0.001543363953	
515.625	-2.388911317	-1.313579265	
516.25	1.197620747	-0.3971139102	
516.875	-1.190618491	-2.844652259	
517.5	-0.6827153361	0.3563244903	
518.125	-0.02587802247	-0.5261588778	
518.75	-0.5405280429	0.1291382884	
519.375	-0.2119913325	0.0237564722	
520.0	0.4707222342	0.2607637126	
520.625	0.3122663284	-0.3021765647	
521.25	0.2551568355	-0.5998717782	
521.875	-0.5743773767	-0.03794814109	
522.5	-0.01205073628	-0.03357086305	
523.125	-0.1838849345	0.2951361233	
523.75	-0.2298222953	-0.1215947724	
524.375	-0.4139245222	0.3958498834	
525.0	-0.2060428408	0.03215356856	
525.625	0.1434508041	0.3981634294	
526.25	-0.2238685884	-0.2343148541	
526.875	0.01764703396	0.300372976	
527.5	-0.1933260386	0.2141520053	
528.125	0.03957226587	1.281825236	
528.75	0.5211796124	0.4381756716	
529.375	-0.09938927696	0.3744782115	
530.0	0.2700829434	0.1775559107	
530.625	0.08667300256	1.25816146	
531.25	1.009576371	-0.3037223914	
531.875	0.8018537464	-0.003148928091	
532.5	-0.5212506706	-0.4315485876	
533.125	0.8223516413	0.0007395924646	
533.75	-0.2186294076	-0.6694823817	
534.375	0.2129260226	-0.7130920975	
535.0	-1.076662362	-0.1758934726	
535.625	-0.1244293708	0.09666630078	
536.25	-0.1199790111	0.288105664	
536.875	0.3580281927	-0.02150341328	
537.5	0.07065709684	-0.0146129746	
538.125	0.4583355906	-0.2102008918	
538.75	0.1313611232	-0.2800872058	
539.375	-0.010418339	-0.5038404092	
540.0	-0.640868422	-0.3196697101	
540.625	-0.1505090115	-0.06243569395	
541.25	-0.3188774328	-0.06352128499	
541.875	-0.1493026311	0.0176539845	
542.5	-0.03156291788	-0.04596782531	
543.125	-0.2281021848	-0.3165634464	
543.75	-0.2683695981	0.2736800743	
544.375	-0.1683054974	-0.1363107938	
545.0	0.1258056597	0.3074711313	
545.625	-0.1555506687	0.02723276063	
546.25	0.4880207781	0.1903257998	
546.875	0.01796731358	-0.1229735263	
547.5	0.4236159145	-0.2271078106	
548.125	-0.3232486541	-0.5199014825	
548.75	-0.1824479275	-0.105653456	
549.375	-0.1884702057	-0.3385885485	
550.0	-0.2849908474	0.140430134	
550.625	-0.04138995824	-0.1288347974	
551.25	-0.2679762519	0.1959541865	
551.875	-0.1044205423	0.05011245178	
552.5	-0.2016989634	0.2576504327	
553.125	0.01635841777	0.1263668239	
553.75	0.08629053272	0.1482554697	
554.375	0.2602508403	0.004094502277	
555.0	0.228703128	-0.171441968	
555.625	0.229936888	-0.2415798256	
556.25	0.174841649	-0.3639378819	
556.875	-0.08739641167	-0.3945530423	
557.5	-0.2160018988	-0.2581893736	
558.125	-0.2893850958	-0.1132015278	
558.75	-0.2632659456	0.005424652454	
559.375	-0.2416585032	0.01687413791	
560.0	-0.2836132747	0.1864142921	
560.625	-0.06750570814	0.287265077	
561.25	-0.0282996487	0.1715590683	
561.875	0.1198342901	0.1937196453	
562.5	-0.03858329307	0.02323104969	
563.125	0.2529115494	0.2783451944	
563.75	0.2086566807	-0.09241677639	
564.375	0.4229447081	-0.09019385864	
565.0	0.1419618696	-0.5080508253	
565.625	-0.07746229587	-0.2122318041	
566.25	-0.1714961688	-0.36172692	
566.875	-0.4901901452	-0.1895548976	
567.5	-0.2012926889	-0.1010976556	
568.125	-0.2707551259	-0.6088626467	
568.75	-0.6884222881	-0.01602945832	
569.375	-0.4034662102	-0.000926606168	
570.0	-0.5155667299	0.7036116987	
570.625	0.1388143233	0.3575146452	
571.25	-0.3279049247	0.1710201507	
571.875	0.5459326241	0.1985149892	
572.5	-0.06091054336	0.1586330366	
573.125	0.5492326582	-0.3522506279	
573.75	-0.1571210495	-0.4302309967	
574.375	0.1850903442	0.1299589647	
575.0	-0.009185190665	-0.43649573	
575.625	0.1685016251	0.1488453451	
576.25	0.2872295066	-0.5081989327	
576.875	-0.2978527318	-0.2645296377	
577.5	0.2296126695	-0.1535249262	
578.125	-0.04902657407	-0.6550593084	
578.75	-0.4121657002	-0.2088869608	
579.375	-0.001211703368	-0.0130233245	
580.0	-0.2371367957	-0.3467723471	
580.625	0.001640053931	0.1724591695	
581.25	-0.5130056962	-0.03868271726	
581.875	0.2192694417	0.5699033217	
582.5	0.1194680914	-0.03847324583	
583.125	-0.134114235	0.4878437212	
583.75	0.5489532529	-0.2449668026	
584.375	-0.3412510896	0.3843117822	
585.0	0.6288669067	0.07877519995	
585.625	0.01308438095	-0.08783339388	
586.25	0.6448317092	0.07240265454	
586.875	-0.08006121979	-0.5007521384	
587.5	0.1949610917	-0.1298439606	
588.125	-0.01314590953	-0.6230089129	
588.75	-0.2226070828	-0.2364129132	
589.375	0.4533895009	-0.09872246839	
590.0	-0.225163642	-0.6416510172	
590.625	-0.3897721724	0.02695837046	
591.25	-0.2693379008	0.07744950505	
591.875	-0.2831799759	0.4135257627	
592.5	0.2075794046	-0.04979524709	
593.125	-0.1553294985	0.2952802311	
593.75	0.1481807304	0.1160003952	
594.375	0.1611241356	0.468051543	
595.0	0.7727210642	0.3169073537	
595.625	0.146255883	-0.1730028241	
596.25	0.3278336717	0.57093624	
596.875	0.6921308116	-0.1529214975	
597.5	0.02174267629	0.164738338	
598.125	0.4963001675	0.5422697243	
598.75	0.3131567359	-0.02887033695	
599.375	0.5707927551	0.2637532076	
600.0	0.3925390706	-0.6063530832	
600.625	0.1621320708	-0.2536936675	
601.25	0.3880704926	-0.4128450141	
601.875	-0.2983348115	-0.4625159221	
602.5	-0.2175994079	0.001679261906	
603.125	-0.2095711691	0.04457847452	
603.75	-0.3972395016	0.08209556003	
604.375	-0.07581999366	0.3467115615	
605.0	-0.2706367803	-0.07021021794	
605.625	-0.1888758839	0.4043405908	
606.25	-0.139810946	-0.114096964	
606.875	-0.7786920541	0.3209529668	
607.5	0.005199668123	0.3733736541	
608.125	-0.5342036285	0.4327058567	
608.75	0.9202495735	0.4707217211	
609.375	0.1736358857	-0.002218212862	
610.0	0.7034097659	-0.2209313661	
610.625	-0.04861446338	-0.45178434	
611.25	0.3208557215	-0.2521067844	
611.875	-0.4603613578	-0.238750221	
612.5	-0.1583911568	-0.2388182891	
613.125	-0.6084339043	0.03643300716	
613.75	-0.04395051631	0.2675700915	
614.375	-0.07784489334	0.5274848815	
615.0	0.1699845791	-0.1096455655	
615.625	-0.2007045557	0.4108027141	
616.25	0.2864543233	0.2596288681	
616.875	-0.4937032117	0.226224126	
617.5	-0.1332213444	0.8252385217	
618.125	0.109131528	0.2532211198	
618.75	-0.2069380925	0.6378631427	
619.375	0.4058754156	0.2964534756	
620.0	0.2684027897	0.2485216447	
620.625	0.3393222003	-0.4726742262	
621.25	-0.1092869111	-0.3375911587	
621.875	-0.649683048	-0.2530354167	
622.5	-0.3804808739	0.1292233838	
623.125	-0.2840381628	0.432449016	
623.75	0.4195117232	-0.09129640643	
624.375	0.1479671241	0.2436943233	
625.0	-0.1107764167	-0.3112574678	
625.625	0.308271499	0.08136838822	
626.25	-0.2484651863	-0.6625132086	
626.875	-0.2735616	0.1288552801	
627.5	-0.2252312704	-0.4308816754	
628.125	-0.4706709053	-0.07316891383	
628.75	0.02582923518	-0.169280841	
629.375	-0.2490024208	-0.5999231136	
630.0	-0.3603773945	0.02608145152	
630.625	-0.5776376675	-0.09954065185	
631.25	-0.4651113105	0.5963006617	
631.875	0.0748482284	0.5144948449	
632.5	0.2162928059	0.4218788643	
633.125	0.4406921481	0.3013776118	
633.75	0.5179294872	-0.2921554511	
634.375	0.06405331134	-0.1252806577	
635.0	0.1705805738	-0.5630211553	
635.625	-0.4191807495	0.07571333469	
636.25	-0.4750458422	-0.1861864976	
636.875	-0.1168784722	0.5830732762	
637.5	0.04298786929	-0.06467295366	
638.125	-0.618732283	0.4737193108	
638.75	0.3740380572	0.2955715261	
639.375	-0.4574069495	0.3470676494	
640.0	0.3656390654	0.9581201209	
640.625	0.7070471819	0.1203811431	
641.25	0.2639796047	0.1551591258	
641.875	0.7801897238	-0.6948207655	
642.5	-0.2227139305	-0.1997201041	
643.125	-0.02601154141	-0.6329058108	
643.75	-0.7094981253	0.1035843511	
644.375	0.05761875728	-0.3241053205	
645.0	-0.7213650843	0.4683234753	
645.625	0.3341480155	0.5664758498	
646.25	0.2849380349	-0.1040374853	
646.875	0.1578691114	0.4632543832	
647.5	0.2562678223	-0.5326005468	
648.125	0.2365733639	0.7022314613	
648.75	0.9473429068	-0.5496678928	
649.375	-0.02860414762	-0.2409180745	
650.0	1.257523286	-0.635659499	
650.625	-0.1435196312	-1.262971928	
651.25	0.133721025	0.1603088347	
651.875	1.385039154	-0.2874889055	
652.5	0.4763770235	-0.8238347392	
653.125	0.2602775323	0.2355410107	
653.75	0.9387082006	-0.7072445501	
654.375	-0.5397063952	-0.5460500985	
655.0	-0.1631971212	-0.5131220423	
655.625	-0.9688596636	0.7409258263	
656.25	0.4282233042	0.1090492456	
656.875	-0.2837874391	0.2669854397	
657.5	0.4127798547	0.3025757849	
658.125	0.08546887816	0.0978933347	
658.75	0.7100508413	0.721230461	
659.375	0.850849544	-0.6934090999	
660.0	0.283056702	-0.4257866955	
660.625	0.8270111552	-0.649227055	
661.25	0.01316548999	-1.230001164	
661.875	0.3670659492	0.03582089666	
662.5	1.200805576	-0.5493128718	
663.125	0.3594003951	-0.8651776756	
663.75	0.3943439975	-0.05964900087	
664.375	0.07413877178	-1.295433559	
665.0	-0.631829847	-0.05254049957	
665.625	-0.7920466754	-0.2804332644	
666.25	-0.2502750797	0.9969265561	
666.875	0.1747042954	0.08824014519	
667.5	0.448725542	0.5990559045	
668.125	0.6819504763	-0.245899139	
668.75	0.1707970913	-0.2340188677	
669.375	0.5274876486	-0.3753876685	
670.0	-0.0399050125	-0.808840738	
670.625	-0.07670315363	-0.1837504772	
671.25	0.3679378822	-0.4445015781	
671.875	0.177880969	-0.6189220294	
672.5	0.359609628	0.01122847627	
673.125	0.7338460678	-0.6298476114	
673.75	0.05469843851	-0.5372223599	
674.375	0.3712896708	-0.2371940793	
675.0	-0.05237085803	-1.097072777	
675.625	-0.8041512282	0.2095858071	
676.25	0.05520594455	-0.4923077156	
676.875	-0.823204337	0.2160935099	
677.5	0.09757740022	-0.01498870339	
678.125	-0.9074587927	0.3397674876	
678.75	0.5520852511	0.3066972499	
679.375	0.1361686129	0.4239884695	
680.0	0.7581137151	-0.1637279284	
680.625	-0.1288127908	-0.5528640718	
681.25	0.1699631884	0.5321945093	
681.875	0.7165083213	0.005439395116	
682.5	0.4239579178	0.01485948029	
683.125	0.2702001153	0.132714769	
683.75	0.8957111342	0.6160343093	
684.375	0.5872106543	-0.4759287153	
685.0	0.3793788152	0.6049871839	
685.625	1.230156858	-0.0911198478	
686.25	-0.04926505834	-0.2704135715	
686.875	1.67613619	0.2501846732	
687.5	-0.01136233024	-1.512969375	
688.125	0.5743629906	-0.2315264705	
688.75	-1.298073997	-1.22091695	
689.375	-0.1662451991	1.137782346	
690.0	-0.4722314091	0.6011958934	
690.625	1.050394556	0.7337095601	
691.25	0.3775790032	0.4341584596	
691.875	1.204272533	1.203985957	
692.5	1.564366728	0.1833203966	
693.125	1.363455233	0.1892952861	
693.75	1.500305027	-0.5705373297	
694.375	1.067013302	-0.891788001	
695.0	1.223337072	-0.8976420943	
695.625	0.8191395649	-0.1119247787	
696.25	1.58806663	0.8854063801	
696.875	1.197912376	0.2565417764	
697.5	0.1647475073	1.467774948	
698.125	2.191024523	0.5320631801	
698.75	0.4867596452	-0.4451233886	
699.375	-0.5722899794	-1.858226773	
700.0	-0.3643717938	1.363338641	
700.625	-0.4322572607	0.3421296066	
701.25	1.044002906	0.6409048848	
701.875	0.3080909813	0.3257356935	
702.5	1.017606643	1.096936141	
703.125	0.9355635504	-0.1152059924	
703.75	0.9673842797	0.2336551234	
704.375	0.6980691516	-0.9062009957	
705.0	0.245293033	-0.03190936088	
705.625	1.456772021	-0.09155761609	
706.25	0.2480515535	-0.0286231632	
706.875	0.293712699	1.223688684	
707.5	1.228157889	0.7660656196	
708.125	0.4976935645	0.5178928933	
708.75	1.26027668	-1.005800436	
709.375	-0.8763237223	-0.5026897725	
710.0	-0.6194591926	0.1478924681	
710.625	0.3390878213	0.6507848964	
711.25	-0.05397322324	0.1803749932	
711.875	0.6355177189	0.4537273509	
712.5	0.63740419	-0.0296604617	
713.125	0.8166116095	-0.6168088435	
713.75	0.07662982023	-0.3979465497	
714.375	0.4337841356	-0.7377585343	
715.0	-0.5312713433	-0.4535624781	
715.625	0.5191032575	-0.1199302718	
716.25	0.3701761922	-1.519165685	
716.875	0.02435812452	0.08821506556	
717.5	2.155656081	0.6267175043	
718.125	2.124040639	-1.493917574	
718.75	0.4433410494	1.85365353	
719.375	4.10182102	-1.848993504	
720.0	-0.1208991103	-1.503786803	
720.625	1.399414721	-1.56078138	
721.25	0.2306042725	-4.018406067	
721.875	-1.030178994	-1.240202338	
722.5	-0.9520704728	-3.031115724	
723.125	-2.427495638	-0.2573674585	
723.75	-0.4969445288	0.7901748082	
724.375	-0.4611571864	1.224249817	
725.0	0.8854924694	1.016411447	
725.625	0.4694087088	0.6410215331	
726.25	-0.5027304189	1.53181666	
726.875	-0.2760376113	3.765596923	
727.5	1.950772043	1.906740551	
728.125	-3.943432759	5.649285994	
728.75	-0.324077097	9.997365174	
729.375	0.4118909271	1.007660438	
730.0	-12.82264987	16.53304938	
730.625	11.83581238	11.35763631	
731.25	-9.323758507	5.148762607	
731.875	-12.09305452	10.10199631	
732.5	-6.176094032	8.347850877	
733.125	-3.358210295	-2.584090436	
733.75	-4.509062578	4.871585549	
734.375	2.201460752	0.6114709656	
735.0	0.711643823	-0.6168596702	
735.625	-2.333944013	0.7486285507	
736.25	-0.01017117462	0.05232388855	
736.875	0.6949609031	2.411151465	
737.5	3.598065364	0.3177221981	
738.125	3.105963457	-3.211645292	
738.75	1.81508998	1.864758421	
739.375	16.41031023	-5.973752657	
740.0	-3.916846533	-12.29439126	
740.625	-5.329367296	21.90276378	
741.25	21.91900376	13.7491812	
741.875	12.06333183	-14.70426217	
742.5	-9.863917756	-12.88516903	
743.125	-6.08296841	-3.590694606	
743.75	3.396025888	-0.793210347	
744.375	-2.672600127	-1.550113929	
745.0	0.552440842	0.04608776529	
745.625	0.2292248059	0.3011334485	
746.25	-0.2521701522	-0.4664859999	
746.875	-0.2556688881	-0.04875353817	
747.5	-0.3951361098	1.265501385	
748.125	0.728526338	1.396032923	
748.75	0.1956974383	0.9694891187	
749.375	-0.03677261481	1.145300448	
750.0	-0.2915038499	0.484608293	
