!Created with skrf (http://scikit-rf.org).
# GHz S RI R (50+0j) 
!freq	ReS11	ImS11	
500.0	0.3938075699	-1.146285631	
500.625	-0.2580859117	-0.9359410355	
501.25	-0.01892183966	-0.4239635409	
501.875	-0.3929395812	-0.4237430492	
502.5	-0.06292846674	-0.05447400986	
503.125	-0.06153484361	-0.019297195	
503.75	0.05438283241	0.09490587907	
504.375	-0.005505497693	0.02270312229	
505.0	0.03608583094	-0.04628869077	
505.625	-0.03211263249	-0.002319498654	
506.25	-0.04469341194	-0.1522095216	
506.875	0.02444832992	0.2063364668	
507.5	0.2260122004	-0.3820020462	
508.125	-0.05336992024	-0.8307827304	
508.75	-0.05352529681	-0.5443095639	
509.375	0.2106922151	-1.239896926	
510.0	-0.5917881073	-0.1054839566	
510.625	-0.01791748323	-0.0219819354	
511.25	-0.06430765766	-0.1151430496	
511.875	-0.1164337617	0.02099863808	
512.5	-0.01106938772	-0.005535532831	
513.125	-0.01225970168	-0.08213770395	
513.75	-0.05110588613	0.01672009432	
514.375	0.009142998768	-0.05707240518	
515.0	-0.2730363658	0.0449437435	
515.625	0.3292304451	-0.4094880137	
516.25	-0.5627189228	-0.7802568348	
516.875	-0.02327089408	-0.05188412153	
517.5	0.08803007223	-0.225798517	
518.125	-0.02973093283	0.06124747042	
518.75	0.003918195845	-0.1902561543	
519.375	-0.05315692642	0.05520332619	
520.0	0.08775780454	-0.007186419521	
520.625	0.1369091354	-0.03395292588	
521.25	-0.0408569151	-0.2418860122	
521.875	-0.132519677	0.01632422515	
522.5	-0.02639128654	-0.02122757786	
523.125	-0.1028673939	0.04075556169	
523.75	0.02262408672	-0.01497652533	
524.375	-0.1953269599	-0.07694827285	
525.0	0.08497855651	0.1565136547	
525.625	-0.02891827076	-0.01420755177	
526.25	0.05428113249	0.02702718182	
526.875	-0.08647800007	-0.007918664459	
527.5	-0.02871946283	0.2599817737	
528.125	0.09220688792	0.09054671949	
528.75	-0.05474369965	0.1940529791	
529.375	0.09809484371	0.04766032474	
530.0	-0.04787578915	0.08925921724	
530.625	0.1776136995	0.3562014898	
531.25	0.4835874808	0.2051618638	
531.875	0.1644667131	-0.1267610786	
532.5	-0.1033953607	-0.1702755812	
533.125	-0.02572838143	0.04149032904	
533.75	0.2066750067	-0.2062009537	
534.375	-0.1556398828	-0.1605178337	
535.0	-0.1451764554	-0.1129163461	
535.625	-0.1872943102	0.1324845193	
536.25	0.04028609491	0.06156770376	
536.875	0.06685335497	0.03902231403	
537.5	0.06334830774	-0.07162519182	
538.125	0.04611074022	-0.02773060811	
538.75	0.1542966432	-0.1217258419	
539.375	-0.1165836397	-0.107056428	
540.0	-0.07868448161	-0.1071749443	
540.625	-0.1904782954	-0.04649948232	
541.25	-0.1118753453	0.01400193114	
541.875	-0.01868093516	-0.0322966128	
542.5	-0.08320179903	-0.06035058968	
543.125	-0.02318555959	-0.02939787107	
543.75	-0.07355196842	-0.1061150101	
544.375	-0.007491483815	0.08035568799	
545.0	-0.03866706296	0.02991150281	
545.625	0.1214378518	0.08395740247	
546.25	0.0325997538	-0.007036906286	
546.875	0.1564941595	0.009782047991	
547.5	0.006703536371	-0.1359855691	
548.125	-0.01638429183	-0.09924742478	
548.75	-0.1166141458	-0.1581212999	
549.375	-0.1372330409	-0.01187630101	
550.0	-0.03484605387	-0.01936066728	
550.625	-0.07931006801	0.042394242	
551.25	-0.03390724926	0.01235098102	
551.875	-0.08691695302	0.07068315094	
552.5	-0.004804460669	0.07336079154	
553.125	-0.01862658042	0.04741762998	
553.75	0.05630699128	0.0398631658	
554.375	0.07329606858	-0.009303867959	
555.0	0.08613563906	-0.06837901685	
555.625	0.06572322189	-0.1101463151	
556.25	0.04304182296	-0.1257545315	
556.875	-0.03815996786	-0.1385277167	
557.5	-0.09791760286	-0.08497782966	
558.125	-0.1096219144	-0.0211777629	
558.75	-0.09406074365	0.004211312422	
559.375	-0.1058685819	0.02741191892	
560.0	-0.07164682343	0.08148093908	
560.625	-0.04661346787	0.08395215926	
561.25	0.01276176056	0.1155559636	
561.875	0.03502912445	0.01136518776	
562.5	-0.001101463066	0.08324816856	
563.125	0.08260405733	0.01866012037	
563.75	0.1051010951	0.02899605075	
564.375	0.136676264	-0.1226923592	
565.0	0.0138769147	-0.1263834836	
565.625	0.009986034722	-0.1212950992	
566.25	-0.1672069032	-0.1122248551	
566.875	-0.08435529664	-0.01134477841	
567.5	-0.1113064942	-0.1494633349	
568.125	-0.209096273	-0.08960365246	
568.75	-0.133468089	-0.04913558413	
569.375	-0.3231581	0.1140707205	
570.0	0.006950759348	0.2274882143	
570.625	-0.09068684222	0.05388099335	
571.25	0.01036869633	0.1945198168	
571.875	0.009454472481	-0.04181637386	
572.5	0.1654760492	0.06673741508	
573.125	0.02250592679	-0.1882348408	
573.75	-0.003620138559	-0.01436324496	
574.375	0.08660932987	-0.1544079553	
575.0	-0.07785170773	0.003272759828	
575.625	0.1214534946	-0.07987167727	
576.25	-0.02957563536	-0.1596897943	
576.875	-0.01203737933	-0.04499783629	
577.5	0.06364393913	-0.1778848537	
578.125	-0.1479708101	-0.1781969626	
578.75	-0.05578454	-0.009091735175	
579.375	-0.03764513357	-0.1603380272	
580.0	-0.1567777198	0.03982828846	
580.625	0.04378739688	-0.10248299	
581.25	-0.1589864194	0.1563787086	
581.875	0.1235149972	0.01100617474	
582.5	-0.08582854452	0.121140174	
583.125	0.1556194476	0.1482533661	
583.75	-0.04617952067	-0.08101472424	
584.375	0.1077928102	0.1420137037	
585.0	0.09825699602	-0.05687475316	
585.625	0.07690832004	0.05925046821	
586.25	0.2227961447	-0.1035078999	
586.875	-0.04135364161	-0.07736207359	
587.5	0.06703473497	-0.1163004011	
588.125	-0.07459119697	-0.1935465448	
588.75	-0.02881099163	-0.04946228248	
589.375	0.1270797012	-0.1537398933	
590.0	-0.1530214508	-0.147850357	
590.625	-0.08000361874	-0.009054162695	
591.25	-0.2049603685	0.07859088768	
591.875	0.08559715806	0.1885429372	
592.5	-0.06037816625	-0.0468874358	
593.125	0.03701331599	0.1362572314	
593.75	-0.03080423059	0.02333340154	
594.375	0.2215514854	0.1960542754	
595.0	0.2218253973	-0.03420905889	
595.625	0.04695863473	0.07108081007	
596.25	0.2434278991	0.03010431183	
596.875	0.1034154437	-0.06065556234	
597.5	0.07863779844	0.1179561245	
598.125	0.2278044359	0.1092582267	
598.75	0.1179851728	-0.01666577123	
599.375	0.2292208564	-0.01852690803	
600.0	0.1363807998	-0.205418681	
600.625	0.0188747312	-0.1533733353	
601.25	0.09306709202	-0.1318606835	
601.875	-0.1323721295	-0.1707445956	
602.5	-0.05479371264	0.0551016847	
603.125	-0.1445110089	-0.02306992995	
603.75	-0.03963386701	0.2122942762	
604.375	-0.01409280616	-0.001874465649	
605.0	-0.1625707939	0.1825159662	
605.625	0.07636093898	0.0857984048	
606.25	-0.1404375376	-0.04225782635	
606.875	-0.1797735908	0.2119920233	
607.5	-0.1182624363	0.06641717478	
608.125	-0.06128106169	0.2764188204	
608.75	0.1716786269	0.06839598114	
609.375	0.1064189567	-0.06916814127	
610.0	0.1115180447	-0.1671015956	
610.625	0.01817490631	-0.1897453729	
611.25	-0.00993632178	-0.05865782685	
611.875	-0.08715357246	-0.1927301369	
612.5	-0.2197131019	-0.01185119045	
613.125	-0.09969437365	-0.01816647897	
613.75	-0.1473047732	0.1793068585	
614.375	0.1628638472	0.07244840641	
615.0	-0.08627587774	0.04992910321	
615.625	0.1216960608	0.1134855801	
616.25	-0.0400805465	0.01715852795	
616.875	-0.1138060922	0.2473851927	
617.5	0.05524584595	0.197751758	
618.125	-0.02604461341	0.07587805253	
618.75	0.05354771045	0.241125651	
619.375	0.04607057786	0.1424426153	
620.0	0.1971315903	-0.02731431981	
620.625	0.1010228038	-0.1759716523	
621.25	-0.1483280281	-0.09039264438	
621.875	-0.1258913916	0.02800699907	
622.5	-0.2292030364	0.002224658488	
623.125	0.07735874554	0.2435075203	
623.75	0.04963292209	-0.006104063147	
624.375	0.1471430266	-0.07230098275	
625.0	-0.02144504551	0.01437348339	
625.625	0.1145936418	-0.1036224714	
626.25	-0.1326928843	-0.1206709023	
626.875	-0.05360667985	-0.04386994081	
627.5	-0.1797603426	-0.08685042436	
628.125	-0.1281695463	-0.001930563531	
628.75	-0.01308491099	-0.0982739152	
629.375	-0.1493250464	-0.1856964953	
630.0	-0.1738361198	-0.03095795832	
630.625	-0.1360978758	0.07546849242	
631.25	-0.1221740015	0.1943552681	
631.875	0.0562727887	0.1970855656	
632.5	0.1039028283	0.1641802533	
633.125	0.2838410043	0.1167486345	
633.75	0.08845272191	-0.1132250564	
634.375	0.07372884733	-0.08526322506	
635.0	-0.0948267193	-0.2639742996	
635.625	-0.09140733268	0.01237995692	
636.25	-0.2266660582	-0.02490411458	
636.875	-0.006860095387	0.2250209383	
637.5	-0.005653311167	0.005780721007	
638.125	-0.1183858057	0.13724258	
638.75	0.08056810675	0.1484575699	
639.375	-0.06416223342	0.1770756124	
640.0	0.2064267609	0.2805223015	
640.625	0.2389063972	-0.002531258989	
641.25	0.1783412201	0.03965944349	
641.875	0.1978957636	-0.2634242741	
642.5	-0.1079302345	-0.1296563574	
643.125	-0.0477129312	-0.1304970691	
643.75	-0.2734135981	-0.133777667	
644.375	-0.03149231306	0.1143993634	
645.0	-0.2162056389	0.1279383796	
645.625	0.2014422334	0.2978575593	
646.25	0.0140618298	-0.1148959937	
646.875	0.1429949326	0.1360210749	
647.5	0.04442065182	-0.1834349102	
648.125	0.1414692694	0.2723206642	
648.75	0.3291523925	-0.2293712552	
649.375	0.02940245063	-0.152638806	
650.0	0.2603868155	-0.182590048	
650.625	0.08534002136	-0.4596731757	
651.25	-4.918759045e-05	-0.141314523	
651.875	0.3855336648	-0.05924236394	
652.5	0.2692256615	-0.2916679409	
653.125	0.07411259406	-0.07072988529	
653.75	0.2851278244	-0.2297469785	
654.375	-0.2342098932	-0.2809845835	
655.0	-0.1433742089	-0.0005946865714	
655.625	-0.2991620098	0.06135137974	
656.25	0.1813528334	0.2235817624	
656.875	-0.1188791256	-0.0797897886	
657.5	0.1400794336	0.2394699498	
658.125	0.1482445998	-0.01719148294	
658.75	0.1713188384	0.225389046	
659.375	0.4183508958	-0.383841323	
660.0	0.001063327692	-0.2408470987	
660.625	0.213894656	-0.2111789646	
661.25	0.1168439897	-0.4343045012	
661.875	-0.01085847639	-0.1844858799	
662.5	0.3299745258	-0.1128653794	
663.125	0.2015395263	-0.3330429616	
663.75	0.02642576446	-0.1745098332	
664.375	0.0311407263	-0.3685637391	
665.0	-0.3876249854	-0.08893255166	
665.625	-0.1521788572	0.0746300816	
666.25	-0.1608367393	0.2614533155	
666.875	0.2273477359	0.1731821482	
667.5	0.059510496	0.005820419435	
668.125	0.3274172291	0.04238917997	
668.75	0.0763676151	-0.2491308582	
669.375	0.09286890944	-0.03374678065	
670.0	0.07231233429	-0.3400876775	
670.625	-0.1986237999	-0.09126711771	
671.25	0.1560882608	-0.06926540778	
671.875	0.04985655006	-0.3281681328	
672.5	0.02437471613	-0.1267973803	
673.125	0.2627067832	-0.07002088392	
673.75	0.07550299563	-0.3579001335	
674.375	-0.03556986386	-0.1086485889	
675.0	-0.01894397174	-0.2620818904	
675.625	-0.2974949091	-0.07797329605	
676.25	-0.02696562703	0.06415460186	
676.875	-0.2280889951	-0.0654700307	
677.5	-0.09517497558	0.1701940718	
678.125	-0.07282248545	0.03577198751	
678.75	0.001492205887	0.3105783084	
679.375	0.2870950175	-0.09056437588	
680.0	-0.001636377139	0.01796386336	
680.625	0.1960564364	-0.08976310688	
681.25	-0.113752903	-0.1903312186	
681.875	0.07825933236	0.3044236132	
682.5	0.4609623367	-0.0930175191	
683.125	-0.01981945419	-0.05914590771	
683.75	0.2736248405	0.2368620152	
684.375	0.4565388387	-0.09176428658	
685.0	-0.03830024476	0.08130514241	
685.625	0.4942010951	0.08295426495	
686.25	0.2345860921	-0.2693818268	
686.875	0.1641492717	-0.05866764425	
687.5	0.2973237964	-0.4088644608	
688.125	-0.2827056111	-0.3111762435	
688.75	-0.1969156754	-0.1249768106	
689.375	-0.3156458597	0.3645585349	
690.0	0.2594778457	0.2877611885	
690.625	0.05652680229	0.146364517	
691.25	0.4589798399	0.3278893312	
691.875	0.4266697585	-0.01689859128	
692.5	0.390896378	0.2715675556	
693.125	0.8961547717	-0.1953236012	
693.75	0.2270274174	-0.4062397207	
694.375	0.4453083026	-0.1612046787	
695.0	0.4397807154	-0.5048619756	
695.625	0.2134051006	-0.07861738263	
696.25	0.3703659132	0.3064699445	
696.875	0.6021210864	0.1307456858	
697.5	0.2489970055	0.2668909998	
698.125	0.5684769776	0.2093795625	
698.75	0.2868003925	-0.4940419407	
699.375	-0.3687979643	-0.0668610366	
700.0	-0.2666279864	0.2707178114	
700.625	0.1390222319	0.3444925006	
701.25	0.140585951	0.03981610076	
701.875	0.2188059474	0.294643818	
702.5	0.4773271056	0.1474718577	
703.125	0.2194766598	0.005076788339	
703.75	0.4738049146	-0.04180890846	
704.375	0.2266628892	-0.3353757828	
705.0	0.06625183781	-0.06104054016	
705.625	0.3758021176	0.03849044455	
706.25	0.1628445216	0.05922698943	
706.875	0.1242849729	0.2833183305	
707.5	0.3937073344	0.3530816115	
708.125	0.3578277124	0.01079566584	
708.75	0.1351281409	-0.3951923369	
709.375	-0.3342911772	-0.2049415348	
710.0	-0.1055991279	0.2161658196	
710.625	0.08773940486	-0.04869506143	
711.25	0.1372004665	0.2580486122	
711.875	0.1860397923	-0.05566187443	
712.5	0.3052769903	0.006360308161	
713.125	0.2628476644	-0.2764348235	
713.75	-0.04144023879	-0.1885178119	
714.375	0.116044699	-0.2252206904	
715.0	-0.130787113	-0.2536004009	
715.625	-0.008876513267	-0.08499389168	
716.25	0.2375409823	-0.2382815306	
716.875	0.2171547843	-0.3056348803	
717.5	0.2838112002	0.03458778233	
718.125	0.7231153401	0.02527848337	
718.75	0.6265097743	-0.3317803194	
719.375	0.4835382211	-0.2214242639	
720.0	0.7097623704	-0.4781623167	
720.625	-0.1412036681	-0.9024650417	
721.25	-0.03772240015	-0.2617389948	
721.875	-0.1851601003	-1.192057115	
722.5	-0.9201455563	-0.3184666528	
723.125	-0.5731650581	-0.1396806225	
723.75	-0.4993811251	0.6791843652	
724.375	0.2592799759	0.2781275409	
725.0	-0.0419978635	0.3166565952	
725.625	0.4095587687	0.6208685107	
726.25	0.1870412353	0.3015928397	
726.875	-0.2557769543	0.7893418791	
727.5	0.2092858898	1.49322004	
728.125	0.6476816434	1.089562176	
728.75	-0.6524194387	2.061265453	
729.375	0.4484497811	4.244462949	
730.0	1.294858102	1.810656359	
730.625	-1.410894543	2.948314116	
731.25	0.6019686721	4.305298205	
731.875	-0.4923982497	1.286881848	
732.5	-3.041019515	1.016484731	
733.125	-2.430159625	1.636683941	
733.75	0.3217527059	0.8775695734	
734.375	0.6039372034	1.007872678	
735.0	-0.5805143766	-0.7184725701	
735.625	-0.1217335601	0.05430368725	
736.25	-0.3051841734	0.6941046353	
736.875	0.8688447632	0.09103152142	
737.5	0.189877737	0.2891610272	
738.125	2.178852773	-0.65282059	
738.75	0.4593941906	-2.009436835	
739.375	0.6817266589	-0.193148425	
740.0	4.691106154	-0.5144973374	
740.625	1.677254211	-4.123367781	
741.25	-2.543939538	0.7438425953	
741.875	-4.772927857	1.965451457	
742.5	-0.9687799467	0.7164526801	
743.125	1.081875703	-1.707176913	
743.75	-0.67201302	-1.085906219	
744.375	-0.2212639191	0.1482597228	
745.0	-0.09203324001	0.1350386675	
745.625	-0.01018425706	-0.1686694003	
746.25	0.0557714934	-0.09512074191	
746.875	-0.26169705	0.0667313541	
747.5	0.105506464	0.2675777885	
748.125	0.04062324234	0.3119145974	
748.75	0.379887367	0.4913330203	
749.375	0.249677912	0.2349595212	
750.0	-0.2662660551	0.1897992771	
