!Created with skrf (http://scikit-rf.org).
# GHz S RI R (50+0j) 
!freq	ReS11	ImS11	
500.0	-0.9424857966	-2.796558617	
500.625	0.6411049944	-1.642349309	
501.25	-0.546165594	-2.703078405	
501.875	-1.710535551	-1.89716212	
502.5	-0.2165355348	-0.05734757337	
503.125	-0.3357382271	-0.09718798484	
503.75	0.3352109156	0.1570325572	
504.375	0.08364228055	0.09748674993	
505.0	-0.03828163189	-0.1808874939	
505.625	0.2433216945	-0.005542833499	
506.25	-0.6917438162	-0.329652007	
506.875	0.6054801934	-0.157554238	
507.5	0.2522934107	-2.147934508	
508.125	-1.232783497	-2.560697939	
508.75	1.422059551	-0.7002660469	
509.375	-1.787375548	-5.548409427	
510.0	-0.9594760763	0.3778094268	
510.625	-0.2164932767	-1.042420585	
511.25	-0.4505078557	0.2209061549	
511.875	-0.3455621773	-0.1825981478	
512.5	-0.1390230671	0.1918194903	
513.125	-0.08733428267	-0.2868736949	
513.75	-0.134888145	0.02352365598	
514.375	-0.2237196983	-0.4248477018	
515.0	-0.8245575805	1.244544667	
515.625	0.6562990553	-3.414025235	
516.25	-2.818376347	0.148041283	
516.875	0.950206501	-1.339291606	
517.5	-0.8295829585	-1.110415185	
518.125	0.3165953662	0.106439622	
518.75	-0.7328903554	-0.8327863287	
519.375	-0.03934336843	0.1629084956	
520.0	0.2626165644	0.3503976866	
520.625	0.6154946816	-0.3317630774	
521.25	-0.2108469599	-0.4141247338	
521.875	-0.4206385532	-0.3785120816	
522.5	-0.01681222108	0.2237981917	
523.125	-0.3142504182	-0.03724076653	
523.75	-0.09945853391	0.1018674922	
524.375	-0.7023885313	-0.111508839	
525.0	0.3450400679	0.2885533935	
525.625	-0.1357356306	0.1096224828	
526.25	0.2035197609	-0.07799686172	
526.875	-0.3691602257	0.1895418818	
527.5	0.2550724955	0.5286864721	
528.125	-0.2631336675	0.5224044548	
528.75	0.1500601023	1.171706916	
529.375	0.02002252681	-0.08140819069	
530.0	0.4998528896	0.6451519767	
530.625	-0.1676010574	0.5281460957	
531.25	1.912608476	0.3708260205	
531.875	0.03421388269	-0.4333340636	
532.5	0.1535750463	-0.6765801396	
533.125	-0.2233074073	0.3153077838	
533.75	0.5046141295	-0.9505608763	
534.375	-0.519372228	-0.2619701796	
535.0	-0.521607017	-0.7692967582	
535.625	-0.4075378536	0.680547023	
536.25	-0.009693383592	0.1034513351	
536.875	0.2968819147	0.166395611	
537.5	0.125666546	-0.2175672362	
538.125	0.3050160787	0.08528002553	
538.75	0.3266244687	-0.531080131	
539.375	-0.0676366054	-0.2293850087	
540.0	-0.3724157343	-0.6000736132	
540.625	-0.4772707899	0.1539633746	
541.25	-0.1098843428	-0.03479800086	
541.875	-0.1039209133	-0.1226464578	
542.5	-0.2528896339	-0.09589464365	
543.125	0.0276687953	-0.06178214638	
543.75	-0.426808074	-0.1074860386	
544.375	0.1301740979	0.1075733099	
545.0	-0.1894937656	0.2606129744	
545.625	0.266872095	-0.0415874988	
546.25	0.03232145316	0.3308108342	
546.875	0.4536827513	-0.333979669	
547.5	0.05808136622	-0.04654256003	
548.125	0.1039760227	-0.5241521606	
548.75	-0.4921752055	-0.2830442953	
549.375	-0.1123315903	-0.03698165386	
550.0	-0.3148394287	-0.1165451726	
550.625	-0.004763147678	0.106679299	
551.25	-0.3061168536	-0.03614643228	
551.875	-0.08492816815	0.2826764921	
552.5	-0.1515630809	0.07527892282	
553.125	-0.04606669712	0.2154816537	
553.75	0.1159225086	0.08904451321	
554.375	0.2215208273	0.03463288871	
555.0	0.2602609462	-0.1825491464	
555.625	0.1981815383	-0.2521768193	
556.25	0.1781956279	-0.3399535325	
556.875	-0.08186261177	-0.4079860094	
557.5	-0.2297903766	-0.2526192147	
558.125	-0.2618472929	-0.1086874954	
558.75	-0.2819343422	-0.0258858468	
559.375	-0.250829282	0.07761432892	
560.0	-0.2245246233	0.1223093395	
560.625	-0.1727559517	0.299142529	
561.25	0.09743953757	0.2153026155	
561.875	-0.03203304575	0.1383133745	
562.5	0.1321806378	0.07317445997	
563.125	0.05744030357	0.2574091759	
563.75	0.4496127297	-0.07216711947	
564.375	0.1277032276	-0.172573201	
565.0	0.3548890243	-0.3053270802	
565.625	-0.1819591178	-0.444499295	
566.25	-0.2174407288	-0.1267661988	
566.875	-0.2460444128	-0.3282549053	
567.5	-0.5191096568	-0.2389342427	
568.125	-0.1322898489	-0.2572511811	
568.75	-0.6943058912	-0.3771890718	
569.375	-0.4133550203	0.3648862305	
570.0	-0.4324369443	0.22536813	
570.625	-0.2299871426	0.7335419988	
571.25	0.199452427	-0.003499508894	
571.875	-0.04044660575	0.5182058566	
572.5	0.3611388806	-0.3505903604	
573.125	0.1322484991	0.07452171447	
573.75	0.3880496235	-0.4795519893	
574.375	-0.2680924589	-0.0941961063	
575.0	0.4038796767	-0.06818566758	
575.625	-0.2195087648	-0.2471006447	
576.25	0.3276795181	0.03545004724	
576.875	0.00829362105	-0.6345550591	
577.5	-0.2589421662	-0.2883575357	
578.125	0.1089267655	-0.2205899228	
578.75	-0.1504209962	-0.53744178	
579.375	-0.4015469141	0.003807687189	
580.0	0.1349340204	-0.1175080013	
580.625	-0.4226385162	-0.008914981752	
581.25	0.005156132073	0.01023622776	
581.875	-0.3230768225	0.4855523121	
582.5	0.4441037443	0.4758447041	
583.125	0.0181934084	-0.2107528096	
583.75	0.07532625505	0.5480624489	
584.375	0.06402222307	-0.358084987	
585.0	0.1699246381	0.5739555387	
585.625	0.5160715469	-0.306209813	
586.25	0.04119393601	0.08011833946	
586.875	0.4927954856	-0.4971070492	
587.5	-0.3268943561	-0.1949808214	
588.125	0.2434905794	-0.2165920038	
588.75	0.1752156466	-0.6199436149	
589.375	-0.1078157393	-0.2909974922	
590.0	0.155986916	-0.386329281	
590.625	-0.5945283267	-0.201402021	
591.25	-0.1775450817	0.2924971932	
591.875	-0.2119646214	0.1334822195	
592.5	0.0834515449	0.26667979	
593.125	-0.255033894	0.001431107954	
593.75	0.2755576671	0.3470871626	
594.375	0.2573849321	0.04517372898	
595.0	0.1058794706	0.4828717823	
595.625	0.9184682492	0.3374671229	
596.25	0.004864400631	-0.1765638858	
596.875	0.4660994737	0.516932663	
597.5	0.5460218265	-0.06552250074	
598.125	-0.02613854147	0.4571433053	
598.75	0.7812474647	0.1851557207	
599.375	0.1871317404	-0.03678884963	
600.0	0.66495133	-0.1513195059	
600.625	0.3151454145	-0.6375606046	
601.25	0.03124430914	-0.2675637627	
601.875	-0.003469548121	-0.4147554872	
602.5	-0.3425834654	-0.04175157254	
603.125	-0.300706178	0.1754915154	
603.75	-0.1893284441	0.05177031171	
604.375	-0.403100418	0.1544324509	
605.0	0.008229744687	0.2278845091	
605.625	-0.3348041072	0.02666523854	
606.25	-0.1561772252	0.3391832649	
606.875	-0.341503958	-0.1210582543	
607.5	-0.6856153088	0.7439171225	
608.125	0.1749724621	0.2284269465	
608.75	0.07940775014	0.7184297421	
609.375	0.7758953634	-0.4208332678	
610.0	0.2312894739	0.09949632233	
610.625	0.4532973714	-0.5818847623	
611.25	-0.1748051377	-0.1446896019	
611.875	0.01953089213	-0.6102263287	
612.5	-0.4377458174	0.162346564	
613.125	-0.3650920363	-0.2291407053	
613.75	-0.2796695043	0.5835125706	
614.375	0.03413244615	-0.0224513999	
615.0	0.2549262471	0.3709122364	
615.625	-0.1170715813	-0.1237657219	
616.25	-0.2997657336	0.6112954853	
616.875	0.1846951919	0.4125271455	
617.5	-0.4957030177	0.306712499	
618.125	0.06318417576	0.7884932524	
618.75	0.05392266248	0.1750946251	
619.375	0.09786456449	0.6683547608	
620.0	0.4146936231	-0.06729578206	
620.625	0.4111072293	-0.2105275246	
621.25	-0.3025103816	-0.3946453252	
621.875	-0.3102909602	-0.2950150607	
622.5	-0.6309956005	0.2073894558	
623.125	-0.09649871899	0.2267639612	
623.75	0.3947396028	0.3292641994	
624.375	-0.1400507219	-0.2792628006	
625.0	0.5048709807	0.07746989527	
625.625	-0.3672180141	-0.2126487415	
626.25	0.289780439	-0.2840134731	
626.875	-0.6158332707	-0.3075289456	
627.5	-0.1367201825	0.1426175099	
628.125	-0.1788951104	-0.5126613774	
628.75	-0.3891642203	-0.08782025413	
629.375	0.05703680457	-0.4084332877	
630.0	-0.6241498717	-0.3439986165	
630.625	-0.3269247835	0.2974265276	
631.25	-0.437883487	0.1909291819	
631.875	-0.1266170091	0.7242221483	
632.5	0.3593536598	0.4806553546	
633.125	0.4288852416	0.03518262424	
633.75	0.412196696	0.1005180172	
634.375	0.000639067266	-0.5214607253	
635.0	0.1379074642	-0.1929023177	
635.625	-0.4895365809	-0.3578312144	
636.25	-0.09726287742	0.2580306906	
636.875	-0.4995798343	0.1319319963	
637.5	0.1709865206	0.4919223074	
638.125	-0.1641340583	-0.2443131996	
638.75	-0.4789513706	0.7515732791	
639.375	0.4080429987	0.5062939592	
640.0	-0.03910115939	0.3480810806	
640.625	0.676878159	0.6833675621	
641.25	0.6001229834	-0.3366656284	
641.875	0.4922084087	0.005936857234	
642.5	-0.3025484999	-0.9081000413	
643.125	-0.02176850702	0.01166963729	
643.75	-0.3513404017	-0.5914371178	
644.375	-0.523722982	0.3646972825	
645.0	-0.07231045793	0.08541390627	
645.625	-0.2710595986	0.6159741882	
646.25	0.7442165725	0.2333556499	
646.875	-0.09220132486	-0.2679464636	
647.5	0.4222320954	0.5017489003	
648.125	-0.01425629043	-0.3600146249	
648.75	0.9412563398	0.3910555183	
649.375	0.4675166933	-1.101067353	
650.0	-0.05052596823	-0.2058529228	
650.625	1.191213139	-0.5093906758	
651.25	0.0801613962	-1.381475507	
651.875	0.09935427499	0.1860772293	
652.5	1.249195827	0.04094644847	
653.125	0.4787721742	-0.7475900331	
653.75	0.3444030898	0.06430193782	
654.375	-0.1189487527	-1.252915389	
655.0	-0.6807516899	0.1911857194	
655.625	-0.3605973061	-0.1130698658	
656.25	-0.1106940956	0.916934523	
656.875	0.3256041288	-0.3398334944	
657.5	-0.1258069599	0.602875074	
658.125	0.5783381727	0.2992077906	
658.75	0.4275207186	0.01557365554	
659.375	0.9904955596	0.1373016214	
660.0	0.4202283267	-1.154521173	
660.625	0.1728695214	-0.3452690415	
661.25	0.8067919316	-0.6303368761	
661.875	0.3769729077	-1.163611406	
662.5	0.09274098884	0.01347161853	
663.125	1.286871434	-0.4006142423	
663.75	-0.07132840625	-0.8985717099	
664.375	0.2772415446	-0.3934258253	
665.0	-0.964285668	-0.8471736554	
665.625	-0.2808205905	0.364555757	
666.25	-0.6563793184	0.4557893444	
666.875	0.5147110051	0.6906879543	
667.5	0.2646141321	-0.0973945032	
668.125	0.5330260618	0.4113189421	
668.75	0.5473406133	-0.6397156128	
669.375	0.05728390984	-0.3805597333	
670.0	0.2367198367	-0.4243685762	
670.625	-0.09920256207	-0.6918521011	
671.25	0.1156820494	-0.0980052327	
671.875	0.4556615744	-0.5355941838	
672.5	0.3167621092	-0.4796368399	
673.125	0.3585922481	-0.0833714884	
673.75	0.8631922939	-0.6461061553	
674.375	-0.4308949607	-0.7644082172	
675.0	0.2887724737	-0.1373316911	
675.625	-0.6218675518	-0.7824662195	
676.25	-0.4767260055	0.497467477	
676.875	-0.202458711	-0.6103935477	
677.5	-0.4978843556	0.6401856803	
678.125	-0.1700896175	-0.159666239	
678.75	-0.1973742878	1.050354628	
679.375	0.6415371162	-0.3705732894	
680.0	0.1115264653	0.1754500215	
680.625	0.5149699133	-0.1885594277	
681.25	0.09923080508	-0.368060217	
681.875	0.03451373005	0.3194218056	
682.5	0.7086697165	0.4056662473	
683.125	0.5794504743	-0.06106021366	
683.75	0.3653216052	0.160377987	
684.375	0.9461680127	0.4360257768	
685.0	0.4769951135	-0.4220628645	
685.625	0.6309348043	0.5801570251	
686.25	1.203882218	-0.4759456046	
686.875	-0.08401323031	-0.2528034689	
687.5	1.552399867	-0.253777581	
688.125	-0.9814772189	-1.593784923	
688.75	0.04294709082	-0.4441195827	
689.375	-1.460534185	0.9559007417	
690.0	0.7579588541	0.5299753573	
690.625	-0.1299411783	1.045689267	
691.25	1.236888972	0.2684343326	
691.875	0.5632690905	0.6627594313	
692.5	1.562710061	0.7995240207	
693.125	1.585979321	-0.3346135027	
693.75	1.223461941	-0.3883702038	
694.375	0.9778543847	-1.037533687	
695.0	1.04680745	-0.4208039525	
695.625	1.480827729	-0.4875670407	
696.25	0.6982930829	0.2370999575	
696.875	1.226609027	1.680344852	
697.5	1.217105089	0.3672850913	
698.125	0.9413613829	1.257081868	
698.75	1.410545935	-1.709158566	
699.375	-0.3857491575	-0.1118646446	
700.0	-1.591591151	0.598298543	
700.625	0.8974731776	0.5484773375	
701.25	-0.16550072	0.6692764303	
701.875	1.243421406	0.3799097833	
702.5	0.254157607	0.4696299361	
703.125	1.322226455	0.611513587	
703.75	0.504214421	-0.6208954095	
704.375	0.9835248101	0.03883925242	
705.0	0.4852158224	-0.8598447303	
705.625	0.1327802894	0.3464730358	
706.25	1.304111746	0.720003654	
706.875	0.3850798595	0.03231221566	
707.5	0.4367810268	1.350601127	
708.125	1.552901925	-0.04763390811	
708.75	0.4735715457	-0.2876564487	
709.375	-0.7477798814	-1.303449072	
710.0	-0.1301936167	0.6762004624	
710.625	-0.2832461135	0.3929757296	
711.25	0.4974087061	0.2048948945	
711.875	0.349023062	0.3331190882	
712.5	0.7538999151	-0.05877656455	
713.125	0.6101932193	-0.1590194375	
713.75	0.4616501522	-0.8867028202	
714.375	-0.2505530498	-0.1445294039	
715.0	0.3428833592	-0.9137742538	
715.625	-0.4993906242	-0.3635383466	
716.25	0.8311001621	-0.02949907617	
716.875	1.299210578	-1.373254514	
717.5	-0.2237540267	-0.03619553613	
718.125	2.965573415	1.211332545	
718.75	2.305837733	-1.92688138	
719.375	0.4731474467	0.5615225499	
720.0	3.125857461	-3.427081092	
720.625	-1.07089907	-2.08234988	
721.25	0.9355483798	-2.358146215	
721.875	-0.9084340933	-3.648837426	
722.5	-1.520485647	-0.8468342986	
723.125	-1.868451683	-1.322903575	
723.75	-1.025418047	1.61365707	
724.375	0.2325821095	0.7673336056	
725.0	0.1453515355	0.7755033537	
725.625	0.4247872664	1.688899943	
726.25	1.137267236	1.134091501	
726.875	-1.273872314	1.595406696	
727.5	-0.485178416	4.894956646	
728.125	2.871203491	3.381172807	
728.75	-5.666865435	5.957841494	
729.375	0.05863953025	15.71644743	
730.0	1.915591005	1.027693831	
730.625	-15.48449723	17.52580359	
731.25	12.22721751	13.09941749	
731.875	-5.330393945	-2.567865057	
732.5	-13.96535082	3.127514619	
733.125	-7.212588776	3.451855801	
733.75	-1.045715719	1.035753502	
734.375	3.200136866	2.580189688	
735.0	-0.6144307279	-0.8072041987	
735.625	-0.9028373584	-0.3907148531	
736.25	-0.3283866999	2.353009292	
736.875	1.482196033	0.1341337586	
737.5	1.498376757	1.672708566	
738.125	5.949947296	-0.5635386558	
738.75	4.399164546	-6.891703982	
739.375	-1.033856206	0.5272117304	
740.0	19.53666652	-0.9693575256	
740.625	-8.798708973	-22.69259339	
741.25	-5.264063952	25.21627202	
741.875	-2.09332325	20.08014966	
742.5	16.35561408	-2.761698329	
743.125	4.45217402	-12.93220183	
743.75	-3.435664983	-2.626119033	
744.375	0.1263933448	-0.1610375745	
745.0	-0.163347142	0.7494529721	
745.625	-0.1824304168	-0.2100268923	
746.25	0.2160121625	-0.5287174372	
746.875	-0.3556675658	0.2850366087	
747.5	-0.2795916237	0.4649139572	
748.125	0.0324034012	2.170410542	
748.75	1.621873462	1.18791852	
749.375	-0.01446417842	1.343552699	
750.0	3.474341438	-2.676926913	
