!Created with skrf (http://scikit-rf.org).
# GHz S RI R (50+0j) 
!freq	ReS11	ImS11	
500.0	-0.3163899781	-0.7668632149	
500.625	0.7411181435	-0.6075118396	
501.25	-0.8689348047	-0.9590594248	
501.875	-0.1905436203	-0.1907962298	
502.5	-0.02018916994	-0.1758760253	
503.125	-0.08300292481	0.05203303246	
503.75	-0.01608379936	0.03715937232	
504.375	0.06910219313	-0.02157650526	
505.0	-0.01932181503	-0.003105992507	
505.625	0.04528111064	-0.08298197409	
506.25	-0.1408284382	0.01650719149	
506.875	-0.1369834453	-0.2909072641	
507.5	-0.5041468076	-0.4667733803	
508.125	0.3587197078	-0.1665155773	
508.75	1.063620552	-1.079598494	
509.375	-0.5151318228	-1.212236165	
510.0	-0.08314344216	-0.2231207671	
510.625	-0.244444384	-0.2754817006	
511.25	-0.1022180664	0.03928419638	
511.875	-0.1082368864	-0.06845240799	
512.5	-0.01527293258	0.06940460057	
513.125	-0.02298212981	-0.01696169712	
513.75	-0.007431667961	-0.08950096706	
514.375	-0.1483382672	0.02457898009	
515.0	0.2734043524	-0.01256650082	
515.625	-0.5905837039	-0.3783655336	
516.25	0.3303483416	-0.0931625623	
516.875	0.03705374611	-0.7359650922	
517.5	-0.2206694641	-0.1303192919	
518.125	0.0543347598	-0.07451186508	
518.75	-0.1408386387	-0.03206967697	
519.375	-0.02469835928	0.01446679913	
520.0	0.09358056255	0.09831476074	
520.625	0.1846617174	-0.1139761454	
521.25	-0.01806593017	-0.2432325405	
521.875	-0.08001183058	-0.1084461335	
522.5	-0.1036673074	0.09768427094	
523.125	0.01209507142	-0.03928401087	
523.75	-0.1975459919	-0.05628039218	
524.375	-0.06247728554	0.1538763861	
525.0	-0.132179518	0.02016258044	
525.625	0.06934014683	0.1430903315	
526.25	-0.102101061	-0.07962423723	
526.875	-0.02403385168	0.1337195052	
527.5	-0.002571342208	0.07300774156	
528.125	-0.09666207227	0.3193623306	
528.75	0.1456577865	0.1691798764	
529.375	-0.04698323549	0.01829909241	
530.0	0.09420668371	0.1294460944	
530.625	0.10610761	0.1935511252	
531.25	0.3143675627	0.1355745283	
531.875	0.2322785326	-0.2992490752	
532.5	-0.1497587824	-0.03227564229	
533.125	0.09705816927	-0.2213726623	
533.75	-0.1155867432	-0.2073714345	
534.375	-0.001199631228	-0.3317029378	
535.0	-0.3169206534	-0.01729127545	
535.625	-0.09949917289	0.07603514749	
536.25	-0.04107882249	0.1030878422	
536.875	0.1224156409	-0.01643088463	
537.5	0.03270548815	-0.001839543848	
538.125	0.1826608645	-0.08604936773	
538.75	0.0710237296	-0.1219037923	
539.375	-0.003423691861	-0.1780469709	
540.0	-0.2389623856	-0.1940637716	
540.625	-0.1131314731	0.04501833176	
541.25	-0.06097098751	-0.02931577509	
541.875	-0.08221618606	0.02323224301	
542.5	-0.01478512768	0.004649156697	
543.125	-0.1484365052	-0.05483409187	
543.75	-0.1059392185	0.1217506786	
544.375	-0.06905001311	0.004318221162	
545.0	0.04846700438	0.07021974103	
545.625	-0.006219253295	0.03062760094	
546.25	0.1672620921	0.1001796593	
546.875	0.06672603726	-0.07054075325	
547.5	0.1107863467	-0.08549580998	
548.125	-0.07382679587	-0.2153085918	
548.75	-0.1336706816	-0.03628756673	
549.375	-0.06673566632	-0.1097093708	
550.0	-0.1145779836	0.04194002456	
550.625	-0.01262742366	-0.01798639708	
551.25	-0.1191282057	0.0478385413	
551.875	-0.03165286819	0.06757526026	
552.5	-0.07103977266	0.06900160136	
553.125	0.007212677271	0.07330402152	
553.75	0.03652106342	0.03442518397	
554.375	0.1051305782	-0.004539758977	
555.0	0.08902683222	-0.07929392814	
555.625	0.08531959173	-0.1086211194	
556.25	0.06989603919	-0.151582751	
556.875	-0.04267846238	-0.1646913626	
557.5	-0.1030473866	-0.102357262	
558.125	-0.1184901803	-0.04605546737	
558.75	-0.1217483911	0.0008825663233	
559.375	-0.1044736781	0.0246097201	
560.0	-0.1101364281	0.07044271406	
560.625	-0.04816012576	0.1336276356	
561.25	0.01624188327	0.06826177076	
561.875	0.01823010979	0.07952934263	
562.5	0.02764326365	0.02079886713	
563.125	0.05592584508	0.1098102392	
563.75	0.1742497897	-0.04325968179	
564.375	0.09231855114	-0.07149931009	
565.0	0.119158002	-0.1710023755	
565.625	-0.08865535722	-0.1570621696	
566.25	-0.05835558181	-0.07841387317	
566.875	-0.1846718071	-0.1148980698	
567.5	-0.1613986583	-0.0458509631	
568.125	-0.02636988746	-0.203249179	
568.75	-0.2964103279	-0.08270910626	
569.375	-0.1037125247	0.1270660851	
570.0	-0.214883866	0.1323495642	
570.625	-0.01045707785	0.2948893354	
571.25	0.0008604372359	0.005657631587	
571.875	0.09231144998	0.1793605672	
572.5	0.07884018314	-0.08878225824	
573.125	0.1551589253	0.002236569084	
573.75	0.06799495736	-0.2111434245	
574.375	-0.07170249639	-0.006132625654	
575.0	0.1347622632	-0.053645465	
575.625	-0.06968086759	-0.07598328971	
576.25	0.1140648195	-0.03307731391	
576.875	-0.007035402495	-0.2318187481	
577.5	-0.07479699473	-0.1184170728	
578.125	0.04430706314	-0.1184096656	
578.75	-0.1141653555	-0.2470643544	
579.375	-0.1224621621	0.03721819842	
580.0	0.04990420118	-0.09523098665	
580.625	-0.202201805	0.07914485817	
581.25	-0.0006823053428	-0.02020144714	
581.875	-0.1316695516	0.3324196037	
582.5	0.211700484	0.1483827056	
583.125	-0.00459537263	-0.01371376035	
583.75	0.09387255455	0.1292889331	
584.375	-0.05077878756	-0.06398022794	
585.0	0.1215874247	0.1765949107	
585.625	0.2032229306	-0.1067091896	
586.25	0.05489520867	-0.03716601742	
586.875	0.1838073316	-0.1952582926	
587.5	-0.128079361	-0.1492393011	
588.125	0.0480116035	-0.0680251818	
588.75	0.07544814524	-0.2324125223	
589.375	-0.01676591263	-0.1527546484	
590.0	0.04262278729	-0.1474849736	
590.625	-0.2904761785	-0.04285337382	
591.25	-0.0356392534	0.1307486666	
591.875	-0.1424299371	0.03238564238	
592.5	0.05549219975	0.1553841191	
593.125	-0.08406764522	-0.04064040982	
593.75	0.1351011914	0.2111964176	
594.375	0.03124125298	-0.02632773506	
595.0	0.09992757256	0.2136896976	
595.625	0.2841266388	0.09394355833	
596.25	0.06846378895	-0.01505705432	
596.875	0.2223440112	0.1231207254	
597.5	0.2159585955	0.02039107669	
598.125	0.07019063778	0.08241232847	
598.75	0.2293648996	0.1519027816	
599.375	0.1526220382	-0.0698920892	
600.0	0.1470444223	-0.07038401209	
600.625	0.1863119885	-0.2083025472	
601.25	-0.01170992958	-0.2330889599	
601.875	-0.0502766164	-0.06504137253	
602.5	-0.2158586281	-0.06992676687	
603.125	-0.0421275728	0.1151175117	
603.75	-0.1263963401	-0.04623886551	
604.375	-0.1800065108	0.1752040424	
605.0	0.04513985372	-0.009314262072	
605.625	-0.2133434213	0.03965486832	
606.25	-0.001331125922	0.1356784962	
606.875	-0.1114178615	-0.02911532275	
607.5	-0.08714330217	0.3274187971	
608.125	0.08331475867	0.2027185261	
608.75	0.1307773895	0.2317337055	
609.375	0.283896599	-0.05741108206	
610.0	0.1305726109	-0.1564773234	
610.625	0.1221056376	-0.08568410224	
611.25	0.04326046422	-0.1946875739	
611.875	-0.09030663138	-0.01962267814	
612.5	-0.05077370613	-0.09389668024	
613.125	-0.273041786	0.1074335676	
613.75	0.01506870066	0.07819545269	
614.375	-0.06532299413	0.1649755747	
615.0	0.1686859408	-0.007126251063	
615.625	-0.1185539021	0.02928299342	
616.25	-0.03690582801	0.2936567084	
616.875	-0.01809305815	0.0748638164	
617.5	-0.146660134	0.2852045741	
618.125	0.05157916266	0.3312966506	
618.75	0.0917948228	0.08330372685	
619.375	0.09132063416	0.197255881	
620.0	0.1526418598	0.1170556995	
620.625	0.08558985589	-0.1218821153	
621.25	-0.06038774076	-0.2406757431	
621.875	-0.2927995692	-0.07690276866	
622.5	-0.1293307981	0.1883167458	
623.125	-0.1100502949	0.2119201388	
623.75	0.2121864968	-0.005711167654	
624.375	-0.06195678594	-0.01594265347	
625.0	0.1226692173	-0.09823813189	
625.625	-0.03168940897	-0.03152813188	
626.25	0.02522481708	-0.1685750349	
626.875	-0.2279706033	-0.09197177159	
627.5	-0.09018862509	0.03377714351	
628.125	-0.08733366776	-0.1370738616	
628.75	-0.1681767082	-0.08637417902	
629.375	-0.04027888439	-0.1185841424	
630.0	-0.2415577725	-0.1638203389	
630.625	-0.2943321912	0.09849351018	
631.25	-0.1356322247	0.1382832174	
631.875	-0.09757061138	0.2529240418	
632.5	0.2088909273	0.1577754978	
633.125	0.1041667681	-0.06835730749	
633.75	0.2290474573	-0.02808186942	
634.375	-0.03608936251	-0.1535921333	
635.0	0.07655531161	-0.06704932392	
635.625	-0.2603465124	-0.1392808367	
636.25	-0.05162348689	0.1294280459	
636.875	-0.1249325647	0.03616707124	
637.5	-0.005955705105	0.2059377801	
638.125	-0.03122241358	-0.006708917306	
638.75	-0.1792982222	0.2318382911	
639.375	0.1328801805	0.2796023599	
640.0	0.05339468076	0.160508411	
640.625	0.2977176403	0.2552655629	
641.25	0.3288936312	-0.1285433686	
641.875	0.1227798833	-0.1027255708	
642.5	0.09682867925	-0.2704517945	
643.125	-0.2082874469	-0.01471353941	
643.75	0.06850384425	-0.04469345641	
644.375	-0.2994164494	-0.01811966127	
645.0	0.02654992693	0.2076541936	
645.625	-0.07155761127	0.217402857	
646.25	0.4570168919	0.1768853043	
646.875	-0.02706229982	-0.1302901403	
647.5	0.1315440238	0.1527643362	
648.125	0.1189696801	-0.1442560273	
648.75	0.1937726061	0.1460168918	
649.375	0.3488720598	-0.3963881829	
650.0	-0.02621265982	-0.3176953517	
650.625	0.2357787799	-0.1102402476	
651.25	0.3335043454	-0.3871315189	
651.875	0.02663502797	-0.2282756002	
652.5	0.3087686702	0.07745321195	
653.125	0.3724446855	-0.2947809515	
653.75	0.01866876708	-0.1930371949	
654.375	0.0644245521	-0.340731653	
655.0	-0.4398119969	0.001300619586	
655.625	-0.003468455183	0.207796576	
656.25	-0.1197746079	0.1219599518	
656.875	0.2431894221	0.1359383321	
657.5	-0.1363960871	-0.02409803551	
658.125	0.2738614354	0.2723078951	
658.75	0.2974147537	-0.07146805285	
659.375	0.2337727745	0.1155117385	
660.0	0.4165862387	-0.4334535862	
660.625	-0.05240649584	-0.3580595002	
661.25	0.2307669612	-0.1540710609	
661.875	0.2757817123	-0.4129663896	
662.5	0.1239846454	-0.2742159315	
663.125	0.2890282677	-0.02256424985	
663.75	0.1788776904	-0.4350362616	
664.375	-0.119749106	-0.1710551641	
665.0	-0.1933718136	-0.2970760764	
665.625	-0.4125103538	0.1909558823	
666.25	0.01683260553	0.2033147161	
666.875	0.03026445978	0.25695725	
667.5	0.2943494128	0.06085996983	
668.125	0.07426327157	-0.05382676436	
668.75	0.3537134361	-0.05032529643	
669.375	-0.0309092458	-0.3417727803	
670.0	0.007461825818	-0.08413714184	
670.625	0.1273533081	-0.3377626359	
671.25	-0.0809326672	-0.244784885	
671.875	0.2536241631	0.04202842901	
672.5	0.3182933619	-0.3054911254	
673.125	0.04643275644	-0.1492784043	
673.75	0.2362235473	-0.1400460789	
674.375	0.06900962641	-0.4007576727	
675.0	-0.1947124873	-0.1197236001	
675.625	-0.1034007558	-0.2495923708	
676.25	-0.3126867008	0.0204394795	
676.875	-0.04358845094	0.09903006279	
677.5	-0.2203045504	-0.09945367469	
678.125	-0.0719481275	0.2727918924	
678.75	0.03559384349	0.09352670005	
679.375	0.1819007054	0.2239281742	
680.0	0.2352098668	-0.2666414584	
680.625	-0.08270169267	0.03743344083	
681.25	0.2935959931	0.01210713095	
681.875	0.02793447838	-0.2121406126	
682.5	0.02551119088	0.2063708087	
683.125	0.5426668583	0.148572409	
683.75	-0.065879537	-0.1670878984	
684.375	0.1994370958	0.2666393958	
685.0	0.3949786532	-0.17566963	
685.625	0.1015881957	-0.1097364789	
686.25	0.3848860537	0.1954769465	
686.875	0.334748216	-0.4167147825	
687.5	0.2789442961	-0.2155435128	
688.125	0.07540307118	-0.5218358098	
688.75	-0.6271699146	-0.08174992673	
689.375	-0.09037512041	0.1892406681	
690.0	0.06150805489	0.4348831843	
690.625	0.3969384262	0.1580407465	
691.25	0.1433717084	0.2160815232	
691.875	0.5851472345	0.5473359561	
692.5	0.6624634018	-0.1149855724	
693.125	0.4903354745	0.1627704059	
693.75	0.8394278322	-0.2036775473	
694.375	0.1449468387	-0.5433256392	
695.0	0.3320556959	-0.01073400754	
695.625	0.6652355006	-0.385849724	
696.25	0.363188754	-0.03900369021	
696.875	0.2412125611	0.4456047312	
697.5	0.5087451058	0.2669124021	
698.125	0.4734056776	0.04782461987	
698.75	0.5015402507	-0.3666473946	
699.375	-0.5514931279	-0.3945645573	
700.0	-0.09765246171	0.4373962834	
700.625	0.168758979	0.098960074	
701.25	0.3972979815	0.215750599	
701.875	0.1597045974	0.08539453965	
702.5	0.2913597966	0.3738632226	
703.125	0.6136952039	0.09990186222	
703.75	0.1956009937	-0.1434958389	
704.375	0.3893940951	-0.04464381805	
705.0	0.2309829632	-0.2793010375	
705.625	0.09095752909	-0.02880171858	
706.25	0.4034915633	0.1499955304	
706.875	0.3727078573	0.1125515348	
707.5	0.1154087826	0.2644686114	
708.125	0.5928666566	0.1785856385	
708.75	0.3638008548	-0.3705256661	
709.375	-0.2266406133	-0.2426838205	
710.0	-0.3313421185	0.3149826269	
710.625	0.1845287345	0.3480960103	
711.25	-0.08886304466	-0.02681523743	
711.875	0.3215222349	0.1796387837	
712.5	0.1828595952	-0.1270837955	
713.125	0.3355652743	-0.0696855083	
713.75	0.1920884727	-0.4140688144	
714.375	-0.08747202907	-0.1717409421	
715.0	0.1207730327	-0.2012925236	
715.625	-0.05920350662	-0.3151831533	
716.25	0.07417733511	-0.1025053662	
716.875	0.4105441248	-0.05183300428	
717.5	0.5878469483	-0.3080178699	
718.125	0.3032681543	0.107802893	
718.75	1.052083152	0.007100048715	
719.375	0.7243246118	-0.6411014933	
720.0	0.1257678539	-0.5678550666	
720.625	0.2903278894	-1.242453244	
721.25	-0.5440139563	-1.00976217	
721.875	0.1328118746	-0.2340678401	
722.5	-0.6676470799	-0.9728214218	
723.125	-0.8442537051	0.2037001143	
723.75	-0.3533446178	0.174633405	
724.375	-0.06969167487	0.8813713685	
725.0	0.2747053428	0.1734071145	
725.625	-0.08954160535	0.444454364	
726.25	0.1424919726	0.9935974829	
726.875	0.2093454425	0.651097147	
727.5	-0.6701741212	1.140074302	
728.125	0.1779834526	2.608834535	
728.75	0.6292474661	1.763183161	
729.375	-1.914900015	2.724417961	
730.0	0.712327012	5.934470773	
730.625	1.31055601	1.847342031	
731.25	-2.373294165	3.869077729	
731.875	-3.248392629	4.648284683	
732.5	-1.706811331	0.7277016438	
733.125	-2.830157214	-0.9405258202	
733.75	-0.6378081925	1.952129304	
734.375	0.6343610726	-0.1356104045	
735.0	0.5833753134	-0.6079512861	
735.625	-0.6595486181	0.5563964638	
736.25	-0.1273809989	0.1502588451	
736.875	0.4674183043	1.102219826	
737.5	1.330693002	-0.426321022	
738.125	0.5256254211	0.06212050485	
738.75	3.270202216	-0.5942395184	
739.375	1.609312074	-3.766804007	
740.0	0.5027326526	0.3175894778	
740.625	5.673708524	4.217017966	
741.25	5.029957507	-0.145235571	
741.875	-3.865987019	-2.730465532	
742.5	-3.764533499	-3.101162807	
743.125	-0.7595795793	-0.9676018255	
743.75	0.518309865	-0.8814951128	
744.375	-0.7642540212	0.03240335612	
745.0	0.07212921241	0.0298294582	
745.625	0.1702811892	0.1011133653	
746.25	-0.1351237839	-0.09664540878	
746.875	-0.1546494506	-0.06582084317	
747.5	-0.1655687029	0.5195203307	
748.125	0.2231188286	0.422250609	
748.75	0.01296955779	0.4087848304	
749.375	0.09586139925	0.6972907526	
750.0	-0.2497167595	0.2450466474	
