!Created with skrf (http://scikit-rf.org).
# GHz S RI R (50+0j) 
!freq	ReS11	ImS11	
500.0	-0.1729494363	-0.99496776	
500.625	0.81898936	-0.7516731893	
501.25	-0.5724019838	-0.8635905674	
501.875	-0.004773528839	-0.1470218161	
502.5	-0.004240305021	-0.204055524	
503.125	-0.06311925426	0.0424558117	
503.75	-0.0668143407	0.05721718951	
504.375	0.05614541271	-0.0157504395	
505.0	-0.005741722022	0.003518571189	
505.625	0.02509052547	-0.1050228618	
506.25	-0.1124771438	0.02235729836	
506.875	-0.1013350097	-0.2407446679	
507.5	-0.4558698861	-0.3139614556	
508.125	0.3217634908	-0.2394132928	
508.75	0.762152103	-1.278382502	
509.375	-0.3811176206	-1.201416236	
510.0	-0.213089608	-0.2295633968	
510.625	-0.1634667923	-0.3193636993	
511.25	-0.0613840578	0.0175418522	
511.875	-0.1140752745	-0.1697307483	
512.5	-0.01948846913	0.09345299397	
513.125	-0.0009044790167	-0.02380361347	
513.75	-0.01932247443	-0.1557074445	
514.375	-0.1209336594	0.07095522772	
515.0	0.2795331441	-0.247414545	
515.625	-0.4681444032	-0.4065511512	
516.25	0.5078647149	-0.7514104453	
516.875	-0.1961517768	-0.8243452782	
517.5	-0.197610867	-0.1245840765	
518.125	0.05159565867	-0.0635440045	
518.75	-0.1589823655	-0.1428733251	
519.375	-0.03268555434	0.01204869027	
520.0	0.1128734071	0.09606513256	
520.625	0.1833107655	-0.100479541	
521.25	-0.03543966967	-0.2150761124	
521.875	-0.1111887946	-0.1424592468	
522.5	-0.09036513242	0.07467275072	
523.125	-0.01050063114	-0.1147809907	
523.75	-0.2556638763	-0.05318163039	
524.375	-0.0279632883	0.1058583342	
525.0	-0.1874411874	0.05617546069	
525.625	0.1301409175	0.1196984395	
526.25	-0.09544470839	-0.06315933915	
526.875	-0.0004701927436	0.103824881	
527.5	-0.1216285827	0.1086287612	
528.125	-0.001533728782	0.3801077482	
528.75	0.02627933495	0.1766029075	
529.375	-0.05619080722	0.03673447322	
530.0	0.1394822647	0.2797252111	
530.625	0.1926920385	0.3423826455	
531.25	0.4036524227	0.3351144104	
531.875	0.2446915045	-0.3668346784	
532.5	-0.02800159269	0.002341776877	
533.125	0.120754379	-0.1891569569	
533.75	0.07213069411	-0.02549212692	
534.375	-0.006132329862	-0.419724878	
535.0	-0.3205868707	-0.05986647596	
535.625	-0.1307341534	0.03896963308	
536.25	-0.0329293279	0.1261413967	
536.875	0.09879871447	-0.02270034477	
537.5	0.06625815457	0.01008467827	
538.125	0.1490728693	-0.09023229862	
538.75	0.06892292193	-0.0927703242	
539.375	-0.005058289387	-0.2069806191	
540.0	-0.1901708498	-0.1819312411	
540.625	-0.1624188026	0.003552978356	
541.25	-0.1046476639	-0.05497771732	
541.875	-0.07024348568	0.04915836234	
542.5	0.01947632793	-0.09514570503	
543.125	-0.1387703898	-0.1244651528	
543.75	-0.02680998758	0.02784033579	
544.375	-0.1127507066	0.02102397935	
545.0	0.06227184151	0.09326049568	
545.625	-0.0223651137	0.06403726492	
546.25	0.1816386621	0.08087083484	
546.875	0.06458346904	-0.04898467893	
547.5	0.1377324551	-0.07664099095	
548.125	-0.08734354611	-0.2285730789	
548.75	-0.085354519	-0.06863861599	
549.375	-0.09531497405	-0.1346760569	
550.0	-0.1083578601	0.04498257812	
550.625	-0.02418972058	-0.03184166342	
551.25	-0.1180475209	0.03404802562	
551.875	-0.0431304342	0.05205964778	
552.5	-0.07913818212	0.06068637961	
553.125	-0.002768137347	0.08040233872	
553.75	0.03125416311	0.05631316418	
554.375	0.1093125167	0.001919914882	
555.0	0.09578344227	-0.07387657852	
555.625	0.1000018131	-0.1051449977	
556.25	0.0796667259	-0.1517042961	
556.875	-0.03132067019	-0.1694458421	
557.5	-0.09434318594	-0.1141619184	
558.125	-0.1208415215	-0.05272882741	
558.75	-0.1202857114	-0.00365831288	
559.375	-0.1102486086	0.01253613006	
560.0	-0.1224147515	0.06699698524	
560.625	-0.05075016856	0.1297026838	
561.25	-0.008671253044	0.0745129822	
561.875	0.03537765691	0.0817664442	
562.5	0.004023540175	0.01811430696	
563.125	0.06814634322	0.1230700174	
563.75	0.1557924976	-0.03281009653	
564.375	0.1173747922	-0.04882377807	
565.0	0.145547425	-0.1715616978	
565.625	-0.07730980759	-0.1514021509	
566.25	-0.04224080976	-0.118959815	
566.875	-0.1965160271	-0.1252160161	
567.5	-0.1125376184	-0.05702259104	
568.125	-0.1013994108	-0.2340190972	
568.75	-0.3279499425	-0.03707785374	
569.375	-0.1658563939	0.06062695074	
570.0	-0.225513253	0.1936474691	
570.625	-0.00738488944	0.2336382984	
571.25	-0.05977413499	0.01570070481	
571.875	0.105567067	0.1614714314	
572.5	0.06065284898	-0.05100853379	
573.125	0.1735811644	-0.04076271779	
573.75	0.02684952626	-0.2314605056	
574.375	-0.03904333866	0.01614436067	
575.0	0.1176528376	-0.09832516376	
575.625	-0.05000692513	-0.04655180907	
576.25	0.1374000385	-0.05836105598	
576.875	-0.04131610183	-0.2321155539	
577.5	-0.07426256906	-0.08451605617	
578.125	0.0638543077	-0.1636022244	
578.75	-0.2036775267	-0.2765745512	
579.375	-0.07949353366	0.05288503296	
580.0	-0.00713821166	-0.1302318907	
580.625	-0.1187510489	0.05957764625	
581.25	-0.08042010785	-0.1122672173	
581.875	-0.06027986924	0.281473531	
582.5	0.1547751344	0.1111931911	
583.125	-0.0609002136	0.06350252587	
583.75	0.1455986776	0.09328343647	
584.375	-0.04453010784	-0.027956333	
585.0	0.1637225635	0.1699832871	
585.625	0.1658247658	-0.1030211184	
586.25	0.09887187051	0.03588223342	
586.875	0.1784480023	-0.1769156555	
587.5	-0.1050726793	-0.1277771159	
588.125	0.07216318733	-0.09579047363	
588.75	0.06046998312	-0.2475189192	
589.375	-0.02008013958	-0.115990486	
590.0	0.0711487052	-0.2058405484	
590.625	-0.3283172753	0.004057310476	
591.25	-0.02328134559	0.06456433278	
591.875	-0.2068834152	0.1009255991	
592.5	0.1052654339	0.1217346209	
593.125	-0.2138608126	0.0223392738	
593.75	0.1876307414	0.1317442557	
594.375	0.07764166061	0.03508151906	
595.0	0.1384894322	0.2038650413	
595.625	0.2534567394	0.01269309521	
596.25	0.05382280013	0.03465025404	
596.875	0.2620754997	0.06726041764	
597.5	0.184571296	0.008087880517	
598.125	0.07301379463	0.1514950047	
598.75	0.2393034531	0.1049297501	
599.375	0.1747210609	-0.1024612007	
600.0	0.179565562	-0.05507848629	
600.625	0.215791217	-0.2251003711	
601.25	-0.0206024958	-0.2239695337	
601.875	0.02781945763	-0.1177617031	
602.5	-0.2384195991	-0.03928692699	
603.125	0.009258672944	0.05882440688	
603.75	-0.1660861315	-0.01953687411	
604.375	-0.03316865103	0.2512457295	
605.0	0.006144605084	-0.02135780129	
605.625	-0.1860475271	0.07223049025	
606.25	-0.02756453334	0.09958380742	
606.875	-0.2530215	0.04225897567	
607.5	-0.2627612518	0.2739172563	
608.125	0.06761111254	0.1971762871	
608.75	0.07611030163	0.2273706327	
609.375	0.2201874724	0.003217335876	
610.0	0.08782383424	-0.1470671725	
610.625	0.189753726	-0.07426595062	
611.25	-0.02988039493	-0.2631946901	
611.875	-0.08669947495	-0.03599030649	
612.5	-0.1795239912	-0.1932455214	
613.125	-0.248359054	0.1484685682	
613.75	-0.03192072199	0.01182471395	
614.375	-0.03122707121	0.2136967088	
615.0	0.06515164926	-0.07639066569	
615.625	-0.1404845532	0.1037978909	
616.25	0.03007432271	0.2541426205	
616.875	-0.01412682699	0.08607098495	
617.5	-0.09802807397	0.2429258987	
618.125	0.04224250649	0.3105142	
618.75	0.01401161887	0.1636101312	
619.375	0.0155846179	0.2789527299	
620.0	0.2674917874	0.01025951881	
620.625	0.09086629237	-0.07726576522	
621.25	0.01279391146	-0.2305675812	
621.875	-0.2833789405	-0.03398202656	
622.5	-0.08788186418	0.02191199625	
623.125	-0.1298185176	0.2323085108	
623.75	0.2093886544	-0.004433628771	
624.375	0.001843863346	0.03332116277	
625.0	0.09145474384	-0.1138088519	
625.625	0.01202086712	-0.01080018387	
626.25	0.01217268195	-0.2134149419	
626.875	-0.2187056028	-0.06166425454	
627.5	-0.0865509716	-0.02960651626	
628.125	-0.1382088265	-0.167294159	
628.75	-0.1368900679	-0.07401366935	
629.375	-0.04303688708	-0.1386570261	
630.0	-0.2129112596	-0.1702471041	
630.625	-0.197560069	0.119448232	
631.25	-0.1801599209	0.1122240787	
631.875	-0.08758789863	0.3215991217	
632.5	0.2558810749	0.1934171169	
633.125	0.1379069178	0.1023649366	
633.75	0.2823185694	-0.05272622051	
634.375	-0.07813816251	-0.160477977	
635.0	0.08597564271	-0.1616652715	
635.625	-0.2801095238	-0.1019680225	
636.25	-0.07715050427	0.08847208892	
636.875	-0.1800546006	0.08520934481	
637.5	0.00923811613	0.2065035566	
638.125	-0.06809701234	-0.0266428519	
638.75	-0.1386561057	0.2552198344	
639.375	0.09917078858	0.2325320111	
640.0	0.03229148374	0.2081032779	
640.625	0.2944426602	0.2637249006	
641.25	0.3405508391	-0.1004501768	
641.875	0.1702499978	-0.06039644479	
642.5	0.08030796127	-0.3639361162	
643.125	-0.283237973	-0.007022060786	
643.75	-0.03483908215	-0.1776589797	
644.375	-0.2986665284	0.0643992293	
645.0	0.02628150087	0.1066495496	
645.625	-0.1691931478	0.2890194613	
646.25	0.3407454239	0.02227979502	
646.875	-0.06443594369	-0.04094831055	
647.5	0.2325789332	0.1279604916	
648.125	0.06960909265	-0.08363668966	
648.75	0.2936751787	0.2011474091	
649.375	0.3270211506	-0.4141422617	
650.0	0.005750762329	-0.2445720543	
650.625	0.2925464968	-0.1716768886	
651.25	0.3087493621	-0.4399506351	
651.875	0.07760665771	-0.135372499	
652.5	0.4002989442	0.05579118713	
653.125	0.3403282017	-0.2480621005	
653.75	0.01756870587	-0.1595133163	
654.375	0.1343567058	-0.4087064585	
655.0	-0.5114086793	-0.06275802749	
655.625	-0.06794742855	0.1073770999	
656.25	-0.2812831983	0.2005952083	
656.875	0.2522135578	0.1034874077	
657.5	-0.1431503365	0.1160857858	
658.125	0.347570962	0.2523864071	
658.75	0.1901962547	-0.05943578962	
659.375	0.3509851517	0.04655637627	
660.0	0.3530335448	-0.4719151082	
660.625	-0.02179491163	-0.2007745254	
661.25	0.3179903972	-0.2172244437	
661.875	0.2831661229	-0.3895214796	
662.5	0.1392530426	-0.2150187213	
663.125	0.3649258955	-0.0508978272	
663.75	0.176764935	-0.436655257	
664.375	-0.04455374466	-0.2254556482	
665.0	-0.2018707335	-0.3463748305	
665.625	-0.407709949	0.1711090437	
666.25	-0.03781039412	0.1598583686	
666.875	0.01494715172	0.3242126818	
667.5	0.3023235524	0.05293504743	
668.125	0.1099346332	0.04018010902	
668.75	0.467443152	-0.1624409502	
669.375	-0.02427977094	-0.2858595884	
670.0	0.07708129206	-0.1257104979	
670.625	0.07634475674	-0.2999244427	
671.25	-0.115424852	-0.110321538	
671.875	0.2645908403	-0.04879855718	
672.5	0.2602734265	-0.2650307262	
673.125	0.1222349363	-0.1561514896	
673.75	0.2730873583	-0.1273604358	
674.375	0.06479719282	-0.4231616805	
675.0	-0.07389914192	-0.09630033775	
675.625	-0.1009516666	-0.2584118149	
676.25	-0.2931472565	0.003929356825	
676.875	-0.03029347068	0.05595074811	
677.5	-0.2615612917	-0.1185298849	
678.125	-0.09065999884	0.2631063926	
678.75	-0.04343445697	0.05520096125	
679.375	0.2372199693	0.2746051741	
680.0	0.1583549931	-0.2615572793	
680.625	0.01566346736	0.1962230912	
681.25	0.2712910414	-0.0969233752	
681.875	-0.05501467504	-0.06740738386	
682.5	0.1083821753	0.3283288097	
683.125	0.4832586476	0.05811753089	
683.75	0.08952177723	-0.05195309681	
684.375	0.3965099942	0.165763316	
685.0	0.4479983078	0.003605677546	
685.625	0.1015449989	-0.08954707138	
686.25	0.4904665364	0.1388519841	
686.875	0.2560195961	-0.2731410732	
687.5	0.2277714548	-0.1159476255	
688.125	0.1795668948	-0.5716079926	
688.75	-0.529567255	-0.1261272179	
689.375	-0.2408661039	0.1117724613	
690.0	-0.04552646598	0.5596785923	
690.625	0.3615448108	0.1381984681	
691.25	-0.002353647839	0.3780603216	
691.875	0.6627271794	0.5001019247	
692.5	0.2899035921	-0.002315028886	
693.125	0.604466219	0.2193766859	
693.75	0.8241801491	-0.2386964816	
694.375	0.2196511116	-0.4302431332	
695.0	0.6610423458	-0.1480357079	
695.625	0.4941238928	-0.2165368563	
696.25	0.3962235708	0.09020102096	
696.875	0.30915165	0.5038559422	
697.5	0.6183992878	0.6182429443	
698.125	0.6661834244	0.3395413156	
698.75	0.6303585942	-0.2394800395	
699.375	-0.3981860159	-0.5949524251	
700.0	-0.1867533657	0.3859382962	
700.625	-0.1272545105	0.3481295374	
701.25	0.4195298283	0.1741850803	
701.875	0.1032964937	0.1381258331	
702.5	0.3431803727	0.4451439679	
703.125	0.5070800766	-0.06847952211	
703.75	0.2249093726	-0.01185769733	
704.375	0.4590152844	-0.1447470411	
705.0	0.2083211613	-0.2640685499	
705.625	0.2221042328	0.1187356757	
706.25	0.3638934272	0.3361951269	
706.875	0.3185950367	0.153030502	
707.5	0.3376733859	0.3758128944	
708.125	0.4626721965	0.2460179995	
708.75	0.3048665266	-0.4545187477	
709.375	-0.05542027591	-0.2943582967	
710.0	-0.3982944553	0.0890028565	
710.625	0.1401662499	0.06760670769	
711.25	-0.09327663374	0.2122314417	
711.875	0.3657797572	0.09133432971	
712.5	0.135985122	-0.04240037597	
713.125	0.3922939315	-0.04961182479	
713.75	0.1390233738	-0.3568481947	
714.375	-0.0267915922	-0.1382822361	
715.0	0.08908026085	-0.2691110103	
715.625	-0.1141542613	-0.2645024565	
716.25	0.1432530155	-0.1295561411	
716.875	0.5288526686	-0.171663067	
717.5	0.4745445451	-0.2357866033	
718.125	0.5002871846	0.1077350162	
718.75	1.036374595	0.03461485019	
719.375	1.15220751	-0.872397124	
720.0	0.6148139915	-0.3797091744	
720.625	0.474365005	-1.457378084	
721.25	-0.2288408773	-0.6328212236	
721.875	0.2213181623	-1.084883338	
722.5	-0.7842132546	-1.04596496	
723.125	-0.7019251562	0.1417198881	
723.75	-0.586037281	0.07514408367	
724.375	0.1522287759	0.808333673	
725.0	0.1511545077	0.1763626969	
725.625	-0.02171079701	0.5895497117	
726.25	0.2165104111	0.8500729186	
726.875	0.0869831282	0.6066984395	
727.5	-0.6740933398	1.454722449	
728.125	0.1690163662	2.387601727	
728.75	0.3447057397	1.855903157	
729.375	-2.237771457	3.294618718	
730.0	0.1660631613	5.966214454	
730.625	0.3472379642	2.651865574	
731.25	-2.676509261	4.248709862	
731.875	-1.865227412	4.094623891	
732.5	-0.4607601365	0.2127405276	
733.125	-3.35903758	-0.361373321	
733.75	-0.7255349051	1.653011908	
734.375	0.3743297867	0.3333404645	
735.0	0.6163651047	-1.022430862	
735.625	-0.4148614528	0.4694625998	
736.25	-0.4071415563	0.2546631368	
736.875	0.4841925525	0.9066498448	
737.5	1.105659063	-0.2305489183	
738.125	0.8386776951	0.4064301605	
738.75	2.988984523	-1.344701293	
739.375	1.15301523	-2.759843941	
740.0	0.7987279541	0.8719607103	
740.625	6.095437753	1.170088852	
741.25	2.760164239	-1.487172473	
741.875	-4.185904781	-3.468203214	
742.5	-3.787177312	-2.895781349	
743.125	-0.1823409032	-0.3871006031	
743.75	0.9223203701	-1.211503897	
744.375	-0.9729224217	-0.05498231227	
745.0	0.04458300475	-0.05861776677	
745.625	0.1648501796	0.02619147754	
746.25	-0.08048239832	-0.05307890904	
746.875	-0.2566877053	-0.1422858924	
747.5	-0.1558177474	0.4361009087	
748.125	0.09250288026	0.3618256598	
748.75	0.04900502613	0.4915389118	
749.375	0.1545593047	0.6221719627	
750.0	-0.3103091663	0.2606502337	
