!Created with skrf (http://scikit-rf.org).
# GHz S RI R (50+0j) 
!freq	ReS11	ImS11	
500.0	-0.2715970786	-0.8485756068	
500.625	0.4353517722	-0.4042009155	
501.25	-0.6694321203	-0.7946734845	
501.875	-0.2549349532	-0.1097081468	
502.5	0.02734902008	-0.1367061777	
503.125	-0.08172351329	0.04345995869	
503.75	0.005550460968	0.01728606709	
504.375	0.04622164344	0.003975578064	
505.0	-0.02570364457	-0.003227033894	
505.625	0.0439611912	-0.0616350638	
506.25	-0.1351181719	-0.001620629578	
506.875	0.019944634	-0.1692894208	
507.5	-0.5001463355	-0.3395312957	
508.125	0.02558862955	-0.1488896077	
508.75	0.8003394501	-0.90186807	
509.375	-0.3561900344	-1.464703529	
510.0	-0.1845201903	-0.1615480054	
510.625	-0.04156788336	-0.2443324476	
511.25	-0.1191657318	0.0356113687	
511.875	-0.03501124132	-0.06335546035	
512.5	-0.02023336231	0.05666866729	
513.125	-0.02628654789	-0.04361781786	
513.75	9.734875625e-05	-0.05373897368	
514.375	-0.1402185247	0.0156905501	
515.0	0.246891424	0.05861984106	
515.625	-0.3271331743	-0.4880738242	
516.25	0.19150695	-0.03136790292	
516.875	-0.03103560749	-0.6462599962	
517.5	-0.1873100788	-0.008424760261	
518.125	0.04406951596	-0.03402964395	
518.75	-0.140491136	-0.1244209476	
519.375	-0.03498145906	0.009118863927	
520.0	0.07618218756	0.06279280028	
520.625	0.1618691412	-0.08373937259	
521.25	-0.03871875213	-0.1890675055	
521.875	-0.07442510923	-0.03291311081	
522.5	-0.07673173203	0.02132541245	
523.125	0.02256582967	-0.01131143147	
523.75	-0.1375839048	-0.073297639	
524.375	-0.07951518657	0.1471159579	
525.0	-0.06174980992	0.002765970188	
525.625	0.0293172945	0.1204021543	
526.25	-0.02837300686	-0.08892881455	
526.875	-0.0001119480691	0.09927411894	
527.5	0.01915055589	0.07243474499	
528.125	-0.05488080751	0.2197189165	
528.75	0.1143404281	0.1115153456	
529.375	0.01039815084	0.06661924542	
530.0	0.08843957436	0.1604781048	
530.625	0.1415908594	0.1828464141	
531.25	0.2843291689	0.1533393738	
531.875	0.2422764216	-0.01629370699	
532.5	-0.1150229421	-0.04842558037	
533.125	0.1147234001	-0.1339304871	
533.75	-0.04493738496	-0.1575165424	
534.375	0.03485962814	-0.1534708736	
535.0	-0.2920517322	-0.04985854126	
535.625	-0.06573714216	0.1003312734	
536.25	-0.02257351728	0.08617224998	
536.875	0.1187727506	-0.002777109161	
537.5	0.01951929936	-0.02339669578	
538.125	0.149595471	-0.05155615199	
538.75	0.0476836809	-0.1372237897	
539.375	-0.04462340911	-0.1271715182	
540.0	-0.1794441374	-0.1600161479	
540.625	-0.1363620244	0.03599467855	
541.25	-0.05156355487	-0.03203475117	
541.875	-0.07181941351	-0.08446072094	
542.5	-0.02441131765	-0.00788689433	
543.125	-0.1018582247	-0.06973487966	
543.75	-0.0689492882	0.05355028039	
544.375	-0.02083615212	-0.05175440844	
545.0	0.02197376315	0.09522769927	
545.625	0.02015126429	0.004034795444	
546.25	0.1190795137	0.1093614697	
546.875	0.0806683552	-0.09489030295	
547.5	0.06323966661	-0.0584890331	
548.125	-0.0486133253	-0.187555513	
548.75	-0.1369970235	-0.04256344288	
549.375	-0.0413906685	-0.06802373559	
550.0	-0.1092281115	0.02112366175	
550.625	-0.006584248065	0.01031829684	
551.25	-0.09748858661	0.02040895882	
551.875	-0.03358274884	0.08680735497	
552.5	-0.04302077135	0.05081046448	
553.125	0.004468338714	0.07054123368	
553.75	0.03688279203	0.02838089749	
554.375	0.08848107672	-0.0009330916447	
555.0	0.07577554623	-0.0775003142	
555.625	0.06274476316	-0.09747577894	
556.25	0.05112056388	-0.1302649429	
556.875	-0.04615954651	-0.1400539112	
557.5	-0.09774550558	-0.07752100327	
558.125	-0.1035298091	-0.0273832898	
558.75	-0.1062992681	0.008238662933	
559.375	-0.08852744038	0.03446814457	
560.0	-0.08638747909	0.06479084779	
560.625	-0.04167274474	0.1209190325	
561.25	0.03075091326	0.06414683907	
561.875	0.008210308831	0.0634558516	
562.5	0.04312518844	0.01986142609	
563.125	0.04002436306	0.07764781925	
563.75	0.1622015043	-0.0269520799	
564.375	0.06092560252	-0.09562074097	
565.0	0.09679662738	-0.1205047035	
565.625	-0.08247644875	-0.1607869176	
566.25	-0.07249225382	-0.03731733551	
566.875	-0.1377648518	-0.1165647776	
567.5	-0.2065753775	-0.01402906339	
568.125	-0.04021040863	-0.1143960617	
568.75	-0.2678306107	-0.0736001377	
569.375	-0.1336415393	0.1552539032	
570.0	-0.1669859039	0.09795645008	
570.625	-0.04009222165	0.26436768	
571.25	0.04492941751	0.002570263656	
571.875	0.04086212492	0.1400604556	
572.5	0.0867369593	-0.1196571568	
573.125	0.06793623765	0.004003803707	
573.75	0.09113385112	-0.1744508648	
574.375	-0.0866569014	-0.04248095092	
575.0	0.1213108491	-0.01602573634	
575.625	-0.05176034943	-0.1162318868	
576.25	0.0494096168	-0.0120194316	
576.875	0.02424140139	-0.1995917898	
577.5	-0.1002488445	-0.1369660353	
578.125	0.004055709885	-0.06151582015	
578.75	-0.05110875164	-0.2154007938	
579.375	-0.1811223759	0.0245611391	
580.0	0.1114874189	-0.06052292205	
580.625	-0.196693075	0.01626342501	
581.25	0.04101127494	0.01740101083	
581.875	-0.1003007436	0.1587361658	
582.5	0.229803629	0.1451937936	
583.125	0.01711343299	-0.04827749144	
583.75	0.04110740223	0.1238252722	
584.375	0.03805686689	-0.06714967882	
585.0	0.06492859938	0.1559016766	
585.625	0.2139519229	-0.08204532523	
586.25	0.036000771	-0.08258603633	
586.875	0.1306490376	-0.0870281074	
587.5	-0.1102619417	-0.138372657	
588.125	-0.001698818992	-0.03308022824	
588.75	0.08654475713	-0.1809117161	
589.375	-0.040707032	-0.1697915697	
590.0	0.009550907799	-0.08377878588	
590.625	-0.2584700648	-0.06804802961	
591.25	-0.01035522699	0.1669096025	
591.875	-0.08634567848	-0.01453903085	
592.5	0.03259347535	0.1647192832	
593.125	-0.03371996124	-0.06161439192	
593.75	0.09007076783	0.2086833022	
594.375	0.1124506084	-0.0440540373	
595.0	0.08256350228	0.1876255914	
595.625	0.2474643245	0.08435410883	
596.25	0.08622872593	-0.05335566895	
596.875	0.1743365149	0.1081056465	
597.5	0.2004883587	0.01131981047	
598.125	0.08142607416	0.0393121605	
598.75	0.1783493139	0.1151721534	
599.375	0.2043083384	-0.1291178082	
600.0	0.1084485831	-0.1074239937	
600.625	0.1672292263	-0.1631887266	
601.25	-0.003344659659	-0.2343394993	
601.875	-0.06020097922	-0.03757272324	
602.5	-0.1708584495	-0.09258572537	
603.125	-0.04695691234	0.1379915559	
603.75	-0.06693873709	-0.0323422379	
604.375	-0.181563797	0.1352510841	
605.0	0.05596717699	0.0978047001	
605.625	-0.2107288129	0.06895971765	
606.25	-0.04140041717	0.1558286131	
606.875	-0.07506105785	0.01362040465	
607.5	-0.1852507642	0.2326779756	
608.125	-0.0004458239542	0.1195011932	
608.75	0.118431035	0.128470628	
609.375	0.2268040578	-0.08064750938	
610.0	0.09175273243	-0.1917394534	
610.625	0.01621246163	-0.1720755507	
611.25	0.01155807836	-0.1935406181	
611.875	-0.1323198525	-0.03304811071	
612.5	-0.08362009601	-0.08553783062	
613.125	-0.262797414	0.0436092334	
613.75	0.04182705372	0.1327081084	
614.375	-0.05535606478	0.1015217854	
615.0	0.160944444	0.01730154923	
615.625	-0.08612790531	0.01506645917	
616.25	0.01251656478	0.2275289954	
616.875	0.04083290954	0.1239438277	
617.5	-0.09569728327	0.2263516325	
618.125	0.05331996646	0.2088664979	
618.75	0.02480495124	0.16670261	
619.375	0.08029237374	0.1471023313	
620.0	0.1772826974	0.04011002998	
620.625	0.05778866053	-0.2431115686	
621.25	-0.06752911951	-0.1417313453	
621.875	-0.2501826625	-0.07313499624	
622.5	-0.1494959394	0.2043341945	
623.125	-0.06754503183	0.1142876369	
623.75	0.2238478462	0.04728031175	
624.375	-0.04576254014	-0.05927876467	
625.0	0.1195138183	-0.04279626243	
625.625	-0.04196952676	-0.07966256708	
626.25	0.01618395832	-0.101747098	
626.875	-0.1888162308	-0.1028906258	
627.5	-0.1135992534	0.04061625426	
628.125	-0.05357116039	-0.09674634485	
628.75	-0.1078540875	-0.1146927005	
629.375	-0.08113839714	-0.0881257695	
630.0	-0.1719435999	-0.1100865829	
630.625	-0.2048905905	0.1305893624	
631.25	-0.001429985359	0.241711578	
631.875	-0.03393681562	0.1885922454	
632.5	0.2215124765	0.1596592409	
633.125	0.1372047336	-0.05103925163	
633.75	0.1644163227	0.02428633771	
634.375	-0.02049514186	-0.2111122659	
635.0	0.0001137785339	-0.02208878324	
635.625	-0.2023417337	-0.1485462936	
636.25	-0.09293642073	0.1571346533	
636.875	-0.04171012994	0.02936671982	
637.5	-0.07828074752	0.176857766	
638.125	0.02828354614	0.02595523403	
638.75	-0.135144866	0.1636645757	
639.375	0.1177017503	0.2871089416	
640.0	0.1283720589	0.09028326418	
640.625	0.2088637425	0.1883431248	
641.25	0.3297350046	-0.08582724519	
641.875	0.0130767334	-0.1884982123	
642.5	0.06415770294	-0.1662629676	
643.125	-0.2519806425	-0.09250425314	
643.75	0.003746277227	-0.00510096144	
644.375	-0.3013734814	-0.09802633728	
645.0	-0.001625571691	0.2914427172	
645.625	-0.02309792446	0.07450241754	
646.25	0.2941904536	0.2351529435	
646.875	-0.01510089364	-0.2181071476	
647.5	0.07086417943	0.1865112396	
648.125	0.205674808	-0.1201925198	
648.75	0.06300439102	0.01809040415	
649.375	0.3624193782	-0.2661669538	
650.0	-0.05609724632	-0.3895653571	
650.625	0.09220890886	-0.08677797574	
651.25	0.3034515498	-0.2813139865	
651.875	0.08151264291	-0.3131076142	
652.5	0.1651370603	0.04351157476	
653.125	0.3632553273	-0.1953842437	
653.75	-0.02344640673	-0.2852896064	
654.375	0.0243773113	-0.1603462483	
655.0	-0.4205647556	-0.07651203529	
655.625	0.02430730801	0.2740427038	
656.25	-0.06903173549	0.02291966773	
656.875	0.1463099387	0.1830421078	
657.5	-0.1021579335	-0.1597729294	
658.125	0.1992496659	0.328705806	
658.75	0.3152063724	-0.1157061183	
659.375	0.1348757891	-0.06845163017	
660.0	0.3491735618	-0.3087622967	
660.625	-0.06185393981	-0.428528787	
661.25	0.0875525765	-0.1102198167	
661.875	0.2771059151	-0.338340518	
662.5	0.1076741692	-0.3039988271	
663.125	0.1450278944	-0.07116675401	
663.75	0.1805489872	-0.3716200081	
664.375	-0.2005065067	-0.2055894109	
665.0	-0.1617455	-0.194348793	
665.625	-0.3682320744	0.1322343107	
666.25	0.08084405582	0.2686586133	
666.875	0.01436795756	0.1405807986	
667.5	0.2995568707	0.09510886974	
668.125	0.08677675305	-0.1323876798	
668.75	0.2463291452	0.00556147726	
669.375	0.02939242928	-0.3550859656	
670.0	-0.05631663344	0.01019167775	
670.625	0.1160520368	-0.2240572919	
671.25	-0.05194282881	-0.260055071	
671.875	0.03410411166	-0.02361779061	
672.5	0.3106402015	-0.2595289848	
673.125	0.02480227787	-0.2371630354	
673.75	0.138534939	-0.1255044882	
674.375	0.06635484441	-0.3210464929	
675.0	-0.2508824218	-0.1234242803	
675.625	-0.04768383183	-0.1183602737	
676.25	-0.2758318885	-0.0003383373336	
676.875	-0.06745046744	0.1334809427	
677.5	-0.1216075239	-0.05489878232	
678.125	-0.12054613	0.2881192737	
678.75	0.1352895903	0.05767974841	
679.375	0.1129658165	0.1414006974	
680.0	0.2955700281	-0.231998455	
680.625	-0.1663633393	-0.04375543879	
681.25	0.2649037924	0.09200721981	
681.875	0.1148381749	-0.242125291	
682.5	-0.02650502044	0.1032629424	
683.125	0.5657911633	0.130226633	
683.75	0.1760280187	-0.2624185179	
684.375	0.09013317704	0.1669247496	
685.0	0.3864610573	-0.06785906359	
685.625	0.1078873666	-0.08210186182	
686.25	0.2305769241	0.1107751384	
686.875	0.3655519524	-0.376973437	
687.5	0.01202050455	-0.2089614601	
688.125	-0.06466283632	-0.4081119166	
688.75	-0.5456362777	-0.05448307983	
689.375	0.02784547692	0.3091897445	
690.0	0.03238963226	0.2954157003	
690.625	0.4172067284	0.1968322464	
691.25	0.182750575	0.0634618716	
691.875	0.4288961203	0.4546518445	
692.5	0.7184078801	-0.1803946466	
693.125	0.3623520592	-0.03304839478	
693.75	0.7698250919	-0.279628159	
694.375	0.193460263	-0.5935860381	
695.0	0.1778910987	-0.1342845347	
695.625	0.6057196262	-0.3408401428	
696.25	0.303875015	-0.04724006002	
696.875	0.4395112756	0.3516332645	
697.5	0.5108379066	0.3053928433	
698.125	0.5045388534	-0.03967866006	
698.75	0.2095686398	-0.457752445	
699.375	-0.4741955679	-0.2540667017	
700.0	-0.03892361154	0.4334224968	
700.625	0.09633835365	0.1212996358	
701.25	0.2506287744	0.2697355183	
701.875	0.2614656262	0.0067550709	
702.5	0.2158743532	0.2492140083	
703.125	0.5414361214	0.0858370362	
703.75	0.2230334443	-0.2425889433	
704.375	0.3474108313	-0.09011105172	
705.0	0.25673557	-0.2657946957	
705.625	0.1053549508	-0.08532534989	
706.25	0.2557946609	0.2363671836	
706.875	0.2034662962	0.1567333053	
707.5	0.2113241135	0.1659773767	
708.125	0.4445861835	0.0538988009	
708.75	0.1890573094	-0.3663655708	
709.375	-0.4518765571	-0.09624416555	
710.0	-0.1226132668	0.1397991863	
710.625	0.1403725282	0.2031230594	
711.25	-0.02230871155	-0.07006476838	
711.875	0.2845887475	0.2654342566	
712.5	0.2477948971	-0.1986733686	
713.125	0.1860560878	-0.07605362834	
713.75	0.1804259999	-0.3279094841	
714.375	-0.1175778561	-0.1976203706	
715.0	0.05203436946	-0.1238663237	
715.625	-0.004083580527	-0.3030613921	
716.25	-0.00799002836	-0.1606694849	
716.875	0.3338605508	-0.078139702	
717.5	0.5429345776	-0.1717950481	
718.125	0.3553907441	-0.1665965626	
718.75	0.6777819779	-0.09362784258	
719.375	0.6888934213	-0.5788072418	
720.0	0.04550181072	-0.5785984206	
720.625	0.4809099353	-0.3163675169	
721.25	-0.5349034841	-1.035161748	
721.875	-0.3113338877	-0.2971104494	
722.5	-0.5759364892	-0.9885267774	
723.125	-0.8396958842	0.2987670418	
723.75	-0.07500177002	0.2998626372	
724.375	-0.1632466552	0.6727435164	
725.0	0.4282879342	0.1761412184	
725.625	-0.0873304143	0.3069891544	
726.25	0.02708535897	0.8042244195	
726.875	0.327969476	0.758552907	
727.5	-0.1375231182	0.7636176661	
728.125	0.04556381487	2.083569942	
728.75	1.191454517	1.946529661	
729.375	-0.3194884629	1.803717865	
730.0	0.4175799655	4.414443874	
730.625	2.310981799	2.182591359	
731.25	-0.5225859341	1.429314668	
731.875	-2.581786545	3.247432915	
732.5	-1.100960027	2.324283134	
733.125	-1.557958419	-0.1969934392	
733.75	-0.4360419814	2.304514236	
734.375	0.6972190104	-0.3698482016	
735.0	0.2964939555	-0.277955111	
735.625	-0.8207076961	0.512336193	
736.25	0.1701338521	-0.08577765757	
736.875	0.230909837	0.823581137	
737.5	1.221895575	-0.4495640339	
738.125	0.4417393432	-0.7100232499	
738.75	2.019623573	0.04173085339	
739.375	2.250575793	-3.374091937	
740.0	-0.2707899276	-1.41027026	
740.625	2.316723389	2.647995633	
741.25	4.215400111	2.441487082	
741.875	0.05594035604	-2.168776283	
742.5	-2.193635178	-2.894678381	
743.125	-1.667449014	-1.464989267	
743.75	0.2175355684	-0.2524004152	
744.375	-0.6930790839	-0.06802151365	
745.0	0.1665531605	-0.01859414507	
745.625	0.1003241999	0.08287074923	
746.25	-0.1762958175	-0.1091421717	
746.875	-0.07932599345	-0.009566434219	
747.5	-0.1337874286	0.3855673512	
748.125	0.3271756119	0.3624712626	
748.75	0.2030875992	0.2199422895	
749.375	0.09687130723	0.5296364125	
750.0	-0.2287578849	0.3389896081	
