!Created with skrf (http://scikit-rf.org).
# GHz S RI R (50+0j) 
!freq	ReS11	ImS11	
500.0	0.05519200729	-0.3570875711	
500.625	0.4736642529	-1.01476059	
501.25	-0.6029886402	-0.3157575346	
501.875	0.004540539834	-0.3313075835	
502.5	-0.07087057648	-0.1560143469	
503.125	-0.02486620159	0.02907207662	
503.75	-0.03483888764	0.07587639237	
504.375	0.01921131571	-0.0465382728	
505.0	0.02499967778	0.01616653352	
505.625	-0.01680668208	-0.08537222305	
506.25	-0.003069399864	0.03813555014	
506.875	-0.3456858521	-0.03027984496	
507.5	-0.1644340571	0.07452622833	
508.125	0.4731301998	-0.5563239621	
508.75	0.4052590675	-1.131615721	
509.375	-0.2608191813	-0.5608202484	
510.0	-0.242824952	-0.4171811278	
510.625	-0.25960131	-0.1192442629	
511.25	-0.004664085208	-0.02423525692	
511.875	-0.1164207575	-0.05549342181	
512.5	-0.001619989907	0.05404807939	
513.125	0.02104472316	-0.02437382824	
513.75	-0.07998622301	-0.08348754848	
514.375	-0.02713547863	0.07068039575	
515.0	0.06101869201	-0.2244666703	
515.625	-0.1826874572	0.1467424537	
516.25	0.1272848175	-0.8736641904	
516.875	-0.5157522328	-0.3716970748	
517.5	-0.02068981935	0.01833180149	
518.125	-0.07696759403	-0.07309223125	
518.75	0.01237415271	-0.02090895237	
519.375	-0.0571571814	0.01723572792	
520.0	0.1206165509	0.06271222531	
520.625	0.09765657702	-0.07449162236	
521.25	-0.03492823209	-0.2068381033	
521.875	-0.1670120517	-0.06344173527	
522.5	0.000832188598	0.07156452611	
523.125	-0.0394271905	-0.0388723145	
523.75	-0.1365593007	0.07930489234	
524.375	0.005397051231	0.001180351409	
525.0	-0.1436594445	0.1690918999	
525.625	0.1206359706	0.02112004745	
526.25	-0.05889525387	0.05246904514	
526.875	0.01837322763	0.03111869371	
527.5	-0.1044705106	0.08790733211	
528.125	0.09901938685	0.2975023492	
528.75	0.00711617782	0.0856101877	
529.375	0.02475855567	0.08811834561	
530.0	-0.01557109294	0.09767574269	
530.625	0.01164833007	0.1962465389	
531.25	0.2289585522	0.1421920144	
531.875	0.1391567457	-0.2299267869	
532.5	0.003597310633	-0.01229456758	
533.125	-0.03769794946	-0.1278035804	
533.75	0.01654273948	0.02325069812	
534.375	-0.1093176683	-0.3091389357	
535.0	-0.1836383426	0.01630956338	
535.625	-0.1295775252	0.05049736947	
536.25	0.0008384714671	0.1192828586	
536.875	0.05914361489	-0.0268109761	
537.5	0.07927407745	-0.01267535103	
538.125	0.08825693296	-0.1080845726	
538.75	0.08602939942	-0.08105890573	
539.375	-0.06367785767	-0.1776588529	
540.0	-0.195133772	-0.06614362892	
540.625	-0.09177380022	-0.03717517684	
541.25	-0.07214932583	-0.0324615229	
541.875	-0.04365405075	0.01689366956	
542.5	0.01900812112	-0.05517813675	
543.125	-0.1086947879	0.002270947438	
543.75	0.05739665529	0.04547736002	
544.375	-0.09707583119	0.03936171453	
545.0	0.03269743527	0.0206345722	
545.625	-0.002807243058	0.09468468234	
546.25	0.1463896089	-0.01977090025	
546.875	0.04914828708	-0.003775091987	
547.5	0.09243902642	-0.1375609442	
548.125	-0.09889035948	-0.1219975138	
548.75	-0.04189195934	-0.06689561941	
549.375	-0.125415327	-0.09644191285	
550.0	-0.05153359099	0.05132247543	
550.625	-0.05341341939	-0.02676906704	
551.25	-0.06303949659	0.06554145298	
551.875	-0.04452000036	0.03942708736	
552.5	-0.04556245481	0.08949345468	
553.125	0.007464840862	0.04420514107	
553.75	0.03258512245	0.0453287642	
554.375	0.08779269739	-0.01854097271	
555.0	0.0766387789	-0.065812596	
555.625	0.07304939057	-0.1010876779	
556.25	0.04365659364	-0.1335093266	
556.875	-0.04441655803	-0.1334703008	
557.5	-0.09362376658	-0.08068556068	
558.125	-0.1116368592	-0.02648619175	
558.75	-0.09724556914	0.01231386796	
559.375	-0.09272071205	0.01990578772	
560.0	-0.08824673586	0.08086672847	
560.625	-0.01742576395	0.1030922572	
561.25	-0.01393611982	0.07763593334	
561.875	0.05552624268	0.0531057725	
562.5	-0.01043477215	0.02346703518	
563.125	0.09550490981	0.08362051252	
563.75	0.09805733288	-0.04227699003	
564.375	0.1222842098	-0.05469601135	
565.0	0.04992354643	-0.1812141815	
565.625	-0.06008394816	-0.08894204992	
566.25	-0.06597562524	-0.1339470819	
566.875	-0.1863778426	-0.0285863706	
567.5	-0.05760939016	-0.04518845993	
568.125	-0.1553779219	-0.2247949656	
568.75	-0.218440985	0.02387940997	
569.375	-0.1586050663	-0.01405857151	
570.0	-0.1484415437	0.2736952768	
570.625	0.06600349453	0.1139086671	
571.25	-0.08767272024	0.08902971896	
571.875	0.1525129523	0.03750192762	
572.5	0.01190579323	0.02786156136	
573.125	0.1704570162	-0.1469217545	
573.75	-0.05142587017	-0.1449022758	
574.375	0.05061266956	0.03098319444	
575.0	0.02458404268	-0.1331260869	
575.625	0.01434143338	0.02499296259	
576.25	0.1058512348	-0.1359903805	
576.875	-0.09698460591	-0.1386314805	
577.5	0.009460364736	-0.05934918963	
578.125	0.01848818296	-0.221385971	
578.75	-0.2046712889	-0.07869586501	
579.375	0.01354024357	0.01000875119	
580.0	-0.1066274359	-0.1412812413	
580.625	0.01170049638	0.1158112095	
581.25	-0.162401813	-0.03227539244	
581.875	0.1603271495	0.2391464158	
582.5	0.07420305942	-0.01460909981	
583.125	-0.01784895553	0.1235957002	
583.75	0.1488330318	-0.03037745361	
584.375	-0.07865868869	0.1155506439	
585.0	0.2024659473	0.04241671422	
585.625	0.06245395567	-0.07544548672	
586.25	0.1382095289	0.02354170334	
586.875	0.0118836528	-0.2225775208	
587.5	-0.03915919393	-0.03330246081	
588.125	0.04851940175	-0.1585162769	
588.75	-0.05189584753	-0.1829376859	
589.375	0.02436761371	-0.0448035089	
590.0	-0.05046668956	-0.2539317408	
590.625	-0.171139203	0.07712473054	
591.25	-0.06673539545	0.01156525233	
591.875	-0.1121136803	0.197009437	
592.5	0.1199735785	0.0009641647189	
593.125	-0.118452626	0.1074089596	
593.75	0.1188494976	0.02587814921	
594.375	0.0270153197	0.1727987088	
595.0	0.2528243616	0.1318256425	
595.625	0.1580654464	-0.05103140426	
596.25	0.112958655	0.1132948536	
596.875	0.2098896918	-0.03073090496	
597.5	0.08986440779	-0.002373809833	
598.125	0.09657235544	0.1535868287	
598.75	0.2328864597	0.01256908696	
599.375	0.1529351048	-0.01702846856	
600.0	0.1882087381	-0.1262389756	
600.625	0.100192503	-0.2275927422	
601.25	-0.008564834704	-0.1056562215	
601.875	-0.005839495915	-0.1788958847	
602.5	-0.164574957	0.07560463063	
603.125	-0.02158592882	-0.00477239096	
603.75	-0.2367722141	0.1111560419	
604.375	0.01296958179	0.1441548194	
605.0	-0.1619237176	-0.01640096416	
605.625	-0.066038456	0.1714843112	
606.25	-0.02585678072	-0.02072356445	
606.875	-0.2422310768	0.04950889231	
607.5	-0.02482503679	0.1464084731	
608.125	-0.0470115399	0.1728683894	
608.75	0.2253972699	0.1101159666	
609.375	0.2028013713	-0.1195857734	
610.0	0.1151420429	-0.122220548	
610.625	0.1044760331	-0.1703286406	
611.25	-0.06051843868	-0.166406126	
611.875	-0.00138917666	-0.09283638118	
612.5	-0.1943102567	-0.1323383592	
613.125	-0.1032791329	0.1272768791	
613.75	-0.1236520411	0.05197838874	
614.375	0.1099908589	0.1924101815	
615.0	-0.001890358201	-0.07692676017	
615.625	-0.04273144583	0.1843292992	
616.25	0.07253299587	0.09148036864	
616.875	-0.1447941581	0.1806116321	
617.5	0.006391775964	0.2454786071	
618.125	0.07268404357	0.1498527322	
618.75	-0.0168881968	0.1528483031	
619.375	0.05401840606	0.0883324344	
620.0	0.24993288	0.01908285305	
620.625	0.06316348122	-0.1314941528	
621.25	-0.1551303387	-0.1987371668	
621.875	-0.2189441405	0.03648353823	
622.5	-0.09472573977	-0.01771861544	
623.125	-0.02348407077	0.2533187544	
623.75	0.1170451618	-0.0499245978	
624.375	0.06948885214	0.04777413904	
625.0	-0.02245656495	-0.09250292551	
625.625	0.07070061112	-0.02489279899	
626.25	-0.07225353836	-0.1856892337	
626.875	-0.1430316607	0.008049299066	
627.5	-0.07555132417	-0.08158681112	
628.125	-0.1448739863	-0.06054201344	
628.75	-0.06996708876	-0.06105219276	
629.375	-0.05714938468	-0.160996065	
630.0	-0.2180114152	-0.07034398254	
630.625	-0.1613998377	0.185694227	
631.25	-0.1193154233	0.1561975565	
631.875	0.03059188599	0.2823718432	
632.5	0.150278165	0.0950317009	
633.125	0.1056389359	0.1361568959	
633.75	0.1880191024	-0.1709629589	
634.375	0.008275824324	-0.06164571952	
635.0	0.04907018446	-0.2300268186	
635.625	-0.1985034865	0.01258355158	
636.25	-0.05876594393	0.01451786037	
636.875	-0.1372086182	0.1775909196	
637.5	0.06818514675	0.07513876037	
638.125	-0.1209355503	0.04724046719	
638.75	-0.004534039979	0.2606738038	
639.375	0.05535893016	0.109669898	
640.0	0.1021970135	0.2722985953	
640.625	0.3216040144	0.07477954405	
641.25	0.1678141701	-0.09807277463	
641.875	0.1749082972	-0.1059684068	
642.5	-0.09588711401	-0.3071759512	
643.125	-0.06912335566	-0.002697560862	
643.75	-0.09454432423	-0.2441994422	
644.375	-0.2127564648	0.1864032105	
645.0	-0.07725369036	-0.003623048998	
645.625	0.06489396153	0.3734040656	
646.25	0.2228336542	-0.1722237819	
646.875	-0.0129286026	0.07968700625	
647.5	0.2016915674	-0.03551177741	
648.125	-0.06344609644	0.05584835114	
648.75	0.4139829729	-0.03923517883	
649.375	0.05220142205	-0.3530546954	
650.0	0.08177742676	-0.1273746735	
650.625	0.2939962343	-0.318727617	
651.25	-0.003954306316	-0.3473993335	
651.875	0.1568823988	0.01127812291	
652.5	0.3874787512	-0.1600220808	
653.125	0.1107906066	-0.249571637	
653.75	0.1421352093	-0.07816048553	
654.375	-0.1417640088	-0.4025807862	
655.0	-0.2499246542	0.1175912363	
655.625	-0.08406993418	-0.0119370388	
656.25	0.02031207625	0.3273861184	
656.875	0.1222861778	-0.1732657209	
657.5	-0.02396840952	0.277822224	
658.125	0.2556838099	0.03249990572	
658.75	0.1059585642	0.01520901156	
659.375	0.5097343967	-0.1249523027	
660.0	0.00768354245	-0.4369421986	
660.625	0.06692851778	-0.152117637	
661.25	0.2187873932	-0.3376565808	
661.875	0.06078339547	-0.3553481176	
662.5	0.1357653391	-0.04812995152	
663.125	0.3276529604	-0.2899134106	
663.75	-0.03217769908	-0.2868902647	
664.375	0.02858352158	-0.2402581581	
665.0	-0.3491142616	-0.2227547627	
665.625	-0.1817961163	0.2286457779	
666.25	-0.09854437419	0.1475133296	
666.875	0.1786748898	0.2620079532	
667.5	0.1597948643	-0.07289525492	
668.125	0.1753542921	0.1455473704	
668.75	0.1825805244	-0.31322916	
669.375	-0.04589206014	-0.08127961788	
670.0	0.1271121342	-0.2060649636	
670.625	-0.1838422705	-0.2902722459	
671.25	0.006739061222	0.0001637307672	
671.875	0.219765234	-0.3230476441	
672.5	0.04975211867	-0.2187557659	
673.125	0.1419216894	-0.07516296233	
673.75	0.2131376372	-0.2931102327	
674.375	-0.1455023027	-0.2258251528	
675.0	0.0008726716352	-0.1507017811	
675.625	-0.2735452315	-0.1388773236	
676.25	-0.1271177993	0.1263750842	
676.875	-0.06428087713	-0.07868659013	
677.5	-0.229320333	0.1437622141	
678.125	0.02312791521	0.1147657632	
678.75	-0.05719107828	0.190728814	
679.375	0.3929002564	0.05663267435	
680.0	-0.09288832744	-0.1435260887	
680.625	0.1763029101	0.0287441703	
681.25	0.08269805484	-0.2414443053	
681.875	-0.1065591707	0.1786715764	
682.5	0.4001005652	0.1858614595	
683.125	0.1180321949	-0.2268824858	
683.75	0.1765684841	0.2633385978	
684.375	0.4030217464	0.05719222178	
685.0	0.09512585203	-0.1358687119	
685.625	0.2384510052	0.1886327683	
686.25	0.414105733	-0.2146082871	
686.875	0.07477942937	-0.1713398088	
687.5	0.2606694848	-0.2969072984	
688.125	-0.2504330704	-0.4845799786	
688.75	-0.2560920536	0.09468508789	
689.375	-0.3211384014	0.2524898313	
690.0	0.2367999373	0.3827076465	
690.625	0.1662975396	0.01385232131	
691.25	0.2949880274	0.4168721605	
691.875	0.6298111713	-0.0234953619	
692.5	0.2908552331	0.1364355882	
693.125	0.8286678028	0.01304552692	
693.75	0.4068570762	-0.5430001974	
694.375	0.3161496533	-0.1214338346	
695.0	0.5595501016	-0.3516006918	
695.625	0.1992008814	-0.1757522244	
696.25	0.3266974754	0.1536399729	
696.875	0.5498566859	0.3437674999	
697.5	0.3286289119	0.2674323158	
698.125	0.478541276	0.10599914	
698.75	0.3003469892	-0.5213181944	
699.375	-0.5227706074	-0.07090173421	
700.0	-0.1376277562	0.1792988099	
700.625	0.03966583518	0.3284612259	
701.25	0.2366163927	-0.007146914016	
701.875	0.1411122391	0.2436231522	
702.5	0.4752037132	0.2334726604	
703.125	0.2809895354	-0.1088028864	
703.75	0.3833395055	0.0223716043	
704.375	0.2922852434	-0.3138185039	
705.0	0.06714369476	-0.1131145786	
705.625	0.2772348376	0.1249006979	
706.25	0.1661828628	0.04496341081	
706.875	0.1557699173	0.2214585407	
707.5	0.2971659821	0.3370703551	
708.125	0.4165594531	-0.03045196479	
708.75	0.0562412115	-0.5001426272	
709.375	-0.2576670827	-0.1523691851	
710.0	-0.07550389257	0.2970654201	
710.625	0.2053101728	-0.09354089688	
711.25	0.03057684422	0.274080609	
711.875	0.2568620345	-0.07693043496	
712.5	0.2365756118	0.03821694067	
713.125	0.2772788152	-0.2440804784	
713.75	-0.04635373496	-0.2653014725	
714.375	0.06921305827	-0.1474425328	
715.0	-0.06322850605	-0.2817006985	
715.625	-0.07309016903	-0.1303476938	
716.25	0.2175136489	-0.1652321523	
716.875	0.3180610745	-0.2701960278	
717.5	0.2838684963	-0.1089876292	
718.125	0.6307420057	0.07200640093	
718.75	0.6947117299	-0.3270383264	
719.375	0.3064488731	-0.5548093978	
720.0	0.4771443884	-0.2334860953	
720.625	-0.2270330592	-1.132986294	
721.25	-0.2544764487	-0.2259660331	
721.875	-0.08084436866	-1.152823362	
722.5	-1.051266817	-0.386875556	
723.125	-0.4083075563	0.04148093594	
723.75	-0.5567892819	0.5439714063	
724.375	0.3622194388	0.3580220171	
725.0	0.01808809412	0.2145802131	
725.625	0.1849477604	0.618213181	
726.25	0.3302957234	0.4250093775	
726.875	-0.2009678258	0.6183735719	
727.5	-0.001073230442	1.52321533	
728.125	0.8165770452	1.363568471	
728.75	-0.3476968648	1.637992098	
729.375	-0.08798882577	4.103967494	
730.0	2.113059898	2.219184545	
730.625	-0.1038038279	2.213705268	
731.25	-0.3851607972	4.541408013	
731.875	1.055163463	3.041327088	
732.5	-2.557840969	0.4667028408	
733.125	-2.717596228	1.7400134	
733.75	0.5296073292	1.142563872	
734.375	0.4159153478	0.7063231906	
735.0	-0.6506235534	-0.9292670088	
735.625	-0.02773440649	0.1597779413	
736.25	-0.2670183958	0.5766057671	
736.875	0.8662396845	0.2944185767	
737.5	0.2217664608	-0.1412809668	
738.125	1.893781261	0.01742204114	
738.75	1.129834969	-2.30688038	
739.375	0.2110099346	-0.9946418294	
740.0	3.365639383	0.700741166	
740.625	4.318997256	-3.328528504	
741.25	-1.818556954	-1.295573354	
741.875	-4.681610269	1.289616678	
742.5	-1.969087587	0.4396016466	
743.125	0.9690004143	-0.792292568	
743.75	-0.4320586368	-1.328103259	
744.375	-0.2804803443	0.2618654467	
745.0	-0.07927931538	0.03307783435	
745.625	0.07108185828	-0.1902172261	
746.25	0.04368026938	-0.03645189455	
746.875	-0.2762954777	0.03714584459	
747.5	0.1165153733	0.2906753695	
748.125	0.04849299563	0.2926859936	
748.75	0.3025016433	0.5369677223	
749.375	0.28556167	0.2948695494	
750.0	-0.2503546743	0.1733568319	
