!Created with skrf (http://scikit-rf.org).
# GHz S RI R (50+0j) 
!freq	ReS11	ImS11	
500.0	1.956452711	-2.855996798	
500.625	0.05704278286	-3.141862202	
501.25	-0.5317577568	-0.9673857386	
501.875	-1.148538701	-2.151501924	
502.5	-0.4642562215	-0.3270948491	
503.125	-0.1380280618	-0.08183808184	
503.75	0.09884490443	0.4489822476	
504.375	-0.04855422062	-0.05797710916	
505.0	0.2377044631	-0.08656808996	
505.625	-0.2224687657	-0.04079663264	
506.25	0.2520163255	-0.3866289944	
506.875	-0.4222073387	1.010200643	
507.5	0.8626049198	-0.8832721774	
508.125	0.1814370498	-3.133515448	
508.75	-1.054207681	-2.303672858	
509.375	2.504591083	-3.579860794	
510.0	-2.985359014	-0.542221338	
510.625	-0.1151803648	-0.1261078057	
511.25	-0.5483191199	-0.2441990689	
511.875	-0.4964794292	0.06217685169	
512.5	-0.1177902712	0.08445355767	
513.125	-0.001794544887	-0.260788936	
513.75	-0.4059799359	-0.0768997193	
514.375	0.1418421728	-0.0720504652	
515.0	-0.9725540551	-0.4685792825	
515.625	1.756434173	-0.261653258	
516.25	-2.817067561	-4.131933762	
516.875	-0.8216379899	0.6496303083	
517.5	0.5230888856	-0.7363508204	
518.125	-0.3853549449	0.2454141284	
518.75	0.2694569874	-0.7273949846	
519.375	-0.16543872	0.2584074136	
520.0	0.1944701443	0.04759405442	
520.625	0.5676586759	-0.007086180755	
521.25	-0.3809066967	-0.8100103154	
521.875	-0.1703678282	-0.02952740202	
522.5	-0.2129427175	0.06276896105	
523.125	-0.06428333181	-0.01391426523	
523.75	-0.4299264845	0.1870586059	
524.375	-0.2007602103	-0.09111959295	
525.0	-0.2177370125	0.6122591479	
525.625	0.1406546647	-0.1612077286	
526.25	0.02290280124	0.1627361862	
526.875	-0.148087473	-0.0748694185	
527.5	-0.2550931652	0.8981147899	
528.125	0.4468446512	0.3923469456	
528.75	-0.3229880652	0.7366715073	
529.375	0.4062321866	0.1126581591	
530.0	-0.3730668217	0.6305435809	
530.625	0.685573156	0.5904169652	
531.25	0.7902330839	0.4691023935	
531.875	0.6937443473	-0.8730626924	
532.5	0.1591702326	0.0388119433	
533.125	-0.1856991404	-0.5954118192	
533.75	0.7176960327	-0.06111754989	
534.375	-0.8429219932	-1.04254511	
535.0	-0.2582365089	-0.05682487005	
535.625	-0.664948548	0.2006453059	
536.25	0.1459123951	0.2543051843	
536.875	0.1156335209	0.1479049442	
537.5	0.2530212493	-0.174419917	
538.125	0.08749926593	-0.1472824386	
538.75	0.5070225984	-0.1753128888	
539.375	-0.3604536003	-0.3928219266	
540.0	-0.2014000033	-0.269693222	
540.625	-0.4498465085	-0.155020399	
541.25	-0.2088693994	0.1113044925	
541.875	-0.05361068728	-0.06915420145	
542.5	-0.1754733742	-0.174636369	
543.125	-0.1904751764	0.03153649538	
543.75	-0.1570508062	-0.1297900108	
544.375	-0.1248172651	0.2686421145	
545.0	-0.06054556729	-0.06052338021	
545.625	0.2565873788	0.3434625748	
546.25	0.06104447383	-0.1699889611	
546.875	0.3915546908	0.2170933769	
547.5	-0.0169520526	-0.5071565481	
548.125	0.05515105862	-0.1804766761	
548.75	-0.2903676911	-0.4663482401	
549.375	-0.3922923027	-0.0385911785	
550.0	-0.03311738613	-0.08325062167	
550.625	-0.2567356785	0.09843816066	
551.25	-0.05176849364	-0.009710589613	
551.875	-0.2966709623	0.1883782594	
552.5	-0.001203950974	0.206966343	
553.125	-0.09354962093	0.1274481903	
553.75	0.1453793272	0.1124122909	
554.375	0.1988967904	-0.003158920856	
555.0	0.2500361116	-0.1492507682	
555.625	0.1984218862	-0.2709643759	
556.25	0.1471096894	-0.333127059	
556.875	-0.07139692222	-0.3818406115	
557.5	-0.2370425785	-0.2517310635	
558.125	-0.274860888	-0.07900775134	
558.75	-0.2322411237	-0.02694417575	
559.375	-0.2929506696	0.04652217504	
560.0	-0.1714939376	0.1841780884	
560.625	-0.1703400461	0.208901278	
561.25	0.05335770544	0.3064515844	
561.875	0.04783457515	0.003399822075	
562.5	0.02001481832	0.2389996998	
563.125	0.1611476943	0.0305417198	
563.75	0.3039270414	0.1517042123	
564.375	0.3425981236	-0.3642546823	
565.0	0.05318225425	-0.212893825	
565.625	0.04915158377	-0.4475445135	
566.25	-0.3846812886	-0.1721211789	
566.875	-0.1761585079	-0.1592735781	
567.5	-0.3816894189	-0.3933281782	
568.125	-0.4538829385	-0.2361415237	
568.75	-0.3054041875	-0.3107375083	
569.375	-0.7910742725	0.270375927	
570.0	-0.02301029882	0.5067704519	
570.625	-0.3291637963	0.1240888529	
571.25	0.1092157905	0.6718974987	
571.875	-0.1574868821	-0.06708301791	
572.5	0.613275861	0.1310695172	
573.125	-0.1434184594	-0.372509078	
573.75	0.3245079575	0.04370018343	
574.375	0.02355459779	-0.5104722458	
575.0	-0.06021034062	0.1818692778	
575.625	0.3196380802	-0.3511427887	
576.25	-0.2088291978	-0.3060244496	
576.875	0.2742745666	-0.1316462724	
577.5	-0.007079065126	-0.6576044968	
578.125	-0.2827128784	-0.2107003498	
578.75	0.04049712555	-0.2472053326	
579.375	-0.3078490921	-0.3577818028	
580.0	-0.1350023835	0.1898983987	
580.625	-0.145633241	-0.3314642917	
581.25	-0.2524489575	0.438169727	
581.875	0.06586669452	0.0334971661	
582.5	-0.2194026103	0.5068880935	
583.125	0.6363085801	0.204092533	
583.75	-0.3335134159	-0.04498855411	
584.375	0.5058503248	0.2981483505	
585.0	-0.1719530593	-0.08301437609	
585.625	0.6160108075	0.3098952951	
586.25	0.2729379051	-0.4634852943	
586.875	0.1153392617	-0.01620675694	
587.5	0.09936818684	-0.5724129881	
588.125	-0.3260746308	-0.1996552287	
588.75	0.3549460275	-0.1419479918	
589.375	0.209441501	-0.6188084634	
590.0	-0.1399575746	-0.1271152998	
590.625	-0.3937157467	-0.3287809032	
591.25	-0.3722422201	0.4285040488	
591.875	0.02204983166	0.164808519	
592.5	-0.1604515097	0.09240684658	
593.125	0.13173971	0.1494877729	
593.75	-0.1871683422	0.2767559244	
594.375	0.668766422	0.3581643613	
595.0	0.2534252726	-0.08811234235	
595.625	0.1886671413	0.5426580943	
596.25	0.784362453	-0.09237302922	
596.875	-0.1328724874	0.1869951165	
597.5	0.6315240076	0.4846682057	
598.125	0.359498449	-0.06950823769	
598.75	0.1817227667	0.4729027057	
599.375	0.6865408997	-0.1776124084	
600.0	0.1823845995	-0.2917541195	
600.625	0.4706741315	-0.2443865995	
601.25	0.1919239172	-0.6189407537	
601.875	-0.1246450557	-0.1407123857	
602.5	-0.3462140049	-0.181141363	
603.125	-0.2106268753	0.1627726653	
603.75	-0.2102349065	0.1527228116	
604.375	-0.1997839384	0.07710710231	
605.0	-0.2744330175	0.2815078308	
605.625	0.07299981219	0.02414033704	
606.25	-0.6257404923	0.1032631932	
606.875	-0.08981261654	0.4269737244	
607.5	-0.5229632395	-0.02865287417	
608.125	0.009596359638	1.035093023	
608.75	0.1690329948	0.02749944783	
609.375	0.7880980085	0.256949963	
610.0	0.2618667194	-0.607269368	
610.625	0.3104963397	0.01208127944	
611.25	-0.09387713903	-0.6367890499	
611.875	-0.03246661323	-0.08029262064	
612.5	-0.4728599695	-0.3435949787	
613.125	-0.2283017117	0.2612694641	
613.75	-0.4537393643	0.2024243092	
614.375	0.2749173985	0.2878547921	
615.0	-0.3106854724	0.08628290903	
615.625	0.3272362919	0.2569285223	
616.25	-0.2565493816	0.08310833662	
616.875	-0.3083878263	0.6920579001	
617.5	0.2024344832	0.3198006679	
618.125	-0.3927386471	0.4958328526	
618.75	0.2876238876	0.5370956966	
619.375	0.05126169714	0.2141296241	
620.0	0.5897612594	0.2010724625	
620.625	0.1206835024	-0.3037712959	
621.25	-0.1331199917	-0.5276304828	
621.875	-0.4877738527	-0.1076415091	
622.5	-0.5144220043	-0.07155486359	
623.125	0.02964497574	0.5936030952	
623.75	0.0540147444	0.05410273611	
624.375	0.3271434709	-0.2540745526	
625.0	-0.1015587349	0.2209241433	
625.625	0.3596923059	-0.4372568764	
626.25	-0.3382099421	0.03383626203	
626.875	-0.07160892253	-0.5384652939	
627.5	-0.6187986743	0.03248708278	
628.125	-0.02491582087	0.005575530866	
628.75	-0.08386165928	-0.5466271897	
629.375	-0.4057929883	-0.1724283803	
630.0	-0.2276865611	-0.3023355765	
630.625	-0.6628458347	0.1135997098	
631.25	-0.1545794191	0.5287335068	
631.875	-0.2026165605	0.3908123522	
632.5	0.4393216872	0.5821290269	
633.125	0.4335733155	0.03592387857	
633.75	0.3224570239	-0.1024951611	
634.375	0.2981407868	-0.3200472723	
635.0	-0.2587470355	-0.3051054953	
635.625	-0.03792775179	-0.3351126713	
636.25	-0.6206794057	0.2622705709	
636.875	0.1691552208	0.2962559875	
637.5	-0.5266483825	-0.07177505141	
638.125	0.2582391177	0.5192707875	
638.75	-0.3706764443	-0.04239980657	
639.375	-0.02550344499	1.022659882	
640.0	0.5579813244	0.1696861304	
640.625	0.1230082629	0.5320997074	
641.25	1.006288647	-0.05781682746	
641.875	0.0368197858	-0.5177789659	
642.5	0.286600445	-0.2618830784	
643.125	-0.6297910134	-0.5824463486	
643.75	0.02807611646	0.2051928374	
644.375	-0.6252633786	-0.2969509616	
645.0	-0.2054461873	0.5985631476	
645.625	0.1051406931	0.1963729856	
646.25	0.2621797766	0.5370751424	
646.875	0.3998705658	-0.3779559459	
647.5	-0.1793256269	0.2657031551	
648.125	0.7681593649	0.1150698538	
648.75	0.03404837192	-0.4432122001	
649.375	1.018282633	0.03197671632	
650.0	0.2958236736	-1.413137154	
650.625	-0.2185914819	-0.1731197902	
651.25	1.170651667	-0.2990972226	
651.875	0.4180279265	-1.182900294	
652.5	0.1336803884	0.2487573903	
653.125	1.165692973	-0.2406076926	
653.75	-0.02726900404	-0.7919753379	
654.375	0.1975343921	-0.3000768326	
655.0	-1.07202868	-0.6002129099	
655.625	-0.05043585087	0.6859038691	
656.25	-0.1874511343	0.03322463178	
656.875	0.2781381789	0.5611387418	
657.5	-0.01227056263	-0.2002778509	
658.125	0.2676516285	0.7943245902	
658.75	0.8610162177	-0.0625712271	
659.375	0.4551329179	-0.3403430692	
660.0	0.7514017693	-0.2945960855	
660.625	0.2245078395	-1.348095241	
661.25	-0.02141820226	-0.2273828655	
661.875	0.9784402254	-0.4920903047	
662.5	0.5044977287	-0.9561117154	
663.125	0.1296055353	-0.02788194221	
663.75	0.8817268647	-0.9917786265	
664.375	-0.5887306444	-0.5207843682	
665.0	-0.1564683751	-0.5365455004	
665.625	-1.089592397	0.2220317485	
666.25	0.1863402938	0.5989005117	
666.875	-0.07404169331	0.4838685811	
667.5	0.6855786	0.2982253388	
668.125	0.2381029765	-0.2550081882	
668.75	0.6677339346	-0.0113140879	
669.375	0.03982587872	-0.8434882411	
670.0	-0.008660571247	-0.2243576013	
670.625	0.2014342753	-0.4944247409	
671.25	0.003858326751	-0.6049662382	
671.875	0.0590302694	-0.1419424591	
672.5	0.7891657686	-0.2732972888	
673.125	0.3166053835	-0.7232632924	
673.75	0.1389993161	-0.184514315	
674.375	0.5546463079	-0.7794152196	
675.0	-0.8331830379	-0.4066327371	
675.625	0.2012390345	-0.3371058243	
676.25	-0.9573287698	-0.1445494685	
676.875	0.03216668687	0.4640114852	
677.5	-0.5505533511	-0.4770521065	
678.125	-0.1357537942	0.8676323445	
678.75	-0.02055421485	0.1393462777	
679.375	0.4014855018	0.4979387008	
680.0	0.5515589997	-0.5954664228	
680.625	-0.2048229028	0.1822094662	
681.25	0.6024735701	-0.04757585903	
681.875	0.2028867549	-0.1511474589	
682.5	0.196989856	0.3887221535	
683.125	0.8810190493	0.267708521	
683.75	0.4869064573	-0.1578387443	
684.375	0.3889223266	0.16854798	
685.0	0.9581562875	0.4067898232	
685.625	0.5782559308	-0.7493483076	
686.25	0.3999053773	0.8358185996	
686.875	1.18404658	-1.225221719	
687.5	-0.1015787477	-0.1167065273	
688.125	0.6083888488	-1.405504732	
688.75	-1.745129887	0.260505852	
689.375	-0.3331157699	-0.1442566736	
690.0	0.4018900926	1.623058712	
690.625	0.5635923641	0.007314346199	
691.25	0.4035328834	0.9909508444	
691.875	1.461914115	0.6138856499	
692.5	1.026759526	0.3996391604	
693.125	1.530954583	0.05605124604	
693.75	1.371331175	-0.7038305238	
694.375	0.9603935699	-0.8133917931	
695.0	0.9342391227	-0.7490196196	
695.625	1.072684863	0.1206925762	
696.25	1.572506577	-0.00817676069	
696.875	0.477490799	0.6167021626	
697.5	1.33471983	1.723323581	
698.125	1.170802348	-0.4851688405	
698.75	1.430782506	-0.3144039319	
699.375	-1.710667593	-1.063965907	
700.0	0.1120927865	0.4757460475	
700.625	0.0593737895	1.399271571	
701.25	0.62101445	-0.1428011568	
701.875	0.2166910735	0.8841631156	
702.5	1.273996862	0.4101786021	
703.125	0.4238863228	0.4128399985	
703.75	1.244198154	-0.2449871888	
704.375	0.3104615523	-0.602740217	
705.0	0.9318246382	0.1529401093	
705.625	0.6260903312	-0.5872064881	
706.25	0.1423328798	0.5318182939	
706.875	1.153243447	1.056043513	
707.5	0.3744853461	0.06840919656	
708.125	1.23221459	0.7624947548	
708.75	0.4141714621	-1.367645943	
709.375	-0.3031958573	-0.410353262	
710.0	-0.7659154455	0.5823834868	
710.625	0.4340746954	0.1734258239	
711.25	0.1254413179	0.4092603676	
711.875	0.5862286581	0.1412288621	
712.5	0.7887634035	-0.02794592785	
713.125	0.5547790727	-0.4432019938	
713.75	0.4032975616	-0.4289454305	
714.375	-0.05472130987	-0.7857088625	
715.0	-0.1561685275	-0.09567197198	
715.625	0.455707378	-0.9215176055	
716.25	-0.4201760974	-0.6721169306	
716.875	0.9187635991	0.3258170389	
717.5	2.323814001	-0.6108900054	
718.125	-0.02838987584	-0.8797786798	
718.75	3.236423164	1.107607093	
719.375	0.8208466252	-2.800103171	
720.0	0.8242849546	-0.581652654	
720.625	1.400502586	-4.167679281	
721.25	-1.636944593	-1.523308349	
721.875	0.3973535286	-2.441321034	
722.5	-2.094682846	-2.326337429	
723.125	-1.976480152	0.473520002	
723.75	-0.8550383243	0.5002140912	
724.375	0.0928999844	1.616014577	
725.0	0.5313513332	0.4949228539	
725.625	0.1685648473	0.967223344	
726.25	-0.04169427638	2.075803417	
726.875	1.308943419	2.122815516	
727.5	-1.644163285	1.939466231	
728.125	-0.6471472534	7.445139286	
728.75	4.273872376	4.891183104	
729.375	-7.344498942	4.276687939	
730.0	7.094281134	28.04909706	
730.625	2.947584186	0.4272560763	
731.25	-8.882108391	10.99469203	
731.875	-3.179181734	17.53034241	
732.5	-2.183899583	-2.231191879	
733.125	-10.04561415	1.604604844	
733.75	-0.566499187	4.163345931	
734.375	1.247822926	0.112256937	
735.0	1.067707843	-2.106811663	
735.625	-0.8351252732	1.46580811	
736.25	-0.8035582018	0.6333103845	
736.875	1.398416517	1.939751742	
737.5	3.136934081	-0.8593040123	
738.125	1.438308279	0.09480583038	
738.75	7.755332084	-2.512353202	
739.375	4.357923789	-10.09283078	
740.0	-2.453523526	2.087815649	
740.625	19.81894554	13.79622472	
741.25	52.26115325	0.3615915204	
741.875	-18.35699259	-6.637101276	
742.5	-20.14707768	-8.967960037	
743.125	0.02123273955	2.068781184	
743.75	2.618626657	-5.630052801	
744.375	-2.006624474	1.244310559	
745.0	-0.2380067489	-0.04344236954	
745.625	0.3597263295	-0.1423043713	
746.25	-0.07319908134	-0.04093631174	
746.875	-0.5436456688	-0.1254443505	
747.5	0.1556056028	1.048611041	
748.125	0.3194238738	0.7385037824	
748.75	0.3389108123	1.184147876	
749.375	0.3647349657	2.036032885	
750.0	-1.104438456	1.186425889	
