!Created with skrf (http://scikit-rf.org).
# GHz S RI R (50+0j) 
!freq	ReS11	ImS11	
500.0	-1.899153164	-1.933538278	
500.625	1.392882874	-1.642212623	
501.25	-1.319180888	-2.888174841	
501.875	-2.466926836	-0.8969642787	
502.5	0.0323213077	-0.1165411448	
503.125	-0.3833164357	0.05784196352	
503.75	0.1413743745	-0.01840406469	
504.375	0.152586013	0.03412035927	
505.0	-0.08920768481	-0.07512473164	
505.625	0.2579461442	-0.21361273	
506.25	-0.5963713793	0.09361139575	
506.875	0.2411493205	-0.5687608551	
507.5	-0.6252714301	-2.113942085	
508.125	-1.234466758	-1.137057078	
508.75	2.806609136	-1.691311008	
509.375	-2.431865354	-4.660703452	
510.0	-0.4998110533	0.08047504603	
510.625	-0.5974994716	-0.8704553036	
511.25	-0.07948652732	0.1243893822	
511.875	-0.4382886642	-0.1480129944	
512.5	-0.06440953447	0.1427116129	
513.125	-0.1276743036	-0.1744567578	
513.75	-0.04975945182	-0.04530636229	
514.375	-0.4911977982	-0.3000193515	
515.0	0.4786301287	1.13129426	
515.625	-1.792676795	-2.973952786	
516.25	-0.7831137437	0.6790203982	
516.875	0.1910595328	-2.644132447	
517.5	-1.008645148	-0.4018654413	
518.125	0.2680331391	-0.2269965668	
518.75	-0.7430427438	-0.3890999803	
519.375	-0.05444623693	0.03699422135	
520.0	0.4131539375	0.3397335915	
520.625	0.3958369742	-0.3910485534	
521.25	-0.01427099502	-0.4029821102	
521.875	-0.6451182186	-0.1960812161	
522.5	0.03148645628	0.1031868915	
523.125	-0.2489288135	0.1446065575	
523.75	-0.1206934309	-0.0840539084	
524.375	-0.7362757293	0.2471089475	
525.0	0.131017126	0.02280202413	
525.625	-0.06694562753	0.2584866657	
526.25	0.073068316	-0.2503852418	
526.875	-0.1827714581	0.3374725564	
527.5	0.1128625814	0.2692057926	
528.125	-0.2690121568	0.8812953881	
528.75	0.4410529084	0.8646406399	
529.375	-0.1707669944	0.1406040511	
530.0	0.4083409709	0.421518405	
530.625	-0.08525394085	0.8547464624	
531.25	1.617051473	-0.2584253581	
531.875	0.3284268409	-0.2636978871	
532.5	-0.1697856327	-0.5561607807	
533.125	0.2562248963	0.3357188418	
533.75	0.08702973451	-0.8725255902	
534.375	-0.08741296593	-0.2949648407	
535.0	-0.9439373774	-0.6225195239	
535.625	-0.1154066858	0.4889681352	
536.25	-0.08602502894	0.1639637339	
536.875	0.3422724701	0.07494108732	
537.5	0.04865723308	-0.1284177038	
538.125	0.4697869822	-0.06362028147	
538.75	0.1219982858	-0.3924410351	
539.375	-0.004421841256	-0.3570825591	
540.0	-0.5670871701	-0.5008867472	
540.625	-0.2856917244	0.1562530532	
541.25	-0.1656907758	-0.04583782622	
541.875	-0.1516390463	-0.09411831908	
542.5	-0.1633215825	-0.005149794351	
543.125	-0.05926029667	-0.2216698285	
543.75	-0.3826721946	0.1160173021	
544.375	0.003367443186	-0.05618080887	
545.0	-0.009015431858	0.303802253	
545.625	0.05569499212	-0.06963144782	
546.25	0.2849925498	0.3395127694	
546.875	0.1566388373	-0.355956692	
547.5	0.2305777744	-0.05194390007	
548.125	-0.05985380298	-0.5953806693	
548.75	-0.400583464	-0.09576568748	
549.375	-0.08592834047	-0.2079914364	
550.0	-0.3349451805	0.04503051621	
550.625	0.02121335909	-0.02826583948	
551.25	-0.3213125785	0.09919049394	
551.875	-0.02265054063	0.1633205492	
552.5	-0.2003353786	0.1484220732	
553.125	0.004852393153	0.1989279481	
553.75	0.09180982612	0.093278847	
554.375	0.2421083708	0.02147607459	
555.0	0.2211318427	-0.1870806423	
555.625	0.1907963693	-0.2406658889	
556.25	0.162181334	-0.3442733127	
556.875	-0.0967923591	-0.3812313704	
557.5	-0.2295129335	-0.2430849686	
558.125	-0.26693222	-0.1048693859	
558.75	-0.2747144458	0.0004627587346	
559.375	-0.2189710643	0.06029008662	
560.0	-0.2504396739	0.1349946144	
560.625	-0.1077312961	0.3138407656	
561.25	0.04271298962	0.1490003211	
561.875	0.05799161836	0.2039350908	
562.5	0.03461929455	0.006945095148	
563.125	0.1595872702	0.2913348399	
563.75	0.336756986	-0.1447570959	
564.375	0.2072183065	-0.05917440547	
565.0	0.2865120729	-0.4386722815	
565.625	-0.202490671	-0.319495552	
566.25	-0.1365674211	-0.199847506	
566.875	-0.3912722683	-0.3029878384	
567.5	-0.3745393917	-0.06552712256	
568.125	-0.1604998047	-0.4874451814	
568.75	-0.7167602964	-0.1375631177	
569.375	-0.3261183891	0.1894719755	
570.0	-0.5464337664	0.4160167363	
570.625	0.04740994315	0.6522634553	
571.25	-0.04818698827	-0.05367317454	
571.875	0.2756338949	0.5283048713	
572.5	0.02753563991	-0.237413365	
573.125	0.464231812	-0.02313664261	
573.75	0.003748267923	-0.5600397175	
574.375	-0.04672766931	0.160090357	
575.0	0.2521430311	-0.3689596083	
575.625	-0.1548769092	0.05043984265	
576.25	0.4218288605	-0.2105130231	
576.875	-0.1839663501	-0.5342160725	
577.5	-0.1159974023	-0.1092914607	
578.125	0.1395012034	-0.4197874074	
578.75	-0.3927797905	-0.4250208001	
579.375	-0.1258127963	0.05291060443	
580.0	-0.05112780221	-0.3054795998	
580.625	-0.1909554837	0.1839265856	
581.25	-0.2454335671	-0.1252558662	
581.875	-0.03771833185	0.6516042616	
582.5	0.4329444862	0.1811389982	
583.125	-0.2179420573	-0.0002241889323	
583.75	0.4954157783	0.3687306816	
584.375	-0.3115366603	-0.1404904862	
585.0	0.5570072668	0.3977224652	
585.625	0.172964471	-0.3295757994	
586.25	0.4057260606	0.2616002497	
586.875	0.115638676	-0.6774559932	
587.5	-0.05503300883	-0.02169614359	
588.125	0.2080420353	-0.4362380508	
588.75	-0.09095306067	-0.5652506798	
589.375	0.02744686155	-0.07567301041	
590.0	0.07014254325	-0.5699601574	
590.625	-0.5312373304	0.001450484283	
591.25	-0.1831759236	0.1605819133	
591.875	-0.2561320883	0.2864783301	
592.5	0.1848153679	0.07152496406	
593.125	-0.1993000858	0.2175918584	
593.75	0.2324594936	0.1972165651	
594.375	0.108504779	0.1523592248	
595.0	0.3751219318	0.6343180632	
595.625	0.7634578919	-0.1529073882	
596.25	-0.07470167578	0.2516491172	
596.875	0.7104745355	0.2364788709	
597.5	0.1562941434	-0.1440828501	
598.125	0.2885077928	0.6538033197	
598.75	0.5296917021	-0.1126079218	
599.375	0.2808565754	0.1743277464	
600.0	0.6316075413	-0.4242937642	
600.625	0.1481719753	-0.5203745901	
601.25	0.2125660951	-0.2084535967	
601.875	-0.1096982037	-0.4648458392	
602.5	-0.2695102276	0.002940408934	
603.125	-0.2043750148	0.1244549833	
603.75	-0.2854218917	0.06857968947	
604.375	-0.2843503895	0.2857086488	
605.0	-0.03322546258	0.06560592909	
605.625	-0.3242060696	0.2344064919	
606.25	-0.03880983275	0.1397143194	
606.875	-0.6164089711	-0.07811318485	
607.5	-0.1953446888	0.8114290925	
608.125	-0.1708879335	0.1674032172	
608.75	0.4811441059	0.8177679762	
609.375	0.3011828534	-0.3995689966	
610.0	0.5779469247	0.06522053317	
610.625	0.1793901863	-0.602896094	
611.25	0.02085267915	-0.06557901387	
611.875	-0.3399240063	-0.5763071639	
612.5	-0.1690902066	0.02940267267	
613.125	-0.5995532698	-0.1297664033	
613.75	-0.05537248518	0.4981419249	
614.375	-0.1522277731	0.1971713735	
615.0	0.325452582	0.07814498173	
615.625	-0.343202066	0.09810840306	
616.25	0.05552196014	0.627269997	
616.875	-0.08721378771	0.09652324129	
617.5	-0.4154011605	0.6794868694	
618.125	0.2571223537	0.5018609246	
618.75	-0.1726925452	0.2527955986	
619.375	0.3718475766	0.527645996	
620.0	0.2638215211	0.02096777992	
620.625	0.3850546016	-0.3724657888	
621.25	-0.2559264978	-0.3041219367	
621.875	-0.4268632758	-0.3172372318	
622.5	-0.4878542133	0.2132910501	
623.125	-0.1858242359	0.3006048192	
623.75	0.4823378406	0.1442595024	
624.375	-0.1540188082	-0.01466156641	
625.0	0.3739064324	-0.3434079376	
625.625	-0.09703263147	0.1634496438	
626.25	0.1116059659	-0.5349226217	
626.875	-0.5529641725	-0.03137624352	
627.5	0.027996482	-0.1402611686	
628.125	-0.537897098	-0.3166232903	
628.75	-0.09287529578	-0.01635870421	
629.375	-0.09727412504	-0.5861517858	
630.0	-0.6127642748	-0.06665099596	
630.625	-0.2541430178	0.02751291627	
631.25	-0.5177488243	0.3869724945	
631.875	0.03224585135	0.6507479634	
632.5	0.3676326038	0.3964358726	
633.125	0.3393962282	0.102468885	
633.75	0.6051717658	-0.1131337842	
634.375	-0.03353154493	-0.239455166	
635.0	0.1149009609	-0.3732422009	
635.625	-0.505445075	-0.1153139113	
636.25	-0.1571311124	-0.07668391898	
636.875	-0.3502560093	0.4705650598	
637.5	0.2481776032	0.170233269	
638.125	-0.4869324481	-0.07696076695	
638.75	-0.02670893837	0.8237668651	
639.375	0.1519057058	0.1182614313	
640.0	0.01728143296	0.7581488989	
640.625	0.8710334738	0.2841123324	
641.25	0.315262833	-0.1085462299	
641.875	0.8437366773	-0.3628460713	
642.5	-0.3949696429	-0.3701135613	
643.125	0.1073396909	-0.2548261889	
643.75	-0.6409703581	-0.3767189138	
644.375	-0.157182011	0.3591746142	
645.0	-0.440794835	-0.03889789093	
645.625	0.1230330518	0.7891724078	
646.25	0.5307018647	-0.06060596005	
646.875	-0.1478469251	0.119572093	
647.5	0.6316705817	-0.09063445671	
648.125	-0.1299859907	0.3677644918	
648.75	1.055538933	-0.1909112427	
649.375	0.02469173952	-0.8055439112	
650.0	0.4683974212	0.01258684256	
650.625	0.8626349835	-1.289843099	
651.25	-0.3782291878	-0.6217622172	
651.875	0.740443146	0.2971569278	
652.5	1.067570593	-0.676481524	
653.125	0.05179871526	-0.3449046073	
653.75	0.9519604408	-0.3578003322	
654.375	-0.5660012242	-0.847451618	
655.0	-0.2411240979	0.06352668211	
655.625	-0.7957808499	0.0751981253	
656.25	0.4841891428	0.7714723538	
656.875	-0.2014167724	-0.1781946806	
657.5	0.2109274577	0.531382478	
658.125	0.4243164852	0.08774345198	
658.75	0.313015367	0.3703157715	
659.375	1.119514159	-0.5203937803	
660.0	0.1170474015	-0.6572711029	
660.625	0.4671263807	-0.4493793468	
661.25	0.683089047	-1.041274545	
661.875	-0.1805333325	-0.6773772415	
662.5	0.7906042309	0.147269124	
663.125	0.8495714184	-0.9458196227	
663.75	-0.10710356	-0.4137660335	
664.375	0.395282837	-0.8906360602	
665.0	-1.056157302	-0.1654427438	
665.625	-0.3670732772	-0.1139404531	
666.25	-0.512067061	0.8598967127	
666.875	0.5861273811	0.3154960501	
667.5	0.02242552836	0.1973088285	
668.125	0.8318882331	0.082436493	
668.75	0.254222106	-0.5361393882	
669.375	0.1798975302	-0.2690711862	
670.0	0.1817073155	-0.6788029043	
670.625	-0.2850819683	-0.3113504063	
671.25	0.3465923028	-0.3709429818	
671.875	0.2403064799	-0.5665698668	
672.5	0.1907051712	-0.2750267444	
673.125	0.7323302488	-0.1804241206	
673.75	0.3429677048	-0.9788622683	
674.375	-0.2643836366	-0.1958083872	
675.0	0.2751040317	-0.6945067778	
675.625	-0.924567049	-0.4071747434	
676.25	0.1661440703	0.2007028337	
676.875	-0.9283589743	-0.2297644472	
677.5	0.08704544798	0.3861457164	
678.125	-0.6828016148	-0.08149211739	
678.75	0.56646072	0.9285303306	
679.375	0.04889725153	-0.1346574667	
680.0	0.4102299816	0.09862737589	
680.625	0.4041016502	-0.4462105637	
681.25	-0.2270503469	-0.1465306587	
681.875	0.4427827656	0.4951271855	
682.5	0.6260329518	-0.02549636488	
683.125	0.4128139497	0.06923787419	
683.75	0.5092478762	0.4293583051	
684.375	0.8905102343	-0.2043300617	
685.0	0.2217186784	0.1527150065	
685.625	1.031654521	0.2303954652	
686.25	0.643158255	-0.7567291422	
686.875	0.274979625	0.489528095	
687.5	1.322345624	-1.479148627	
688.125	-0.8360963063	-0.2806053754	
688.75	-0.5932801923	-1.165335857	
689.375	-0.6877033644	1.491145766	
690.0	0.1613812704	0.07721978226	
690.625	0.9669141074	1.302826443	
691.25	0.598134957	0.03702745352	
691.875	0.7503256546	0.9410297054	
692.5	1.636286052	0.5616890074	
693.125	1.213366813	-0.2577861523	
693.75	1.271624168	-0.4395320646	
694.375	0.8882295108	-0.8761814324	
695.0	1.269785494	-0.582567624	
695.625	0.9435462407	-0.5237616365	
696.25	0.7954830668	0.707139635	
696.875	1.620199008	0.8264774893	
697.5	0.5031476754	0.609849784	
698.125	1.783902084	1.008438585	
698.75	0.252351346	-1.601121224	
699.375	-0.03826641769	-0.9439202439	
700.0	-0.9572268729	1.490641007	
700.625	0.4792824815	0.07064742893	
701.25	0.6264708154	1.149859579	
701.875	0.704498502	-0.0201213175	
702.5	0.4715335892	0.8805556061	
703.125	1.320662753	0.1656625168	
703.75	0.3493536652	-0.01714334859	
704.375	1.05149621	-0.5167686977	
705.0	0.1966856137	-0.5036448402	
705.625	0.7119908026	0.656095191	
706.25	1.082624984	-0.1451535804	
706.875	0.07909635192	0.5950604088	
707.5	1.022105567	1.235418508	
708.125	0.7864830947	-0.3459713921	
708.75	1.064887207	-0.5887129168	
709.375	-1.188727865	-0.6079411906	
710.0	-0.1113593417	0.243162104	
710.625	0.0800677304	0.6719643709	
711.25	0.3052348018	0.01045336546	
711.875	0.4134198507	0.3855150038	
712.5	0.7223255253	-0.1581449197	
713.125	0.820373474	-0.2947442391	
713.75	0.09571683919	-0.77765325	
714.375	0.326208918	-0.1728754916	
715.0	-0.2729137525	-0.8360500741	
715.625	-0.09527124142	-0.08569641358	
716.25	1.044512469	-0.7676936485	
716.875	0.0555772329	-1.181141555	
717.5	0.9035149314	1.029489925	
718.125	2.989306916	-0.3122864153	
718.75	0.4113645866	-1.678319349	
719.375	2.994455491	0.8028844434	
720.0	0.1275728143	-4.005738008	
720.625	0.4909680415	-1.150123407	
721.25	0.3348191716	-3.137273299	
721.875	-2.054293161	-2.271371275	
722.5	-0.4587977977	-1.631412266	
723.125	-2.587830268	-0.4308299614	
723.75	-0.5510433709	1.397737157	
724.375	-0.04158178051	0.7202106229	
725.0	0.1127939042	1.079958727	
725.625	1.024562807	1.117522682	
726.25	0.04799355079	0.8188407622	
726.875	-0.8344265128	2.6448456	
727.5	1.587390928	4.60492665	
728.125	-1.126500665	1.681779866	
728.75	1.966267314	12.23666684	
729.375	7.367054063	7.626158085	
730.0	-8.915240889	4.20507573	
730.625	4.33063009	28.38638893	
731.25	5.399167342	0.1426412932	
731.875	-12.04078955	4.3632728	
732.5	-10.92917345	6.304265051	
733.125	-3.02689324	3.777091601	
733.75	-4.43909329	2.425133809	
734.375	2.956649111	-0.2882522398	
735.0	-0.08827551869	-0.8459641868	
735.625	-1.696300754	-0.5147900908	
736.25	1.169761511	1.599900725	
736.875	-0.1101873691	0.6862126285	
737.5	3.285937346	1.431833318	
738.125	4.941644696	-2.395151892	
738.75	0.2974993536	-5.085504847	
739.375	8.43792124	4.154986309	
740.0	7.907392359	-14.70566398	
740.625	-10.00104425	2.113257366	
741.25	21.29741111	40.03349651	
741.875	10.64534901	7.645347924	
742.5	0.3221910685	-23.93079871	
743.125	-3.196723436	-7.553572355	
743.75	-1.361488306	-0.08800386785	
744.375	-0.4102680236	-1.24731333	
745.0	0.5087534674	0.7337851866	
745.625	-0.1075939947	0.2437862695	
746.25	-0.1334442269	-0.4715878733	
746.875	-0.8040477332	0.5409126712	
747.5	-0.8183408636	0.8094218407	
748.125	0.6350666767	1.77555438	
748.75	1.051150027	0.7966076962	
749.375	-0.7075908319	0.8916525842	
750.0	-0.2732560258	0.728729493	
