!Created with skrf (http://scikit-rf.org).
# GHz S RI R (50+0j) 
!freq	ReS11	ImS11	
500.0	0.5881249419	-0.8500489665	
500.625	-0.004005767871	-1.11668219	
501.25	-0.007611325859	-0.4695421366	
501.875	-0.2763197047	-0.5622439301	
502.5	-0.06365558105	-0.04392789871	
503.125	-0.06185607121	-0.03054032945	
503.75	0.0560065604	0.1042674831	
504.375	-0.005223231141	0.01205245832	
505.0	0.04048617723	-0.0376076363	
505.625	-0.03261106052	-0.01179032977	
506.25	0.002986690564	-0.139096652	
506.875	-0.1134777069	0.2064658272	
507.5	0.2327998843	-0.2623042047	
508.125	0.1429446489	-0.8705338758	
508.75	0.0810733849	-0.7692180358	
509.375	0.5375245168	-1.134887334	
510.0	-0.5515899838	-0.3645929471	
510.625	-0.09362572444	-0.04024419492	
511.25	-0.09740039856	-0.08175480493	
511.875	-0.1221061586	-0.007056601839	
512.5	-0.0139001046	0.01707817085	
513.125	0.001159216508	-0.09312487092	
513.75	-0.08456089427	0.0021662525	
514.375	0.01995682137	-0.1019680731	
515.0	-0.2190452917	-0.06758075024	
515.625	0.5193033422	-0.3457081403	
516.25	-0.4788206049	-1.171216348	
516.875	0.08790343812	-0.09468509403	
517.5	0.09144548612	-0.1516491353	
518.125	-0.07334060294	-0.007667869663	
518.75	0.04999386676	-0.1091992087	
519.375	-0.06270939247	0.04762235097	
520.0	0.1030276835	0.01874199925	
520.625	0.1182941904	-0.0277483609	
521.25	0.06576898111	-0.3045931854	
521.875	-0.1627148527	-0.04975625117	
522.5	0.0007938402127	-0.02588922042	
523.125	-0.1336207141	0.08610400432	
523.75	0.02718624458	0.01915380458	
524.375	-0.2297891623	-0.1100049332	
525.0	0.06009800519	0.2043695026	
525.625	-0.03241750639	-0.0220083945	
526.25	0.04264035019	0.04147076169	
526.875	-0.0666561545	-0.02162036657	
527.5	-0.06110966044	0.2557193792	
528.125	0.03589667686	0.1347568944	
528.75	-0.08326872531	0.1083940548	
529.375	0.05896399642	0.07376739174	
530.0	-0.03588503329	-0.009043330504	
530.625	0.05333896037	0.36604156	
531.25	0.4508444528	0.1267279857	
531.875	0.1329793535	-0.01677846382	
532.5	-0.03821861291	-0.2287788802	
533.125	-0.1030060422	0.003698381312	
533.75	0.2136413169	-0.2157569596	
534.375	-0.1541784297	-0.1748708527	
535.0	-0.1123987625	-0.1313942964	
535.625	-0.2143929977	0.09507035971	
536.25	0.03077026635	0.0693130412	
536.875	0.06178026976	0.05125721793	
537.5	0.07443087437	-0.06895571292	
538.125	0.04825687864	-0.03102501142	
538.75	0.1594998884	-0.101474369	
539.375	-0.1214139339	-0.1357207761	
540.0	-0.08615607172	-0.1013656179	
540.625	-0.158131572	-0.06878905926	
541.25	-0.1171471762	0.01394971355	
541.875	0.009081141231	-0.03717458775	
542.5	-0.1042800993	-0.04860706719	
543.125	-0.03392178359	0.02047531587	
543.75	-0.07984069726	-0.09148767069	
544.375	0.002846890519	0.09325432005	
545.0	-0.04524618451	0.01832127581	
545.625	0.102311342	0.09759065283	
546.25	0.03639870569	0.003032375041	
546.875	0.1416728003	0.05207061672	
547.5	0.03220281092	-0.1533789043	
548.125	-0.008415975238	-0.08916793013	
548.75	-0.09212002516	-0.1669264245	
549.375	-0.1355346772	-0.03335532235	
550.0	-0.02818654213	-0.01684028103	
550.625	-0.08309071771	0.01374283601	
551.25	-0.03288470735	0.01154503858	
551.875	-0.09724658013	0.04428832444	
552.5	-0.0229319886	0.08149380768	
553.125	-0.01989168298	0.03479360242	
553.75	0.04998483611	0.05227891157	
554.375	0.07438004167	-0.004969705892	
555.0	0.096034874	-0.0557471583	
555.625	0.08163921324	-0.1005791304	
556.25	0.06200315377	-0.1228058647	
556.875	-0.02180100479	-0.1460523644	
557.5	-0.09000531129	-0.1024552415	
558.125	-0.10657358	-0.0363699383	
558.75	-0.09509096109	-0.009395635971	
559.375	-0.1112969482	0.01242100592	
560.0	-0.08380216476	0.07489981947	
560.625	-0.05346305695	0.08207622367	
561.25	-0.002305266991	0.1128633324	
561.875	0.03917262381	0.01334312738	
562.5	-0.01385982518	0.07501873278	
563.125	0.0892663128	0.04416730798	
563.75	0.09538900221	0.03132362962	
564.375	0.1637992943	-0.09665000716	
565.0	0.02908308641	-0.1395627357	
565.625	0.02673095454	-0.1109424251	
566.25	-0.1487608618	-0.1315092088	
566.875	-0.08296029598	0.01129806934	
567.5	-0.09520020976	-0.1620306134	
568.125	-0.1821560971	-0.1227552306	
568.75	-0.1065557926	-0.06278185469	
569.375	-0.316476638	0.04863936401	
570.0	-0.05974988198	0.2218779801	
570.625	-0.0634052897	0.07742349948	
571.25	-0.03107118089	0.1740098306	
571.875	0.05634754879	-0.03164045932	
572.5	0.1339406879	0.09062425527	
573.125	0.07247959794	-0.1771927067	
573.75	-0.009832969016	-0.01320326036	
574.375	0.1053556651	-0.1096016692	
575.0	-0.06586150916	-0.03762889706	
575.625	0.1147762041	-0.03473392961	
576.25	0.01998621658	-0.174379729	
576.875	-0.03025986102	-0.04404369728	
577.5	0.1008435049	-0.142822129	
578.125	-0.1189352774	-0.2271594787	
578.75	-0.06595905952	-0.02427629771	
579.375	0.02991142958	-0.1735580318	
580.0	-0.1550967403	-0.004141398878	
580.625	0.03691753981	-0.06862393383	
581.25	-0.1842974771	0.1322005113	
581.875	0.1058035545	0.06815725023	
582.5	-0.04991845274	0.08689601003	
583.125	0.1142498374	0.1754185205	
583.75	-0.01625958706	-0.1000755798	
584.375	0.03831449841	0.1635995821	
585.0	0.1198297061	-0.05060933713	
585.625	0.05999221259	0.05241333223	
586.25	0.2385808103	-0.04886473195	
586.875	-0.01124663084	-0.1291069959	
587.5	0.06412494711	-0.07994390278	
588.125	-0.02185585368	-0.2088751848	
588.75	-0.04958074959	-0.08015189464	
589.375	0.1762410882	-0.09876491418	
590.0	-0.1404234396	-0.2129280206	
590.625	-0.07539952761	-0.00480015265	
591.25	-0.2326730739	0.0148605976	
591.875	-0.00134758577	0.2000696134	
592.5	-0.09819874553	-0.1144215117	
593.125	0.009435529887	0.1369194943	
593.75	-0.04869736814	0.02486500229	
594.375	0.1393880826	0.1956049556	
595.0	0.2274972901	0.03795727634	
595.625	0.05411490515	0.06057612885	
596.25	0.2050660989	0.09066648622	
596.875	0.1629350521	-0.03942412314	
597.5	0.07787623163	0.1429819703	
598.125	0.1898704	0.1741976588	
598.75	0.1500233769	0.01522520199	
599.375	0.1771834938	0.03651763914	
600.0	0.2154442091	-0.161390065	
600.625	0.05096712822	-0.1793276139	
601.25	0.116667745	-0.0796044693	
601.875	-0.1001381778	-0.2151990155	
602.5	-0.05277891387	0.07600475093	
603.125	-0.1357139176	-0.06274723656	
603.75	-0.1230976186	0.1715454769	
604.375	-0.01569300861	-0.0009430104555	
605.0	-0.1733661029	0.1126174495	
605.625	-0.001357442977	0.1224267308	
606.25	-0.09165226593	-0.04923174927	
606.875	-0.1984813482	0.1426007215	
607.5	-0.09485531508	0.1370648158	
608.125	-0.1128642684	0.1847637691	
608.75	0.2053836196	0.2068247966	
609.375	0.1445211109	-0.08156021224	
610.0	0.151056712	-0.06530789232	
610.625	0.09304799873	-0.2309931623	
611.25	-0.03135338237	-0.05254201123	
611.875	-0.005902613398	-0.1858594859	
612.5	-0.233764541	-0.006357975762	
613.125	-0.04241126705	-0.02645599815	
613.75	-0.1977804587	0.1257944721	
614.375	0.148729089	0.1078522088	
615.0	-0.08011129362	0.004801638981	
615.625	0.1167801741	0.04492543171	
616.25	-0.01977140928	0.03722227331	
616.875	-0.175604976	0.1581085821	
617.5	-0.01598676993	0.2943104203	
618.125	-0.02722221825	0.2314800456	
618.75	-0.04088797948	0.2212231712	
619.375	0.1237323647	0.1600271605	
620.0	0.1311138968	0.02942083262	
620.625	0.1922740587	-0.07095886633	
621.25	-0.1502957626	-0.1736042398	
621.875	-0.100983155	-0.02704589322	
622.5	-0.2697508619	-0.001417810121	
623.125	0.01561860269	0.2761097184	
623.75	0.04020559831	0.01768078243	
624.375	0.1340356057	-0.0540399692	
625.0	-0.03950397727	0.004881450296	
625.625	0.1235843451	-0.07228897872	
626.25	-0.1119373918	-0.144338725	
626.875	-0.05192517801	-0.03578178328	
627.5	-0.1533979583	-0.1065147747	
628.125	-0.1368212436	-0.03194778836	
628.75	-0.01198904243	-0.08138437273	
629.375	-0.08560071857	-0.2107780458	
630.0	-0.2204728374	-0.09293206498	
630.625	-0.1504215415	0.03369313113	
631.25	-0.1930385101	0.1852644999	
631.875	0.02765309245	0.2196239087	
632.5	0.04514628574	0.1279548474	
633.125	0.2580811579	0.1468245553	
633.75	0.100397635	-0.1808540761	
634.375	0.1054674636	-0.04805963359	
635.0	-0.02615811363	-0.2216592299	
635.625	-0.09994337687	-0.005682018353	
636.25	-0.169072713	-0.05900400945	
636.875	-0.06262619052	0.2014680443	
637.5	0.01326184724	0.009007275646	
638.125	-0.1607450566	0.09567348875	
638.75	0.02816485633	0.1737833923	
639.375	-0.08387385228	0.1469553844	
640.0	0.1298434816	0.3244952699	
640.625	0.2658141605	0.09043883615	
641.25	0.156861433	0.06978281368	
641.875	0.287205825	-0.1499111678	
642.5	-0.1062538424	-0.179284323	
643.125	0.0269330465	-0.07355169529	
643.75	-0.2212992245	-0.1923909597	
644.375	-0.04817170909	0.08707823496	
645.0	-0.2617511086	0.03057981257	
645.625	0.1900306149	0.3542523195	
646.25	0.06642566174	-0.05339367692	
646.875	0.1536529614	0.1981981831	
647.5	0.08766519851	-0.1445553195	
648.125	0.07015348319	0.2345102711	
648.75	0.3565429259	-0.1405638149	
649.375	0.04813329643	-0.211921764	
650.0	0.2334852553	-0.1291795471	
650.625	0.2075768074	-0.4095591956	
651.25	0.0158965269	-0.1794806996	
651.875	0.315394196	0.01453318233	
652.5	0.3493573198	-0.1804689211	
653.125	0.1001342884	-0.09037536704	
653.75	0.337129949	-0.1185449257	
654.375	-0.1331523229	-0.433838018	
655.0	-0.1564751343	0.006670137696	
655.625	-0.2848773141	9.335479312e-05	
656.25	0.1163126762	0.2982104171	
656.875	-0.07371967217	-0.1432808113	
657.5	0.07325909586	0.2338129935	
658.125	0.161885336	0.0131219805	
658.75	0.1134312102	0.2671786918	
659.375	0.4845215048	-0.2025533784	
660.0	0.0307344069	-0.223356232	
660.625	0.2279055324	-0.1918099965	
661.25	0.2238892159	-0.3742225777	
661.875	0.06165181823	-0.2433031663	
662.5	0.3232072743	-0.03427624602	
663.125	0.3042924796	-0.2674172312	
663.75	0.06107648465	-0.1856673065	
664.375	0.09870746308	-0.2972783747	
665.0	-0.3450354724	-0.250395762	
665.625	-0.1762471104	0.09721974504	
666.25	-0.2115144495	0.1930624479	
666.875	0.1934905292	0.2906135673	
667.5	0.07484286956	-0.003442729661	
668.125	0.2856594307	0.1143926583	
668.75	0.1450373203	-0.2129097447	
669.375	0.08723247766	-0.03654554413	
670.0	0.1245824852	-0.2904439766	
670.625	-0.1152265596	-0.1864445399	
671.25	0.1757605389	-0.06107528697	
671.875	0.1424932544	-0.2795984465	
672.5	0.1047697434	-0.1517328049	
673.125	0.1985014364	-0.03598531866	
673.75	0.2423811283	-0.2903375979	
674.375	-0.02022610918	-0.1166037083	
675.0	0.0476522435	-0.2299222346	
675.625	-0.2431967975	-0.195150156	
676.25	-0.1167309092	0.07555907359	
676.875	-0.1532082848	-0.1362835148	
677.5	-0.2072130534	0.1225632185	
678.125	-0.04710738568	0.03261474685	
678.75	-0.1494227716	0.2718487783	
679.375	0.3854704416	0.007053669613	
680.0	-0.02390334634	-0.01851314401	
680.625	0.2318738267	-0.03555004505	
681.25	-0.04646105156	-0.1881529943	
681.875	0.002726664533	0.2002726675	
682.5	0.4930396261	-0.08184492811	
683.125	0.07845158056	-0.05903648009	
683.75	0.1588970482	0.1987316502	
684.375	0.4006059917	0.01116514334	
685.0	0.1054116445	-0.07552808555	
685.625	0.283011705	0.2433379142	
686.25	0.3631732877	-0.1525137193	
686.875	0.179322755	-0.07852414877	
687.5	0.4090127669	-0.1743500056	
688.125	-0.1201023957	-0.5381267266	
688.75	-0.1846252498	-0.1153607933	
689.375	-0.4149796678	0.1638736907	
690.0	0.2033744348	0.4042180645	
690.625	-0.01164486306	0.05363421923	
691.25	0.3844178331	0.4775077346	
691.875	0.4450723933	0.07377188121	
692.5	0.3692443969	0.2773091289	
693.125	0.8798114664	-0.0333768218	
693.75	0.4234242912	-0.401186993	
694.375	0.3906930554	-0.1216112231	
695.0	0.4069003028	-0.4287173037	
695.625	0.3940385208	-0.1973525678	
696.25	0.5297417859	0.2245861377	
696.875	0.4835887553	0.4865776289	
697.5	0.3382848417	0.212879295	
698.125	0.3716390229	0.36087697	
698.75	0.5182126513	-0.1756543032	
699.375	-0.4005216112	-0.2639587853	
700.0	-0.2236499643	0.1232640415	
700.625	0.1381123458	0.4333432196	
701.25	0.1780545767	-0.01464411449	
701.875	0.1258205132	0.3372215571	
702.5	0.4937151845	0.2048354898	
703.125	0.2351426176	0.009251478435	
703.75	0.458346006	0.01586858382	
704.375	0.2903571589	-0.2943697095	
705.0	0.07342111603	-0.09792679153	
705.625	0.3256772077	-0.02465545931	
706.25	0.2400099693	0.08690271043	
706.875	0.1011634208	0.2452184797	
707.5	0.210138493	0.4154636367	
708.125	0.4336830445	0.2279445364	
708.75	0.2276811935	-0.1863017706	
709.375	-0.05945759006	-0.3113381917	
710.0	-0.1974395057	0.2569920703	
710.625	-0.01910403938	0.02353565489	
711.25	0.1403550085	0.2496035647	
711.875	0.1165841538	-0.01172995884	
712.5	0.2721421317	0.1268948009	
713.125	0.3294934937	-0.2284483799	
713.75	0.02779245111	-0.1971890514	
714.375	0.09570724595	-0.193768737	
715.0	-0.08321070086	-0.2705819545	
715.625	-0.01115333785	-0.0770471018	
716.25	0.2429200086	-0.1856860943	
716.875	0.2936111325	-0.2508436726	
717.5	0.290665885	-0.04053282264	
718.125	0.6359299457	0.2293664167	
718.75	0.8617865066	-0.08610287517	
719.375	0.376151341	-0.1009481569	
720.0	0.9187342094	-0.1963844494	
720.625	-0.04191199637	-0.9399355391	
721.25	0.1912640865	-0.4089647016	
721.875	0.03799770879	-1.219646934	
722.5	-0.787250441	-0.4615159534	
723.125	-0.3990108083	-0.3128131418	
723.75	-0.67903639	0.4817481516	
724.375	0.1572600224	0.3380769243	
725.0	-0.05851445481	0.2953593569	
725.625	0.2287556708	0.5829540248	
726.25	0.1880540422	0.3745949823	
726.875	-0.354815822	0.6896941007	
727.5	-0.1823556899	1.490740287	
728.125	0.368752313	1.317468258	
728.75	-1.021966125	1.706522646	
729.375	-1.248822139	4.006920201	
730.0	0.8363863198	2.295668419	
730.625	-1.216899845	1.925220721	
731.25	-1.056383999	4.783381163	
731.875	-0.7472829865	1.312763941	
732.5	-2.961346687	-1.11495955	
733.125	-2.940074579	0.6109514493	
733.75	-0.2457103099	0.9435004565	
734.375	0.1409754917	0.9345249929	
735.0	-0.1143668637	-0.7938032667	
735.625	0.01429672092	-0.08448960185	
736.25	-0.3608857944	0.5639511835	
736.875	0.6525240783	0.4326772449	
737.5	0.3478319279	0.1693012872	
738.125	1.95247112	0.1909460722	
738.75	1.383538737	-1.830516795	
739.375	0.5998509888	-0.622876289	
740.0	3.665388681	1.146182072	
740.625	3.763576889	-2.569674236	
741.25	-2.601376759	-0.903550265	
741.875	-5.807075601	0.2879739197	
742.5	-1.671626488	0.1667015302	
743.125	1.471967207	-0.8296167775	
743.75	-0.06454258326	-1.595964259	
744.375	-0.3313128533	0.1485812216	
745.0	-0.2055549547	-0.02091567952	
745.625	0.09893223214	-0.1645136055	
746.25	0.1341647116	-0.03514325755	
746.875	-0.2896572022	-0.0143878305	
747.5	-0.001329791891	0.2832645042	
748.125	0.02308571878	0.3373756628	
748.75	0.2199106352	0.5335838911	
749.375	0.1917143973	0.3802263115	
750.0	-0.3441002665	0.1031739411	
