!Created with skrf (http://scikit-rf.org).
# GHz S RI R (50+0j) 
!freq	ReS11	ImS11	
500.0	0.5883259126	-1.328892108	
500.625	-0.0875154115	-0.7353064815	
501.25	0.09847325558	-0.9739775486	
501.875	-0.5153397926	-0.4788611712	
502.5	-0.01218143769	-0.07849222424	
503.125	-0.1164606933	-0.03395622522	
503.75	0.06418951306	0.07293158083	
504.375	0.02405234031	0.03124211322	
505.0	0.02620454836	-0.058895276	
505.625	0.01973994457	0.01068769534	
506.25	-0.0651596616	-0.1620491565	
506.875	0.1288302675	0.1042314204	
507.5	0.1914140359	-0.6266899791	
508.125	-0.2226745642	-0.7702991067	
508.75	0.5351434888	-0.4111393279	
509.375	0.4811383471	-1.607954892	
510.0	-0.607453387	-0.1418449169	
510.625	-0.03633332791	-0.1357401976	
511.25	-0.118910014	-0.08670114905	
511.875	-0.1411005025	0.03078740918	
512.5	-0.05564802783	0.02090473914	
513.125	-0.01959170443	-0.105874171	
513.75	-0.03416229632	0.007958322622	
514.375	-0.05003428718	-0.1212867622	
515.0	-0.1928051941	0.147617389	
515.625	0.384363905	-0.5881849665	
516.25	-0.6164775567	-0.1955394696	
516.875	0.07320967894	-0.1450385497	
517.5	0.05349702859	-0.3100131581	
518.125	-0.04587830854	0.05376389676	
518.75	-0.08420456378	-0.2451945846	
519.375	-0.05571944244	0.06899189243	
520.0	0.07722052265	0.04062031918	
520.625	0.1700268584	0.03017781122	
521.25	-0.01403212293	-0.2524800168	
521.875	-0.09321959461	0.05580229936	
522.5	-0.07359239737	-0.05787421477	
523.125	-0.03557079039	0.1490521609	
523.75	-0.002170588362	-0.08985815106	
524.375	-0.3263608423	0.07332513746	
525.0	0.09840965262	0.09667082954	
525.625	-0.06199411656	0.03136164429	
526.25	0.07767940937	-0.04779391593	
526.875	-0.1414970755	0.02566465207	
527.5	0.04064621941	0.2637303113	
528.125	0.04541344115	0.105803068	
528.75	0.06276894766	0.3077507415	
529.375	0.1084906621	0.02326362394	
530.0	0.02697434948	0.1793901817	
530.625	0.1146117054	0.3493548404	
531.25	0.2816550942	-0.006252696411	
531.875	0.3042576603	-0.05690305527	
532.5	-0.03731491052	-0.2338927627	
533.125	0.1661749479	0.09744728293	
533.75	0.2046958445	-0.3864584678	
534.375	-0.06953541653	-0.1662402431	
535.0	-0.2296451888	-0.2114959138	
535.625	-0.1614847776	0.1872638121	
536.25	-0.003069816592	0.0523644466	
536.875	0.115397972	0.05993326526	
537.5	0.05428902384	-0.07858637662	
538.125	0.1000401751	0.01306759541	
538.75	0.165962258	-0.1602040163	
539.375	-0.0860018496	-0.1054995906	
540.0	-0.1055801085	-0.1819199423	
540.625	-0.2166028173	-0.0469398204	
541.25	-0.0423475318	0.04987660032	
541.875	-0.06241223863	-0.09426722903	
542.5	-0.1119221031	-0.03840085334	
543.125	-0.01514080366	-0.06642837417	
543.75	-0.1754446168	-0.04513452325	
544.375	0.01032667893	0.03843767375	
545.0	-0.05015408624	0.0917065664	
545.625	0.09758547142	0.02355315502	
546.25	0.007931688436	0.05004402786	
546.875	0.186448299	-0.0350279345	
547.5	0.01008865102	-0.11059491	
548.125	0.02856622102	-0.1569349996	
548.75	-0.1753864477	-0.1644077706	
549.375	-0.1046990373	-0.01334147081	
550.0	-0.07955971785	-0.05118997705	
550.625	-0.05505234757	0.05312023221	
551.25	-0.0621312341	-0.009039157547	
551.875	-0.09908514513	0.09475147678	
552.5	-0.01696181056	0.07338847011	
553.125	-0.03559944925	0.07180473295	
553.75	0.06284361739	0.0441982905	
554.375	0.09053909859	0.00713172196	
555.0	0.1120788679	-0.07384518429	
555.625	0.08585797536	-0.1130630972	
556.25	0.07276449729	-0.1404540532	
556.875	-0.02818242394	-0.1698340511	
557.5	-0.1034866507	-0.112550787	
558.125	-0.1173924998	-0.03820559119	
558.75	-0.1129214484	-0.01425570821	
559.375	-0.123962894	0.02379360427	
560.0	-0.09125977467	0.0713200284	
560.625	-0.07814975529	0.1091277191	
561.25	0.02578888805	0.1290874957	
561.875	0.01148729678	0.01964734691	
562.5	0.02656992474	0.08948186848	
563.125	0.05234322069	0.04138827946	
563.75	0.1504244547	0.05535453384	
564.375	0.1407176297	-0.1406354048	
565.0	0.04576577121	-0.1087317259	
565.625	0.001773955548	-0.2074246908	
566.25	-0.1954334923	-0.08259309249	
566.875	-0.08001922224	-0.08504867433	
567.5	-0.1798851748	-0.1656045191	
568.125	-0.1869209638	-0.06476736645	
568.75	-0.1721139799	-0.167895786	
569.375	-0.3165072199	0.1645249511	
570.0	-0.0487143924	0.1736959989	
570.625	-0.1608154626	0.1413762345	
571.25	0.07633249261	0.1997657163	
571.875	-0.02787192777	0.04096058505	
572.5	0.2177698382	0.02568466269	
573.125	-0.01885194164	-0.1450237376	
573.75	0.102989786	-0.01870695559	
574.375	0.02672385709	-0.1788860117	
575.0	-0.01414111982	0.04361704403	
575.625	0.1159890456	-0.1360557454	
576.25	-0.04456016405	-0.1281842366	
576.875	0.06083053939	-0.07738665133	
577.5	0.01448155704	-0.2542192437	
578.125	-0.1223699901	-0.1235220763	
578.75	0.03746517131	-0.0631612886	
579.375	-0.1158284322	-0.1768890756	
580.0	-0.07607719192	0.08875568169	
580.625	-0.08032547395	-0.2129823227	
581.25	-0.07663635053	0.2219629563	
581.875	-0.02570739593	0.009476203425	
582.5	-0.04629169585	0.2322528288	
583.125	0.2099864638	0.05342413913	
583.75	-0.06864556838	-0.007527394483	
584.375	0.1733570033	0.08442166743	
585.0	0.03539898617	-0.02345034828	
585.625	0.1997016578	0.1219876473	
586.25	0.1985571018	-0.1632694068	
586.875	0.02358298767	-0.05211197797	
587.5	0.07100073821	-0.194030502	
588.125	-0.1043282451	-0.1618784311	
588.75	0.0660149489	-0.04673231788	
589.375	0.1488592361	-0.2383654588	
590.0	-0.1385985234	-0.1243807598	
590.625	-0.1002232772	-0.1112859545	
591.25	-0.2339957321	0.1501209626	
591.875	0.1316182136	0.08838011756	
592.5	-0.1165792009	0.0167641912	
593.125	0.06822595811	0.06850214158	
593.75	-0.05336796169	0.1036973274	
594.375	0.3303270774	0.0849147714	
595.0	0.1398571754	-0.01753622187	
595.625	0.09936023221	0.1590262351	
596.25	0.2607723733	0.0434470156	
596.875	0.07175590629	0.006579675848	
597.5	0.1272662096	0.1891951096	
598.125	0.2224713596	0.07518434617	
598.75	0.1061630661	0.07508756809	
599.375	0.2570777067	-0.007693091539	
600.0	0.1541982583	-0.2249798132	
600.625	0.09392372676	-0.1191962085	
601.25	0.159159586	-0.2132586817	
601.875	-0.1749965706	-0.1609756648	
602.5	-0.02502046797	-0.01880476651	
603.125	-0.2240616628	0.03232800818	
603.75	-0.004787046241	0.1367852344	
604.375	-0.1303505363	-0.04735035427	
605.0	-0.1410203789	0.1626070893	
605.625	0.04801030815	0.01162042275	
606.25	-0.231864599	0.1225524756	
606.875	-0.1149543075	0.170994864	
607.5	-0.2876346686	0.1562627355	
608.125	-0.10478469	0.3283891872	
608.75	0.259291923	0.1165242037	
609.375	0.1948079855	0.009600517636	
610.0	0.2772129278	-0.1223850388	
610.625	0.006911501802	-0.2087550674	
611.25	0.00868014939	-0.09311570851	
611.875	-0.122672423	-0.2261166826	
612.5	-0.1824349842	0.07542751756	
613.125	-0.1853932049	-0.08281254129	
613.75	-0.1452171225	0.2599491852	
614.375	0.1046293828	-0.007338859355	
615.0	0.004972069014	0.1985657376	
615.625	0.1228766249	0.03094315857	
616.25	-0.1188933275	0.05074591787	
616.875	-0.1107952847	0.3067032226	
617.5	-0.09454668911	0.1352283881	
618.125	-0.1320623249	0.1783133872	
618.75	0.04395580019	0.3122945311	
619.375	0.124451084	0.112095766	
620.0	0.1107357398	-0.0741499168	
620.625	0.1386599141	-0.2293751258	
621.25	-0.1338797094	-0.1334538632	
621.875	-0.1802245149	-0.1802728811	
622.5	-0.3573227481	0.04220587819	
623.125	0.03556702112	0.1445951004	
623.75	0.0855631028	0.1435284462	
624.375	0.06083927507	-0.1542910527	
625.0	0.02048189371	0.06258233008	
625.625	0.08573748426	-0.1742257277	
626.25	-0.1034522779	-0.06205469317	
626.875	-0.07647774469	-0.1405733958	
627.5	-0.2284111916	-0.04643264156	
628.125	-0.1087197721	-0.03710397298	
628.75	-0.01872038736	-0.1897083162	
629.375	-0.1229883628	-0.1713496402	
630.0	-0.110154506	-0.07827360915	
630.625	-0.2089503292	-0.01374127293	
631.25	-0.1300793046	0.2678556361	
631.875	0.0696572934	0.2257418119	
632.5	0.0692352315	0.2643942799	
633.125	0.3923946002	0.03263724118	
633.75	0.09973213294	-0.0635677205	
634.375	0.1547922823	-0.1498007971	
635.0	-0.1205097835	-0.1639618058	
635.625	-0.01948238506	-0.08921268742	
636.25	-0.2598832077	0.08609057897	
636.875	0.02080084261	0.1593885039	
637.5	-0.08957595501	0.008650005098	
638.125	-0.05303416023	0.2047916928	
638.75	-0.00785324735	0.05069502839	
639.375	-0.1060764949	0.3166662798	
640.0	0.250159362	0.267241678	
640.625	0.1555161316	0.07345406905	
641.25	0.2508752349	0.1222023231	
641.875	0.1912607203	-0.2833926204	
642.5	-0.1242619897	-0.1189539087	
643.125	-0.01900842711	-0.23498979	
643.75	-0.3631976681	0.02269725959	
644.375	-0.04846562622	-0.07742148816	
645.0	-0.3604882716	0.2319447243	
645.625	0.1660158679	0.1592085502	
646.25	-0.1138801661	0.1238481481	
646.875	0.2978313283	0.03863031272	
647.5	-0.09651323407	-0.01836422089	
648.125	0.2746230244	0.1664765095	
648.75	0.2150632496	-0.2431672252	
649.375	0.1598374962	-0.09473470135	
650.0	0.3419602435	-0.383796781	
650.625	-0.03380168991	-0.4208529739	
651.25	0.1888347588	-0.03475168574	
651.875	0.4289510899	-0.2223460393	
652.5	0.1860339274	-0.237981447	
653.125	0.2023619239	0.06020431928	
653.75	0.3642130465	-0.3259049295	
654.375	-0.1880266543	-0.261250585	
655.0	-0.1432107806	-0.1811311176	
655.625	-0.362836938	0.2655426516	
656.25	0.2407051341	0.112125027	
656.875	-0.0934848665	0.1022929824	
657.5	0.2090120018	0.1424895736	
658.125	-0.06173384853	0.04823988918	
658.75	0.4036586575	0.2385580329	
659.375	0.2210225504	-0.3700787319	
660.0	0.1713630626	-0.1366374544	
660.625	0.292909982	-0.3713286083	
661.25	0.06553806921	-0.4296528465	
661.875	0.1748087243	-0.04564343572	
662.5	0.4290939898	-0.2312504749	
663.125	0.1638285024	-0.2984206177	
663.75	0.1804126751	-0.1599226764	
664.375	-0.009656275733	-0.4965436423	
665.0	-0.3115527451	-0.1013386573	
665.625	-0.2756891287	-0.02568151714	
666.25	-0.2103937379	0.3661131896	
666.875	0.2162344806	0.1470127693	
667.5	0.09827116448	0.1808934716	
668.125	0.3586303855	-0.04859653452	
668.75	0.02769489495	-0.1496980826	
669.375	0.2035146315	-0.1497761854	
670.0	-0.04447079921	-0.3664276553	
670.625	-0.008983397076	0.003631090275	
671.25	0.1853273833	-0.2544068357	
671.875	0.05052421613	-0.2476760279	
672.5	0.1230415615	-0.03399163735	
673.125	0.387052222	-0.2343220063	
673.75	0.0210737094	-0.266859861	
674.375	0.1063672023	-0.1534315957	
675.0	-0.03580290601	-0.3556905776	
675.625	-0.3015675142	-0.04166312178	
676.25	-0.0556083628	-0.1225121776	
676.875	-0.293621391	-0.02706288288	
677.5	-0.07228191443	0.1136224167	
678.125	-0.1954415312	-0.002251848702	
678.75	0.05578801988	0.3981181839	
679.375	0.1590093628	-0.1080828657	
680.0	0.1571978867	0.09498752445	
680.625	0.1842876027	-0.2731313919	
681.25	-0.1088742887	0.003177142772	
681.875	0.5208061831	0.2283568839	
682.5	0.2596765051	-0.1352521301	
683.125	0.06554687438	0.1275764699	
683.75	0.4676161224	0.1882239512	
684.375	0.3264512725	-0.2001855521	
685.0	0.2899284642	0.3401183716	
685.625	0.5079632079	0.002753768016	
686.25	0.2244950907	-0.1206138127	
686.875	0.2706257695	0.06392805774	
687.5	0.2775356546	-0.4457273638	
688.125	-0.1300311464	-0.2607740516	
688.75	-0.3300348186	-0.3526135432	
689.375	-0.4331795556	0.4385254525	
690.0	0.2402015068	0.2452395071	
690.625	0.03214170146	0.4206421294	
691.25	0.5450227385	0.2516239057	
691.875	0.2693453745	0.1805202539	
692.5	0.7160154154	0.5435914555	
693.125	0.8438599232	-0.2095350218	
693.75	0.3448829401	-0.1079900361	
694.375	0.704046811	-0.5122518132	
695.0	0.4811871808	-0.4863382416	
695.625	0.5251002577	0.1794614002	
696.25	0.7029847296	0.3813957782	
696.875	0.5980742761	0.2000864398	
697.5	0.3949718136	0.5126970106	
698.125	0.5890258149	0.337940484	
698.75	0.4258906626	-0.5939512196	
699.375	-0.2775214501	-0.29982708	
700.0	-0.5227628878	0.3646184676	
700.625	0.32382089	0.4089551618	
701.25	0.06164766388	0.169930818	
701.875	0.3784833306	0.4108012311	
702.5	0.3697317315	0.04262030242	
703.125	0.3080494025	0.2853074631	
703.75	0.5539452179	-0.09598349342	
704.375	0.164419546	-0.3099795979	
705.0	0.35783077	-0.005019784551	
705.625	0.4424393028	-0.06537031305	
706.25	0.2052972021	0.245218934	
706.875	0.1771924412	0.440673311	
707.5	0.4292432918	0.3909302327	
708.125	0.2658222728	0.03103254825	
708.75	0.06981440014	-0.2218457218	
709.375	-0.3262192889	-0.3273989674	
710.0	-0.04444562549	0.1861514974	
710.625	-0.1065478372	0.1501154842	
711.25	0.4057670858	0.1913407288	
711.875	0.07602143923	0.1514336909	
712.5	0.4442020773	0.06707147023	
713.125	0.2132824109	-0.2771741964	
713.75	0.15436846	-0.09713566791	
714.375	0.0877118874	-0.3588233334	
715.0	-0.1337546482	-0.1563802921	
715.625	0.119441131	-0.1400668858	
716.25	0.2176976896	-0.3934617675	
716.875	0.2053504717	-0.2124459206	
717.5	0.556517109	0.1799723192	
718.125	0.9622667202	-0.04974248711	
718.75	0.3895411209	-0.2343766062	
719.375	0.5871584681	-0.1382502768	
720.0	0.5507674934	-1.278935353	
720.625	0.1614904901	-0.5906077269	
721.25	0.3234607203	-1.175812278	
721.875	-0.6603573218	-1.774952307	
722.5	-0.4358433043	-0.4206862595	
723.125	-0.9106009494	-0.6366704317	
723.75	-0.3666673456	0.590668245	
724.375	0.03030604066	0.1710490699	
725.0	0.03067119179	0.6068546944	
725.625	0.3967541072	0.3357435847	
726.25	-0.1720614702	0.4536532372	
726.875	-0.2689760643	1.193868345	
727.5	0.3018062454	1.491984446	
728.125	-0.3421988896	1.19425391	
728.75	-0.6484160605	3.674658985	
729.375	0.5716212505	3.750452547	
730.0	-0.2976200071	2.076289201	
730.625	-0.5863249809	5.463514712	
731.25	0.905798849	3.203213301	
731.875	-2.4806542	0.6907346178	
732.5	-4.668331593	0.7974824829	
733.125	-2.153472317	2.321317007	
733.75	-1.061494375	0.5660600301	
734.375	1.224300004	0.7144594828	
735.0	-0.4858221194	-0.2997182865	
735.625	-0.3349134262	-0.2437495211	
736.25	-0.06943116699	0.8698267869	
736.875	0.3759125794	0.03610757215	
737.5	0.9744612645	1.073260881	
738.125	1.950058435	-0.8232452868	
738.75	0.7441517353	-1.235780415	
739.375	2.203939852	0.900687805	
740.0	4.980399497	-3.436096401	
740.625	-1.520154436	-2.16404359	
741.25	-3.02363366	5.183546457	
741.875	-1.965947294	3.355386992	
742.5	1.131658801	-0.862708311	
743.125	1.176454892	-3.490686421	
743.75	-0.5125709839	-1.075555398	
744.375	0.02190585274	0.02509308211	
745.0	-0.05557845321	0.33002458	
745.625	-0.1503920294	-0.05390289665	
746.25	0.08634567157	-0.2082406477	
746.875	-0.2455244253	0.07749339385	
747.5	-0.08153970012	0.2384585405	
748.125	-0.08927805057	0.6360248375	
748.75	0.4166282483	0.4681164569	
749.375	0.05192329295	0.3019207877	
750.0	-0.5197557446	0.2876550176	
