!Created with skrf (http://scikit-rf.org).
# GHz S RI R (50+0j) 
!freq	ReS11	ImS11	
500.0	0.5653190038	-0.808488425	
500.625	-0.0889490685	-1.251158752	
501.25	-0.06386491684	-0.4061389855	
501.875	-0.3480801104	-0.5428623543	
502.5	-0.07006031831	-0.07936538483	
503.125	-0.06212156163	-0.03967083988	
503.75	0.04408464656	0.1144437622	
504.375	-0.006351213288	0.01188771792	
505.0	0.04528836131	-0.02945852888	
505.625	-0.0251325502	0.0143472225	
506.25	0.01682694973	-0.1153901861	
506.875	-0.07817538266	0.1977760972	
507.5	0.2459043634	-0.3105155239	
508.125	0.1713690933	-0.8334806838	
508.75	0.02746499295	-0.7420554043	
509.375	0.4179750856	-0.9777873532	
510.0	-0.5526428	-0.289647422	
510.625	-0.06349359811	0.004545711539	
511.25	-0.06774545321	-0.04416818751	
511.875	-0.1527532282	0.01335953909	
512.5	0.02495427559	-0.008641950266	
513.125	0.03089785654	-0.08413475248	
513.75	-0.07168450205	-0.006277546797	
514.375	0.02272706128	-0.05446008392	
515.0	-0.4014876765	0.02918576814	
515.625	0.5940580086	-0.2039502143	
516.25	-0.3931882066	-1.130212505	
516.875	-0.1851357181	-0.05788834681	
517.5	0.06786939397	-0.1913367285	
518.125	-0.09074565126	-0.002655452594	
518.75	0.04417372783	-0.1170477979	
519.375	-0.07514249401	0.04547990639	
520.0	0.0594047006	0.04527070858	
520.625	0.09590801877	-0.004142523939	
521.25	0.06517822042	-0.3021049165	
521.875	-0.1573825492	0.04538450617	
522.5	0.00208509393	0.01623461063	
523.125	-0.1210764845	0.0850417039	
523.75	0.02094823069	0.0306111026	
524.375	-0.2109360341	-0.1027769136	
525.0	0.08381007616	0.2307763852	
525.625	-0.01210004562	-0.04462842599	
526.25	0.04745974857	0.03957735766	
526.875	-0.06789924406	-0.02039105882	
527.5	0.04756248062	0.2102071783	
528.125	0.1389975421	0.1102911179	
528.75	-0.07332790946	0.1030246113	
529.375	0.08762964873	0.1026670381	
530.0	-0.001067379209	0.04629866655	
530.625	0.07626656336	0.3704561291	
531.25	0.4246547255	0.1282298689	
531.875	0.1184201532	-0.05583761043	
532.5	0.05707069352	-0.1652032747	
533.125	-0.02474756027	0.04232756066	
533.75	0.2164062729	-0.2067846325	
534.375	-0.1489693701	-0.1695683618	
535.0	-0.1008535343	-0.08209702699	
535.625	-0.1998539271	0.1062781479	
536.25	0.03758278299	0.07313247501	
536.875	0.05881097311	0.04552454967	
537.5	0.07476631034	-0.06952240021	
538.125	0.03903096338	-0.04012020613	
538.75	0.1557397475	-0.1067663575	
539.375	-0.1246430221	-0.1330541124	
540.0	-0.1698764459	-0.1030836375	
540.625	-0.1731592391	-0.06401294317	
541.25	-0.111761949	0.005932219246	
541.875	0.004870525215	-0.002059545451	
542.5	-0.09478044386	-0.04775537547	
543.125	-0.04317000592	-0.004070626475	
543.75	-0.05569940395	-0.1015840399	
544.375	-0.008964086116	0.07479895043	
545.0	-0.05586206086	-0.02162141992	
545.625	0.08951881875	0.09286572317	
546.25	0.04056045394	-0.001956880108	
546.875	0.1374609636	0.02915564583	
547.5	0.03253720238	-0.1799796622	
548.125	-0.02006255426	-0.0894284323	
548.75	-0.08883394515	-0.1627112355	
549.375	-0.1395177586	-0.03143098676	
550.0	-0.01985220907	-0.009748079204	
550.625	-0.08506363515	0.02557842365	
551.25	-0.03090986164	0.01284317475	
551.875	-0.09681634182	0.05479403227	
552.5	-0.03343818037	0.09620655785	
553.125	-0.0212259138	0.04388883999	
553.75	0.04992788984	0.05320559943	
554.375	0.07675207508	-0.002423305934	
555.0	0.09588399439	-0.05127306707	
555.625	0.0785232302	-0.1023770668	
556.25	0.05670549502	-0.1235850568	
556.875	-0.02761936657	-0.1424306095	
557.5	-0.09302997998	-0.09700196873	
558.125	-0.1077408054	-0.02979918537	
558.75	-0.09625240781	-0.004456934471	
559.375	-0.1084023485	0.01696202376	
560.0	-0.07912092327	0.08567332052	
560.625	-0.04655453599	0.08349016657	
561.25	0.00109813554	0.1108742816	
561.875	0.04046566399	0.01781988369	
562.5	-0.01420215954	0.07865642527	
563.125	0.08763361946	0.03838111752	
563.75	0.09752376178	0.02728278531	
564.375	0.151928592	-0.1050924543	
565.0	0.01407588566	-0.1623135674	
565.625	0.009050958539	-0.1145102636	
566.25	-0.1480914531	-0.1229182769	
566.875	-0.101387609	-0.01455327782	
567.5	-0.09056443353	-0.1641121271	
568.125	-0.1941989971	-0.1233638455	
568.75	-0.1164179475	-0.04105349916	
569.375	-0.3221024047	0.05472083391	
570.0	-0.0385384323	0.2358551553	
570.625	-0.0501620824	0.07348459324	
571.25	-0.02102732298	0.1718879573	
571.875	0.06287357918	-0.03611060399	
572.5	0.1362816884	0.0939926985	
573.125	0.07125138347	-0.182477029	
573.75	-0.02380480275	-0.01997777604	
574.375	0.1064679332	-0.1014510846	
575.0	-0.07358151726	-0.03172540128	
575.625	0.1094308282	-0.03565791758	
576.25	0.01552557224	-0.1726804552	
576.875	-0.03169446475	-0.05921273762	
577.5	0.1031365551	-0.1263514903	
578.125	-0.1031124627	-0.2213767618	
578.75	-0.07929305284	-0.02606402305	
579.375	0.005658908417	-0.1345845213	
580.0	-0.1739887745	-0.002629191496	
580.625	0.04662676429	-0.06548843193	
581.25	-0.1937181236	0.1216753047	
581.875	0.1308040043	0.06126963435	
582.5	-0.05537372291	0.08349327046	
583.125	0.1568270866	0.1769467364	
583.75	0.02045034128	-0.09884699601	
584.375	0.03778607498	0.160802677	
585.0	0.1451032093	-0.02650045182	
585.625	0.05712165108	0.07655303179	
586.25	0.2397807846	-0.05091484946	
586.875	-0.02513797613	-0.1222624323	
587.5	0.0584652942	-0.08668067775	
588.125	-0.03605853341	-0.1906978764	
588.75	-0.05118363962	-0.08862135443	
589.375	0.1564966892	-0.09320292326	
590.0	-0.1213909744	-0.2013705272	
590.625	-0.05295674143	0.02819518975	
591.25	-0.1931903253	0.02050969996	
591.875	0.0001298716876	0.1962988609	
592.5	-0.005371538002	-0.06710191533	
593.125	0.07511558221	0.1588626398	
593.75	-0.003733056123	-0.0005191032737	
594.375	0.1438023355	0.1906684632	
595.0	0.2498687753	0.04898503084	
595.625	0.0451846145	0.1017541477	
596.25	0.1956386819	0.1055985053	
596.875	0.1694543794	-0.04486764652	
597.5	0.05291575656	0.08247773951	
598.125	0.2125776237	0.09778590672	
598.75	0.1510593067	-0.004335167281	
599.375	0.190673451	0.01849040167	
600.0	0.1953663795	-0.1682419988	
600.625	0.05947411854	-0.194666652	
601.25	0.09303229253	-0.09302230671	
601.875	-0.1015125055	-0.2105292643	
602.5	-0.08707304946	0.06186049126	
603.125	-0.1494130322	-0.09495805504	
603.75	-0.1371830675	0.1765698535	
604.375	0.007615408333	0.02090015605	
605.0	-0.1785051825	0.1055066887	
605.625	0.0222691075	0.1277863801	
606.25	-0.1713027193	-0.01738558703	
606.875	-0.2225905336	0.1654051108	
607.5	-0.08475852342	0.1158005818	
608.125	-0.06372217129	0.2399908925	
608.75	0.2257432018	0.1904380323	
609.375	0.1417761128	-0.09221578155	
610.0	0.1640293783	-0.07502009639	
610.625	0.09027926437	-0.2058249931	
611.25	-0.05330802201	-0.1022742651	
611.875	-0.02383607542	-0.1758444793	
612.5	-0.2494907824	-0.02490047685	
613.125	-0.06744596621	0.006129323519	
613.75	-0.2064946403	0.1418846219	
614.375	0.1522949306	0.1243885221	
615.0	-0.07183094729	-0.01414508189	
615.625	0.08343998576	0.17216464	
616.25	-0.05852777453	0.040931892	
616.875	-0.1814804275	0.1658272414	
617.5	-0.00736923099	0.3158659059	
618.125	0.03045642098	0.071634027	
618.75	0.05571924673	0.1553936375	
619.375	0.138758826	0.1302082327	
620.0	0.1392165158	0.02147833346	
620.625	0.1821453129	-0.145554294	
621.25	-0.1454823794	-0.3294671692	
621.875	-0.128165682	-0.05883958167	
622.5	-0.2654829032	0.01926739485	
623.125	0.01647713543	0.2358281365	
623.75	0.02900097369	-0.02619483302	
624.375	0.125042294	-0.04257829	
625.0	-0.04213941867	-0.007795188038	
625.625	0.118626028	-0.06726449702	
626.25	-0.1142924169	-0.1557399514	
626.875	-0.07010656195	-0.02475472385	
627.5	-0.1596518832	-0.1201095549	
628.125	-0.1366677553	-0.02860714957	
628.75	0.004407343182	-0.07678846138	
629.375	-0.05128291569	-0.1577835525	
630.0	-0.1665596175	-0.04516612876	
630.625	-0.1355419482	0.05598642918	
631.25	-0.1912785781	0.1480354015	
631.875	0.04602084826	0.2711621783	
632.5	0.0880311113	0.1370761293	
633.125	0.2452481865	0.1619491251	
633.75	0.1130301261	-0.1107294852	
634.375	0.09996414237	0.01692107957	
635.0	-0.01258833351	-0.2261888677	
635.625	-0.1065661019	0.004318822174	
636.25	-0.1644532596	-0.04741125659	
636.875	-0.06361671918	0.2098926384	
637.5	0.03849285108	0.001342065668	
638.125	-0.1502363676	0.09979267459	
638.75	0.03405357774	0.1952830918	
639.375	-0.07820441296	0.1475952404	
640.0	0.106044123	0.3187386103	
640.625	0.2538979638	0.06439182098	
641.25	0.1527508319	0.06494443782	
641.875	0.2638102817	-0.2130340838	
642.5	-0.1283850109	-0.208304167	
643.125	-0.01504916216	-0.07697162409	
643.75	-0.2327988245	-0.2132742657	
644.375	-0.07768629033	0.08479331659	
645.0	-0.2812620581	-0.06656313926	
645.625	0.1163373493	0.3463784771	
646.25	0.09679617089	-0.07563136874	
646.875	0.08809834905	0.1365579436	
647.5	0.1205613885	-0.1796538315	
648.125	0.03784029797	0.2012651207	
648.75	0.3655901905	-0.1346585725	
649.375	0.05257643474	-0.2294783431	
650.0	0.2128539834	-0.1104151255	
650.625	0.2099048054	-0.4193216372	
651.25	0.005952652887	-0.1951418567	
651.875	0.3184308254	0.01665385976	
652.5	0.3465183605	-0.2002084043	
653.125	0.09484520328	-0.1235351329	
653.75	0.3193638285	-0.1364289723	
654.375	-0.1253935675	-0.359015408	
655.0	-0.1764509218	0.1045796139	
655.625	-0.2288878539	0.001800381101	
656.25	0.09272918873	0.3006180787	
656.875	-0.032828012	-0.1418672695	
657.5	0.06266694115	0.2569375705	
658.125	0.1777670621	-0.09277513803	
658.75	0.101060002	0.2126578238	
659.375	0.4978645349	-0.233012635	
660.0	0.0512777716	-0.2906432925	
660.625	0.2584243754	-0.1962598733	
661.25	0.2168219551	-0.3688450018	
661.875	0.06485838143	-0.2612405648	
662.5	0.2684457962	-0.04030476307	
663.125	0.3051384663	-0.2816944871	
663.75	0.0379847168	-0.2066643294	
664.375	0.089437213	-0.306535451	
665.0	-0.3542774364	-0.2302042569	
665.625	-0.1874252267	0.1045985107	
666.25	-0.1897208306	0.2070449098	
666.875	0.1699540856	0.2458795123	
667.5	0.08281481617	-0.04919246119	
668.125	0.2488196663	0.1251121362	
668.75	0.1662289913	-0.2205075735	
669.375	0.05439835388	-0.04981049717	
670.0	0.1524182771	-0.3011122214	
670.625	-0.1315179398	-0.20915067	
671.25	0.1475540972	-0.02107053959	
671.875	0.1400995005	-0.3082032042	
672.5	0.08433403438	-0.1710864931	
673.125	0.2069680043	-0.03808202183	
673.75	0.234332314	-0.287352462	
674.375	-0.06179356695	-0.1782878326	
675.0	0.0427771058	-0.2420553941	
675.625	-0.2476779081	-0.1926183855	
676.25	-0.1239823582	0.08292888953	
676.875	-0.1259222842	-0.1345678578	
677.5	-0.1966804579	0.1161227185	
678.125	-0.04186602304	0.04786920883	
678.75	-0.1183048938	0.2428925695	
679.375	0.3961984011	0.02631630722	
680.0	-0.04280516365	-0.04430120132	
680.625	0.3431654559	-0.03753332174	
681.25	0.01714191283	-0.2139054539	
681.875	-0.01992140939	0.165798065	
682.5	0.4644663809	0.1245290652	
683.125	0.03208683384	-0.09732022639	
683.75	0.1599002227	0.2089691434	
684.375	0.4293125978	0.02373930154	
685.0	0.1058510824	-0.09847472302	
685.625	0.3231891734	0.2208262551	
686.25	0.2347347734	-0.132715967	
686.875	0.1474202176	-0.0842049261	
687.5	0.3992356241	-0.2139934191	
688.125	-0.1410940197	-0.5162765051	
688.75	-0.2972335295	-0.1833015747	
689.375	-0.4157382022	0.2086903253	
690.0	0.2000240736	0.3962941481	
690.625	0.09386737182	0.08904439419	
691.25	0.386521913	0.5519148622	
691.875	0.5144773509	0.06986582436	
692.5	0.3601257959	0.2138287792	
693.125	0.8728376064	0.01518349365	
693.75	0.3951681016	-0.4334428547	
694.375	0.5182606759	-0.17147265	
695.0	0.5707127421	-0.4109675585	
695.625	0.3749260077	-0.235867011	
696.25	0.2465183871	0.2570461853	
696.875	0.4219870661	0.2707116214	
697.5	0.332270256	0.2350874921	
698.125	0.4181449434	0.3571069425	
698.75	0.5408174896	-0.3629268208	
699.375	-0.4247049754	-0.4638999737	
700.0	-0.2844960677	0.1194149962	
700.625	0.08371302048	0.437066535	
701.25	0.1588767202	0.03164373035	
701.875	0.08150967723	0.3152026077	
702.5	0.4733159842	0.2472497722	
703.125	0.2594748283	-0.01918134022	
703.75	0.4219999834	0.04110634107	
704.375	0.2540850974	-0.3138836456	
705.0	0.1195243801	-0.08209459216	
705.625	0.3637217745	0.1316866634	
706.25	0.206726119	0.07563930765	
706.875	0.07006232964	0.2108384336	
707.5	0.2000450377	0.1477340087	
708.125	0.3892317533	0.06961160216	
708.75	0.2391723752	-0.2004089834	
709.375	-0.220150058	-0.4039953753	
710.0	-0.3645203073	0.2894140971	
710.625	0.02784802232	0.03997778623	
711.25	0.1228167561	0.2411879093	
711.875	0.1666226484	-0.04230752587	
712.5	0.2008642952	0.1891818582	
713.125	0.3325155359	-0.2022563872	
713.75	0.01609663952	-0.2246453147	
714.375	0.1162735982	-0.160692938	
715.0	-0.05743847919	-0.2618715636	
715.625	-0.03526682414	-0.08933221593	
716.25	0.2660170779	-0.1821931388	
716.875	0.294267543	-0.2588200827	
717.5	0.2060722291	0.02317595072	
718.125	0.5208886777	0.171088613	
718.75	0.6665586696	-0.1974902212	
719.375	0.3889907927	-0.08011954496	
720.0	0.7236561748	-0.1220938467	
720.625	0.005639435069	-1.240243687	
721.25	-0.0225006894	-0.5639456782	
721.875	0.08715818014	-1.155531059	
722.5	-0.7247708777	-0.5409751863	
723.125	-0.08399520368	-0.2573382699	
723.75	-0.6367913358	0.4101512876	
724.375	0.1614054934	0.364557925	
725.0	-0.02709949899	0.2503116985	
725.625	0.2489023397	0.6047190328	
726.25	0.2629202814	0.3980247863	
726.875	-0.32391461	0.6901522974	
727.5	-0.2065082389	1.513177058	
728.125	0.5080155668	1.355186856	
728.75	-0.7005387365	1.500042466	
729.375	-0.7044759151	3.857293929	
730.0	0.8206550122	2.139446646	
730.625	-0.9265756753	1.858349984	
731.25	-1.529255908	4.173755229	
731.875	-0.9034380925	1.741859184	
732.5	-2.648499015	-0.5052101188	
733.125	-2.997123542	0.6683125096	
733.75	0.02539311232	1.10794369	
734.375	0.1406694549	0.7655332047	
735.0	-0.09130793697	-0.7953924521	
735.625	-0.1544869433	0.1076379461	
736.25	-0.4078564026	0.6164117876	
736.875	0.72286348	0.4915547956	
737.5	0.3192283858	0.05247999745	
738.125	1.911370309	0.2626391652	
738.75	1.27868355	-1.932354733	
739.375	0.5122776536	-0.7625176463	
740.0	3.609305807	1.000728572	
740.625	4.310316698	-2.98483755	
741.25	-1.924197617	-0.6905557016	
741.875	-5.406593051	0.8283062029	
742.5	-1.60723938	-0.2502464702	
743.125	1.314539209	-1.008826333	
743.75	-0.03287488353	-1.286913955	
744.375	-0.4463788682	0.3007453741	
745.0	-0.1236723644	-0.00970348324	
745.625	0.1101719719	-0.14116895	
746.25	0.05340216002	-0.03635536291	
746.875	-0.3303961873	0.002957438059	
747.5	0.01144791127	0.3394027769	
748.125	0.0303958995	0.298549563	
748.75	0.245682599	0.5412377243	
749.375	0.2263951231	0.3367269996	
750.0	-0.3029319344	0.1307457606	
