!Created with skrf (http://scikit-rf.org).
# GHz S RI R (50+0j) 
!freq	ReS11	ImS11	
500.0	0.2023598828	-0.7169790602	
500.625	0.2823716711	-0.8131502619	
501.25	-0.3338033492	-0.6063744715	
501.875	-0.2177213784	-0.3966503502	
502.5	-0.02870638328	-0.1205608251	
503.125	-0.05930584449	0.00179585958	
503.75	0.00575712271	0.06912700476	
504.375	0.02408975452	-0.004613290108	
505.0	0.01745471082	-0.01655811797	
505.625	0.0003727533765	-0.04127904759	
506.25	-0.04984136571	-0.0453138799	
506.875	-0.09650375194	0.004100463838	
507.5	-0.05903027112	-0.2901265361	
508.125	0.124546116	-0.5418085736	
508.75	0.4791719831	-0.793525571	
509.375	0.0485272068	-1.130793116	
510.0	-0.2157585924	-0.312659091	
510.625	-0.09694871928	-0.1758704946	
511.25	-0.0919798852	-0.06861438667	
511.875	-0.07987760432	-0.03810606855	
512.5	-0.03202248389	0.03250583244	
513.125	-0.01516389848	-0.04913092479	
513.75	-0.0387752646	-0.04170205449	
514.375	-0.06562686831	-0.01859412414	
515.0	0.008236320374	-0.04771085331	
515.625	0.02789201616	-0.2950770209	
516.25	-0.08365266615	-0.5965406753	
516.875	-0.1520111949	-0.3536467392	
517.5	-0.03046262305	-0.1227285784	
518.125	-0.02558218108	-0.02552438243	
518.75	-0.0456853895	-0.1026759698	
519.375	-0.0492300138	0.02981952108	
520.0	0.09027879737	0.04773247439	
520.625	0.1316442751	-0.04685888719	
521.25	-0.01053266838	-0.2155636246	
521.875	-0.1213526898	-0.0254200302	
522.5	-0.03940131156	0.02187216111	
523.125	-0.05021956455	0.02047364165	
523.75	-0.09122294633	-0.01062243849	
524.375	-0.1327415504	0.0257645603	
525.0	-0.03805786971	0.113827996	
525.625	0.02872526108	0.03854886285	
526.25	-0.01069419785	-0.01095336098	
526.875	-0.0426183901	0.04483020845	
527.5	-0.0352943152	0.1515578265	
528.125	0.04746638445	0.2120462641	
528.75	0.02223180242	0.1717548059	
529.375	0.03264996434	0.04693518143	
530.0	0.01516389677	0.12943037	
530.625	0.08417629533	0.238218851	
531.25	0.3365653481	0.1041402632	
531.875	0.1977250694	-0.1490882241	
532.5	-0.0425654819	-0.09356445141	
533.125	0.04858568767	-0.04385044626	
533.75	0.09309906081	-0.1494818832	
534.375	-0.06365784245	-0.2353335016	
535.0	-0.1930480017	-0.09139616521	
535.625	-0.1413604732	0.08905891331	
536.25	-0.00293361902	0.08188079148	
536.875	0.08025046846	0.01472237879	
537.5	0.05804288452	-0.03730082347	
538.125	0.09724176298	-0.05456676834	
538.75	0.1082739165	-0.1046376857	
539.375	-0.06442469342	-0.1430147865	
540.0	-0.1417203556	-0.1308768556	
540.625	-0.1424880179	-0.02247013448	
541.25	-0.07532532542	0.003450451161	
541.875	-0.03902089418	-0.02047563498	
542.5	-0.03895940876	-0.04750457485	
543.125	-0.06735132386	-0.04111741358	
543.75	-0.07531409517	-0.006099983406	
544.375	-0.04055202229	0.03560744457	
545.0	-0.004338498112	0.05172932916	
545.625	0.04479942897	0.05698179981	
546.25	0.08581959502	0.0341488401	
546.875	0.1055983274	-0.02198484282	
547.5	0.06075178565	-0.1076624132	
548.125	-0.03697715348	-0.1423057386	
548.75	-0.1069402851	-0.1025611394	
549.375	-0.09611782314	-0.06221626279	
550.0	-0.06790466711	0.005366104123	
550.625	-0.04738911073	0.005314446562	
551.25	-0.06737872767	0.02414799503	
551.875	-0.06656937388	0.05978309477	
552.5	-0.03964261067	0.06554845771	
553.125	-0.01251156532	0.05418287982	
553.75	0.03996698767	0.04367656475	
554.375	0.08487747879	4.604187383e-05	
555.0	0.0896651928	-0.06273092683	
555.625	0.07980349213	-0.09612195937	
556.25	0.06032350744	-0.1269239471	
556.875	-0.03047546213	-0.1431320204	
557.5	-0.08987768504	-0.09538169823	
558.125	-0.1067500162	-0.03579058966	
558.75	-0.1017339289	-0.002909039989	
559.375	-0.1015212823	0.01858704188	
560.0	-0.09007992547	0.06904116198	
560.625	-0.04530361781	0.1003674487	
561.25	0.005453787945	0.08984679299	
561.875	0.02664263048	0.04220736563	
562.5	0.009320799325	0.04905223468	
563.125	0.06307848536	0.06781625877	
563.75	0.1279758434	0.004026634639	
564.375	0.1179710416	-0.08696355391	
565.0	0.06800751298	-0.1328622373	
565.625	-0.02798710302	-0.1429305094	
566.25	-0.1029313525	-0.09944567594	
566.875	-0.1244920954	-0.07039841784	
567.5	-0.1249468004	-0.09647720326	
568.125	-0.1288334514	-0.1374204908	
568.75	-0.2001106425	-0.06958399078	
569.375	-0.2079183151	0.08447638005	
570.0	-0.1085608917	0.1784475866	
570.625	-0.04800770726	0.1549572445	
571.25	0.003063681894	0.1038364585	
571.875	0.05133852971	0.06657136196	
572.5	0.1122201955	0.0001274773745	
573.125	0.07955837104	-0.09920405884	
573.75	0.03899117843	-0.09971592388	
574.375	0.01072174629	-0.06244548653	
575.0	0.02518229355	-0.03432020866	
575.625	0.03475576422	-0.06719737892	
576.25	0.04131720163	-0.09888385503	
576.875	-0.003128670807	-0.1274651877	
577.5	-0.003058379924	-0.1420386761	
578.125	-0.03992140929	-0.1413756826	
578.75	-0.07677329137	-0.1090088432	
579.375	-0.07802463125	-0.05845349448	
580.0	-0.04666038452	-0.02769620572	
580.625	-0.06314354891	-0.02665055864	
581.25	-0.09350741344	0.06660370534	
581.875	0.004148375328	0.1396729731	
582.5	0.04991726346	0.1254182882	
583.125	0.06942632465	0.06859486587	
583.75	0.03602887982	0.01860812223	
584.375	0.03053540129	0.05220559485	
585.0	0.09795735481	0.05468581554	
585.625	0.1390664194	0.0006018519959	
586.25	0.1355639781	-0.05445885548	
586.875	0.0686389466	-0.1202371774	
587.5	-0.009112608704	-0.1261885856	
588.125	-0.01462925507	-0.1247122094	
588.75	0.02829104326	-0.1295016769	
589.375	0.05610646849	-0.1372055417	
590.0	-0.04870961521	-0.1561975089	
590.625	-0.1634179379	-0.04277975098	
591.25	-0.1177470167	0.09758792441	
591.875	-0.0306590022	0.1054959809	
592.5	0.007368083304	0.04430100494	
593.125	-0.02612188784	0.04453886308	
593.75	0.04732038293	0.107381342	
594.375	0.1334128405	0.0882243525	
595.0	0.1511120714	0.08473161525	
595.625	0.1521260419	0.06611220364	
596.25	0.1419197632	0.0353893739	
596.875	0.1392778266	0.02993289227	
597.5	0.1304550159	0.07071018286	
598.125	0.1328309888	0.09996371558	
598.75	0.1577768878	0.07508056107	
599.375	0.1892312999	-0.029242941	
600.0	0.1482493912	-0.1290833096	
600.625	0.1199526824	-0.1600232268	
601.25	0.05447108912	-0.171064272	
601.875	-0.0702605455	-0.1261770559	
602.5	-0.1152339301	-0.01527994445	
603.125	-0.09822487584	0.0411186909	
603.75	-0.09548880033	0.06348654094	
604.375	-0.08710414954	0.0674977199	
605.0	-0.06190993028	0.06829773678	
605.625	-0.06314361583	0.05632779575	
606.25	-0.1008487476	0.05878589988	
606.875	-0.1503010108	0.07636883971	
607.5	-0.1449870259	0.1598864678	
608.125	-0.0276594762	0.2202461402	
608.75	0.1591235563	0.1553671141	
609.375	0.2121638168	-0.0285537932	
610.0	0.1509324728	-0.1077539079	
610.625	0.07681696703	-0.1428774773	
611.25	0.005786810617	-0.1436527321	
611.875	-0.07874200459	-0.1121247963	
612.5	-0.1485469386	-0.05874329994	
613.125	-0.1728298305	0.03172963253	
613.75	-0.08156553026	0.1314165119	
614.375	0.04208506785	0.09822504803	
615.0	0.03536194431	0.0396618639	
615.625	-0.001993122306	0.07799024342	
616.25	-0.03622143202	0.1294068262	
616.875	-0.07027974209	0.1682889923	
617.5	-0.05803886265	0.1984492659	
618.125	-0.01340926022	0.1952064069	
618.75	0.02031066362	0.1717621949	
619.375	0.08145516323	0.148222357	
620.0	0.1713957374	0.04746572524	
620.625	0.1054738937	-0.1386701155	
621.25	-0.07660292765	-0.1692918449	
621.875	-0.1837467144	-0.08177421079	
622.5	-0.1972296928	0.05142550276	
623.125	-0.03819372225	0.1687114146	
623.75	0.1182553387	0.04148573144	
624.375	0.03721674795	-0.04746141034	
625.0	0.03729648526	-0.02359116446	
625.625	0.04799685587	-0.08038145758	
626.25	-0.0426008117	-0.1255497777	
626.875	-0.1266684985	-0.07762991421	
627.5	-0.1323120672	-0.03682769005	
628.125	-0.1009870647	-0.06161671448	
628.75	-0.06722599715	-0.1110961874	
629.375	-0.08308086005	-0.1366760046	
630.0	-0.1709795626	-0.09353704047	
630.625	-0.2038733704	0.05525447347	
631.25	-0.1331923324	0.1756955258	
631.875	-0.02570977669	0.2236039019	
632.5	0.1270805475	0.1814802186	
633.125	0.1910445362	0.05282180183	
633.75	0.1548013091	-0.05754566986	
634.375	0.06284699566	-0.12275749	
635.0	-0.007862868546	-0.1367675597	
635.625	-0.130302613	-0.08682754979	
636.25	-0.1454464522	0.05989171842	
636.875	-0.06261704	0.1137694743	
637.5	-0.03363524609	0.08009552722	
638.125	-0.06251896417	0.07858304916	
638.75	-0.06834386792	0.149735222	
639.375	-0.004623401958	0.2262415326	
640.0	0.1211521469	0.2245238069	
640.625	0.2136022482	0.1402552717	
641.25	0.2508379698	0.004104652945	
641.875	0.1630777573	-0.1612801353	
642.5	0.00197257011	-0.1946118907	
643.125	-0.1060545845	-0.1156093001	
643.75	-0.1202173211	-0.07129185852	
644.375	-0.1613611222	-0.005845861553	
645.0	-0.1380012827	0.1373198499	
645.625	0.04627453814	0.197443848	
646.25	0.1494869169	0.07196687987	
646.875	0.09029143441	-0.01396880794	
647.5	0.04962203017	0.03125405352	
648.125	0.1430141097	0.05175938224	
648.75	0.2386774571	-0.05702717631	
649.375	0.2059240871	-0.2155925106	
650.0	0.1478776922	-0.2707351183	
650.625	0.1386007011	-0.2554272595	
651.25	0.1779552999	-0.2109209786	
651.875	0.2282431687	-0.1470213762	
652.5	0.2499686241	-0.08140902623	
653.125	0.2487270779	-0.08907508613	
653.75	0.1900705956	-0.1949283008	
654.375	-0.03052365896	-0.2782214922	
655.0	-0.2550356543	-0.1038850643	
655.625	-0.1715272433	0.1550086441	
656.25	0.02044597937	0.159902348	
656.875	0.04292137077	0.0631864596	
657.5	0.02836641307	0.09590303966	
658.125	0.1241824463	0.1491419703	
658.75	0.2631073238	0.08111682303	
659.375	0.2976620473	-0.1191536992	
660.0	0.2074603087	-0.2614226765	
660.625	0.1278469326	-0.2944824245	
661.25	0.1456094568	-0.2636281493	
661.875	0.1964164676	-0.2223206828	
662.5	0.2370942376	-0.1779049562	
663.125	0.2403995513	-0.1697644346	
663.75	0.1553407375	-0.2491981204	
664.375	-0.02160030435	-0.3006024169	
665.0	-0.2330363712	-0.2015085482	
665.625	-0.2902751207	0.06518141337	
666.25	-0.1033626333	0.2406990866	
666.875	0.09670878122	0.1933178467	
667.5	0.1636055042	0.09217028767	
668.125	0.1987819166	-0.004294004324	
668.75	0.1777262316	-0.1213899149	
669.375	0.09374948582	-0.1986650239	
670.0	0.01006648007	-0.2008959709	
670.625	0.00768276949	-0.1723591111	
671.25	0.0544203117	-0.1580602129	
671.875	0.123860099	-0.1513865131	
672.5	0.1841601103	-0.1316472043	
673.125	0.191777211	-0.1498110777	
673.75	0.1511565659	-0.1923840636	
674.375	0.05796215437	-0.2331863953	
675.0	-0.06765382765	-0.2203225827	
675.625	-0.1624993881	-0.1267220263	
676.25	-0.1620578972	-0.03225447058	
676.875	-0.1347221429	-0.0009018368814	
677.5	-0.138836851	0.01566679793	
678.125	-0.135218136	0.1186810974	
678.75	0.01358441115	0.2067010868	
679.375	0.1840938267	0.08037935586	
680.0	0.1389850553	-0.07628353668	
680.625	0.06372529927	-0.06933992908	
681.25	0.0827477009	-0.01031472284	
681.875	0.1351891949	0.0440110046	
682.5	0.1822170555	0.08222912648	
683.125	0.2183454419	0.07502085101	
683.75	0.2379373457	0.06753471505	
684.375	0.2491397063	0.04595261872	
685.0	0.254750542	0.04346673724	
685.625	0.2612566698	0.01354297611	
686.25	0.2682760348	-0.02447489916	
686.875	0.2784292337	-0.1137623583	
687.5	0.2481331449	-0.2477560581	
688.125	0.007594948633	-0.3957093476	
688.75	-0.3558687544	-0.2021317811	
689.375	-0.2819087705	0.2599763243	
690.0	0.07062836628	0.3253765558	
690.625	0.202322288	0.2332716196	
691.25	0.278931576	0.249232274	
691.875	0.4036959633	0.2808674144	
692.5	0.5401829683	0.1926511344	
693.125	0.5931302242	-0.01529852943	
693.75	0.5292527454	-0.2152388948	
694.375	0.3915229451	-0.3464230477	
695.0	0.4024208245	-0.2539753281	
695.625	0.4492221127	-0.07075946608	
696.25	0.4358995406	0.1548494554	
696.875	0.3417957056	0.35452721	
697.5	0.3195253071	0.4177756329	
698.125	0.4844073582	0.242116389	
698.75	0.4284957812	-0.3174141566	
699.375	-0.2970902815	-0.3844950599	
700.0	-0.2841201879	0.2744603739	
700.625	0.1038306372	0.2704996334	
701.25	0.1942431377	0.1678535112	
701.875	0.2326445905	0.2077091717	
702.5	0.3076604316	0.2122327619	
703.125	0.3728876878	0.1063451815	
703.75	0.3461737943	-0.08826292694	
704.375	0.2461456893	-0.1726445192	
705.0	0.2117191234	-0.1243958383	
705.625	0.2339782399	0.002079799041	
706.25	0.219663976	0.156274569	
706.875	0.1976017245	0.2624887899	
707.5	0.222572697	0.3116588528	
708.125	0.379877923	0.1423856597	
708.75	0.290173716	-0.2710295609	
709.375	-0.2034303502	-0.276973217	
710.0	-0.1859979429	0.1625424096	
710.625	0.04660143813	0.138945612	
711.25	0.07388609304	0.1090286435	
711.875	0.1792325511	0.110406478	
712.5	0.2736066433	-0.0123333363	
713.125	0.2362721266	-0.1486329173	
713.75	0.1242269073	-0.2187164663	
714.375	0.01329272736	-0.2115530211	
715.0	-0.02253274244	-0.1796224507	
715.625	0.01439993752	-0.1906589551	
716.25	0.1313677744	-0.2091495803	
716.875	0.2859905123	-0.1566773526	
717.5	0.4351342022	-0.02421801246	
718.125	0.5596978272	0.05864198333	
718.75	0.6504673037	-0.05969810693	
719.375	0.6552745087	-0.3179291733	
720.0	0.4615947964	-0.656976613	
720.625	0.2417959304	-0.7728074457	
721.25	0.01684655924	-0.8380457761	
721.875	-0.157849303	-0.8676174687	
722.5	-0.4912658238	-0.6657523051	
723.125	-0.6712425043	-0.14862102	
723.75	-0.370371108	0.3621967703	
724.375	0.01699952246	0.3985849357	
725.0	0.152422828	0.3187490818	
725.625	0.1548839801	0.3876626196	
726.25	0.04765524654	0.5706058165	
726.875	-0.06247624739	0.7982655151	
727.5	-0.1160167657	1.144295427	
728.125	-0.06026756358	1.585218174	
728.75	-0.05652654639	2.140246058	
729.375	-0.64590337	2.739526448	
730.0	-0.1183516538	3.051670418	
730.625	-0.06758578308	3.075491267	
731.25	-1.080357568	2.825507352	
731.875	-2.080166032	2.173122029	
732.5	-2.784730275	0.5697866073	
733.125	-2.031242819	0.275283918	
733.75	-0.8131217349	1.020588032	
734.375	0.6672686273	0.4748730391	
735.0	0.0547035302	-0.523515561	
735.625	-0.4188277188	0.059497935	
736.25	-0.07177292031	0.4491426134	
736.875	0.3387410305	0.4792200171	
737.5	0.8640878068	0.1790338881	
738.125	1.191934791	-0.3196774501	
738.75	1.408332961	-0.9470553694	
739.375	1.721265537	-1.178124924	
740.0	2.241097661	-1.149064776	
740.625	2.120556947	0.02146663893	
741.25	0.6926469349	1.532416912	
741.875	-1.98136509	0.141835308	
742.5	-0.8999530959	-1.989220241	
743.125	0.3398308618	-1.449983728	
743.75	0.05498107375	-0.8705212653	
744.375	-0.3346738015	-0.1329770052	
745.0	0.02220076766	0.09010377848	
745.625	0.03827842867	0.002254146163	
746.25	-0.01116253037	-0.09532991675	
746.875	-0.1851039769	0.01368442721	
747.5	-0.0952459207	0.2846964975	
748.125	0.07421771303	0.4364469751	
748.75	0.1995521013	0.3705629798	
749.375	0.1188804684	0.3620462765	
750.0	-0.3229743331	0.1544606571	
