!Created with skrf (http://scikit-rf.org).
# GHz S MA R 50.0 
!freq magS11 angS11
500.0 0.0140156273915 124.92435421
500.625 0.00998608338699 140.70863823
501.25 0.0184337406688 -170.96098633
501.875 0.0244743820711 -175.755484292
502.5 0.0182714290361 157.25161567
503.125 0.0166232998011 104.372152652
503.75 0.00307434332495 132.920968657
504.375 0.0241842735532 -60.6040218522
505.0 0.0113427920678 -58.7613982427
505.625 0.025755618126 -73.2722908327
506.25 0.0492506676816 -103.045134889
506.875 0.0760880999524 -94.2254282159
507.5 0.0411872344678 -155.606324376
508.125 0.0379699652701 -111.851493642
508.75 0.0598054781803 -133.314820898
509.375 0.0657371479856 -125.777488875
510.0 0.0276628537127 -151.525922971
510.625 0.030412157972 -164.897561205
511.25 0.0509829062217 178.142604542
511.875 0.0616016590975 152.113673314
512.5 0.0356119896768 91.4953713654
513.125 0.0504541850036 41.9285781204
513.75 0.0545419439565 33.7573097252
514.375 0.0536218102105 32.4310172769
515.0 0.0532971568698 5.23802522539
515.625 0.0999117705756 51.0987408819
516.25 0.0934287964564 30.8083314959
516.875 0.126242738805 70.7917570592
517.5 0.0997839272098 14.3086391848
518.125 0.193749263332 70.9154820124
518.75 0.0898894073655 14.9166919696
519.375 0.0636666942659 16.9915031284
520.0 0.0885822511773 -4.47765502918
520.625 0.110688453398 -2.2066223485
521.25 0.0848483189944 -22.2971413247
521.875 0.0759172070083 2.1221899332
522.5 0.0963240696001 -34.6786169493
523.125 0.176128965116 -34.2766716174
523.75 0.204741247889 -59.1565628902
524.375 0.224308218869 -45.0913720032
525.0 0.0689342474656 -43.0009142063
525.625 0.038991232241 -41.3852257861
526.25 0.0573782943647 -3.61678695611
526.875 0.0404854862751 -34.8042990218
527.5 0.0486413998526 -26.8551104481
528.125 0.0436063859232 -58.773173249
528.75 0.0638715443199 -69.9037342995
529.375 0.0783406379527 -113.584764893
530.0 0.0357782114863 -135.658717633
530.625 0.033721073456 -139.708835369
531.25 0.14441401436 -140.384561715
531.875 0.13815638785 -148.087274943
532.5 0.132272932099 -170.773523748
533.125 0.102346387116 174.842014937
533.75 0.127829376815 168.340374742
534.375 0.100312560743 179.194728856
535.0 0.0880499144029 164.293236598
535.625 0.0717857057716 179.997626105
536.25 0.0737075584078 164.508064494
536.875 0.0601755623244 -156.748962382
537.5 0.0871593225777 -140.146230288
538.125 0.100260273578 -172.689320702
538.75 0.116391519815 -177.955506637
539.375 0.0578853973587 -163.627308229
540.0 0.0916182876987 -151.794821153
540.625 0.115433279033 -154.48308469
541.25 0.143349981985 -140.875632384
541.875 0.0843454503414 -138.600954427
542.5 0.102331438865 -138.229087241
543.125 0.130457102279 -166.258712336
543.75 0.141435755017 161.400993665
544.375 0.0890272902687 135.946357362
545.0 0.0888421196799 93.9482185577
545.625 0.107617308173 85.4648119017
546.25 0.0916024722881 70.0965086119
546.875 0.0965876805372 55.8650130218
547.5 0.112060535679 60.3184830068
548.125 0.101593609626 79.0040303752
548.75 0.100167985556 91.3171409618
549.375 0.0814354940311 87.2263890866
550.0 0.0874057592411 127.036702454
550.625 0.0569137883091 157.470663921
551.25 0.0416381659434 -137.554515096
551.875 0.0655258805851 -154.193299189
552.5 0.107572421641 -159.555607327
553.125 0.0888090801835 -166.303332771
553.75 0.0961916938867 -173.480694967
554.375 0.108985599457 167.843071651
555.0 0.127626735016 164.822190731
555.625 0.0991794573843 159.142515897
556.25 0.100152790471 164.599615153
556.875 0.127820135943 164.828811944
557.5 0.0984301626931 169.71732052
558.125 0.0882188062219 167.799815121
558.75 0.0820278037365 -179.890497894
559.375 0.0601854633204 -171.706039423
560.0 0.0442829548524 -142.235361062
560.625 0.0610491351188 -139.870743942
561.25 0.0894961705831 -148.642054186
561.875 0.107142079843 -162.132254743
562.5 0.091128568836 174.857306012
563.125 0.108322295716 144.915235623
563.75 0.136091896558 131.421293817
564.375 0.0978605093651 123.724565908
565.0 0.082259870888 122.995471337
565.625 0.0871231075445 117.383584166
566.25 0.0958654922769 155.251263939
566.875 0.0795783189963 178.339844361
567.5 0.064592850041 -170.552063652
568.125 0.0733323130828 -163.975649557
568.75 0.0617040413157 -143.567363993
569.375 0.0537190522032 -117.789113205
570.0 0.0600158620517 -95.3343246952
570.625 0.0913962778994 -112.573975716
571.25 0.0916600059047 -118.443579473
571.875 0.0911371798561 -131.673316034
572.5 0.108525896016 -149.766092638
573.125 0.133857426045 -169.036389612
573.75 0.0976269206704 164.285258804
574.375 0.0877281363386 146.00310518
575.0 0.105771172785 156.239573982
575.625 0.10881979699 156.716989793
576.25 0.0878415667529 146.825684163
576.875 0.0732438518791 130.826947618
577.5 0.0832496558196 137.507048986
578.125 0.0617003466086 160.453931783
578.75 0.0488144846743 164.604925858
579.375 0.0577985246488 156.216240342
580.0 0.0662037638519 -161.611679582
580.625 0.0793660160698 -142.688633748
581.25 0.0916406284365 -161.741165104
581.875 0.116958754641 176.694438366
582.5 0.108113762624 -166.081960883
583.125 0.0906259017015 -166.120653346
583.75 0.0767874640385 -166.51543925
584.375 0.105440953822 -163.954600625
585.0 0.0953702810857 -143.118171491
585.625 0.0705466231918 -142.123770049
586.25 0.0651802436601 -131.666624134
586.875 0.0850450951125 -145.001214652
587.5 0.0679512052484 -130.988708828
588.125 0.0584060790009 -170.410286163
588.75 0.0605453060025 -158.150438495
589.375 0.0815490122853 -161.699282098
590.0 0.0957018676254 -166.200154578
590.625 0.104759048941 164.575936229
591.25 0.119520640874 150.914118048
591.875 0.095679243741 158.989547524
592.5 0.0659317569701 142.326750072
593.125 0.0627785732069 151.711671679
593.75 0.0630191088514 169.777128208
594.375 0.0591750915194 -160.300290387
595.0 0.0453260734625 -104.666446626
595.625 0.0588343370588 -101.351249721
596.25 0.0719939478863 -93.8244643052
596.875 0.0678486982456 -69.7973251962
597.5 0.0563326250961 -69.0005656114
598.125 0.0682760824497 -55.0443940224
598.75 0.082256265954 -58.7381030259
599.375 0.0801268648412 -73.426401512
600.0 0.111163739408 -54.9132337683
600.625 0.100962126382 -58.8665025232
601.25 0.081339161353 -75.7053319478
601.875 0.0679790736407 -97.2428051394
602.5 0.0590382382761 -85.4702514376
603.125 0.0444261358524 -57.1368151653
603.75 0.0327209028089 -32.1835714094
604.375 0.043308078997 -19.0289267795
605.0 0.0487356492243 -34.2489845422
605.625 0.0622731399896 15.0743843288
606.25 0.0339984661759 25.7063294763
606.875 0.0467340604013 55.0764751785
607.5 0.0441594390192 39.5112826388
608.125 0.0875643314998 38.02897912
608.75 0.0618781061488 21.6626969407
609.375 0.0666038077524 30.7312466412
610.0 0.0584010357711 32.5213686567
610.625 0.0786837835016 52.5634937812
611.25 0.0612111061753 46.0092256529
611.875 0.042100102636 63.7534284655
612.5 0.0110323980854 21.5465080724
613.125 0.0288387030621 130.478366815
613.75 0.042061747976 125.962317685
614.375 0.0456097226768 121.149093287
615.0 0.0350529913064 115.790811401
615.625 0.0196657191189 142.424357249
616.25 0.0584351795036 135.561101684
616.875 0.0516913297021 130.303862989
617.5 0.0311325467591 113.395676231
618.125 0.0273360454617 134.493435255
618.75 0.0334488496961 150.670310407
619.375 0.0197612604733 138.759316774
620.0 0.0106056979826 -18.0612039908
620.625 0.0197529949392 -138.347196105
621.25 0.0403955027838 -110.345796949
621.875 0.0624202087685 -96.529375807
622.5 0.0704723344043 -161.945019478
623.125 0.0641739225564 -177.784357396
623.75 0.0625399227498 166.794029254
624.375 0.0421550242792 -178.509979681
625.0 0.0404906356288 -153.182068477
625.625 0.0203486178811 -127.585727632
626.25 0.0468176666795 -175.149250599
626.875 0.0121563136602 171.692799277
627.5 0.0230473873283 -53.1892924074
628.125 0.055493221053 -3.62783914053
628.75 0.033658204703 -53.2101313541
629.375 0.040778138576 -12.4726707874
630.0 0.0742841255787 2.47888198213
630.625 0.084685713447 22.415210776
631.25 0.0686835292616 -5.80623231239
631.875 0.0659245339654 -18.9354887544
632.5 0.0658972536189 -16.1394211208
633.125 0.0527807139682 29.7256979115
633.75 0.0389776676044 6.70478893807
634.375 0.0457060741451 19.9685880152
635.0 0.0344639783171 28.556324906
635.625 0.0344887288671 43.3138712794
636.25 0.0698049285728 50.1370684984
636.875 0.0571769537716 13.1398712203
637.5 0.0410149040584 36.1916701356
638.125 0.0393890879244 60.3348731131
638.75 0.100165195842 79.9100180217
639.375 0.090839841309 89.4634860103
640.0 0.0711133723526 103.287159339
640.625 0.0591598760553 103.35746399
641.25 0.0640387307231 124.953109169
641.875 0.0553927353857 141.867365874
642.5 0.046614848915 151.040588156
643.125 0.0531782752509 158.638764324
643.75 0.0898150883323 179.171775475
644.375 0.055679502119 173.658497118
645.0 0.0718593258825 177.263394142
645.625 0.096155166011 165.990846018
646.25 0.100592866287 169.401563854
646.875 0.077433857681 -177.785797891
647.5 0.0669184093597 -173.184444427
648.125 0.0953391677937 -171.584855079
648.75 0.073875182964 -159.611798917
649.375 0.0572561880042 -141.824439881
650.0 0.0462488178706 -118.124332284
650.625 0.0547290287768 -87.3485948361
651.25 0.068283559463 -61.5729691546
651.875 0.0774818343425 -42.3909201802
652.5 0.0658682416874 -23.44733889
653.125 0.106597932167 -1.60207643315
653.75 0.111282878304 7.67051053538
654.375 0.105502412459 7.23354470439
655.0 0.11615920196 13.3276754117
655.625 0.0953136752434 29.6490075898
656.25 0.0602932676123 24.4252244221
656.875 0.0809690774446 9.69059239887
657.5 0.0568056986067 13.8680979577
658.125 0.0635320875661 52.0193179492
658.75 0.0535545105528 62.4921231791
659.375 0.0972341436656 36.0594982458
660.0 0.112708312305 26.3040761846
660.625 0.114048175237 19.7336083771
661.25 0.109572668956 3.68124758707
661.875 0.122855899709 -10.3259334821
662.5 0.108406410673 -20.8474469446
663.125 0.0924704464715 -15.3383454154
663.75 0.0938867032505 3.10167625165
664.375 0.115621890852 56.0446961948
665.0 0.0615847951235 95.6358713861
665.625 0.0697473991114 113.981786762
666.25 0.0893602230164 134.920973631
666.875 0.112629181322 170.037709339
667.5 0.0974651335581 -168.00685972
668.125 0.106829519267 -177.843627824
668.75 0.129838184637 169.609702619
669.375 0.143206504733 177.735902184
670.0 0.0781096622107 -172.114170987
670.625 0.0832003670611 -169.42061687
671.25 0.102476800186 177.08753667
671.875 0.117698597708 167.561189721
672.5 0.0596610055053 160.659427537
673.125 0.0750512453271 158.529315914
673.75 0.112011336798 160.952086887
674.375 0.120218071633 169.251339524
675.0 0.116486497707 -173.55399122
675.625 0.124477989394 -147.625620714
676.25 0.128418277251 -124.541117282
676.875 0.122778115783 -121.109921198
677.5 0.12421706647 -126.809955575
678.125 0.112276756596 -114.159818589
678.75 0.0593908179407 -89.1771447674
679.375 0.0616600150714 -79.6790920158
680.0 0.0645242865557 -65.9188428884
680.625 0.118255427994 -72.4777426998
681.25 0.111810335124 -74.2743276485
681.875 0.103260315689 -93.7998393349
682.5 0.145062243636 -122.513962704
683.125 0.149830207346 -118.231689218
683.75 0.130947744103 -101.378810471
684.375 0.107127220618 -76.7102466007
685.0 0.143944780185 -41.7400952645
685.625 0.110781033847 2.55374410332
686.25 0.102689975119 23.3913491405
686.875 0.0803285461617 46.4269538743
687.5 0.0894363317105 77.9084347628
688.125 0.0727764688672 122.637207499
688.75 0.103179536317 117.297550852
689.375 0.133951248054 121.530592077
690.0 0.138868593615 133.383120938
690.625 0.118125159651 127.452854372
691.25 0.142074400426 98.4415083939
691.875 0.194216901652 69.412392073
692.5 0.140254046616 41.1000645991
693.125 0.0971209136231 -17.8145047044
693.75 0.080081008546 -25.387757855
694.375 0.126171874465 -20.9065582111
695.0 0.122256187501 15.6231506234
695.625 0.104950978718 54.0173155297
696.25 0.114960895544 115.016981517
696.875 0.14008228586 174.757383745
697.5 0.141073639894 -139.495519062
698.125 0.139135289133 -132.009869879
698.75 0.13509340301 -132.109639794
699.375 0.104414169927 -121.173242459
700.0 0.0900286586335 -109.010315608
700.625 0.121925017837 -98.1315538996
701.25 0.0960260004975 -60.5410301375
701.875 0.0827361562701 -57.1105994749
702.5 0.0982559174354 -83.4988499112
703.125 0.172280076034 -120.749446664
703.75 0.195851547628 -158.342742263
704.375 0.125372025794 172.103168466
705.0 0.107847807155 165.948765256
705.625 0.133942549083 -165.373474949
706.25 0.156526167167 -119.264753072
706.875 0.0805864885157 -49.7746798303
707.5 0.0748753372684 -33.4586831539
708.125 0.0839742319393 17.4220412178
708.75 0.11226899276 58.4165155188
709.375 0.105905991952 112.760316317
710.0 0.104228445856 130.800532608
710.625 0.109753992693 155.856169695
711.25 0.119562500204 169.311522742
711.875 0.144742725627 178.74054776
712.5 0.150384447467 147.028931897
713.125 0.116558132682 101.528808217
713.75 0.105226358565 44.2103787336
714.375 0.114939646214 13.2947999227
715.0 0.114199368099 30.3332835983
715.625 0.0863249404736 59.761291808
716.25 0.0854174998495 86.2226127499
716.875 0.105782659809 90.9504476197
717.5 0.148335554744 158.036312354
718.125 0.11859051228 167.256649414
718.75 0.0996793537772 166.850975699
719.375 0.115866005425 -169.597547569
720.0 0.12729680078 -138.78993052
720.625 0.112833845261 -68.1636552956
721.25 0.0960232400222 -30.3275703458
721.875 0.0863094644979 14.3822576897
722.5 0.0846995108248 95.8091691374
723.125 0.0933527363675 78.0695126195
723.75 0.102748572473 40.3483226571
724.375 0.112771777475 -0.462903550167
725.0 0.0856441265349 -45.5846039692
725.625 0.103684102029 -59.6272914452
726.25 0.127816279877 -56.1853446955
726.875 0.0996694093625 -43.9567381538
727.5 0.0731887492957 -52.2943469632
728.125 0.105127684979 19.3971991336
728.75 0.087834537167 22.1544478495
729.375 0.0784345860774 16.0397180175
730.0 0.0714281779325 5.03375335519
730.625 0.0486664847353 5.645916533
731.25 0.0767082628419 73.0904990747
731.875 0.0780676384003 114.229258669
732.5 0.0778355799466 156.963567405
733.125 0.0590319966734 158.542494368
733.75 0.0910768309171 -174.578605271
734.375 0.054047988775 150.370619425
735.0 0.0484172274199 143.132309336
735.625 0.047405319423 150.488004435
736.25 0.0426592322665 151.863932751
736.875 0.0440609448509 171.839025343
737.5 0.0784301800173 179.993419576
738.125 0.0645704564584 -178.494425187
738.75 0.0928015085039 -172.450183916
739.375 0.0652208029988 -163.399017419
740.0 0.0646468900311 -129.940255564
740.625 0.0189303705404 -121.814795984
741.25 0.081541270785 -150.942347573
741.875 0.0310928521114 -95.658138262
742.5 0.0252401654853 -18.0231171473
743.125 0.0197042587824 90.8621396699
743.75 0.0572345378609 86.5911770456
744.375 0.0407330806589 102.116378188
745.0 0.0594709823956 131.335503202
745.625 0.0699657691614 148.849826083
746.25 0.0778076449267 76.6365953238
746.875 0.0652633420546 43.7527779457
747.5 0.0296995556284 17.804056983
748.125 0.0170763718863 0.267332765335
748.75 0.0299909945782 61.241841227
749.375 0.0504157527721 -59.9903204512
750.0 0.0346951231385 -97.0814225498
