!Created with skrf (http://scikit-rf.org).
# GHz S RI R (50+0j) 
!freq	ReS11	ImS11	
500.0	-0.2463199249	-0.5568185972	
500.625	0.6192167585	-0.6798926779	
501.25	-0.5609143865	-0.6602619575	
501.875	-0.08256565412	-0.1521682711	
502.5	-0.0163947779	-0.1830730007	
503.125	-0.03292633751	0.05283276413	
503.75	-0.04502252902	0.04564705314	
504.375	0.04729782929	-0.02348293621	
505.0	-0.0054829549	0.003204991757	
505.625	0.006934364529	-0.0930310778	
506.25	-0.09768296728	0.02904768882	
506.875	-0.07091905188	-0.175029495	
507.5	-0.4255888604	-0.2082901785	
508.125	0.3516252131	-0.259601599	
508.75	0.6940269006	-1.115139417	
509.375	-0.3544521758	-0.7925545786	
510.0	-0.03170093977	-0.2750621171	
510.625	-0.145413527	-0.2162864375	
511.25	-0.04491757814	0.01249182411	
511.875	-0.0344323335	-0.09446698	
512.5	7.265247943e-06	0.0396176678	
513.125	-0.01260443995	0.0002211309926	
513.75	-0.01451121559	-0.08280283264	
514.375	-0.0844823866	0.06804180241	
515.0	0.2541484575	-0.2712521147	
515.625	-0.5233027787	-0.1692622563	
516.25	0.3160652066	-0.3242008939	
516.875	-0.3545135221	-0.5934804181	
517.5	-0.1357921316	-0.05650485431	
518.125	0.03655999379	-0.05227731275	
518.75	-0.1501090091	-0.1146957209	
519.375	-0.01715881013	0.010709114	
520.0	0.1100921478	0.04037764771	
520.625	0.14690808	-0.09188906967	
521.25	-0.05138184309	-0.1165890396	
521.875	-0.1049833399	-0.05880768108	
522.5	-0.06713950431	0.05860173085	
523.125	-0.02080392622	-0.08138867189	
523.75	-0.1940315947	0.006732262275	
524.375	-0.005422120739	0.1009072087	
525.0	-0.159255963	0.04509806569	
525.625	0.1051176827	0.1078086358	
526.25	-0.08914046241	-0.03870275717	
526.875	0.01025908157	0.08854895027	
527.5	-0.111108141	0.09999497738	
528.125	0.03252811531	0.320972904	
528.75	0.1634302809	0.1778699534	
529.375	-0.03709363908	0.03454018929	
530.0	-0.03775580418	0.1273809836	
530.625	0.06097671704	0.1764743642	
531.25	0.212631595	0.09192496547	
531.875	0.1903701074	-0.2794995084	
532.5	-0.1872546671	0.04880652543	
533.125	0.07989451993	-0.1293265551	
533.75	0.05456427935	-0.03496680931	
534.375	-0.02003532308	-0.3315650586	
535.0	-0.2749665588	-0.03838388616	
535.625	-0.1008987543	0.04768347898	
536.25	-0.02148064213	0.1054714452	
536.875	0.08697259743	-0.02580256669	
537.5	0.05714929571	-0.002931059276	
538.125	0.1286385987	-0.1020650186	
538.75	0.06240858549	-0.08370311117	
539.375	-0.02206261969	-0.1772589827	
540.0	-0.144264515	-0.1476682578	
540.625	-0.1153608748	-0.003329089463	
541.25	-0.03559358326	-0.01559122902	
541.875	-0.07683605251	0.00553561056	
542.5	0.02758193437	-0.02832833806	
543.125	-0.1051280042	-0.07621554307	
543.75	-0.02862709126	0.06850647133	
544.375	-0.08675848146	0.0212124523	
545.0	0.06323061457	0.07894788205	
545.625	-0.01374313637	0.04850189922	
546.25	0.14067659	0.04738347978	
546.875	0.05217922319	-0.05909261854	
547.5	0.1090723632	-0.06813950507	
548.125	-0.07851498327	-0.1883787507	
548.75	-0.08446757284	-0.0392944255	
549.375	-0.08357011677	-0.1055238591	
550.0	-0.09117369879	0.04455986845	
550.625	-0.02474516462	-0.0256194128	
551.25	-0.09139210058	0.05359060659	
551.875	-0.0373220663	0.04578591786	
552.5	-0.05995213534	0.0430590902	
553.125	-0.003029370463	0.06567632716	
553.75	0.02966254912	0.0424218184	
554.375	0.0937632845	-8.108525609e-05	
555.0	0.07873994112	-0.06920055558	
555.625	0.08087802574	-0.09224606642	
556.25	0.06176255973	-0.1300313566	
556.875	-0.03745122411	-0.1433037346	
557.5	-0.08792317336	-0.09323123641	
558.125	-0.1093245177	-0.03967573146	
558.75	-0.1040523273	0.002243159174	
559.375	-0.09389063931	0.02038246198	
560.0	-0.1025123378	0.06415925033	
560.625	-0.03521781843	0.1184738657	
561.25	0.002239683811	0.06832891763	
561.875	0.03320984271	0.07064886927	
562.5	0.007896225845	0.01427546509	
563.125	0.06248835658	0.1029099938	
563.75	0.1345481609	-0.03358514885	
564.375	0.0952517394	-0.05296756527	
565.0	0.1311754216	-0.1493857479	
565.625	-0.0783365322	-0.1356464486	
566.25	-0.05935168667	-0.1020586837	
566.875	-0.1877949705	-0.1218851098	
567.5	-0.1141908411	-0.02030123347	
568.125	-0.08138759397	-0.2087107933	
568.75	-0.2846948641	-0.02536798229	
569.375	-0.1157218949	0.05564737206	
570.0	-0.1873048024	0.1694896608	
570.625	0.01711600467	0.210387785	
571.25	-0.02062728602	0.02881699558	
571.875	0.1095725804	0.14395543	
572.5	0.04383594591	-0.06386479613	
573.125	0.1629192146	-0.03749071809	
573.75	0.01504985706	-0.2002362635	
574.375	-0.0282181113	0.0377516567	
575.0	0.09742371442	-0.09504199988	
575.625	-0.04569787816	-0.04067604496	
576.25	0.1076005424	-0.05780667143	
576.875	-0.02634665966	-0.2015699049	
577.5	-0.08192744515	-0.07305478629	
578.125	0.05260559382	-0.1284089988	
578.75	-0.1421910179	-0.1968202013	
579.375	-0.06519283344	0.09220340694	
580.0	0.009879068315	-0.129504415	
580.625	-0.1022852313	0.1087014938	
581.25	-0.05428220187	-0.06750472663	
581.875	-0.03099919605	0.2702979524	
582.5	0.1561736018	0.08929788066	
583.125	-0.05662312898	0.05648255767	
583.75	0.1256212613	0.08843385172	
584.375	-0.03304506971	-0.03607992032	
585.0	0.1475217141	0.1538804238	
585.625	0.1179312674	-0.1108238692	
586.25	0.071374029	0.02211583618	
586.875	0.1399169807	-0.1698193331	
587.5	-0.09871331707	-0.1059479848	
588.125	0.05437525707	-0.08577562316	
588.75	0.04476224041	-0.2163001365	
589.375	-0.03527779798	-0.1098544673	
590.0	0.05870890645	-0.1686254908	
590.625	-0.2913428742	0.01650053218	
591.25	-0.00851942397	0.07086436555	
591.875	-0.1226738334	0.07438979108	
592.5	0.1271101959	0.1026783392	
593.125	-0.1829036283	0.02740400564	
593.75	0.1782090608	0.1113417165	
594.375	0.06725590877	0.01405092047	
595.0	0.127864693	0.1749149391	
595.625	0.2197715879	-0.0008441572039	
596.25	0.04265133014	0.02210992278	
596.875	0.1996099306	0.09868236654	
597.5	0.1412069541	-0.01037395844	
598.125	0.08892095188	0.1405558372	
598.75	0.2251084783	0.1132028053	
599.375	0.1463676234	-0.08778723505	
600.0	0.1495545829	-0.05537251349	
600.625	0.1761470799	-0.1745716635	
601.25	-0.02895703423	-0.1972153656	
601.875	0.0162870082	-0.08887648069	
602.5	-0.2217771809	-0.02143558866	
603.125	0.01809805958	0.05397982431	
603.75	-0.151910306	-0.01669961947	
604.375	-0.09220741706	0.1970481486	
605.0	-0.05827905146	-0.07768486893	
605.625	-0.1726192907	0.08115785675	
606.25	0.00213836004	-0.03282654771	
606.875	-0.1966160797	-0.0006677093239	
607.5	-0.2121021662	0.2447586146	
608.125	0.04144283523	0.1696934168	
608.75	0.08459179576	0.1962359738	
609.375	0.2711453907	-0.0528409364	
610.0	0.1465023445	-0.1219948985	
610.625	0.1601829558	-0.0867556662	
611.25	0.05503087635	-0.2171477905	
611.875	-0.05486075676	-0.04444096923	
612.5	-0.152961612	-0.1539348533	
613.125	-0.224134686	0.1392344397	
613.75	-0.02213199132	0.002164311476	
614.375	-0.02647926692	0.1866158056	
615.0	0.1263541135	-0.03336888653	
615.625	-0.1168444421	0.1264797309	
616.25	0.05506999449	0.1799278401	
616.875	-0.04310201314	0.07161687753	
617.5	-0.1719414345	0.2017706769	
618.125	0.03787931067	0.2289312203	
618.75	0.02426617279	0.1855134248	
619.375	0.04444000176	0.2191151319	
620.0	0.2131253764	-0.02848389601	
620.625	0.08395796853	-0.07977876318	
621.25	0.06229401457	-0.1664754221	
621.875	-0.2407747009	-0.04404231696	
622.5	-0.1269692242	-0.000678519341	
623.125	-0.1405729587	0.1803571672	
623.75	0.1944519283	-0.005519493598	
624.375	-0.004431983595	0.02049866707	
625.0	0.07992045276	-0.09822819784	
625.625	0.005799358066	-0.0216272613	
626.25	0.00848375218	-0.1781576179	
626.875	-0.1756148691	-0.06226732476	
627.5	-0.0604936882	-0.02526828865	
628.125	-0.1284344688	-0.1338580312	
628.75	-0.114724292	-0.05358609911	
629.375	-0.1011393894	-0.08635032847	
630.0	-0.1877742814	-0.1162668239	
630.625	-0.2007377476	0.1053507689	
631.25	-0.0956138085	0.1227957648	
631.875	-0.1600241845	0.2806226401	
632.5	0.2008224331	0.1797483623	
633.125	0.1242009439	0.06155194558	
633.75	0.2515495827	-0.03862374008	
634.375	-0.07756127647	-0.1347069735	
635.0	0.07119223561	-0.1274230274	
635.625	-0.2232450591	-0.1068740499	
636.25	-0.06487871584	0.08479000886	
636.875	-0.1387450989	0.06190710664	
637.5	0.0004396044333	0.1999595484	
638.125	-0.04777038655	-0.01741562191	
638.75	-0.124639096	0.2195500012	
639.375	0.09463927504	0.2063817908	
640.0	0.03905185556	0.1815380749	
640.625	0.2623500035	0.2048738974	
641.25	0.227657369	-0.08491342503	
641.875	0.1549332949	-0.07142520241	
642.5	0.1572557521	-0.2929719181	
643.125	-0.2222095184	-0.04805389292	
643.75	-0.0127552293	-0.1129976235	
644.375	-0.2722847129	0.01189431018	
645.0	0.119462805	0.1061341663	
645.625	-0.1652045335	0.2073599109	
646.25	0.2750768997	0.05506221889	
646.875	-0.09559582517	-0.05041039997	
647.5	0.2197219649	0.09593633328	
648.125	0.05189889463	-0.08278186967	
648.75	0.2580579922	0.1219206192	
649.375	0.2957265932	-0.39861734	
650.0	-0.0263718284	-0.2292886553	
650.625	0.2508242377	-0.1326213949	
651.25	0.2608129744	-0.3665916321	
651.875	0.04169692038	-0.1420521724	
652.5	0.3336436905	0.04998734963	
653.125	0.3293651376	-0.2190815253	
653.75	0.07352152575	-0.1254953309	
654.375	0.1202701575	-0.3377491219	
655.0	-0.4544288006	-0.05151911273	
655.625	-0.0372980941	0.1300044846	
656.25	-0.1747385823	0.1433713905	
656.875	0.316550748	0.09214824215	
657.5	-0.1427701483	0.0529153669	
658.125	0.356085288	0.2091410211	
658.75	0.1738709864	-0.08271667889	
659.375	0.2916937739	0.05054571426	
660.0	0.2950958869	-0.4340803804	
660.625	-0.02961912059	-0.1797320467	
661.25	0.2757279929	-0.1847908793	
661.875	0.2450104233	-0.3343407356	
662.5	0.107079942	-0.2000385676	
663.125	0.3455827043	-0.03725328098	
663.75	0.142622835	-0.3890244959	
664.375	-0.04510458212	-0.1872774594	
665.0	-0.1825484905	-0.2945426174	
665.625	-0.3620444564	0.148750423	
666.25	-0.03810168864	0.1609368379	
666.875	0.00291627595	0.2779765225	
667.5	0.2854921863	0.03591438776	
668.125	0.07499287551	0.0114734296	
668.75	0.3255930468	-0.1029066708	
669.375	-0.09564917254	-0.2431763736	
670.0	0.09299925304	-0.08669140495	
670.625	0.06397998643	-0.3071409162	
671.25	-0.1098819588	-0.1057750363	
671.875	0.2775426975	-0.0549670596	
672.5	0.2322691458	-0.2520186342	
673.125	0.109146687	-0.1211607756	
673.75	0.2102897721	-0.1052621078	
674.375	0.04296302642	-0.3869047159	
675.0	-0.06087630755	-0.07270624254	
675.625	-0.1076188338	-0.2311998859	
676.25	-0.2708733747	0.003739751418	
676.875	-0.0242402538	0.02614927499	
677.5	-0.233616132	-0.09023929155	
678.125	-0.08415728026	0.2470002638	
678.75	-0.0137233839	0.05233478715	
679.375	0.1854944756	0.270894301	
680.0	0.1743328681	-0.2580418301	
680.625	-0.003016484685	0.2198505119	
681.25	0.2765119613	-0.08818883662	
681.875	0.02896477016	-0.09917316626	
682.5	0.1802487346	0.38242893	
683.125	0.4470091304	-0.0666813874	
683.75	0.001335561859	0.09898949042	
684.375	0.3588594394	0.1845108135	
685.0	0.4003318304	-0.0388317967	
685.625	0.07605957484	-0.0637396512	
686.25	0.4440318802	0.02887259587	
686.875	0.2229260264	-0.2879381927	
687.5	0.2004454977	-0.1107969221	
688.125	0.1404887808	-0.4998117366	
688.75	-0.4387286705	-0.1270225142	
689.375	-0.2249266767	0.09213060173	
690.0	0.02267019478	0.4908813189	
690.625	0.3237772542	0.1047370748	
691.25	-0.002677264256	0.3304904332	
691.875	0.6126774505	0.4267862953	
692.5	0.4633646467	-0.03390107233	
693.125	0.6320225303	0.262913173	
693.75	0.7394894075	-0.2600006766	
694.375	0.1787468492	-0.09151894854	
695.0	0.5958262053	-0.06130648921	
695.625	0.615486796	-0.2234184637	
696.25	0.3062176447	0.1362072567	
696.875	0.355374055	0.4189256607	
697.5	0.3445476333	0.4115766706	
698.125	0.3608392095	0.2082974461	
698.75	0.4740026823	-0.2645412227	
699.375	-0.2479628497	-0.5386243961	
700.0	-0.1691319939	0.307439108	
700.625	-0.07970626654	0.2891556525	
701.25	0.3631765985	0.1486336464	
701.875	0.08712998811	0.1030439877	
702.5	0.3004231421	0.3591581897	
703.125	0.4922620665	-0.001182648266	
703.75	0.2345670827	0.05569793164	
704.375	0.3900395002	-0.1796465024	
705.0	0.09702640735	-0.1351841245	
705.625	0.1551483972	0.1329075517	
706.25	0.3303073396	0.2436778304	
706.875	0.2302710871	0.1032919832	
707.5	0.3092632833	0.3121450031	
708.125	0.395426259	0.132624913	
708.75	0.1796599081	-0.3316326381	
709.375	-0.07619005049	-0.2751176311	
710.0	-0.3227419899	0.02930523532	
710.625	0.1604978074	0.1021611581	
711.25	-0.01287584249	0.1565818257	
711.875	0.3027135838	0.09652582583	
712.5	0.09126423883	-0.0622538105	
713.125	0.3180095112	-0.05188448257	
713.75	0.1042598637	-0.3061374296	
714.375	-0.01715224049	-0.1090319207	
715.0	0.05831990366	-0.2371944435	
715.625	-0.07011042245	-0.237216535	
716.25	0.1373219306	-0.1008804021	
716.875	0.4074904204	-0.1581425784	
717.5	0.3763521856	-0.2235508614	
718.125	0.4626467546	0.0004834890266	
718.75	0.7915684377	-0.02376991599	
719.375	0.5922181096	-0.4163662235	
720.0	0.09336245689	-0.344116883	
720.625	0.5656191047	-1.006841354	
721.25	-0.2239360769	-0.6898965723	
721.875	0.09442326346	-0.8485543904	
722.5	-0.5809143593	-0.8671136175	
723.125	-0.5884455485	0.2975434299	
723.75	-0.4228057468	0.04083337002	
724.375	0.06838700912	0.6152635812	
725.0	0.1476495337	0.109485574	
725.625	-0.01766653819	0.4886201083	
726.25	0.1693768395	0.7358892841	
726.875	0.03294198813	0.4948988892	
727.5	-0.5177484001	1.220952609	
728.125	0.2838877811	2.019259064	
728.75	0.2092204361	1.377739701	
729.375	-1.926240158	2.978258809	
730.0	0.9383404034	4.064166624	
730.625	1.12625247	2.109688691	
731.25	-2.048220901	2.324251217	
731.875	-2.374671349	3.834598443	
732.5	-0.8492802218	0.7209575361	
733.125	-2.561987923	-0.2813693352	
733.75	-0.6559810942	1.560463298	
734.375	0.3711785997	0.1217964337	
735.0	0.3975401442	-0.7067523123	
735.625	-0.3364722016	0.5055384316	
736.25	-0.357263162	0.1734958236	
736.875	0.4463857888	0.7582907288	
737.5	0.9269526973	-0.2964700094	
738.125	0.5384815278	0.2668851305	
738.75	2.563605485	-1.165899075	
739.375	0.7198016934	-2.274627329	
740.0	0.8371182018	0.8041187823	
740.625	5.385817825	1.274717434	
741.25	1.85213304	-1.254045192	
741.875	-2.927320301	-2.301257925	
742.5	-2.319533805	-1.881094896	
743.125	-0.05930683944	-0.5867017561	
743.75	0.6188666731	-0.9563640055	
744.375	-0.8429673181	-0.01591114576	
745.0	0.0541972247	-0.07850208066	
745.625	0.1633651415	0.03138994787	
746.25	-0.06721392773	-0.01071771979	
746.875	-0.2307678978	-0.1237882803	
747.5	-0.09435111621	0.3915078766	
748.125	0.1525286504	0.283543634	
748.75	0.07649778384	0.4198488979	
749.375	0.1407741465	0.5128191752	
750.0	-0.167825261	0.2070471501	
