!Created with skrf (http://scikit-rf.org).
# GHz S RI R (50+0j) 
!freq	ReS11	ImS11	
500.0	0.333565512	-0.3835828385	
500.625	0.5239409836	-1.075341096	
501.25	-0.6534735717	-0.342979382	
501.875	-0.02934761204	-0.2496094422	
502.5	-0.02098945263	-0.1729908734	
503.125	-0.03216024493	0.02520249104	
503.75	-0.04430858955	0.1028823443	
504.375	0.0204150759	-0.03159459387	
505.0	0.04086275043	0.01004491262	
505.625	-0.03233491322	-0.07199856832	
506.25	0.04665568418	0.007146224971	
506.875	-0.2834381368	-0.07660981144	
507.5	-0.125648762	0.06750706486	
508.125	0.4721043935	-0.4672709308	
508.75	0.5019140861	-1.142371586	
509.375	-0.4072335453	-0.7370078554	
510.0	-0.2134003438	-0.4686070773	
510.625	-0.1659642739	-0.1223921195	
511.25	-0.06044772932	-0.01875841432	
511.875	-0.1100882437	-0.06154505069	
512.5	0.01392013602	0.004898114012	
513.125	0.008044570117	-0.03417179856	
513.75	-0.07475165427	-0.06140270181	
514.375	-0.002751503953	0.06159821624	
515.0	0.0642560378	-0.2359070602	
515.625	-0.08122711063	0.3182720751	
516.25	0.1811077352	-0.7327489936	
516.875	-0.4133327437	-0.517260279	
517.5	0.0001671254496	-0.004512601961	
518.125	-0.05516899565	-0.07073164003	
518.75	-0.06358983361	-0.01390335851	
519.375	-0.06171674696	0.01724777021	
520.0	0.1280791649	0.04583305464	
520.625	0.1041835097	-0.01523007881	
521.25	0.04320299215	-0.1578596809	
521.875	-0.2015151443	-0.08413436801	
522.5	-0.01502469869	0.08006458514	
523.125	-0.03565246514	-0.07578347372	
523.75	-0.1746661154	0.06816997784	
524.375	0.006918706707	0.01661177334	
525.0	-0.1572619261	0.1674631453	
525.625	0.1194981887	-0.02052081761	
526.25	-0.0505314146	0.04547630839	
526.875	0.004805610873	0.003526250561	
527.5	-0.1338005006	0.1338314876	
528.125	0.1630803807	0.1874259862	
528.75	0.08403003315	0.0837692013	
529.375	0.02273841022	0.03758446885	
530.0	0.06326280281	0.1494970426	
530.625	0.02807744747	0.1577880002	
531.25	0.4686129328	0.1319735911	
531.875	0.2228107867	-0.2384634791	
532.5	0.03182421455	-0.09209281548	
533.125	0.07259159842	-0.2409763869	
533.75	0.1552154034	-0.09194594814	
534.375	-0.1184171314	-0.3407888107	
535.0	-0.1640511517	-0.005502434979	
535.625	-0.1207312529	0.03082589522	
536.25	-0.005509592711	0.1132160033	
536.875	0.06006064337	-0.02554132712	
537.5	0.08361089584	-0.01221541898	
538.125	0.07193966664	-0.104647771	
538.75	0.1006005136	-0.04431656901	
539.375	-0.08124712938	-0.1876209377	
540.0	-0.1655284397	-0.04850259955	
540.625	-0.1034298981	-0.04243953195	
541.25	-0.1214711177	-0.0119851633	
541.875	-0.07192315358	0.02821647521	
542.5	0.0100750793	-0.07210483755	
543.125	-0.1624864171	-0.0192052173	
543.75	-0.01285651761	-0.01410886293	
544.375	-0.1028673922	0.06073275986	
545.0	0.02157047973	0.008448606846	
545.625	-0.02001374633	0.1308084264	
546.25	0.1268126745	-0.01409597609	
546.875	0.05976723882	0.01136208754	
547.5	0.09816838831	-0.1410790298	
548.125	-0.1003745986	-0.111392926	
548.75	-0.05123591576	-0.09554205583	
549.375	-0.1337037078	-0.09748920544	
550.0	-0.03917636246	0.04276449359	
550.625	-0.06611977658	-0.03569066038	
551.25	-0.05381640361	0.06347510637	
551.875	-0.05050692326	0.03146450761	
552.5	-0.05377742417	0.0882131327	
553.125	0.01186662262	0.05495893455	
553.75	0.03564968208	0.04787376207	
554.375	0.08469115553	-0.01254398808	
555.0	0.08306680156	-0.05866359961	
555.625	0.07897820511	-0.0983322157	
556.25	0.05185078552	-0.1272272242	
556.875	-0.03520414458	-0.137655436	
557.5	-0.08800747955	-0.09205217575	
558.125	-0.1093815184	-0.03416357731	
558.75	-0.09814488771	0.00685908636	
559.375	-0.09526304014	0.01685983043	
560.0	-0.09430636893	0.07713972503	
560.625	-0.02125730683	0.09526764486	
561.25	-0.01643508254	0.08939054658	
561.875	0.05601055755	0.03865108382	
562.5	-0.0248823462	0.03993328265	
563.125	0.1084209603	0.07928505825	
563.75	0.09718728973	-0.03131357254	
564.375	0.1199542958	-0.04359030733	
565.0	0.07042947429	-0.1780635405	
565.625	-0.07687065121	-0.0894863107	
566.25	-0.0705555331	-0.1354990627	
566.875	-0.1648100181	-0.02326315385	
567.5	-0.0436538672	-0.08173206526	
568.125	-0.1830738371	-0.1945214836	
568.75	-0.1738781029	0.02805045187	
569.375	-0.1929115443	0.006964768963	
570.0	-0.1418553774	0.2938039128	
570.625	0.05659542452	0.1326211138	
571.25	-0.06470667777	0.07028641583	
571.875	0.1325837522	0.07204125613	
572.5	0.00746078698	0.03137268873	
573.125	0.1614342868	-0.152966499	
573.75	-0.07127559993	-0.1049245549	
574.375	0.07742601772	-0.005760271513	
575.0	-0.02321491939	-0.124879913	
575.625	0.03966623125	0.02738771739	
576.25	0.1101789498	-0.1316087806	
576.875	-0.08250128753	-0.1561121565	
577.5	0.004651942116	-0.05968208926	
578.125	0.03065618863	-0.2260748481	
578.75	-0.1718703335	-0.06069959299	
579.375	0.01265431091	-0.04124099942	
580.0	-0.152194557	-0.1130126937	
580.625	0.03171540418	0.06630506715	
581.25	-0.188788374	0.003682005326	
581.875	0.1008708501	0.2245259279	
582.5	0.06454056488	-0.01487402893	
583.125	-0.0209814679	0.1063195503	
583.75	0.1564701874	-0.03463093872	
584.375	-0.07520607305	0.08230462138	
585.0	0.1909927313	0.04154046652	
585.625	0.0479830592	-0.02946933391	
586.25	0.213794659	0.008194846567	
586.875	0.01746595046	-0.2104640023	
587.5	0.0005274289717	-0.03873031321	
588.125	0.05483432667	-0.1559265081	
588.75	-0.02259678819	-0.197772806	
589.375	-0.00114168134	-0.04684401182	
590.0	-0.01435121188	-0.2480755909	
590.625	-0.1715273778	0.05980719377	
591.25	-0.1025055837	-0.02209683927	
591.875	-0.0684791584	0.2034185044	
592.5	0.06606702564	-0.04428093905	
593.125	-0.06933982544	0.134717235	
593.75	0.09966381027	-0.0459091299	
594.375	0.03774801107	0.1087271329	
595.0	0.2134598001	0.1458038202	
595.625	0.1945717733	-0.0277505133	
596.25	0.1164203898	0.1228697009	
596.875	0.2167859124	0.008643746125	
597.5	0.07865191562	0.008628645079	
598.125	0.1344490677	0.1757390856	
598.75	0.1992394506	0.0002362362586	
599.375	0.1209527532	-0.008843622446	
600.0	0.1818635168	-0.1340071176	
600.625	0.1169480117	-0.2304731717	
601.25	-0.04204717186	-0.1346232729	
601.875	0.002827749287	-0.1796690966	
602.5	-0.1701951637	0.05624305942	
603.125	-0.03479581288	-0.01495368801	
603.75	-0.2195406355	0.1215473613	
604.375	0.02248883127	0.09606629902	
605.0	-0.1161030186	-0.005330556834	
605.625	-0.01224294489	0.1777889692	
606.25	-0.01924911755	-0.01836103339	
606.875	-0.2206929868	0.1071294851	
607.5	-0.07585584525	0.2313874162	
608.125	-0.06807050819	0.209929404	
608.75	0.2119023407	0.1409329209	
609.375	0.211557652	-0.1253055466	
610.0	0.103509723	-0.03416607804	
610.625	0.07786782516	-0.1426661576	
611.25	-0.06745041769	-0.1396919147	
611.875	-0.008550985168	-0.07126986158	
612.5	-0.2236903156	-0.1013109538	
613.125	-0.1038413999	0.1346832366	
613.75	-0.1209088193	0.0335081949	
614.375	0.1000992399	0.1969380169	
615.0	-0.001479438545	-0.06829530837	
615.625	-0.007336135217	0.1985590508	
616.25	0.04325314019	0.04565216976	
616.875	-0.1615944952	0.1537149815	
617.5	-0.07305920514	0.2898111971	
618.125	0.09186907694	0.1765960354	
618.75	-0.00129889262	0.1332540308	
619.375	0.0435274047	0.1196655859	
620.0	0.1693290778	-0.01827425191	
620.625	0.09258282508	-0.1051630404	
621.25	-0.1630815752	-0.1910864902	
621.875	-0.2339731352	0.04965285374	
622.5	-0.2150259201	0.007116229934	
623.125	0.01830505918	0.2327544051	
623.75	0.09076568488	-0.05363326094	
624.375	0.06501797993	0.04526439119	
625.0	-0.006904327328	-0.1046848135	
625.625	0.05473662356	-0.004719898933	
626.25	-0.04061907105	-0.1826438571	
626.875	-0.146065051	-0.001531952285	
627.5	-0.0890254494	-0.1008517461	
628.125	-0.1707910477	-0.03903822937	
628.75	-0.02598182369	-0.06156481607	
629.375	-0.08634086928	-0.2049265622	
630.0	-0.1977276925	-0.07885409503	
630.625	-0.1449667735	0.06411895567	
631.25	-0.1343122475	0.09349445601	
631.875	-0.02074243818	0.3023091427	
632.5	0.1797837042	0.07768315716	
633.125	0.1407665814	0.1066055958	
633.75	0.1711405573	-0.1510888586	
634.375	0.05910599794	-0.0498232879	
635.0	0.02589515277	-0.2499687945	
635.625	-0.1315290177	0.01580832267	
636.25	-0.1395791742	-0.0321086863	
636.875	-0.1185438524	0.2248188808	
637.5	0.05625163307	0.05582122444	
638.125	-0.1308303423	0.006684498378	
638.75	-0.04956065134	0.2387846491	
639.375	0.06019575239	0.1311161646	
640.0	0.05983806775	0.2805128031	
640.625	0.3157953808	0.1131063125	
641.25	0.1511117482	-0.02290707639	
641.875	0.2621878183	-0.158305309	
642.5	-0.1117828327	-0.2321169057	
643.125	-0.01472726348	-0.01369385146	
643.75	-0.1305002958	-0.1798735161	
644.375	-0.2277983782	0.1880793812	
645.0	-0.07869910365	-0.002948996172	
645.625	-0.007710913237	0.4754154193	
646.25	0.2041290824	-0.09538162332	
646.875	0.03280936939	0.09507349879	
647.5	0.1635338948	-0.08555519713	
648.125	-0.0620814627	0.1811862454	
648.75	0.3995878918	-0.08452460581	
649.375	0.06575284467	-0.3032879326	
650.0	0.1151391564	-0.1251241357	
650.625	0.3027152151	-0.305598103	
651.25	0.02198073662	-0.3233491685	
651.875	0.1937344921	0.004032354007	
652.5	0.3995268114	-0.168762345	
653.125	0.1026006943	-0.1815853012	
653.75	0.2560455242	-0.0869083315	
654.375	-0.1188044741	-0.406726583	
655.0	-0.244771082	0.06320805723	
655.625	-0.08052650015	-0.02133569886	
656.25	-0.01388659111	0.3028418025	
656.875	0.110951486	-0.1058080177	
657.5	-0.03841914353	0.3069626933	
658.125	0.2198598805	0.03564317014	
658.75	0.01860085469	0.1818743959	
659.375	0.4966861009	-0.1804125632	
660.0	0.02265745056	-0.3130871856	
660.625	0.1532608009	-0.1674010479	
661.25	0.2354982882	-0.3503359886	
661.875	0.120010385	-0.3452114169	
662.5	0.1082415895	-0.08043132848	
663.125	0.3695390763	-0.2035263242	
663.75	-0.007517175953	-0.2678021745	
664.375	0.06358074411	-0.2555526941	
665.0	-0.3874603149	-0.1729638763	
665.625	-0.1502273035	0.09366012708	
666.25	-0.1690177132	0.1898721287	
666.875	0.1658862479	0.265624544	
667.5	0.1823507643	-0.05100648865	
668.125	0.09819447087	0.1393625663	
668.75	0.2591364287	-0.2474421494	
669.375	-0.02063672518	-0.1416057802	
670.0	0.1453728491	-0.2264782782	
670.625	-0.1824353559	-0.2352138549	
671.25	0.164799614	-0.02366070065	
671.875	0.1526428001	-0.2778615043	
672.5	0.04430078654	-0.1507087542	
673.125	0.173513581	-0.04317625697	
673.75	0.2542609039	-0.2196066707	
674.375	-0.07782701646	-0.3053510983	
675.0	-0.009680637208	-0.1147201282	
675.625	-0.2248856878	-0.1937174089	
676.25	-0.1497874708	0.1050842837	
676.875	-0.1049948871	-0.1150110981	
677.5	-0.1630959046	0.153687062	
678.125	-0.04722106719	0.04156103799	
678.75	-0.05720325078	0.2589917512	
679.375	0.3507293949	0.0324353195	
680.0	-0.09952675598	-0.1428830695	
680.625	0.1638926351	0.05134453154	
681.25	0.1056458565	-0.2691405	
681.875	-0.07357567023	0.07818366066	
682.5	0.3150932929	0.2294103519	
683.125	0.04312411808	-0.1933061373	
683.75	0.172884255	0.2512999594	
684.375	0.4204351079	-0.07053678194	
685.0	0.08462119056	-0.142785189	
685.625	0.3999700065	0.1807961591	
686.25	0.4033591108	-0.1715219487	
686.875	0.1877074099	-0.107062464	
687.5	0.2913305383	-0.1504425325	
688.125	-0.1478459397	-0.4871615125	
688.75	-0.2588200044	0.02185117277	
689.375	-0.2683302614	0.2759903908	
690.0	0.2390071225	0.3857056806	
690.625	0.09410671613	0.06467431998	
691.25	0.3293506224	0.4403181601	
691.875	0.5654364092	0.02721501131	
692.5	0.3315163982	0.170671377	
693.125	0.702116862	0.09588182389	
693.75	0.3667725302	-0.5126627957	
694.375	0.3013469212	-0.1191619922	
695.0	0.4759153811	-0.5688853059	
695.625	0.3281684779	-0.2210008473	
696.25	0.2706542425	0.2092431872	
696.875	0.5120540451	0.3505907472	
697.5	0.2646110061	0.2967678019	
698.125	0.4265546743	0.2548815075	
698.75	0.4830007827	-0.428098159	
699.375	-0.51091845	-0.2437213322	
700.0	-0.07121035903	0.3202808921	
700.625	0.1546782357	0.404501584	
701.25	0.1880402611	0.003550779399	
701.875	0.146488023	0.308973707	
702.5	0.4981270412	0.2670133728	
703.125	0.2407603849	-0.00338084357	
703.75	0.3897377939	0.03481796078	
704.375	0.2854061883	-0.3010698793	
705.0	0.07106277346	-0.1218768639	
705.625	0.3421336512	-0.0523937751	
706.25	0.3174351508	0.08836267355	
706.875	0.1749368757	0.2711770753	
707.5	0.2094807943	0.3950620534	
708.125	0.35540836	0.2203481255	
708.75	0.2350957107	-0.2262217607	
709.375	-0.2448154731	-0.2905246409	
710.0	-0.09904458269	0.2739386659	
710.625	0.1239427004	-0.007524488267	
711.25	0.09958615361	0.2249342402	
711.875	0.2979353449	-0.08647404422	
712.5	0.2003203201	0.08128649837	
713.125	0.3631340879	-0.2203941205	
713.75	0.008195386004	-0.2446181751	
714.375	0.1093819922	-0.1570445209	
715.0	-0.1088583182	-0.2605411281	
715.625	-0.01482682294	-0.080571337	
716.25	0.2450320345	-0.1968300013	
716.875	0.2566683372	-0.3216942053	
717.5	0.2653535137	-0.03512902063	
718.125	0.6408578295	0.191499714	
718.75	0.7848614596	-0.07132561339	
719.375	0.3261887008	-0.395325591	
720.0	0.6848641431	-0.5906474441	
720.625	-0.04987327665	-1.338892641	
721.25	-0.04368697526	-0.2839398864	
721.875	-0.1988604476	-1.056374422	
722.5	-0.9311097687	-0.4030036357	
723.125	-0.4488950478	-0.2235589448	
723.75	-0.7269193646	0.5441191013	
724.375	0.2467229723	0.3722531399	
725.0	0.01686501238	0.237635259	
725.625	0.1919321475	0.5924368892	
726.25	0.2887773932	0.4282214431	
726.875	-0.3082298726	0.6665085581	
727.5	0.03763717524	1.500207015	
728.125	0.5916088961	1.165526218	
728.75	-0.9553555121	1.835643332	
729.375	-0.3793570996	4.065741457	
730.0	1.255238614	2.264601782	
730.625	-1.164854554	2.544457844	
731.25	-1.367178376	4.616219961	
731.875	0.2378461546	3.043631763	
732.5	-2.770537848	-0.6613103012	
733.125	-2.68368828	0.9113281708	
733.75	0.2848598655	0.9595801698	
734.375	0.3441456782	0.9851642045	
735.0	-0.3624043844	-0.7927616199	
735.625	-0.1570818518	0.02315585114	
736.25	-0.3112666961	0.6035674	
736.875	0.7643767399	0.4131473364	
737.5	0.3622296222	-0.1162491606	
738.125	1.627394556	0.1411360692	
738.75	1.167007706	-2.063070918	
739.375	0.5406623603	-0.5600254852	
740.0	4.616000757	0.517882551	
740.625	2.97767065	-3.845784706	
741.25	-2.618501705	1.103682555	
741.875	-4.769227388	1.397189008	
742.5	-1.838981906	0.2029994382	
743.125	1.10958998	-0.965771866	
743.75	-0.02543769185	-1.531026626	
744.375	-0.323091573	0.2287018819	
745.0	-0.1852875043	-0.03827802899	
745.625	0.06852293111	-0.1300453031	
746.25	0.07401656656	-0.08612372013	
746.875	-0.2646970803	0.05067926064	
747.5	0.04658106975	0.2640000831	
748.125	0.009072339926	0.3615778158	
748.75	0.2897188498	0.4871337767	
749.375	0.2478927426	0.317922126	
750.0	-0.2856035297	0.1208183675	
