!Created with skrf (http://scikit-rf.org).
# GHz S RI R (50+0j) 
!freq	ReS11	ImS11	
500.0	0.2452326619	-0.9873406101	
500.625	-0.1694008365	-0.5630688235	
501.25	0.04977802934	-0.7442584337	
501.875	-0.4317761896	-0.4426028948	
502.5	-0.01801661846	-0.04682077076	
503.125	-0.07614736321	-0.02354450497	
503.75	0.0637527781	0.05824168782	
504.375	0.01170518967	0.01908318546	
505.0	0.008133407365	-0.05246085846	
505.625	0.004888017517	0.002598426584	
506.25	-0.1254120821	-0.114529174	
506.875	0.05197388306	0.1344726312	
507.5	0.06838311551	-0.5430602708	
508.125	-0.2502768559	-0.6601626119	
508.75	0.2194356928	-0.3720975508	
509.375	0.2208966288	-1.057060664	
510.0	-0.4061685197	-0.1887815043	
510.625	-0.03608525634	-0.08862203754	
511.25	-0.1388165047	-0.09813508695	
511.875	-0.09404008891	0.03816451415	
512.5	-0.04134430186	0.01654140267	
513.125	-0.02733870143	-0.06387637324	
513.75	-0.0169469629	-0.004860037003	
514.375	-0.06075149238	-0.06589612008	
515.0	-0.123672483	0.1288302381	
515.625	0.1998234308	-0.9613614446	
516.25	-0.676652376	-0.7482046814	
516.875	-0.1657703792	-0.04720745102	
517.5	0.03282515356	-0.2198752971	
518.125	-0.01988554428	0.02737219387	
518.75	0.03833538045	-0.1798990862	
519.375	-0.02724867936	0.04329095821	
520.0	0.04783779813	0.02858304447	
520.625	0.1441874053	-0.08800900323	
521.25	-0.08401779524	-0.2888364633	
521.875	-0.07216609349	0.06525424483	
522.5	-0.0398917881	-0.04755459968	
523.125	-0.1070317485	0.1085033264	
523.75	0.0374334617	-0.02003334661	
524.375	-0.2776582323	-0.01852518266	
525.0	0.09279652322	0.1103908274	
525.625	-0.05386854628	0.04972725636	
526.25	0.05905675575	-0.0351195054	
526.875	-0.1117491163	0.06535890882	
527.5	0.05635561548	0.203862413	
528.125	-0.04493952577	0.1663975972	
528.75	-0.07488180689	0.2202166639	
529.375	0.02890710678	0.04735887873	
530.0	-0.0004293019353	0.09101919066	
530.625	0.1815124443	0.3578892027	
531.25	0.2079059417	-0.04860124809	
531.875	0.1055574786	-0.08306908563	
532.5	-0.09426158442	-0.1632909347	
533.125	-0.05073060089	0.1579082164	
533.75	0.03140251708	-0.2481228522	
534.375	-0.1108565504	-0.1120507753	
535.0	-0.1952074043	-0.1754309642	
535.625	-0.183162629	0.1635125868	
536.25	0.008406442691	0.0493221149	
536.875	0.08908459473	0.04662653256	
537.5	0.0462050125	-0.07151867313	
538.125	0.07931066307	0.006973365622	
538.75	0.1477780978	-0.1644940509	
539.375	-0.07586511011	-0.1037262236	
540.0	-0.0779084917	-0.1607485169	
540.625	-0.1967173961	-0.01839591514	
541.25	-0.03533080845	0.05050181854	
541.875	-0.01822738568	-0.05465357976	
542.5	-0.09594575988	-0.04396024092	
543.125	-0.001325378263	-0.04869385625	
543.75	-0.1282230393	0.006730241483	
544.375	0.03659716448	0.06125796274	
545.0	-0.04330621618	0.07557552652	
545.625	0.1340356592	0.03691051813	
546.25	0.0266401672	0.03445852734	
546.875	0.1599963186	-0.03225950761	
547.5	0.003620439733	-0.1005848893	
548.125	0.01479467919	-0.1391133927	
548.75	-0.1561548207	-0.1168001118	
549.375	-0.08903340415	0.003483354536	
550.0	-0.078325799	-0.03471172115	
550.625	-0.05023902469	0.05404810205	
551.25	-0.0539991883	-0.007333018737	
551.875	-0.08838352025	0.07193883475	
552.5	-0.007891325079	0.06435802985	
553.125	-0.02763509705	0.04558598368	
553.75	0.05075224771	0.03264861156	
554.375	0.07511023357	0.001617821862	
555.0	0.0888997512	-0.07034985287	
555.625	0.06571595037	-0.1028926445	
556.25	0.05533410749	-0.1225198558	
556.875	-0.03466376222	-0.1439141196	
557.5	-0.09715278013	-0.08949011188	
558.125	-0.1045216423	-0.02725797819	
558.75	-0.09576471682	-0.002285372974	
559.375	-0.1062384201	0.02735463857	
560.0	-0.07457782234	0.06885392272	
560.625	-0.06305155792	0.09208758677	
561.25	0.0264801861	0.1039932709	
561.875	0.006284347395	0.02238291679	
562.5	0.03353628948	0.07472155549	
563.125	0.04644055157	0.02311856219	
563.75	0.1282499807	0.03515056571	
564.375	0.1359856332	-0.1265178886	
565.0	0.02806719864	-0.1055086069	
565.625	0.03782511679	-0.150072897	
566.25	-0.15066889	-0.07145756867	
566.875	-0.07937294997	-0.07869052599	
567.5	-0.1714177199	-0.1396817336	
568.125	-0.1562242646	-0.03860735487	
568.75	-0.1649664098	-0.1357700581	
569.375	-0.2528724463	0.1469878338	
570.0	0.00792724623	0.1529904733	
570.625	-0.1236475845	0.1078755556	
571.25	0.04645170555	0.173488137	
571.875	-0.008648159347	0.01810168805	
572.5	0.1969158897	0.008224740055	
573.125	-0.029599209	-0.116665067	
573.75	0.1063863886	-0.02861393607	
574.375	0.0004649327417	-0.149615392	
575.0	-0.01789791842	0.04153760549	
575.625	0.1050949198	-0.1085965115	
576.25	-0.03220642223	-0.137519414	
576.875	0.01658308791	-0.04591649603	
577.5	0.02187509333	-0.2152770852	
578.125	-0.1536635509	-0.1019549274	
578.75	0.002364740333	-0.07861213582	
579.375	-0.1358301793	-0.1182670578	
580.0	-0.04163288754	0.1076073599	
580.625	-0.07755762139	-0.162611185	
581.25	-0.08454292299	0.1693741732	
581.875	0.04567834437	0.03581698049	
582.5	-0.05327902665	0.185616731	
583.125	0.1634445437	0.1104691654	
583.75	-0.08163278046	-0.01848566296	
584.375	0.1208231688	0.09901334544	
585.0	0.02577927662	-0.01441253281	
585.625	0.1875234851	0.0766278922	
586.25	0.1273164257	-0.1549247223	
586.875	0.01191521387	-0.05063760422	
587.5	0.04508445202	-0.1821759944	
588.125	-0.09206528701	-0.1635983409	
588.75	-0.005012156321	-0.03590805551	
589.375	0.1388110636	-0.1770836178	
590.0	-0.145096081	-0.121566853	
590.625	-0.09382063606	-0.0705233326	
591.25	-0.2289621688	0.1876281507	
591.875	0.08002880344	0.0718379649	
592.5	-0.07332923703	0.04751013921	
593.125	0.06160889184	0.05132017661	
593.75	-0.0956464041	0.1537902412	
594.375	0.2149765814	0.1533309386	
595.0	0.1264507431	-0.02792911394	
595.625	0.07100230633	0.1016134915	
596.25	0.2085541032	-0.02236699267	
596.875	0.08039546844	-0.03255377391	
597.5	0.1172625765	0.1481835691	
598.125	0.2075606571	0.04753541901	
598.75	0.08829878009	0.04201897598	
599.375	0.234188779	0.009673228386	
600.0	0.130599234	-0.1773550042	
600.625	0.05394628304	-0.1136756459	
601.25	0.1241240484	-0.1590745813	
601.875	-0.1545054482	-0.1302405913	
602.5	-0.02895653356	-0.007626170072	
603.125	-0.1848728474	0.04330590411	
603.75	0.03331330327	0.1063602513	
604.375	-0.0897128776	-0.01972365493	
605.0	-0.1194445093	0.1390453208	
605.625	0.03510405323	-0.05586644902	
606.25	-0.1796318911	0.04204139881	
606.875	-0.1085808864	0.1584036417	
607.5	-0.1004175962	0.0743836432	
608.125	-0.002856335416	0.27430275	
608.75	0.1441456533	0.1046278929	
609.375	0.1415795249	0.02987277454	
610.0	0.2300554989	-0.1380387787	
610.625	0.06880917612	-0.1654058717	
611.25	0.01982297107	-0.07093373897	
611.875	-0.09197548169	-0.2039472313	
612.5	-0.1596943678	0.05299885375	
613.125	-0.1119844201	-0.0531931192	
613.75	-0.1389888682	0.2170746618	
614.375	0.1122684952	-0.01292799276	
615.0	-0.01629656765	0.1459262456	
615.625	0.08405674373	0.01064096444	
616.25	-0.1324218767	0.08922289526	
616.875	-0.03564322501	0.2639147814	
617.5	0.07536181795	0.1799567676	
618.125	-0.05842782956	0.1224074703	
618.75	0.004423618452	0.2487525468	
619.375	0.09633160856	0.2015782859	
620.0	0.1230528458	0.07337645633	
620.625	0.1380117959	-0.1478120506	
621.25	-0.0565888866	-0.08268196165	
621.875	-0.05127799096	-0.07315191001	
622.5	-0.220633773	0.1151270237	
623.125	0.02094624106	0.09226630195	
623.75	0.06720921299	0.1134816559	
624.375	0.09680597219	-0.1218022518	
625.0	-0.008349304808	0.04022522744	
625.625	0.1026838244	-0.1249409245	
626.25	-0.1122042088	-0.09008169363	
626.875	-0.05166484007	-0.1004022305	
627.5	-0.2052141929	-0.03660991559	
628.125	-0.05961923449	0.005221701784	
628.75	-0.03479127024	-0.1672821337	
629.375	-0.1642482204	-0.09977767897	
630.0	-0.1738836866	-0.04705884511	
630.625	-0.2314263582	0.02974043653	
631.25	-0.1479217321	0.2280513938	
631.875	0.06111975374	0.1987201534	
632.5	0.04929999752	0.2058056123	
633.125	0.2575401573	0.02146552796	
633.75	0.06919180679	-0.05519448326	
634.375	0.1170726358	-0.1510940764	
635.0	-0.1636548929	-0.1481886888	
635.625	-0.044918322	-0.1124466571	
636.25	-0.2154477842	0.1020065959	
636.875	0.05308448138	0.1442277418	
637.5	-0.06932856098	0.009653346064	
638.125	-0.09775834407	0.1860095945	
638.75	0.0140214762	0.07357151473	
639.375	-0.08911963302	0.2441295473	
640.0	0.2319367642	0.2308036634	
640.625	0.179002663	0.04012629974	
641.25	0.2880382198	0.08161425492	
641.875	0.1595016339	-0.2782050746	
642.5	-0.06757421151	-0.1073806398	
643.125	-0.05671493918	-0.2063859821	
643.75	-0.2283022054	-0.01156688635	
644.375	0.05589055582	-0.01074520708	
645.0	-0.249934444	0.1996225347	
645.625	0.3068650866	0.12771532	
646.25	0.005267079759	0.06648208511	
646.875	0.2378952837	-0.02919372248	
647.5	-0.08778151561	-0.01548242734	
648.125	0.3023488348	0.1934226155	
648.75	0.2220454232	-0.21709487	
649.375	0.1023717663	-0.116148945	
650.0	0.3005995273	-0.2674168609	
650.625	-0.005977468845	-0.4141435863	
651.25	0.138507601	-0.06182844109	
651.875	0.3515664067	-0.2198317668	
652.5	0.09460180578	-0.2212493173	
653.125	0.2514005074	0.04991675002	
653.75	0.2360242175	-0.3302160297	
654.375	-0.1988130297	-0.2208482813	
655.0	-0.126904498	-0.08930750136	
655.625	-0.3867528859	0.1029365601	
656.25	0.187432187	0.1748340572	
656.875	-0.06796104818	0.05359542775	
657.5	0.248884518	0.1485757486	
658.125	0.001456314531	0.07363351308	
658.75	0.4920226903	0.1876171056	
659.375	0.1879582153	-0.2735514625	
660.0	0.1892139426	-0.123086851	
660.625	0.2297782039	-0.3387966057	
661.25	0.04084943552	-0.4234567823	
661.875	0.05614696883	-0.130476908	
662.5	0.3647326841	-0.1289158502	
663.125	0.1804669658	-0.3013924816	
663.75	0.1300606658	-0.1361117531	
664.375	-0.03725636921	-0.4214163336	
665.0	-0.2187663305	-0.04918168275	
665.625	-0.29389835	-0.02643603255	
666.25	-0.1196847011	0.3336966375	
666.875	0.1945742365	0.1231734432	
667.5	0.04862899493	0.09561052518	
668.125	0.3663861563	-0.005757304744	
668.75	0.06395818516	-0.2009888096	
669.375	0.1291550982	-0.1198631298	
670.0	-0.0537808074	-0.3484135039	
670.625	0.007872978891	0.02666331234	
671.25	0.1314451617	-0.2396389137	
671.875	0.02744035097	-0.2258973511	
672.5	0.1405288786	0.01843026969	
673.125	0.3296768826	-0.1917111761	
673.75	0.0570735178	-0.3127513012	
674.375	0.01854232578	-0.1281337708	
675.0	-0.02683554866	-0.2800888023	
675.625	-0.2746286568	-0.02826765933	
676.25	-0.02968441581	-0.06207696114	
676.875	-0.250552327	0.01931062197	
677.5	-0.0337373509	0.08736793268	
678.125	-0.1877854395	0.04104954595	
678.75	0.09387278944	0.3198085749	
679.375	0.1632998303	-0.08839882584	
680.0	0.08785076724	0.1221958193	
680.625	0.1707643209	-0.1593961679	
681.25	-0.2246535847	0.00322552427	
681.875	0.2455604196	0.2467363233	
682.5	0.2526396557	-0.08164562426	
683.125	0.03754788283	0.1653829755	
683.75	0.4419314515	0.1470766168	
684.375	0.1927690398	-0.2084663157	
685.0	0.0713678992	0.196787728	
685.625	0.3867571883	-0.1005666547	
686.25	0.2055894907	-0.1752829601	
686.875	0.2471487273	-0.01161633828	
687.5	0.3552779894	-0.4232608176	
688.125	-0.07958326233	-0.2559292092	
688.75	-0.2850440025	-0.2795653699	
689.375	-0.277101028	0.3557181577	
690.0	0.1968389572	0.1480921217	
690.625	0.07910497708	0.3515112752	
691.25	0.4829253172	0.2006923305	
691.875	0.2189273087	0.06757507353	
692.5	0.466040641	0.3610343516	
693.125	0.7701604982	-0.1348276944	
693.75	0.2571742124	-0.03338509528	
694.375	0.5811920798	-0.3449022323	
695.0	0.1418210754	-0.4109512855	
695.625	0.226254764	0.01093042203	
696.25	0.6024730941	0.2471538333	
696.875	0.4263224249	0.1310451644	
697.5	0.3550574451	0.4398186596	
698.125	0.5539964872	0.2754819385	
698.75	0.3647352934	-0.5594922857	
699.375	-0.2792335143	-0.110580236	
700.0	-0.2689557074	0.156141794	
700.625	0.267435669	0.2320016484	
701.25	0.06818553836	0.1191717626	
701.875	0.3835769709	0.304744803	
702.5	0.3658276772	-0.03922925559	
703.125	0.2913365768	0.2007323409	
703.75	0.4664566948	-0.1227437786	
704.375	0.1266911758	-0.2788654141	
705.0	0.1952280122	0.01511391874	
705.625	0.2262058242	-0.08645537003	
706.25	0.1810906991	0.02174284844	
706.875	0.2602467476	0.2869798087	
707.5	0.4096165485	0.3579325713	
708.125	0.5374237897	0.1127288353	
708.75	0.3364247816	-0.3344187672	
709.375	-0.2623129919	-0.2837515546	
710.0	-0.02105413845	0.1390532887	
710.625	-0.07621444547	0.03022013018	
711.25	0.2120234147	0.06040593555	
711.875	0.00415488443	-0.008256762968	
712.5	0.3600079033	0.02180437822	
713.125	0.1894518993	-0.3111395608	
713.75	0.08065445965	-0.1063175088	
714.375	0.04870777793	-0.3218686795	
715.0	-0.1199683109	-0.1207229154	
715.625	0.1067977551	-0.1297558051	
716.25	0.1557727374	-0.3300261906	
716.875	0.1020802063	-0.1867828398	
717.5	0.3954834534	0.0644882195	
718.125	0.7972251579	-0.04373406111	
718.75	0.7723998506	-0.3248759028	
719.375	0.6871594713	-0.1354314228	
720.0	0.2578212932	-1.098023548	
720.625	-0.1995838942	-0.5972913536	
721.25	0.4493092707	-0.6470832384	
721.875	-0.5186712	-0.9454731478	
722.5	-0.3896979264	-0.04960112432	
723.125	-0.772223283	-0.2838186791	
723.75	-0.2743887596	0.7561470842	
724.375	0.1193597361	0.2218469806	
725.0	0.03905065975	0.4568404774	
725.625	0.4128349264	0.3406747602	
726.25	-0.08569411578	0.3580556713	
726.875	-0.1377801813	1.019551338	
727.5	0.3558233715	1.121017362	
728.125	-0.1559832924	0.9653261041	
728.75	-0.2276893871	3.01658005	
729.375	0.7376321374	3.652113185	
730.0	-0.2556648887	1.905304353	
730.625	-0.7083815984	4.992820585	
731.25	0.6601427195	3.583272848	
731.875	-0.9340938456	0.6061931078	
732.5	-3.704579513	0.8590603208	
733.125	-1.782080932	1.3137207	
733.75	-0.7696902083	0.2582767767	
734.375	1.40610687	0.7166618023	
735.0	-0.3161983195	-0.3813293761	
735.625	-0.321618196	-0.1108320512	
736.25	-0.03323493808	0.7695986882	
736.875	0.5234167569	-0.04398910312	
737.5	0.6182304342	0.5874436657	
738.125	1.644924291	-0.777711883	
738.75	0.431500277	-1.189320752	
739.375	1.873043673	0.2872776608	
740.0	3.743178778	-3.624993998	
740.625	-0.5947120486	-1.251047189	
741.25	-2.876372047	3.362116248	
741.875	-1.452450101	3.612649214	
742.5	1.164585717	-0.508320339	
743.125	0.5484997164	-2.306731461	
743.75	-0.547356349	-0.9873062346	
744.375	-0.1617390921	-0.01443491464	
745.0	-0.08587045127	0.3232802938	
745.625	-0.04320507773	-0.02290636419	
746.25	0.01101913628	-0.1617828364	
746.875	-0.2059287429	0.08905161396	
747.5	-0.01837698258	0.1450718837	
748.125	0.00374910726	0.4843807141	
748.75	0.3590767379	0.3725399692	
749.375	0.1088339287	0.2683612525	
750.0	-0.369499834	0.2267230095	
