!Created with skrf (http://scikit-rf.org).
# GHz S RI R (50+0j) 
!freq	ReS11	ImS11	
500.0	0.1226060684	-0.4202054578	
500.625	0.5213699829	-0.9558017206	
501.25	-0.6335631264	-0.3615839522	
501.875	0.00733631558	-0.2791984827	
502.5	-0.06185777139	-0.160908173	
503.125	-0.03137056072	0.01381672668	
503.75	-0.02610803624	0.09584881347	
504.375	0.01540170575	-0.04123598554	
505.0	0.02490672459	0.01208602877	
505.625	-0.01485291862	-0.08159808962	
506.25	-0.006171277137	0.03742141463	
506.875	-0.279075354	-0.1170780089	
507.5	-0.3108610749	-0.02785122836	
508.125	0.3856243451	-0.4137611813	
508.75	0.4649109667	-1.142955608	
509.375	0.1384182961	-0.4004191993	
510.0	-0.2428325097	-0.3980439371	
510.625	-0.3032318442	-0.1254743651	
511.25	-0.02448660202	-0.04588911481	
511.875	-0.1123458167	-0.06115802432	
512.5	0.007869341292	0.06523365431	
513.125	0.003851208595	-0.01529055671	
513.75	-0.05173211674	-0.08048082753	
514.375	0.01086811564	0.07117736092	
515.0	0.02724336273	-0.2516435315	
515.625	0.03210889015	0.2389175464	
516.25	0.1730472514	-0.7394929903	
516.875	-0.5344231091	-0.2398552311	
517.5	-0.05299464363	0.02024059459	
518.125	-0.03961197161	-0.075231409	
518.75	-0.07551668657	-0.0287807862	
519.375	-0.04378746964	0.001399589732	
520.0	0.1186826669	0.07026071172	
520.625	0.1044855587	-0.04902396646	
521.25	0.01379142568	-0.1823134202	
521.875	-0.1216111298	-0.01700113239	
522.5	0.02319735784	0.05747685036	
523.125	-0.06534192991	-0.03579731875	
523.75	-0.1332373199	0.09486107869	
524.375	0.0161686572	0.009335842891	
525.0	-0.166879127	0.1347875079	
525.625	0.1303117714	0.01688697972	
526.25	-0.06508670879	0.04292261101	
526.875	0.02073245814	0.02577662715	
527.5	-0.1232602984	0.110003539	
528.125	0.1474079204	0.2705851275	
528.75	0.06364376062	0.05657115476	
529.375	-0.02103290221	0.0938364985	
530.0	0.1459111366	0.1046059257	
530.625	-0.02980965778	0.1532663653	
531.25	0.1818690637	0.1670166284	
531.875	0.06543676159	-0.2172645429	
532.5	0.07680549177	-0.09667300313	
533.125	-0.02099746112	-0.1415307563	
533.75	0.09342056614	-0.0286208338	
534.375	-0.1493122831	-0.3140835628	
535.0	-0.1786619836	-0.001910532669	
535.625	-0.1217396134	0.03382329679	
536.25	-0.002343052313	0.1158878757	
536.875	0.05024100174	-0.02017692302	
537.5	0.0898081172	-0.02354036006	
538.125	0.05949421169	-0.1060940717	
538.75	0.1016506751	-0.05313219338	
539.375	-0.08346966265	-0.1964924254	
540.0	-0.1824172362	-0.05019575967	
540.625	-0.0726984015	-0.03840591702	
541.25	-0.03726664442	-0.04416163142	
541.875	-0.03379488536	0.03100317912	
542.5	-0.01144857273	-0.08834708337	
543.125	-0.1129895816	0.01192306487	
543.75	0.02408067359	0.003199133178	
544.375	-0.06033893514	0.08224912024	
545.0	0.007547387869	0.008514441885	
545.625	0.005419643352	0.1331418163	
546.25	0.1072619108	-0.02465154319	
546.875	0.0376556841	-0.0003821222736	
547.5	0.1024616946	-0.1248514159	
548.125	-0.1003142486	-0.1334713127	
548.75	-0.05132459122	-0.06025937988	
549.375	-0.127796382	-0.09095364043	
550.0	-0.03837581177	0.04438419017	
550.625	-0.07874987851	-0.02578017786	
551.25	-0.03386542321	0.05498657265	
551.875	-0.07104770888	0.0309845125	
552.5	-0.0421386174	0.09322465734	
553.125	0.008299591672	0.04830744272	
553.75	0.02811442294	0.04356980973	
554.375	0.0889271336	-0.0138198567	
555.0	0.07789054274	-0.06346342964	
555.625	0.07911280767	-0.09674191096	
556.25	0.04749435119	-0.1298977321	
556.875	-0.03785104068	-0.1351898217	
557.5	-0.09092146909	-0.0877291534	
558.125	-0.1119851012	-0.02751054875	
558.75	-0.09554031491	0.01033278506	
559.375	-0.09520437707	0.02022792857	
560.0	-0.09227081252	0.07905229083	
560.625	-0.01975875709	0.1091273983	
561.25	-0.01065514782	0.07663019938	
561.875	0.05595576424	0.04924755958	
562.5	-0.01746670209	0.03200485767	
563.125	0.1072793112	0.07372203701	
563.75	0.08693454428	-0.0240646365	
564.375	0.1396901022	-0.06215668652	
565.0	0.04922235374	-0.1775841426	
565.625	-0.06975674598	-0.09013735592	
566.25	-0.06675794017	-0.129499858	
566.875	-0.2117828751	-0.04003261769	
567.5	-0.0726064024	-0.05913169811	
568.125	-0.1671623277	-0.1834701193	
568.75	-0.1898628192	0.01711160835	
569.375	-0.1929451452	-0.01372078936	
570.0	-0.1195427379	0.2650848541	
570.625	0.05330621532	0.1190699325	
571.25	-0.05560776666	0.08520847206	
571.875	0.1540021133	0.05778890618	
572.5	0.02424726998	0.007403572341	
573.125	0.1515642102	-0.1351877409	
573.75	-0.0521126401	-0.1270959788	
574.375	0.1072686274	0.01328049749	
575.0	-0.01240496358	-0.1268832286	
575.625	0.0396341611	0.02362649211	
576.25	0.1058227972	-0.1397926276	
576.875	-0.07745717094	-0.1464176488	
577.5	-0.0108678363	-0.05926509012	
578.125	0.04799557671	-0.2050337539	
578.75	-0.1659845373	-0.07998029437	
579.375	0.04563026819	0.002612527327	
580.0	-0.1202162581	-0.09417681304	
580.625	0.023942185	0.0319209596	
581.25	-0.1755802254	0.0353553294	
581.875	0.1513122029	0.2032965988	
582.5	0.07530751582	0.01033052801	
583.125	-0.01427751436	0.10666851	
583.75	0.1439580424	0.012341691	
584.375	-0.09154748008	0.04167688355	
585.0	0.1904968898	0.07237930934	
585.625	0.06865217411	-0.05996217445	
586.25	0.179236563	0.008300765913	
586.875	-0.02468057879	-0.1966407498	
587.5	0.00601111568	-0.03923359898	
588.125	0.02923065399	-0.1842833951	
588.75	-0.04890343092	-0.1702835404	
589.375	-0.006795875815	-0.04127174773	
590.0	-0.002333865819	-0.2347311309	
590.625	-0.2118553285	0.05333927248	
591.25	-0.04771458288	0.002079730736	
591.875	-0.08758684483	0.1712546433	
592.5	0.1033826718	-0.06015883889	
593.125	-0.06306320472	0.1352653785	
593.75	0.07373807394	-0.00742490337	
594.375	0.04808938273	0.1721838682	
595.0	0.2193227454	0.1397018652	
595.625	0.1800942572	-0.039358833	
596.25	0.09065870179	0.1000169333	
596.875	0.2169305785	0.04074830532	
597.5	0.07868350958	0.006829366616	
598.125	0.1044909822	0.1598656914	
598.75	0.2161570431	-0.00220251547	
599.375	0.1515602133	0.008160117343	
600.0	0.2042465461	-0.1372064893	
600.625	0.07928779853	-0.2382268034	
601.25	-0.01715802494	-0.1142086747	
601.875	0.008621924097	-0.1799653111	
602.5	-0.1818457187	0.06202661704	
603.125	-0.01311301075	0.0121198686	
603.75	-0.2206213761	0.08781640846	
604.375	-0.006441576663	0.1402314369	
605.0	-0.2017087157	0.01418330986	
605.625	-0.0641445866	0.1650854515	
606.25	-0.0156606577	0.007030006071	
606.875	-0.2493825036	0.05007664217	
607.5	-0.04856022211	0.1734485614	
608.125	-0.01109779663	0.1313379936	
608.75	0.1831153199	0.153792981	
609.375	0.2439137318	-0.130318948	
610.0	0.1525968489	-0.1581636112	
610.625	0.1353733034	-0.1994956283	
611.25	-0.1051493313	-0.109213197	
611.875	0.01427948965	-0.1263328255	
612.5	-0.2144177653	-0.09928778916	
613.125	-0.0810105314	0.122795605	
613.75	-0.1219496346	0.04110715969	
614.375	0.09460057714	0.1998723201	
615.0	0.03781815273	-0.07635977462	
615.625	-0.0008889968344	0.1953244015	
616.25	0.0925695914	0.1083490161	
616.875	-0.13576153	0.1369133654	
617.5	-0.03130865232	0.2934630829	
618.125	0.0663023231	0.1556679626	
618.75	-0.06177385739	0.1567435467	
619.375	0.08170515252	0.1321153403	
620.0	0.2069321069	0.00270353712	
620.625	0.1163363365	-0.08312830866	
621.25	-0.1418072274	-0.2306939573	
621.875	-0.2460550972	0.03545822771	
622.5	-0.1661348119	-0.007011599224	
623.125	-0.05442379462	0.2941993062	
623.75	0.08099133291	-0.03460203637	
624.375	0.1052209477	0.03184905652	
625.0	-0.04599825463	-0.06453099301	
625.625	0.06714855213	-0.01770188507	
626.25	-0.06037934386	-0.1938918643	
626.875	-0.1560244718	0.004715069436	
627.5	-0.05342716742	-0.07757322212	
628.125	-0.1477341989	-0.06443325075	
628.75	-0.04918971316	-0.03556108924	
629.375	-0.06061106271	-0.2021086947	
630.0	-0.2002767476	-0.05963082878	
630.625	-0.1551795186	0.09354026335	
631.25	-0.1590816928	0.1853517205	
631.875	0.04952010034	0.2634220344	
632.5	0.1295586444	0.09863475069	
633.125	0.1004590125	0.1172181978	
633.75	0.2024785371	-0.155320738	
634.375	0.01785109722	-0.05426582692	
635.0	0.04557439974	-0.227458455	
635.625	-0.1583189347	0.00845546289	
636.25	-0.09257736048	-0.05807109086	
636.875	-0.09435014616	0.2019799055	
637.5	0.04838658438	0.03621349683	
638.125	-0.1382031599	0.05319484547	
638.75	-0.0263767648	0.2480910212	
639.375	0.0446233097	0.1169856004	
640.0	0.06136636214	0.2767124974	
640.625	0.3126606387	0.1261065259	
641.25	0.1554564191	-0.05330795906	
641.875	0.2593863378	-0.1457647839	
642.5	-0.1414901864	-0.2066614907	
643.125	-0.009600569618	-0.06449656479	
643.75	-0.1293091343	-0.2227724661	
644.375	-0.1598231473	0.1287994343	
645.0	-0.1270234756	0.009421110931	
645.625	-0.007957480026	0.4096474191	
646.25	0.2337466565	-0.1100848659	
646.875	-0.01769167698	0.1272796703	
647.5	0.1900750042	-0.06189093432	
648.125	-0.06212629767	0.1514438872	
648.75	0.3743594844	-0.09702754811	
649.375	0.003188907926	-0.2937276492	
650.0	0.1339096466	-0.1280732963	
650.625	0.2646568848	-0.3340220105	
651.25	0.03311732233	-0.3250177295	
651.875	0.1301154166	0.01427718257	
652.5	0.387021937	-0.1049151144	
653.125	0.1227037218	-0.2133419065	
653.75	0.2446311685	-0.08767028061	
654.375	-0.1473520183	-0.3929581931	
655.0	-0.2035299129	0.04713602468	
655.625	-0.1481512794	-0.01459739076	
656.25	0.05362090804	0.2905510261	
656.875	0.1453224577	-0.2229618457	
657.5	-0.0480922162	0.2279052661	
658.125	0.2371309284	0.07006216872	
658.75	0.09182690604	0.04656178095	
659.375	0.50907552	-0.08036648919	
660.0	0.03933476083	-0.3712547122	
660.625	0.1377836137	-0.1595351112	
661.25	0.2144673581	-0.3779809422	
661.875	0.0637074488	-0.3061195254	
662.5	0.1827962091	-0.0558753241	
663.125	0.3358867788	-0.2242167045	
663.75	0.009681802119	-0.2908028448	
664.375	0.04084816615	-0.2242471707	
665.0	-0.3182989106	-0.2560065256	
665.625	-0.1826284198	0.1723069946	
666.25	-0.1519412555	0.178095289	
666.875	0.1873755707	0.2507705143	
667.5	0.1393876743	-0.03156699577	
668.125	0.1889255008	0.140684087	
668.75	0.197501843	-0.2417708663	
669.375	-0.04961646079	-0.06696154175	
670.0	0.116153245	-0.1839352047	
670.625	-0.1045769373	-0.2743844509	
671.25	0.02381898187	-0.02878946814	
671.875	0.2156207817	-0.3136902487	
672.5	0.08699983174	-0.2026680772	
673.125	0.1521755839	-0.05938251471	
673.75	0.2349678436	-0.2611279065	
674.375	-0.111837961	-0.2097415762	
675.0	0.01034652835	-0.1418305865	
675.625	-0.2287329035	-0.1896208913	
676.25	-0.1669579793	0.1060003735	
676.875	-0.0920714999	-0.1055193964	
677.5	-0.2257255238	0.1245036208	
678.125	-0.01260904758	0.07786990223	
678.75	-0.07615721398	0.2252456578	
679.375	0.370164716	0.05459409797	
680.0	-0.04180950154	-0.1264475691	
680.625	0.158041601	0.02072922545	
681.25	0.0812384368	-0.266157465	
681.875	-0.08398060504	0.09258095633	
682.5	0.5082661798	0.186717014	
683.125	0.2010219305	-0.1784853157	
683.75	0.1307353746	0.1678402149	
684.375	0.4147788834	0.06276110057	
685.0	0.07239234444	-0.1184841006	
685.625	0.2248529622	0.2181516201	
686.25	0.4175864663	-0.1648180367	
686.875	0.1321289309	-0.1489645702	
687.5	0.3011256197	-0.1917866928	
688.125	-0.1061036919	-0.5669949452	
688.75	-0.2925401125	0.04548837893	
689.375	-0.3472115884	0.2102887899	
690.0	0.2177471508	0.3930769021	
690.625	0.1280987274	0.06433402313	
691.25	0.3374645515	0.4235441984	
691.875	0.5453698813	0.0391326748	
692.5	0.3580096132	0.1633858422	
693.125	0.9043359332	0.03771149398	
693.75	0.5310920538	-0.4829827429	
694.375	0.1848502941	-0.2198258857	
695.0	0.5721909663	-0.3451639783	
695.625	0.3333799003	-0.2216571804	
696.25	0.3549749314	0.1767024047	
696.875	0.5316004855	0.4606407691	
697.5	0.372468023	0.1451220493	
698.125	0.410346534	0.2935626978	
698.75	0.3758911245	-0.3498608232	
699.375	-0.4928467296	-0.2085358651	
700.0	-0.1446945068	0.1830221068	
700.625	0.05353864009	0.3780968127	
701.25	0.2579886749	-0.02115422728	
701.875	0.1148261311	0.2511306667	
702.5	0.4736518267	0.2704030714	
703.125	0.2715980588	-0.05535146135	
703.75	0.437644584	0.03817809106	
704.375	0.3063330599	-0.3032202794	
705.0	0.05734034642	-0.1393902902	
705.625	0.3254477676	0.1092705266	
706.25	0.2223301911	0.04689393791	
706.875	0.1129564946	0.1598323143	
707.5	0.2077383175	0.3852060173	
708.125	0.3995431834	0.150632835	
708.75	0.1770580988	-0.3249510865	
709.375	-0.2321395008	-0.3625813138	
710.0	-0.1203315097	0.2631220075	
710.625	0.07867610525	-0.005060991545	
711.25	0.08785662789	0.2657135685	
711.875	0.1605421713	-0.04413290391	
712.5	0.2559169408	0.09007537575	
713.125	0.3278989709	-0.2273142211	
713.75	-0.001628172302	-0.250297159	
714.375	0.09030874303	-0.1605723537	
715.0	-0.06462737498	-0.2902630955	
715.625	-0.05455112558	-0.09108401049	
716.25	0.2410701722	-0.1635657574	
716.875	0.2945985586	-0.2893068309	
717.5	0.2055262183	-0.02177722789	
718.125	0.6936224244	0.1728942647	
718.75	0.733942861	-0.1637909069	
719.375	0.2754347582	-0.1843910059	
720.0	0.5694065219	-0.08750460055	
720.625	-0.1608757913	-0.870196059	
721.25	-0.1284591336	-0.2727556698	
721.875	0.04627365295	-1.105276695	
722.5	-0.8054161682	-0.4081532229	
723.125	-0.4464690374	-0.2092716987	
723.75	-0.6819606495	0.5145330046	
724.375	0.2226388145	0.3533527778	
725.0	-0.04432316207	0.2418647865	
725.625	0.2120109482	0.597004765	
726.25	0.2557381688	0.3686063971	
726.875	-0.2858442628	0.6962282751	
727.5	-0.05627530127	1.503359602	
728.125	0.572503447	1.242363769	
728.75	-0.7818801305	1.836334093	
729.375	-0.5917628937	4.19861542	
730.0	1.171962563	2.035351463	
730.625	-0.6619790424	1.756550578	
731.25	-0.4168266834	4.019921022	
731.875	-0.1821921435	2.239129669	
732.5	-3.10727085	0.09782560873	
733.125	-2.955663453	0.9153853856	
733.75	-0.06306033555	1.084041714	
734.375	0.2622493969	0.9308963748	
735.0	-0.3499456188	-0.7874375337	
735.625	-0.09201686364	-0.009997339664	
736.25	-0.3048433551	0.5587004326	
736.875	0.7714700809	0.3712858669	
737.5	0.3553196678	-0.01753402911	
738.125	1.840371838	0.2413859821	
738.75	1.309813469	-2.01938368	
739.375	0.40513477	-0.835142467	
740.0	3.687962834	0.5736220276	
740.625	3.765282621	-3.78976494	
741.25	-2.556278981	0.16455201	
741.875	-4.600335069	1.44121077	
742.5	-1.251309512	0.7136560285	
743.125	1.119785799	-1.356981148	
743.75	-0.2211745925	-1.249652725	
744.375	-0.2998747915	0.2210375886	
745.0	-0.09713829768	0.02864639053	
745.625	0.1052689859	-0.1681582713	
746.25	0.07343699966	-0.03879214432	
746.875	-0.2840547959	0.01257907281	
747.5	0.06016888659	0.2904146589	
748.125	0.04793749869	0.3193660813	
748.75	0.3260766524	0.5167782271	
749.375	0.2278424885	0.2965595838	
750.0	-0.2755107766	0.1100070017	
