!Created with skrf (http://scikit-rf.org).
# GHz S MA R 50.0 
!freq magS11 angS11
500.0 0.0173247774689 150.944184984
500.625 0.00886740412845 102.517440092
501.25 0.00913479812635 -58.9112283616
501.875 0.0385557713742 -172.824388395
502.5 0.0168177901483 147.290911651
503.125 0.0138983159587 33.7861480102
503.75 0.0193664940582 126.827476001
504.375 0.00525526701113 141.099173777
505.0 0.0125775210972 -66.6481876662
505.625 0.0389000415807 -80.0426433121
506.25 0.0406562989753 -105.431903573
506.875 0.0506761424115 -108.132973973
507.5 0.0408836559582 -125.629615341
508.125 0.065618245947 -81.9688384385
508.75 0.054112089481 -146.977026131
509.375 0.0455304723359 -158.314516501
510.0 0.0338966273958 -117.389422316
510.625 0.0549886224105 -156.669753739
511.25 0.042304339162 164.913692264
511.875 0.0473555130834 141.340662754
512.5 0.0387831643736 95.8269176376
513.125 0.0637961894992 56.2062513958
513.75 0.0527667654741 20.5003829631
514.375 0.0503922795025 29.2897666321
515.0 0.0548693394856 8.38373421563
515.625 0.0866032872221 48.5429485378
516.25 0.0847361163201 29.6745991635
516.875 0.106213613845 71.5218268091
517.5 0.115079578976 21.8187685114
518.125 0.213866638461 75.0753569349
518.75 0.0789469258593 7.90460942072
519.375 0.0702564711644 15.3964131155
520.0 0.110923852919 -1.74874481445
520.625 0.103408744657 -5.65367043439
521.25 0.0861073177116 -24.0939976168
521.875 0.0670023444128 2.89046980872
522.5 0.0944745955074 -32.8922100629
523.125 0.191157806071 -31.8698602742
523.75 0.20298792301 -63.4783384604
524.375 0.194245911679 -55.8649746778
525.0 0.0713813958523 -41.3556637622
525.625 0.0333609500705 -66.0843558252
526.25 0.039421712063 -17.924146409
526.875 0.0476154455003 -27.80906602
527.5 0.0542739007619 -25.1290461383
528.125 0.0324553592307 -61.6748120051
528.75 0.0642291965146 -72.0793471903
529.375 0.085510685514 -116.239657023
530.0 0.0585391612258 -126.30790047
530.625 0.0226717218644 -128.816662633
531.25 0.101012427672 -129.327974115
531.875 0.154406535705 -148.924228292
532.5 0.15806783313 -170.192835762
533.125 0.0870812484819 173.387853112
533.75 0.108391524534 169.683933369
534.375 0.103830840191 177.602444319
535.0 0.0909047420168 164.05407066
535.625 0.0625745075416 177.569341073
536.25 0.0513464961791 166.169278873
536.875 0.0762830302598 -159.479503023
537.5 0.107299236243 -145.540033419
538.125 0.0889202399453 -172.548106122
538.75 0.0940684498239 178.35920103
539.375 0.0674892803015 -164.607020192
540.0 0.102550679785 -157.165771951
540.625 0.100272305267 -152.49207543
541.25 0.113277807248 -140.228525894
541.875 0.0979776125962 -141.968544889
542.5 0.118060004999 -144.063123303
543.125 0.116240949843 -165.249558252
543.75 0.118786622564 159.402721052
544.375 0.0927155350026 134.837784714
545.0 0.0917411796763 92.2518309035
545.625 0.0964607620864 84.1852583234
546.25 0.0890820667349 67.5005663216
546.875 0.0899522468747 56.1442161016
547.5 0.120650558937 58.3459791412
548.125 0.0912194627383 76.5813171202
548.75 0.0778733381341 90.5301298419
549.375 0.0895576612962 83.4212089941
550.0 0.0940018926854 127.400524346
550.625 0.0432289190551 158.43347007
551.25 0.0395131170569 -137.583178493
551.875 0.0641117749641 -156.523380169
552.5 0.120021758862 -167.218443899
553.125 0.0805835142408 -161.021738613
553.75 0.088376523021 -166.752420832
554.375 0.110981223912 166.202907934
555.0 0.130859176441 163.317151915
555.625 0.100484818708 157.657312512
556.25 0.0944861152155 165.282038257
556.875 0.115525306604 167.662182916
557.5 0.109375584425 167.193392683
558.125 0.104461576111 163.835368842
558.75 0.0802659262474 178.710972771
559.375 0.0636618881946 -176.733369796
560.0 0.0493820482309 -151.341761892
560.625 0.0580751813868 -139.498458559
561.25 0.0879069954464 -149.495477679
561.875 0.107372770692 -163.372545372
562.5 0.0938164422601 174.257255875
563.125 0.102232048631 148.989268553
563.75 0.125717618533 133.923629756
564.375 0.0999515666787 121.995426993
565.0 0.0929589056916 118.318862774
565.625 0.0798472480572 118.542103097
566.25 0.0934649993638 154.724842415
566.875 0.075562755707 -179.634800863
567.5 0.0738429218297 -176.507393519
568.125 0.0868136505945 -173.166140345
568.75 0.0543099635894 -136.715174079
569.375 0.0469208944028 -102.127997008
570.0 0.0592565520243 -104.236766733
570.625 0.0947540953998 -119.918211818
571.25 0.0894114723112 -117.738540591
571.875 0.0873605340791 -122.661386465
572.5 0.112928230351 -155.820744666
573.125 0.14632915916 -176.694243805
573.75 0.0911749895099 167.860212646
574.375 0.0820040239123 150.50633515
575.0 0.106070882274 154.746481877
575.625 0.113747050909 152.736974971
576.25 0.0881462622804 147.30070315
576.875 0.0739362848701 126.355913729
577.5 0.085152951154 135.481808657
578.125 0.0596336644232 160.786004287
578.75 0.0472212466626 165.345633467
579.375 0.0560902318044 161.961883302
580.0 0.0690745910495 -174.624469099
580.625 0.0787386406582 -155.838593317
581.25 0.0898292278407 -158.090503023
581.875 0.113676065991 -172.390238056
582.5 0.109309485645 -171.596682447
583.125 0.0968453343118 -173.472003985
583.75 0.0787904495919 -157.667737153
584.375 0.101930550216 -154.918818874
585.0 0.0961322288704 -146.604340217
585.625 0.0757527616467 -153.307221733
586.25 0.0666382018981 -123.654900257
586.875 0.0804128337525 -127.456623611
587.5 0.0712480234802 -139.2985514
588.125 0.0606734276904 177.833697064
588.75 0.0684558048058 -145.115772164
589.375 0.0876960780156 -149.001551373
590.0 0.0901477772008 -168.883616102
590.625 0.10355578929 161.413803037
591.25 0.117410341983 159.066838625
591.875 0.0943967937141 158.321361054
592.5 0.0651679716509 142.676075235
593.125 0.0614921253191 145.261698856
593.75 0.0636929404869 -170.617121027
594.375 0.0575821126479 -145.412195254
595.0 0.0407526570326 -111.651542897
595.625 0.0586060338418 -106.994530774
596.25 0.0738986505033 -82.1703940171
596.875 0.0692350897418 -69.0620548683
597.5 0.05856297334 -64.7807980708
598.125 0.0577806970921 -69.5009856588
598.75 0.0859555566788 -54.6396692587
599.375 0.0945256007403 -59.734849937
600.0 0.106219493815 -60.0318875858
600.625 0.0970030637405 -74.9578469042
601.25 0.082107217862 -64.157453513
601.875 0.0683856693446 -82.6262375072
602.5 0.061540731532 -89.5748334231
603.125 0.0439675628693 -66.1405546006
603.75 0.0280731838843 -53.6239214721
604.375 0.0481442801745 -13.4894679089
605.0 0.0689220547686 -12.3357890965
605.625 0.0555219509206 5.16140623912
606.25 0.0193077504885 -21.2097436581
606.875 0.0574867645101 55.7237505601
607.5 0.0690326824072 45.1438983435
608.125 0.073761700897 29.4804475027
608.75 0.0555513154926 15.5354533415
609.375 0.0717147137617 34.0808268785
610.0 0.0785403614335 44.4761244542
610.625 0.0677020405162 42.2568246176
611.25 0.0433784699971 14.1300488164
611.875 0.0523152384268 74.257889476
612.5 0.0286600673844 96.7586164335
613.125 0.0243201425676 133.920080623
613.75 0.0335160906119 123.742455656
614.375 0.0355749625086 120.669117742
615.0 0.0351678736231 118.557095949
615.625 0.0218546977456 137.656891374
616.25 0.0500642668728 134.1655781
616.875 0.0340713057414 124.817246337
617.5 0.0370916088311 120.087137177
618.125 0.0248595073603 136.285534598
618.75 0.0312114357091 140.920257154
619.375 0.0111043801675 135.91531822
620.0 0.0111823647662 148.247367032
620.625 0.0214082315828 -117.290087982
621.25 0.0522495929894 -79.3345406025
621.875 0.0684890141909 -112.19912525
622.5 0.0748970411826 -165.929321363
623.125 0.0704822728571 169.450835547
623.75 0.0617122719071 164.701806503
624.375 0.0354087426385 -167.309201531
625.0 0.0539531029764 -151.201839769
625.625 0.0443274928721 -159.31243139
626.25 0.0314643769294 169.358712837
626.875 0.0229449070622 -5.47843313647
627.5 0.0246839784142 -98.5413952963
628.125 0.0376267622092 -36.5811570505
628.75 0.0360214772885 -32.7125158334
629.375 0.064184918812 1.26121092473
630.0 0.0642069743528 -14.3825172724
630.625 0.0684389598794 -4.638509919
631.25 0.0664844095484 1.65509596353
631.875 0.0753663486686 10.4147305206
632.5 0.0730649211735 -29.1571334234
633.125 0.0477109858387 -4.9741419663
633.75 0.0444892106908 10.4312052657
634.375 0.0498292193559 25.5437089225
635.0 0.0427232736928 34.0993879595
635.625 0.027429904249 27.4508589934
636.25 0.0486466433951 36.2463218272
636.875 0.0601780689263 32.3956275403
637.5 0.0559488238091 55.2019433875
638.125 0.0238835964504 31.5515363858
638.75 0.0662608933565 68.8776017129
639.375 0.0965450522018 89.9029384115
640.0 0.077439669091 110.010477534
640.625 0.0522559984895 87.125342329
641.25 0.0653719590085 121.366576034
641.875 0.061249724978 142.761243774
642.5 0.0674641829809 163.204124313
643.125 0.0454530874586 143.374923658
643.75 0.059547864482 166.130050987
644.375 0.065940200985 179.594387675
645.0 0.0914451282026 -178.884744738
645.625 0.0783348700768 160.352071128
646.25 0.0836437006591 162.209839362
646.875 0.0792216065726 -176.631626759
647.5 0.0709604201381 -173.799631699
648.125 0.0813936840885 -177.849061037
648.75 0.0725039395721 -166.025985756
649.375 0.0486075497616 -146.779728059
650.0 0.0467073532335 -115.61500292
650.625 0.0786827522561 -87.6612457218
651.25 0.0605594696653 -66.4006564287
651.875 0.0612381032101 -40.4803949567
652.5 0.0827074352141 -23.8439134964
653.125 0.13607928221 -1.2508089398
653.75 0.106786131938 4.8992465085
654.375 0.108065092562 6.67886163969
655.0 0.124930700672 14.3367739967
655.625 0.101003295775 27.8504517475
656.25 0.0564042811318 19.0572811672
656.875 0.0655702002746 9.52572792853
657.5 0.0754080591577 22.2486384779
658.125 0.08240646587 48.934418606
658.75 0.0382016168085 70.5125226143
659.375 0.0765082896837 45.0889554179
660.0 0.114372390508 25.9922580775
660.625 0.120068564801 18.1293630326
661.25 0.0949848566126 3.58098309464
661.875 0.122146268796 -12.9534602803
662.5 0.116561820712 -23.9946762211
663.125 0.115573152814 -15.6906613937
663.75 0.076238320677 0.10121102576
664.375 0.0871393727284 53.5092891573
665.0 0.0747406897574 92.5007840912
665.625 0.0637865912226 112.792041588
666.25 0.0810159171776 130.90425838
666.875 0.117911605114 166.569760751
667.5 0.0982364963003 -169.641896141
668.125 0.108204206996 179.861398438
668.75 0.126237698691 168.128123996
669.375 0.12136292848 179.040449757
670.0 0.0868483724144 -169.549808525
670.625 0.0956395390508 -172.961052146
671.25 0.0910499052361 176.772442369
671.875 0.0904667867868 169.016010032
672.5 0.0692363578593 154.407152729
673.125 0.0912273071049 151.205071185
673.75 0.110628208558 159.807525065
674.375 0.119487524915 167.445127824
675.0 0.119380882802 -175.423424528
675.625 0.138099084544 -151.588666628
676.25 0.121123693718 -124.353612639
676.875 0.119008197526 -120.727620484
677.5 0.124503254261 -128.189041788
678.125 0.138695916644 -117.434410725
678.75 0.049861238621 -92.1936081778
679.375 0.044990799089 -68.4675418321
680.0 0.0746708658381 -77.6482143293
680.625 0.132861088405 -80.7287610603
681.25 0.100869562352 -70.9633926308
681.875 0.0993708114634 -91.1222606364
682.5 0.141731810693 -120.910701354
683.125 0.167102589483 -121.731154976
683.75 0.147630181183 -106.765104151
684.375 0.0990678784514 -74.4136009289
685.0 0.129468915196 -38.239280783
685.625 0.126717431109 -1.71911819605
686.25 0.12056415843 18.4294605881
686.875 0.0657902725504 52.2247499213
687.5 0.06777061664 89.3392413419
688.125 0.0766312765911 109.101394264
688.75 0.107184197315 107.520479066
689.375 0.123930756875 130.514776428
690.0 0.132480690982 134.597967128
690.625 0.117452168578 124.435200277
691.25 0.146997708886 95.9643623349
691.875 0.194906431133 67.1845248217
692.5 0.140371697474 40.6590951184
693.125 0.0885723283887 -13.6731322591
693.75 0.0915513007078 -38.0038632052
694.375 0.146296457242 -35.632462338
695.0 0.11124039282 22.8589428055
695.625 0.101131776316 55.967866943
696.25 0.112472665769 110.468447928
696.875 0.138483898148 172.406517693
697.5 0.148870201497 -149.018883543
698.125 0.132244945561 -131.180940864
698.75 0.138789719823 -134.865555298
699.375 0.116361775975 -129.697509507
700.0 0.0843275498121 -101.720683036
700.625 0.105829104719 -85.1198690436
701.25 0.0954743208484 -63.9903752991
701.875 0.0843960106109 -65.5018410392
702.5 0.0990262763843 -75.4558367601
703.125 0.17149331089 -120.93267788
703.75 0.186608653061 -153.509084133
704.375 0.128878542643 171.626891337
705.0 0.115002313983 153.207076487
705.625 0.132664304443 -156.837444804
706.25 0.13824301768 -107.426753533
706.875 0.0849520541728 -59.0173541164
707.5 0.0792041731356 -44.5591589726
708.125 0.0900062285461 31.5885335514
708.75 0.113415553072 68.6031889526
709.375 0.102369742406 108.114739582
710.0 0.101971916875 127.660552511
710.625 0.107986207872 148.736282859
711.25 0.119559544923 175.715537107
711.875 0.148900694739 168.952792657
712.5 0.156812513971 137.276066093
713.125 0.113538480177 111.628460275
713.75 0.0999229666119 49.6896246342
714.375 0.115239373054 16.776307798
715.0 0.114064469219 30.2547644215
715.625 0.0846869546661 41.3981830472
716.25 0.0907684290606 92.04222454
716.875 0.127730585941 111.920408622
717.5 0.138858329835 151.701891522
718.125 0.117211600337 162.825385064
718.75 0.100654677208 176.00588156
719.375 0.116245022396 -170.066446442
720.0 0.135085974137 -123.749660455
720.625 0.114376025387 -75.485324937
721.25 0.097547914574 -21.2511312264
721.875 0.0790848046978 40.5033041967
722.5 0.0730009175678 85.3445139868
723.125 0.0685655164854 54.0734970061
723.75 0.120319614027 52.0407687024
724.375 0.111325825173 -1.48395317185
725.0 0.0868857981678 -48.5300743529
725.625 0.102998541947 -66.0698527891
726.25 0.104005028505 -80.6336758916
726.875 0.107830496468 -35.2131789392
727.5 0.0862620472391 -22.9498005434
728.125 0.0880927423125 8.40868339275
728.75 0.0782619541421 7.24388073111
729.375 0.091810350429 31.4747394205
730.0 0.0685907782294 3.97950630069
730.625 0.0687508099397 22.1570643062
731.25 0.0768275528955 63.9864826826
731.875 0.0566578332203 101.21149581
732.5 0.0952126466934 161.202100982
733.125 0.0969798106262 179.774721561
733.75 0.0765991754531 170.752748342
734.375 0.0560683484611 -179.452055007
735.0 0.0596345321377 149.924314833
735.625 0.0365028551952 146.247799371
736.25 0.0420763359305 143.790709518
736.875 0.0369637838773 175.564521868
737.5 0.0796967855927 175.212293471
738.125 0.104392594453 -175.533667543
738.75 0.0781196035849 -176.680767715
739.375 0.0287386903396 167.004745
740.0 0.0915178593754 -139.063985953
740.625 0.0671567631036 -153.760222867
741.25 0.0610231791176 -152.4973153
741.875 0.0212821438936 -103.875147884
742.5 0.0206946786348 1.79520926543
743.125 0.0404870235614 52.3781286454
743.75 0.0516660591142 99.1607820241
744.375 0.0406679378838 173.238805744
745.0 0.0900565960657 105.283102866
745.625 0.0750205579025 105.184391864
746.25 0.0787501322622 86.7936162292
746.875 0.0627976276839 40.7684138658
747.5 0.0399861741553 9.04222597441
748.125 0.0234070822723 -10.3532108331
748.75 0.0344237854986 -26.1467250359
749.375 0.0414855827488 -42.7399580386
750.0 0.0416192337141 -46.0235481818
