!Created with skrf (http://scikit-rf.org).
# GHz S RI R (50+0j) 
!freq	ReS11	ImS11	
500.0	0.06416541215	-1.580859122	
500.625	-0.06689929116	-0.4553351615	
501.25	-0.3165956392	-1.201203116	
501.875	-0.4948626517	-0.3392767288	
502.5	0.00618577274	-0.1243435236	
503.125	-0.1135765444	0.005765738328	
503.75	0.03342986324	-0.01190060587	
504.375	0.03709950003	0.02344020616	
505.0	0.005689025686	-0.04910014604	
505.625	0.037531985	-0.01176698208	
506.25	-0.1598474237	-0.1120229196	
506.875	0.1131927402	0.04297723401	
507.5	-0.1488874866	-0.722905106	
508.125	-0.2740982874	-0.607776799	
508.75	1.003170848	-0.5728058602	
509.375	0.1127295272	-1.829699626	
510.0	-0.4499024661	-0.09995110768	
510.625	0.002015531871	-0.2084172989	
511.25	-0.1681148241	-0.1438602679	
511.875	-0.0281369558	-0.03728089885	
512.5	-0.06160673559	0.05827741409	
513.125	-0.04364002033	-0.07458633985	
513.75	0.01046588848	-0.02567745824	
514.375	-0.116696667	-0.08583049704	
515.0	0.09946616097	0.2986636734	
515.625	-0.3295952369	-1.022661903	
516.25	-0.5825287909	-0.3147021224	
516.875	0.1417656346	-0.3670262973	
517.5	-0.1413546112	-0.2656847224	
518.125	0.01763436096	0.0190627771	
518.75	-0.02347547847	-0.2614463886	
519.375	-0.04020879974	0.06771347459	
520.0	0.05039837003	0.04352963068	
520.625	0.197099036	-0.04322159277	
521.25	-0.1188101238	-0.3257196941	
521.875	-0.04211115819	0.01251039914	
522.5	-0.09901169061	-0.02256406943	
523.125	0.02186225488	0.1090052177	
523.75	-0.08924742749	-0.1685827828	
524.375	-0.2530676553	0.1689727564	
525.0	0.03892064673	0.01370233191	
525.625	-0.03328849471	0.1407936407	
526.25	0.05952438367	-0.07963632417	
526.875	-0.1135879699	0.106714646	
527.5	0.0783425472	0.199025324	
528.125	-0.03430893413	0.3150354895	
528.75	-0.03453368528	0.359437474	
529.375	0.1031505522	-0.01557997951	
530.0	-0.1217901124	0.2536724405	
530.625	0.08911961944	0.3839069415	
531.25	0.2086742639	0.1341791055	
531.875	0.3644274539	-0.1015002093	
532.5	-0.2168759335	-0.07809731038	
533.125	0.1669254355	0.1542874361	
533.75	-0.002715309215	-0.2533747878	
534.375	0.04305304676	-0.1875185787	
535.0	-0.2947161899	-0.2245401954	
535.625	-0.1366974594	0.1809092337	
536.25	-0.03219941501	0.06890049789	
536.875	0.1373930177	0.03730438414	
537.5	0.02597429186	-0.05474652829	
538.125	0.1612982489	-0.01622965638	
538.75	0.1149300686	-0.201555811	
539.375	-0.05283918378	-0.1237295981	
540.0	-0.1395399221	-0.2417252841	
540.625	-0.211985491	-0.05869699207	
541.25	-0.02312907636	0.003254238748	
541.875	-0.03231714561	-0.08730781577	
542.5	-0.04408136923	0.01026196303	
543.125	0.04845514454	-0.1008555739	
543.75	-0.1341724321	0.04349276974	
544.375	-0.02463953784	-0.02327828128	
545.0	-0.02627342533	0.1233984538	
545.625	0.08704630397	-0.009489560466	
546.25	0.07352121313	0.1114348609	
546.875	0.1600348809	-0.08013151042	
547.5	0.04251849191	-0.07275462474	
548.125	0.03635307673	-0.2081622464	
548.75	-0.1879107682	-0.1159075022	
549.375	-0.06106900292	-0.04471620062	
550.0	-0.1234319381	-0.03180847174	
550.625	-0.02928146345	0.03908477685	
551.25	-0.1091814689	-0.01179194971	
551.875	-0.07270411307	0.1103809408	
552.5	-0.03977808182	0.04551118343	
553.125	-0.04769789928	0.07341329555	
553.75	0.04711387758	0.04073087661	
554.375	0.1025569843	0.01668802691	
555.0	0.1114366514	-0.080075134	
555.625	0.08790578582	-0.1097864784	
556.25	0.08095585557	-0.1437290433	
556.875	-0.03201273696	-0.1758941376	
557.5	-0.10423822	-0.1104482078	
558.125	-0.1192029452	-0.04694603165	
558.75	-0.1211341511	-0.012579224	
559.375	-0.1192124612	0.02682286226	
560.0	-0.09949964388	0.06548387	
560.625	-0.083795475	0.1266941998	
561.25	0.02935110209	0.1059325135	
561.875	-0.002452599576	0.04659345791	
562.5	0.04832753556	0.06998788553	
563.125	0.03129725623	0.06445345088	
563.75	0.1863542861	0.03280555502	
564.375	0.1068016949	-0.1299155025	
565.0	0.1033474133	-0.1016500388	
565.625	-0.00949935208	-0.2414654316	
566.25	-0.1242128057	-0.06426273462	
566.875	-0.1086020323	-0.136805934	
567.5	-0.2383846318	-0.1425053938	
568.125	-0.09408133104	-0.09568437223	
568.75	-0.2848456187	-0.2324012851	
569.375	-0.2573581167	0.1750515282	
570.0	-0.1069564993	0.1048553509	
570.625	-0.1626033299	0.2227991224	
571.25	0.08929457363	0.1155469208	
571.875	-0.03195341806	0.1080349569	
572.5	0.2286172029	-0.05864624565	
573.125	0.009589395244	-0.06123261101	
573.75	0.1952229623	-0.116558527	
574.375	-0.05857334252	-0.1460821967	
575.0	0.06629984302	0.06112978549	
575.625	0.05125420078	-0.1755278623	
576.25	-0.02902793434	-0.06023289934	
576.875	0.09875574246	-0.1618167592	
577.5	-0.04751353415	-0.2645764092	
578.125	-0.09888610665	-0.04963134848	
578.75	0.01292880051	-0.1810746859	
579.375	-0.1954225484	-0.1080757557	
580.0	0.07518999776	0.08692790905	
580.625	-0.1619420016	-0.1142891934	
581.25	0.02930852406	0.1332406244	
581.875	-0.08437214495	0.06948716409	
582.5	0.05992341567	0.2881380426	
583.125	0.1571084735	-0.0008411870439	
583.75	-0.06532401912	0.1202769006	
584.375	0.1461790577	0.0337440372	
585.0	0.006216041412	0.05876822526	
585.625	0.2547747513	0.06368787918	
586.25	0.07358607235	-0.1394550564	
586.875	0.09497740215	-0.03819806165	
587.5	0.002739334655	-0.2378744077	
588.125	-0.09616290946	-0.08413209192	
588.75	0.1339811933	-0.09207775782	
589.375	0.07052875907	-0.2645575942	
590.0	-0.06073549396	-0.08976594401	
590.625	-0.1641543032	-0.1657594603	
591.25	-0.1655940601	0.2789360314	
591.875	0.0174524761	0.02872201047	
592.5	-0.07586194734	0.1059886274	
593.125	0.05610317067	-0.02440187659	
593.75	-0.003106103029	0.3049306632	
594.375	0.2752386788	0.05776233169	
595.0	0.08988194703	0.04737086793	
595.625	0.1930550141	0.1856340472	
596.25	0.1984235265	-0.03687515465	
596.875	0.05702041848	0.05291560063	
597.5	0.2122204038	0.1745486776	
598.125	0.1882208964	0.03994428088	
598.75	0.1466266007	0.1369911652	
599.375	0.3154370643	-0.02253051663	
600.0	0.10463129	-0.1807081031	
600.625	0.1744970971	-0.09302644759	
601.25	0.1265813996	-0.2730540798	
601.875	-0.1444391559	-0.08628414508	
602.5	-0.06852618341	-0.1062517919	
603.125	-0.1895265666	0.1376869016	
603.75	7.163337197e-05	0.02803517043	
604.375	-0.241235543	0.04517287385	
605.0	-0.05136566203	0.1945103866	
605.625	-0.07479859742	-0.05689258555	
606.25	-0.2312092284	0.1160417063	
606.875	-0.1274120159	-0.01836958383	
607.5	-0.2348140764	0.08323320278	
608.125	-0.02460842561	0.3047086556	
608.75	0.1746636086	0.1228005294	
609.375	0.2347744737	0.01851618734	
610.0	0.2494532009	-0.1952274704	
610.625	0.02758333872	-0.1501938837	
611.25	0.1450981615	-0.1615111888	
611.875	-0.1803576175	-0.2212533308	
612.5	-0.05711336294	-0.03656193352	
613.125	-0.2945246011	-0.06236985636	
613.75	-0.04411352842	0.2672568519	
614.375	-0.03274050848	-0.01258639425	
615.0	0.0828362097	0.1720667371	
615.625	0.04757067427	-0.0244932482	
616.25	-0.1308865058	0.2224420351	
616.875	-0.0118603116	0.2640015991	
617.5	-0.01721072466	0.09841262053	
618.125	-0.1500990662	0.2534002932	
618.75	0.02533548177	0.2234313861	
619.375	0.09478318747	0.149767885	
620.0	0.2240466235	0.1596850376	
620.625	0.05997889917	-0.2456296231	
621.25	-0.005863056677	-0.1345408632	
621.875	-0.1751938135	-0.2064768626	
622.5	-0.237605052	0.1474600325	
623.125	-0.05682921171	0.08638092658	
623.75	0.1558006149	0.1615709644	
624.375	-0.003650346819	-0.1362376047	
625.0	0.1069469934	0.04589521656	
625.625	0.01941197119	-0.1762037839	
626.25	-0.01553960981	-0.05960759142	
626.875	-0.1402581736	-0.1879919108	
627.5	-0.1920318408	-0.02225371726	
628.125	-0.03463929106	-0.04472340999	
628.75	-0.08601438677	-0.2268901132	
629.375	-0.1462077468	-0.08664489054	
630.0	-0.1596216762	-0.07893004024	
630.625	-0.3055116503	0.05800319115	
631.25	-0.1549896215	0.284823009	
631.875	-0.1143617006	0.1900621932	
632.5	0.09532169139	0.3993611961	
633.125	0.2299208617	0.001105060273	
633.75	0.156041545	0.02168831384	
634.375	0.1419157792	-0.2266241441	
635.0	-0.09900650704	-0.07764260958	
635.625	-0.08094285848	-0.2212553607	
636.25	-0.2234079115	0.1393095547	
636.875	0.004963940386	0.0796998306	
637.5	-0.1564300541	0.09010935493	
638.125	0.03099811873	0.1860010656	
638.75	-0.1412235236	0.07321197457	
639.375	-0.02815824382	0.3767943013	
640.0	0.2190431993	0.1940632029	
640.625	0.1467154132	0.1328060869	
641.25	0.4119059347	0.06613722484	
641.875	0.09157975694	-0.2556244393	
642.5	0.09708452308	-0.1291695568	
643.125	-0.1196195091	-0.3658979383	
643.75	-0.121567772	0.0570203633	
644.375	-0.1938618138	-0.1713826013	
645.0	-0.1661977432	0.2872731129	
645.625	0.1380167416	-0.002941467171	
646.25	0.0661963003	0.2407507709	
646.875	0.1999847644	-0.152760569	
647.5	-0.1047049538	0.1432537162	
648.125	0.3626444305	0.02932927055	
648.75	0.141596751	-0.1327234644	
649.375	0.3376584654	-0.07222092125	
650.0	0.2591634537	-0.5402985673	
650.625	0.002694999543	-0.2265588888	
651.25	0.3655001373	-0.1028128738	
651.875	0.3699598331	-0.315041824	
652.5	0.1105741739	-0.1020469713	
653.125	0.4072440992	0.0417954762	
653.75	0.2180652599	-0.3922482067	
654.375	-0.01857220889	-0.162177162	
655.0	-0.251178324	-0.3306706774	
655.625	-0.2808129638	0.4037946786	
656.25	0.06523255971	-0.01647349821	
656.875	-0.05532562255	0.20230336	
657.5	0.1888704086	-0.04802818126	
658.125	-0.02182704136	0.2586536389	
658.75	0.5951402762	0.05027929551	
659.375	0.2096770661	-0.200732409	
660.0	0.3138799911	-0.1649417405	
660.625	0.2398949137	-0.4945737612	
661.25	-0.03230848508	-0.2448567906	
661.875	0.351785743	-0.1329430957	
662.5	0.3496804675	-0.3087485277	
663.125	0.1705729298	-0.1960163243	
663.75	0.3320792527	-0.1885049103	
664.375	-0.08863842781	-0.4744746449	
665.0	-0.2015139333	-0.1226758105	
665.625	-0.376598026	-0.06644706842	
666.25	-0.119895982	0.3923416093	
666.875	0.06530895802	0.1130577552	
667.5	0.1745115637	0.2911986859	
668.125	0.289733766	-0.1397855764	
668.75	0.1372400188	-0.04162252837	
669.375	0.269920623	-0.2702174573	
670.0	-0.2080700064	-0.2220224102	
670.625	0.1295292092	-0.1031616041	
671.25	0.07325132765	-0.3434065582	
671.875	0.01838419693	-0.1946758212	
672.5	0.2595365948	-0.001434825789	
673.125	0.3067070665	-0.2912997922	
673.75	0.07572255763	-0.1810975588	
674.375	0.181022165	-0.2145341858	
675.0	-0.1256030336	-0.3898058951	
675.625	-0.156101143	-0.003780212464	
676.25	-0.1385482385	-0.1937021624	
676.875	-0.2663993918	0.06974934053	
677.5	-0.02996042882	0.02018355634	
678.125	-0.3185746903	0.06007311629	
678.75	0.2093365198	0.3642962006	
679.375	0.05551750933	0.02632303677	
680.0	0.3429502624	0.04506873102	
680.625	0.02491397632	-0.2480375276	
681.25	0.03621012861	0.3239267277	
681.875	0.3750083288	0.01471016618	
682.5	0.1111478939	-0.04433000848	
683.125	0.2121284236	0.3398281242	
683.75	0.4919384713	0.08752492475	
684.375	-0.03086666731	0.1373088989	
685.0	0.3202356439	0.3026063144	
685.625	0.3832387301	-0.06389117683	
686.25	0.1396300704	-0.0822907306	
686.875	0.541844747	-0.08428572541	
687.5	0.211056857	-0.5030137965	
688.125	0.09019319227	-0.2993669254	
688.75	-0.4041938048	-0.4531089386	
689.375	-0.3657010503	0.4474421559	
690.0	-0.01392507228	0.1530920224	
690.625	0.2609711766	0.5209370816	
691.25	0.3965284505	0.1109751099	
691.875	0.1839733376	0.4392419316	
692.5	0.8216273449	0.418790993	
693.125	0.5959305805	-0.2271336995	
693.75	0.6640225955	0.01611475455	
694.375	0.6655967505	-0.4472875897	
695.0	0.265377668	-0.1353494634	
695.625	0.434943143	0.2129844571	
696.25	0.7845964256	0.2523013443	
696.875	0.304995769	0.4276742613	
697.5	0.2030805065	0.5734092917	
698.125	0.6006969904	0.4197989713	
698.75	0.2798226886	-0.4149435535	
699.375	-0.07413873946	-0.5825685383	
700.0	-0.5605965316	0.3033514021	
700.625	0.1927186259	0.197012775	
701.25	0.05544796553	0.349167895	
701.875	0.4868574511	0.2585934881	
702.5	0.1620758201	0.1632158481	
703.125	0.4388478414	0.3217711272	
703.75	0.5180954607	-0.2077674118	
704.375	0.1931218447	-0.05029520361	
705.0	0.4166164636	-0.02791344266	
705.625	0.1781224899	-0.008937078825	
706.25	0.08907077772	0.2019734255	
706.875	0.2521585649	0.481104882	
707.5	0.3671078222	0.2840342701	
708.125	0.4895847198	0.1294370618	
708.75	0.4906238011	-0.3301027244	
709.375	-0.3743532398	-0.3034410642	
710.0	-0.09258581443	0.09421320576	
710.625	-0.09340485777	0.3371084965	
711.25	0.07889414328	-0.01286412345	
711.875	0.1048255304	0.2733837729	
712.5	0.4451371209	-0.06037615841	
713.125	0.1147393107	-0.1472967087	
713.75	0.2931370648	-0.1785341985	
714.375	-0.02850401683	-0.3563507748	
715.0	-0.04639570111	-0.1017551102	
715.625	0.1662988481	-0.2728470556	
716.25	0.1655495805	-0.312150352	
716.875	0.2398812209	-0.02351974023	
717.5	0.7128457575	0.1751903324	
718.125	0.7785028872	-0.08207182446	
718.75	0.6079977477	-0.1444552974	
719.375	1.247398845	-0.2569569576	
720.0	0.3342949605	-0.9117515364	
720.625	0.1765712313	-0.3540993026	
721.25	0.6453777239	-1.492000144	
721.875	-0.4574265713	-0.8532978642	
722.5	-0.1145425698	-1.006366372	
723.125	-1.018769792	-0.3200762819	
723.75	-0.2345796169	0.5417272124	
724.375	-0.2233350857	0.3316253881	
725.0	0.3198685469	0.5867442918	
725.625	0.1830319392	0.1933679931	
726.25	-0.2247484129	0.7545195091	
726.875	-0.08313096972	1.246133133	
727.5	0.09354964219	1.011683526	
728.125	-1.021092963	1.888070297	
728.75	-0.06527401555	3.43598825	
729.375	0.1552697188	2.852757452	
730.0	-2.346000401	3.924881274	
730.625	0.6007097701	5.742372226	
731.25	0.6817388357	2.486713341	
731.875	-4.346276055	1.114022799	
732.5	-5.934449438	1.98484544	
733.125	-1.405482476	0.3570906515	
733.75	-2.304564954	0.6403829539	
734.375	1.432342106	0.4345062088	
735.0	0.04211748112	-0.3174248719	
735.625	-0.6983627715	-0.2142760085	
736.25	0.3881261805	0.7335374493	
736.875	-0.1865419804	0.4568295724	
737.5	1.456143541	0.6254898661	
738.125	1.532885256	-0.947748236	
738.75	0.7222854796	-0.4395090785	
739.375	4.201218447	-0.5100567979	
740.0	2.629532132	-5.043384096	
740.625	-0.4653429778	1.396300599	
741.25	-0.5068539375	6.827722499	
741.875	1.630097059	2.680829041	
742.5	1.474451179	-3.293885274	
743.125	-0.09358054916	-3.060053862	
743.75	-0.2157447721	-0.4951837476	
744.375	-0.2523834536	-0.4681959644	
745.0	0.2327243844	0.4280651092	
745.625	-0.03736192481	0.07371076519	
746.25	0.000502225146	-0.223045683	
746.875	-0.1642802879	0.09974683878	
747.5	-0.259770298	0.1728687406	
748.125	0.04474999705	0.7355345777	
748.75	0.3259691443	0.3914863379	
749.375	-0.05626047142	0.4694668493	
750.0	-0.5221389944	0.2974177689	
