!Created with skrf (http://scikit-rf.org).
# GHz S RI R (50+0j) 
!freq	ReS11	ImS11	
500.0	0.1610875201	-1.026995157	
500.625	0.2460255484	-1.064505972	
501.25	-0.3966824247	-0.6880406959	
501.875	-0.2338232871	-0.4344765072	
502.5	-0.04234136772	-0.1472234482	
503.125	-0.07569397594	0.00184998458	
503.75	0.0085838586	0.08472141727	
504.375	0.02782492388	-0.004452202277	
505.0	0.02201852319	-0.01976201419	
505.625	0.002268190467	-0.05318899836	
506.25	-0.06335659761	-0.06104321565	
506.875	-0.1273574202	0.004305787429	
507.5	-0.05921856204	-0.3771177522	
508.125	0.2086370994	-0.6675965278	
508.75	0.6037837608	-0.9369080476	
509.375	-0.08348349025	-1.296553568	
510.0	-0.5285490661	-0.4840546547	
510.625	-0.08567414832	-0.2313803031	
511.25	-0.1187345544	-0.04141528259	
511.875	-0.1650019543	-0.01919638333	
512.5	-0.04450026726	0.03341216812	
513.125	-0.006981997315	-0.08778444194	
513.75	-0.03207169818	-0.04567064561	
514.375	-0.05894032612	-0.01666383125	
515.0	0.0055762904	-0.04657453209	
515.625	0.05310211799	-0.3324805143	
516.25	-0.1242082948	-0.615000209	
516.875	-0.2083022183	-0.4321008745	
517.5	-0.03513539906	-0.164531816	
518.125	-0.0274124027	-0.03447767836	
518.75	-0.05562507654	-0.1510447495	
519.375	-0.06033213553	0.04178293911	
520.0	0.1088703349	0.06445324652	
520.625	0.1634512007	-0.05099914252	
521.25	-0.007117776964	-0.2668284139	
521.875	-0.1461865555	-0.03388744694	
522.5	-0.04927574703	0.02333121755	
523.125	-0.06008374477	0.02416408172	
523.75	-0.1094797781	-0.01448115427	
524.375	-0.1618549163	0.02430210195	
525.0	-0.05264155292	0.1372333812	
525.625	0.03445378044	0.05067745283	
526.25	-0.01214721959	-0.01411687969	
526.875	-0.05569240892	0.05233098401	
527.5	-0.04974050235	0.1868194352	
528.125	0.05146451067	0.2691577116	
528.75	0.01940167847	0.2264934771	
529.375	0.04702437554	0.06792848662	
530.0	0.01525408635	0.154466936	
530.625	0.08663473352	0.3107701709	
531.25	0.4139865541	0.1479171979	
531.875	0.2470782693	-0.1751428298	
532.5	-0.03309991502	-0.1199919515	
533.125	0.05699724664	-0.0446384254	
533.75	0.1174929225	-0.1766170249	
534.375	-0.06402738423	-0.2870457944	
535.0	-0.2439281459	-0.1226922701	
535.625	-0.1740421201	0.1001814341	
536.25	-0.006855424521	0.09816919485	
536.875	0.09685682416	0.02149571238	
537.5	0.07113106905	-0.04071779536	
538.125	0.1191357663	-0.05915929023	
538.75	0.1351899066	-0.1222514369	
539.375	-0.07369349849	-0.1728378358	
540.0	-0.1633101036	-0.1571342657	
540.625	-0.1695110419	-0.03420338072	
541.25	-0.08920679793	0.0004207100676	
541.875	-0.04316527507	-0.02477727873	
542.5	-0.04476193801	-0.05767940972	
543.125	-0.08007591513	-0.05072763031	
543.75	-0.08909395756	-0.008623732042	
544.375	-0.05086843201	0.04141483294	
545.0	-0.007384672875	0.06003334459	
545.625	0.05039623125	0.06879648346	
546.25	0.09779242121	0.04402997428	
546.875	0.1250562652	-0.02014769917	
547.5	0.07772797376	-0.1254990922	
548.125	-0.03726988552	-0.1720720632	
548.75	-0.1240895049	-0.1248476038	
549.375	-0.1101321104	-0.07847090747	
550.0	-0.08122967819	0.002788653294	
550.625	-0.05577029709	0.004326336573	
551.25	-0.08227123222	0.02408170169	
551.875	-0.08153221933	0.06727822714	
552.5	-0.05046232469	0.07975894065	
553.125	-0.01885381703	0.06587149555	
553.75	0.04695752595	0.05378709422	
554.375	0.1011368006	0.004587807992	
555.0	0.1086364505	-0.07254890739	
555.625	0.09561401061	-0.1121197412	
556.25	0.07733381328	-0.1472997573	
556.875	-0.02767346407	-0.1713160412	
557.5	-0.09851287223	-0.1168399164	
558.125	-0.1227658021	-0.05115723192	
558.75	-0.1194352059	-0.008509234653	
559.375	-0.1198573967	0.01582620256	
560.0	-0.1078749486	0.07698197615	
560.625	-0.05991953305	0.1150948543	
561.25	0.00410381524	0.1066829704	
561.875	0.02753906848	0.04905643326	
562.5	0.007160738349	0.0582351946	
563.125	0.07139556683	0.08183437995	
563.75	0.1490163573	0.01267842127	
564.375	0.1421380166	-0.09617778075	
565.0	0.08571829183	-0.1533640859	
565.625	-0.02533005266	-0.1694864657	
566.25	-0.1168275813	-0.121921067	
566.875	-0.1432771907	-0.08847615836	
567.5	-0.1416968684	-0.1216424797	
568.125	-0.1467181171	-0.1717743861	
568.75	-0.2346754457	-0.09505905595	
569.375	-0.2529742503	0.08876557762	
570.0	-0.1411046853	0.2025814411	
570.625	-0.06819911196	0.1799385593	
571.25	-0.004034750683	0.1232617014	
571.875	0.05621338794	0.0837916353	
572.5	0.1341029573	0.005558069402	
573.125	0.09936875362	-0.1136649545	
573.75	0.0501851054	-0.1172644133	
574.375	0.01746522127	-0.07205573141	
575.0	0.03391860111	-0.03968996823	
575.625	0.04523756368	-0.07702968844	
576.25	0.05379278197	-0.1150856773	
576.875	0.001558247092	-0.1505328624	
577.5	0.002979788829	-0.1680030569	
578.125	-0.04177928513	-0.1689362628	
578.75	-0.0843308944	-0.1325662758	
579.375	-0.08780218736	-0.07388730818	
580.0	-0.05376114577	-0.03664409792	
580.625	-0.07261816287	-0.03533154564	
581.25	-0.1134528638	0.07277761665	
581.875	-0.001462410907	0.1644324629	
582.5	0.05375979727	0.1481430657	
583.125	0.07704714193	0.08243782685	
583.75	0.04058490671	0.02466572732	
584.375	0.03373476836	0.06310928865	
585.0	0.1123312608	0.06752962893	
585.625	0.1644348874	0.007695479236	
586.25	0.1618400073	-0.05883679154	
586.875	0.08477647421	-0.1381166526	
587.5	-0.005824319084	-0.1485385946	
588.125	-0.01093162448	-0.1466900169	
588.75	0.03848138934	-0.1501461416	
589.375	0.07360385725	-0.1598072591	
590.0	-0.04912496447	-0.1876849795	
590.625	-0.1894628217	-0.05979897078	
591.25	-0.1445346155	0.1064793906	
591.875	-0.04207924038	0.1221502291	
592.5	0.004685606897	0.05108525097	
593.125	-0.03519294329	0.05191861232	
593.75	0.05115430787	0.1285066282	
594.375	0.1546845835	0.1108025838	
595.0	0.1740483305	0.1095513616	
595.625	0.1787333272	0.08648896058	
596.25	0.1671491279	0.0495682435	
596.875	0.1645039925	0.04406902633	
597.5	0.1523148224	0.09265943286	
598.125	0.1500082447	0.1289456525	
598.75	0.1818228419	0.1011590136	
599.375	0.2259749202	-0.02197500526	
600.0	0.1823700103	-0.143131253	
600.625	0.1506672708	-0.1821737019	
601.25	0.07542507043	-0.1975114879	
601.875	-0.07435070145	-0.1545438388	
602.5	-0.1346183005	-0.02763774645	
603.125	-0.1199510814	0.04241332573	
603.75	-0.1163258497	0.06999678537	
604.375	-0.1068694138	0.07536877737	
605.0	-0.07638295519	0.07915243753	
605.625	-0.07888054078	0.06392266791	
606.25	-0.1215247061	0.06263368564	
606.875	-0.1833842568	0.08536264443	
607.5	-0.1799954119	0.1845717753	
608.125	-0.04311821086	0.2613864292	
608.75	0.1799309721	0.192566494	
609.375	0.2528108007	-0.01808372889	
610.0	0.1839558814	-0.117138449	
610.625	0.1005711769	-0.1627765009	
611.25	0.01536510389	-0.167856917	
611.875	-0.0846740624	-0.1367781959	
612.5	-0.1719559108	-0.07653743649	
613.125	-0.2029426977	0.03047618546	
613.75	-0.1034478931	0.1484650665	
614.375	0.04231081714	0.1186572169	
615.0	0.04040000005	0.04826089167	
615.625	-0.004732353794	0.09083506783	
616.25	-0.04522254135	0.1512553177	
616.875	-0.08781293379	0.1965688871	
617.5	-0.07860427342	0.231926517	
618.125	-0.02784609763	0.2252405544	
618.75	0.01652187646	0.2046420735	
619.375	0.08801100703	0.1785919681	
620.0	0.1972524264	0.06460437464	
620.625	0.1313021154	-0.1554935721	
621.25	-0.07926154406	-0.2023729826	
621.875	-0.210866076	-0.104346635	
622.5	-0.2327677419	0.04886454587	
623.125	-0.05457009393	0.1946714542	
623.75	0.13565199	0.05511737365	
624.375	0.04590922691	-0.05255326185	
625.0	0.04540653472	-0.02498506795	
625.625	0.0608193974	-0.09197794353	
626.25	-0.04370897514	-0.1493010112	
626.875	-0.1437831623	-0.09528434149	
627.5	-0.1523669742	-0.04933022582	
628.125	-0.1149927901	-0.0768046948	
628.75	-0.07289205263	-0.1333921477	
629.375	-0.08989382973	-0.1658359144	
630.0	-0.1936175248	-0.1193354336	
630.625	-0.2412977507	0.0510035945	
631.25	-0.166999907	0.1966806551	
631.875	-0.04562442959	0.2594714096	
632.5	0.1381248806	0.2220750594	
633.125	0.2185079852	0.07594710464	
633.75	0.1856037509	-0.05646694032	
634.375	0.08056365726	-0.1402836922	
635.0	-0.001126997548	-0.1605521905	
635.625	-0.1463642893	-0.1100174928	
636.25	-0.1730868044	0.06212645286	
636.875	-0.07905541693	0.1297205642	
637.5	-0.04358240139	0.09196396946	
638.125	-0.07686765368	0.08997491763	
638.75	-0.08642007302	0.1718126814	
639.375	-0.0174071888	0.2642740423	
640.0	0.128186172	0.2693745467	
640.625	0.2431734603	0.1756436628	
641.25	0.293321694	0.02078709553	
641.875	0.2016100412	-0.1784475846	
642.5	0.01263783271	-0.2277463016	
643.125	-0.1154318306	-0.1415721919	
643.75	-0.135221199	-0.08999984777	
644.375	-0.1881588108	-0.01725315882	
645.0	-0.1689214402	0.1523490425	
645.625	0.04301138515	0.2317218001	
646.25	0.1685949186	0.09220834598	
646.875	0.1055792295	-0.01098383804	
647.5	0.05618914917	0.04103525804	
648.125	0.1658565694	0.06901296656	
648.75	0.2829598623	-0.0557739941	
649.375	0.251630929	-0.240745365	
650.0	0.1875027505	-0.3093310719	
650.625	0.1772161397	-0.2909093924	
651.25	0.2216655525	-0.235074392	
651.875	0.2781828641	-0.16011382	
652.5	0.3004100306	-0.07940133124	
653.125	0.2947847884	-0.08737419521	
653.75	0.2353335832	-0.2151213751	
654.375	-0.01519170656	-0.3289298405	
655.0	-0.2865018877	-0.1432538743	
655.625	-0.2141110751	0.1701572218	
656.25	0.01131314341	0.1881727005	
656.875	0.04600795699	0.07936865779	
657.5	0.02596413053	0.1145690663	
658.125	0.135224354	0.1851986984	
658.75	0.3027999607	0.1137132097	
659.375	0.3578760848	-0.1206008527	
660.0	0.2640131829	-0.2947766859	
660.625	0.1680445553	-0.3394460179	
661.25	0.1879034509	-0.3022386121	
661.875	0.2452002426	-0.2528865691	
662.5	0.2922850093	-0.1940242605	
663.125	0.2949117472	-0.1819294975	
663.75	0.2021000496	-0.2843484768	
664.375	-0.004416101015	-0.3547766351	
665.0	-0.2591756219	-0.2525273847	
665.625	-0.344963279	0.05553009182	
666.25	-0.1404365494	0.2747926285	
666.875	0.0977707658	0.2359740386	
667.5	0.1849295672	0.1219582889	
668.125	0.2346029776	0.01039245955	
668.75	0.2191093842	-0.1302802238	
669.375	0.1228539945	-0.2263276261	
670.0	0.02513645192	-0.2327329949	
670.625	0.01992261395	-0.2021433141	
671.25	0.07354192881	-0.1840602963	
671.875	0.1538566248	-0.171553311	
672.5	0.2233574383	-0.1433605526	
673.125	0.2347080965	-0.1636473621	
673.75	0.1914372255	-0.21324673	
674.375	0.08627207756	-0.2703685749	
675.0	-0.06412781868	-0.2646345046	
675.625	-0.1845914286	-0.1614589367	
676.25	-0.189854667	-0.0514854857	
676.875	-0.155071757	-0.01206006046	
677.5	-0.1670359717	0.003789913496	
678.125	-0.1715805998	0.1249782193	
678.75	-0.00253053019	0.2446155625	
679.375	0.2104814142	0.1115283825	
680.0	0.1692089237	-0.0800851929	
680.625	0.07879581413	-0.07742005011	
681.25	0.09817319973	-0.004799397442	
681.875	0.1572763656	0.06049828429	
682.5	0.2077504778	0.1077539474	
683.125	0.2497907468	0.1006336449	
683.75	0.2709696926	0.09366009963	
684.375	0.2841143111	0.06735984287	
685.0	0.2910784653	0.07064773715	
685.625	0.3056288861	0.03550874178	
686.25	0.3199739154	-0.004458164217	
686.875	0.3400493164	-0.1146647394	
687.5	0.3172970431	-0.268675921	
688.125	0.04905249799	-0.4649829795	
688.75	-0.3976180585	-0.2751623845	
689.375	-0.3586394372	0.2753411503	
690.0	0.04747279667	0.3883962915	
690.625	0.2177676356	0.2937610968	
691.25	0.3099935978	0.3167730931	
691.875	0.455090984	0.3610906318	
692.5	0.6185271829	0.2656684505	
693.125	0.6997328717	0.03096272764	
693.75	0.6386376893	-0.210166934	
694.375	0.4911137625	-0.3785593503	
695.0	0.4956750039	-0.2691828931	
695.625	0.5380625411	-0.04815086627	
696.25	0.5111172547	0.2225173488	
696.875	0.3750551561	0.4565298154	
697.5	0.3439653215	0.5309714702	
698.125	0.5622118644	0.3401227232	
698.75	0.5472301307	-0.3348385038	
699.375	-0.3146287435	-0.4921314398	
700.0	-0.3643906312	0.2958998127	
700.625	0.09297150139	0.3314120858	
701.25	0.2174991565	0.2207912567	
701.875	0.2557920334	0.2698439999	
702.5	0.3438115662	0.2788736785	
703.125	0.4332681005	0.1553481737	
703.75	0.4123144609	-0.07713136419	
704.375	0.302584815	-0.1797847517	
705.0	0.2591084803	-0.1285317158	
705.625	0.2791227482	0.01357668558	
706.25	0.2545061339	0.2038890502	
706.875	0.2203361928	0.3303512101	
707.5	0.2386681175	0.393110901	
708.125	0.4418192433	0.2105963667	
708.75	0.3761676225	-0.2975368514	
709.375	-0.2131674272	-0.3557754883	
710.0	-0.2423047338	0.1753896977	
710.625	0.03877675477	0.1732161125	
711.25	0.07525199401	0.1384762776	
711.875	0.1989222981	0.1546558085	
712.5	0.3281205364	0.01814973397	
713.125	0.2968567593	-0.1485506197	
713.75	0.1691134686	-0.2455893332	
714.375	0.03557773248	-0.2477441227	
715.0	-0.01057396279	-0.2144537313	
715.625	0.03315657064	-0.2247498065	
716.25	0.1744541002	-0.2386532468	
716.875	0.3588187325	-0.1649374602	
717.5	0.5371383532	0.01015094852	
718.125	0.6866863284	0.1279881015	
718.75	0.8059280637	-0.009343068896	
719.375	0.8468145294	-0.3170636235	
720.0	0.634551015	-0.7479675552	
720.625	0.3862801575	-0.9171327038	
721.25	0.1267134343	-1.032253826	
721.875	-0.08761689961	-1.087385047	
722.5	-0.5062188133	-0.90429379	
723.125	-0.7872943455	-0.2831483757	
723.75	-0.4925915119	0.3785664289	
724.375	-0.02791409832	0.4728446285	
725.0	0.1420966756	0.3963845813	
725.625	0.1534822228	0.4837722042	
726.25	0.01671271277	0.6888786517	
726.875	-0.1425791794	0.9571401721	
727.5	-0.2373343795	1.376356692	
728.125	-0.2216867674	1.971878909	
728.75	-0.2173625188	2.767988988	
729.375	-1.06375133	3.508371992	
730.0	-0.4640394748	4.022019045	
730.625	-0.421439283	3.923494126	
731.25	-1.709778082	3.482567437	
731.875	-2.793448915	2.327888967	
732.5	-3.547599994	0.5384806747	
733.125	-2.526578724	0.04228671698	
733.75	-1.144120607	1.180984061	
734.375	0.751837589	0.6520463796	
735.0	0.1252971248	-0.6219635591	
735.625	-0.4936483626	0.02549225185	
736.25	-0.144614952	0.5298487772	
736.875	0.3583793648	0.6230176084	
737.5	1.040557592	0.3218641998	
738.125	1.531977338	-0.2468075616	
738.75	1.851173426	-1.013329837	
739.375	2.440518991	-1.406086547	
740.0	2.935428755	-1.113088801	
740.625	2.60169584	-0.0149215872	
741.25	0.6145370377	2.414286594	
741.875	-2.291985446	0.03956183008	
742.5	-1.025540832	-2.892627887	
743.125	0.4228274089	-1.949158089	
743.75	0.1817898445	-1.13749917	
744.375	-0.4111023814	-0.176232403	
745.0	0.05386075841	0.1391834264	
745.625	0.0601264567	0.01024941731	
746.25	0.009536644415	-0.1306458161	
746.875	-0.2452787173	-0.0196150063	
747.5	-0.1583306968	0.3341754207	
748.125	0.05844913969	0.5301164021	
748.75	0.229329058	0.5068226462	
749.375	0.08050300325	0.5194345345	
750.0	-0.4824899156	0.3349091487	
