!Created with skrf (http://scikit-rf.org).
# GHz S RI R (50+0j) 
!freq	ReS11	ImS11	
500.0	0.3746630909	-1.332268383	
500.625	-0.328915434	-0.9798856459	
501.25	0.01967707304	-0.6558464577	
501.875	-0.5317948564	-0.5556902297	
502.5	-0.03745989443	-0.04993237391	
503.125	-0.09592515066	-0.03588379769	
503.75	0.08218948142	0.09761877597	
504.375	0.006353959769	0.01256171548	
505.0	0.02965481899	-0.06368726395	
505.625	0.00325561398	0.02911683999	
506.25	-0.05300888296	-0.1744665455	
506.875	-0.0182953911	0.2146879324	
507.5	0.2089816557	-0.4559342573	
508.125	-0.3055322463	-0.8252803541	
508.75	0.1224066277	-0.4765614481	
509.375	0.08626002241	-1.546047599	
510.0	-0.6331064702	-0.239262461	
510.625	-0.01213585214	-0.1353648755	
511.25	-0.1807281736	-0.08913099537	
511.875	-0.1284422828	0.04295744661	
512.5	-0.04745367957	0.03330893381	
513.125	-0.00863095029	-0.1021519263	
513.75	-0.0606988594	0.02105165019	
514.375	-0.02071715824	-0.1347656977	
515.0	-0.3173666925	0.2028670864	
515.625	0.4979295234	-0.6525656195	
516.25	-1.066603981	-0.8880577726	
516.875	0.1346257557	-0.07222519852	
517.5	0.09085765475	-0.2594575124	
518.125	-0.03454582379	0.06750306813	
518.75	0.07036627884	-0.1809021664	
519.375	-0.05652320936	0.06635276789	
520.0	0.08060922629	0.05017443002	
520.625	0.1500035954	-0.004615660927	
521.25	-0.04194320013	-0.3763653578	
521.875	-0.1295321146	-0.009711938563	
522.5	-0.0386474977	-0.02890346642	
523.125	-0.1081730485	0.0914217979	
523.75	0.008115386508	-0.04247444503	
524.375	-0.2784428613	-0.027234788	
525.0	0.1107484694	0.1871305516	
525.625	-0.04689251037	-0.00871240981	
526.25	0.06740627976	0.02223809686	
526.875	-0.1157791742	-0.002148153355	
527.5	0.0401532246	0.2849332118	
528.125	0.1040160587	0.09534021536	
528.75	-0.1105147222	0.2501684082	
529.375	0.1053858216	0.03415020519	
530.0	0.09996971428	0.2599960643	
530.625	0.2388437576	0.3720812803	
531.25	0.3402308423	-0.00788760085	
531.875	0.263247715	-0.05361546777	
532.5	0.07459104141	-0.1856435362	
533.125	0.08280633741	0.08394331609	
533.75	0.08365315892	-0.3352436898	
534.375	-0.1705724707	-0.1484000186	
535.0	-0.1546188732	-0.1520953095	
535.625	-0.1912915277	0.1908184282	
536.25	0.01276566831	0.05592378289	
536.875	0.1007409124	0.05717437683	
537.5	0.07804848436	-0.08637488462	
538.125	0.06172706569	-0.006034250136	
538.75	0.2060921593	-0.1657788201	
539.375	-0.1281205458	-0.1036113112	
540.0	-0.1198263853	-0.153804834	
540.625	-0.2319881792	-0.03406208091	
541.25	-0.06619169397	0.05974701717	
541.875	-0.03142285419	-0.1010449686	
542.5	-0.1160776965	-0.1117243658	
543.125	-0.04161427716	-0.03677458719	
543.75	-0.1515629419	-0.004805427369	
544.375	0.0129783217	0.08169669123	
545.0	-0.0771535618	0.03665874255	
545.625	0.1227161051	0.04755747361	
546.25	0.02511562842	0.01637578377	
546.875	0.210255677	0.006418914445	
547.5	-0.01030029349	-0.1579343673	
548.125	0.005588001166	-0.1293327553	
548.75	-0.1612281899	-0.1622667618	
549.375	-0.1358371715	-0.004167677176	
550.0	-0.04670063329	-0.04815071422	
550.625	-0.07114033858	0.05807420411	
551.25	-0.05245274364	-0.007301072028	
551.875	-0.1022093998	0.09429501226	
552.5	-0.01171190718	0.08521144011	
553.125	-0.03075861122	0.06266188091	
553.75	0.06192740791	0.03714892422	
554.375	0.08537049948	-0.006318625115	
555.0	0.1062590403	-0.07581491645	
555.625	0.07828184851	-0.1223730478	
556.25	0.05916852167	-0.1457097922	
556.875	-0.03951640493	-0.1660679624	
557.5	-0.1092301554	-0.1059926494	
558.125	-0.119466404	-0.02940170921	
558.75	-0.1106517162	-0.006097025136	
559.375	-0.1257036345	0.02953101467	
560.0	-0.08225179832	0.08552329841	
560.625	-0.06679951621	0.1046421236	
561.25	0.01937866095	0.1268243698	
561.875	0.02670388959	0.0038044114	
562.5	0.01453263932	0.09650890121	
563.125	0.07121415464	0.02650162183	
563.75	0.1447656674	0.04337236906	
564.375	0.1454431863	-0.1502556115	
565.0	0.02127377329	-0.1318836748	
565.625	0.008960106412	-0.1810919982	
566.25	-0.1752430906	-0.09388567859	
566.875	-0.08076961125	-0.03638206164	
567.5	-0.1669980854	-0.1606123357	
568.125	-0.2488113852	-0.0841915424	
568.75	-0.1364502838	-0.103047794	
569.375	-0.3098794907	0.1304993259	
570.0	-0.03513826335	0.2170982303	
570.625	-0.1599135533	0.08400997772	
571.25	0.03978600426	0.2219348437	
571.875	-0.008686113313	0.001739701759	
572.5	0.2031251819	0.04426286636	
573.125	-0.0216813556	-0.1978310175	
573.75	0.04594740207	0.001163139439	
574.375	0.06350723113	-0.1936781861	
575.0	-0.0551019585	0.03044637876	
575.625	0.1366249893	-0.1244922645	
576.25	-0.04100817594	-0.1595897514	
576.875	0.03261237045	-0.06228648203	
577.5	0.05204175722	-0.23814262	
578.125	-0.1474000624	-0.1532684928	
578.75	-0.02885879356	-0.03372628498	
579.375	-0.07278463261	-0.1946106525	
580.0	-0.1120103715	0.05556027911	
580.625	0.01636191529	-0.2110005302	
581.25	-0.1557991528	0.2142018407	
581.875	0.07382979189	0.06277720228	
582.5	-0.06032847178	0.1676585092	
583.125	0.2619913581	0.102735937	
583.75	-0.06848910373	-0.0510404157	
584.375	0.1112873283	0.1382243418	
585.0	0.04279556059	-0.05043466165	
585.625	0.155018864	0.1192813592	
586.25	0.2316108297	-0.163044707	
586.875	-0.02332918682	-0.0971288355	
587.5	0.07490046285	-0.1596274501	
588.125	-0.1218038982	-0.166656536	
588.75	0.01686552768	-0.04825851064	
589.375	0.1441751051	-0.2105141659	
590.0	-0.1579585987	-0.1578630695	
590.625	-0.08466035181	-0.04643897931	
591.25	-0.2320962226	0.1253545504	
591.875	0.08498999703	0.1748765244	
592.5	-0.1233795134	-0.03862270544	
593.125	0.09734336958	0.1148357304	
593.75	-0.04551388452	0.05118918358	
594.375	0.2154607471	0.2011207141	
595.0	0.1893300346	-0.04712795522	
595.625	0.07898477073	0.1723034416	
596.25	0.2661795572	0.05074012691	
596.875	0.109215377	-0.0402549417	
597.5	0.1448679307	0.170529295	
598.125	0.2395149733	0.06258491703	
598.75	0.1122474002	0.02380568326	
599.375	0.2460830873	0.03051090776	
600.0	0.1651506091	-0.242038368	
600.625	0.09315823344	-0.156481352	
601.25	0.1355539254	-0.1819537997	
601.875	-0.1661007019	-0.1705464185	
602.5	-0.05880584244	0.04539707493	
603.125	-0.2033756141	-0.02143331069	
603.75	-0.01598573541	0.2043441384	
604.375	-0.04887531737	-0.03086645987	
605.0	-0.1674686139	0.1557974167	
605.625	0.05941604154	0.09621333825	
606.25	-0.29287994	0.06937264511	
606.875	-0.1347584266	0.2379487245	
607.5	-0.06535084328	0.09943500287	
608.125	-0.1153528682	0.3043144693	
608.75	0.2111772249	0.1073227405	
609.375	0.1488752909	-0.02251916652	
610.0	0.2043445555	-0.1226878048	
610.625	0.005397994793	-0.2482317134	
611.25	-0.0574673943	-0.1628727955	
611.875	-0.107782681	-0.2123133546	
612.5	-0.1657043516	0.07116587705	
613.125	-0.09200300854	-0.01718377472	
613.75	-0.1840101014	0.2073878155	
614.375	0.1676733379	0.04009225068	
615.0	-0.09522267915	0.09470361684	
615.625	0.1577279491	0.06761695185	
616.25	-0.06180592351	0.02379685974	
616.875	-0.1023624334	0.3066977255	
617.5	0.09836913532	0.2775395765	
618.125	-0.08832345326	0.2071151346	
618.75	0.05778613845	0.2923638368	
619.375	0.1131233956	0.1626549439	
620.0	0.1250853918	0.1050066965	
620.625	0.1298924399	-0.1797426692	
621.25	-0.1834469574	-0.2303283339	
621.875	-0.136819027	-0.1047542521	
622.5	-0.288331636	0.09060910048	
623.125	0.07303354463	0.269755255	
623.75	0.03759852205	0.06805058062	
624.375	0.1356207876	-0.1451457313	
625.0	-0.01872417483	0.04345010943	
625.625	0.1149371554	-0.1515462391	
626.25	-0.1383982719	-0.09223670387	
626.875	-0.04880051918	-0.07568944955	
627.5	-0.2345415261	-0.08380356514	
628.125	-0.127631566	0.02530835446	
628.75	0.0049123338	-0.1426590963	
629.375	-0.1509983338	-0.1745211375	
630.0	-0.1261844401	-0.02687776305	
630.625	-0.2692529132	0.01587161062	
631.25	-0.1217795196	0.2831685515	
631.875	0.08585778169	0.2824827603	
632.5	0.1102873849	0.1988572487	
633.125	0.2917480339	-0.008123779792	
633.75	0.06662233329	-0.1711834272	
634.375	0.1494955421	-0.07602903882	
635.0	-0.1500704429	-0.2459748758	
635.625	-0.04803575183	-0.005313428523	
636.25	-0.2791035439	0.04128196826	
636.875	0.02973950994	0.1986534798	
637.5	-0.05589126879	-0.02144416882	
638.125	-0.09912824101	0.1945095331	
638.75	0.02550423356	0.09651675704	
639.375	-0.1139491414	0.2450599538	
640.0	0.27146971	0.3174264386	
640.625	0.2123505121	0.01186921682	
641.25	0.2781630294	0.1106080848	
641.875	0.1883899519	-0.3219196912	
642.5	-0.143415612	-0.167966436	
643.125	-0.06128818692	-0.1664025397	
643.75	-0.2585642232	0.009513765633	
644.375	-0.0227377957	-0.01366027135	
645.0	-0.3622328813	0.1357864228	
645.625	0.2028246576	0.2260504396	
646.25	0.04746947692	0.01897875693	
646.875	0.3125787193	0.1884982074	
647.5	-0.08879088796	-0.1826998795	
648.125	0.2476979329	0.2270994604	
648.75	0.2964453064	-0.3120378969	
649.375	0.09101501688	-0.1045269525	
650.0	0.3302235201	-0.2982720043	
650.625	0.01005204833	-0.5415908621	
651.25	0.05706717537	-0.09289862072	
651.875	0.4471289578	-0.1492357102	
652.5	0.2313979449	-0.3131195436	
653.125	0.131900391	0.02381337171	
653.75	0.3078243128	-0.3452674821	
654.375	-0.2671113143	-0.2725178592	
655.0	-0.1378423723	-0.05605630316	
655.625	-0.3670085618	0.2012306423	
656.25	0.2299998105	0.2068694705	
656.875	-0.1100168256	0.002745871403	
657.5	0.1589245927	0.1747326624	
658.125	0.045357278	-0.09582064525	
658.75	0.3030747892	0.28332923	
659.375	0.3729843891	-0.3325364727	
660.0	0.04084104901	-0.1340309029	
660.625	0.3197542726	-0.342227686	
661.25	0.07577238554	-0.4695648025	
661.875	0.07197521761	-0.1347444622	
662.5	0.416706089	-0.2041278316	
663.125	0.1645068633	-0.3638670787	
663.75	0.08410411996	-0.1765954423	
664.375	0.01297416346	-0.4390142449	
665.0	-0.3887396193	-0.08576066057	
665.625	-0.2175387471	0.02365239636	
666.25	-0.1757670164	0.3497046067	
666.875	0.2484976007	0.1678043405	
667.5	0.08005514905	0.09489595613	
668.125	0.3704360468	-0.02557284263	
668.75	0.08206161723	-0.234877154	
669.375	0.1554445869	-0.1048386649	
670.0	0.01733388209	-0.3607051632	
670.625	-0.1765202557	0.02437716702	
671.25	0.2341848881	-0.1639404568	
671.875	0.09693504912	-0.3009936399	
672.5	0.060409646	-0.08842961815	
673.125	0.423386649	-0.1802481589	
673.75	0.04825966398	-0.3773792971	
674.375	0.07974765888	-0.1284173156	
675.0	-0.04986368234	-0.3327543895	
675.625	-0.336323668	-0.0427214406	
676.25	-0.02974379806	0.01997500911	
676.875	-0.3050744458	-0.01845189906	
677.5	-0.07954976814	0.1619957213	
678.125	-0.1681683091	0.04867670874	
678.75	0.04261609873	0.370264781	
679.375	0.2396128107	-0.09368318428	
680.0	0.07981146661	0.02339401138	
680.625	0.26919219	-0.1880301897	
681.25	-0.1061537761	-0.1115076658	
681.875	0.1768884528	0.2920450854	
682.5	0.4214394212	-0.1919662167	
683.125	0.05003891622	-0.003602925802	
683.75	0.5224840552	0.3199735104	
684.375	0.4390419224	-0.2204723718	
685.0	-0.009131427787	0.03478471149	
685.625	0.5297395695	0.1049963092	
686.25	0.143727993	-0.13793034	
686.875	0.2170323029	-0.04941139211	
687.5	0.4294578153	-0.4149487836	
688.125	-0.3083297502	-0.3571072104	
688.75	-0.3735959515	-0.2513580942	
689.375	-0.3926877878	0.4493438707	
690.0	0.291139182	0.258334509	
690.625	0.1120329847	0.2462663035	
691.25	0.5296064593	0.3341864661	
691.875	0.4065511692	0.0585306077	
692.5	0.4894356829	0.3725831409	
693.125	0.9519633686	-0.1556310246	
693.75	0.3296308337	-0.3758661952	
694.375	0.7783739339	-0.3196254045	
695.0	0.5260456388	-0.5287463103	
695.625	0.2569542414	-0.1739351883	
696.25	0.777842178	0.2787568204	
696.875	0.7000057562	0.1614025256	
697.5	0.4083789767	0.6800226316	
698.125	0.6781584324	0.1998764314	
698.75	0.3707310979	-0.4230699153	
699.375	-0.4983410399	-0.3256832327	
700.0	-0.3979665373	0.3398113565	
700.625	0.344728275	0.2985481362	
701.25	0.1846746526	0.01492909836	
701.875	0.228606691	0.3762900725	
702.5	0.4971860887	0.0870703012	
703.125	0.2485999523	0.1054195055	
703.75	0.5411625071	-0.04259454143	
704.375	0.2428931442	-0.3630676493	
705.0	0.2080605087	0.05108023469	
705.625	0.4809550553	0.01250079709	
706.25	0.2626179094	-0.01981745687	
706.875	0.1299112051	0.3499500462	
707.5	0.4138103415	0.2711525098	
708.125	0.3351249354	-0.09901168431	
708.75	0.3886769385	-0.2822070996	
709.375	-0.3210745106	-0.2289039726	
710.0	-0.1491415189	0.3446559762	
710.625	0.0390068595	-0.1173152682	
711.25	0.2628508077	0.1011182943	
711.875	0.0868543898	0.09474430554	
712.5	0.3562187814	0.166219757	
713.125	0.281997738	-0.3183563975	
713.75	0.02438948253	-0.1476931652	
714.375	0.1676515907	-0.3252599524	
715.0	-0.1664414002	-0.2198056081	
715.625	0.04393459123	-0.09569822615	
716.25	0.2966713976	-0.3459722931	
716.875	0.1674151698	-0.3395840832	
717.5	0.4074182041	0.1134412739	
718.125	0.9022876169	0.0517505403	
718.75	0.5667221211	-0.5091949389	
719.375	0.8320231847	-0.1659500692	
720.0	0.3791360372	-1.358704496	
720.625	-0.008539061549	-0.5524582149	
721.25	0.2132385344	-0.8622897967	
721.875	-0.6532355501	-1.167575478	
722.5	-0.8009356065	-0.2369760028	
723.125	-0.4691144555	-0.5577588153	
723.75	-0.4019181629	0.7038804241	
724.375	0.2259103064	0.2984982546	
725.0	-0.1830941382	0.4959193075	
725.625	0.4649326159	0.5439487734	
726.25	-0.02728208313	0.2538128635	
726.875	-0.3448682044	1.136455997	
727.5	0.3376189695	1.633830675	
728.125	0.1596202762	1.170942629	
728.75	-0.9078938255	2.944877654	
729.375	0.879272585	4.229259437	
730.0	0.6388209661	1.968379989	
730.625	-1.471384338	5.650957856	
731.25	1.771327454	4.182052324	
731.875	-0.9742042498	1.257567669	
732.5	-3.723697517	1.120721258	
733.125	-2.004376679	1.650645083	
733.75	-0.4941124859	0.8536202631	
734.375	1.311892026	0.7828525564	
735.0	-0.5009164738	-0.5941124725	
735.625	-0.1394677671	-0.2153304243	
736.25	-0.2002422961	0.8452375677	
736.875	0.760825299	-0.1063951179	
737.5	0.4565997021	0.7868324872	
738.125	2.418488823	-0.6792679463	
738.75	0.7709660633	-1.896608071	
739.375	1.627680188	0.2742491768	
740.0	5.859873312	-1.121640794	
740.625	0.9973301411	-2.704696653	
741.25	-2.829776579	2.220605536	
741.875	-4.082534739	3.536104445	
742.5	0.5474433484	0.416581071	
743.125	0.8293780903	-3.30087666	
743.75	-0.7908414265	-1.114347723	
744.375	-0.1187546125	0.193944267	
745.0	-0.0754519925	0.2297750841	
745.625	-0.01941983667	-0.0642499633	
746.25	0.1005562563	-0.1562739074	
746.875	-0.3074746992	0.08959112919	
747.5	0.03165939039	0.2748915972	
748.125	-0.1214951365	0.4967256877	
748.75	0.3710430277	0.5668832933	
749.375	0.1710015175	0.2938377746	
750.0	-0.6050415815	0.2524770989	
