!Created with skrf (http://scikit-rf.org).
# GHz S RI R (50+0j) 
!freq	ReS11	ImS11	
500.0	0.1580702655	-1.087343265	
500.625	0.3236253552	-0.9362915529	
501.25	-0.2810792943	-0.6476044214	
501.875	-0.1996234481	-0.4336333643	
502.5	-0.05087772731	-0.1287554417	
503.125	-0.07165409328	0.00338536757	
503.75	0.01275604155	0.08076087549	
504.375	0.02688215469	-0.003083967223	
505.0	0.02052856082	-0.02051480178	
505.625	0.002505944401	-0.05047232804	
506.25	-0.05713758751	-0.06149824029	
506.875	-0.1086881262	0.01293282001	
507.5	-0.07117035384	-0.3587962205	
508.125	0.2077187973	-0.6493267322	
508.75	0.5917180473	-0.9145713455	
509.375	0.1698298263	-1.202901908	
510.0	-0.4174144409	-0.2844531645	
510.625	-0.1055577734	-0.1580444073	
511.25	-0.08374924422	-0.0899810555	
511.875	-0.1107597633	-0.07103968512	
512.5	-0.02087259842	0.04714954533	
513.125	0.0137031575	-0.07074112145	
513.75	-0.07780334992	-0.05401429721	
514.375	-0.04694316474	-0.01451944681	
515.0	0.002338682724	-0.06849658636	
515.625	0.01940650424	-0.3706301961	
516.25	-0.108738905	-0.7081492747	
516.875	-0.1682158568	-0.4296135122	
517.5	-0.04001225899	-0.1519852035	
518.125	-0.02436688564	-0.03431581499	
518.75	-0.03449950179	-0.1413932505	
519.375	-0.06240821585	0.0404205802	
520.0	0.102238524	0.06199694716	
520.625	0.1524114182	-0.06083480184	
521.25	-0.02520110011	-0.2576911452	
521.875	-0.1440376125	-0.02313074724	
522.5	-0.04748763825	0.02424070135	
523.125	-0.05641374997	0.02452861827	
523.75	-0.1064115492	-0.01056026294	
524.375	-0.1561327302	0.03267379577	
525.0	-0.04492865196	0.1350533524	
525.625	0.03516259259	0.04393361808	
526.25	-0.01213925261	-0.01371109105	
526.875	-0.05369947769	0.04887994923	
527.5	-0.05356402838	0.1814619296	
528.125	0.04525409821	0.2611317831	
528.75	0.01636720989	0.2237649572	
529.375	0.04755448644	0.07175729862	
530.0	0.02342945043	0.1582388508	
530.625	0.1087511187	0.3244001102	
531.25	0.4052807931	0.1075900892	
531.875	0.2203118732	-0.1756157747	
532.5	-0.05554312908	-0.1058528305	
533.125	0.04997275704	-0.05852344434	
533.75	0.09541715576	-0.1801352258	
534.375	-0.09621387835	-0.2717960956	
535.0	-0.2408838251	-0.09247394349	
535.625	-0.1602678902	0.1127971555	
536.25	-0.002296775318	0.09543950135	
536.875	0.09306979742	0.01916747486	
537.5	0.06873598632	-0.03934421656	
538.125	0.1158146748	-0.05516398749	
538.75	0.1324005396	-0.1163163474	
539.375	-0.06943410838	-0.1669637244	
540.0	-0.1625021006	-0.1513364173	
540.625	-0.1618788337	-0.02386127029	
541.25	-0.08516349707	0.005363663412	
541.875	-0.04340865276	-0.02176396995	
542.5	-0.04772111441	-0.05184140195	
543.125	-0.08265902901	-0.0415521448	
543.75	-0.08602322416	-0.0003511485504	
544.375	-0.04547971613	0.04308494636	
545.0	-0.002273842035	0.05857728542	
545.625	0.05323778526	0.06134670322	
546.25	0.0964964745	0.03722896414	
546.875	0.1187440106	-0.02620321022	
547.5	0.06994577422	-0.1227550693	
548.125	-0.03889877711	-0.1647670538	
548.75	-0.119140077	-0.1203243889	
549.375	-0.1119463318	-0.07109679491	
550.0	-0.07759570003	0.005573945313	
550.625	-0.05450811692	0.006685100679	
551.25	-0.07793892067	0.02746974677	
551.875	-0.07259812658	0.07066111076	
552.5	-0.04525366131	0.07780319911	
553.125	-0.01378194493	0.0656360006	
553.75	0.04889854289	0.04641897023	
554.375	0.09694164063	-0.004089006434	
555.0	0.1009310082	-0.07471001849	
555.625	0.08451224566	-0.1137548682	
556.25	0.06689612344	-0.1478121541	
556.875	-0.03705510164	-0.1668382762	
557.5	-0.1010982993	-0.1080692721	
558.125	-0.12247227	-0.04307084158	
558.75	-0.1141470816	-0.004803979898	
559.375	-0.1154217175	0.02034845852	
560.0	-0.1016163599	0.07623450673	
560.625	-0.05376442135	0.1142642785	
561.25	0.006247344839	0.1037893441	
561.875	0.03011698299	0.04731601921	
562.5	0.01101651126	0.05568567627	
563.125	0.07376951256	0.07481646897	
563.75	0.1442488005	0.00210895156	
564.375	0.1324646342	-0.101315717	
565.0	0.07449965651	-0.1530362224	
565.625	-0.03319569633	-0.1618545917	
566.25	-0.1176162909	-0.1116567274	
566.875	-0.1415968037	-0.0813446145	
567.5	-0.1401161003	-0.1160131047	
568.125	-0.1397631121	-0.1700378697	
568.75	-0.2279274452	-0.08886769046	
569.375	-0.2414732715	0.09213065748	
570.0	-0.1330239121	0.1984194744	
570.625	-0.06978358744	0.1730485414	
571.25	-0.008071361322	0.1197155795	
571.875	0.05533145718	0.07963299681	
572.5	0.1286928859	0.001268570842	
573.125	0.09263449697	-0.1122806118	
573.75	0.04503319367	-0.1137989265	
574.375	0.01432158649	-0.07015533543	
575.0	0.03060088698	-0.03771005473	
575.625	0.04171162435	-0.07306321386	
576.25	0.05093174932	-0.1117111751	
576.875	-0.004145237185	-0.1462989026	
577.5	-0.001231693702	-0.1630239804	
578.125	-0.0447715183	-0.1623755881	
578.75	-0.08550829959	-0.1247572067	
579.375	-0.08647456185	-0.06764739608	
580.0	-0.05242352504	-0.03284222912	
580.625	-0.07154175621	-0.02974155955	
581.25	-0.1047557081	0.076567488	
581.875	0.006558623294	0.1588250719	
582.5	0.05675351442	0.1419883548	
583.125	0.07596545481	0.07952630029	
583.75	0.04006258811	0.02225135963	
584.375	0.03651855931	0.05822851229	
585.0	0.1133599213	0.05619542284	
585.625	0.1574266536	-0.00498824838	
586.25	0.1522711347	-0.06766729562	
586.875	0.07169547814	-0.1395465979	
587.5	-0.01672513733	-0.1430883268	
588.125	-0.01764156652	-0.1417461221	
588.75	0.03480943643	-0.1472155792	
589.375	0.07215845457	-0.1548012108	
590.0	-0.0547779032	-0.1791729455	
590.625	-0.1870226621	-0.04204849669	
591.25	-0.1322641951	0.1130557817	
591.875	-0.03863674106	0.1192135671	
592.5	0.005158673492	0.05076422229	
593.125	-0.03222859935	0.05074032902	
593.75	0.05420313208	0.1222372894	
594.375	0.1523636794	0.1031440914	
595.0	0.1697946505	0.1043728455	
595.625	0.1725196717	0.08304997599	
596.25	0.1613673517	0.04670116171	
596.875	0.1601273301	0.03939286414	
597.5	0.1509500077	0.08292205701	
598.125	0.1516252092	0.1149404507	
598.75	0.1811908807	0.08336063388	
599.375	0.2148665065	-0.03956567841	
600.0	0.1651831935	-0.1512974211	
600.625	0.1384529721	-0.1809882258	
601.25	0.06791720205	-0.1925192758	
601.875	-0.07898756718	-0.1456047217	
602.5	-0.1306348587	-0.01640656227	
603.125	-0.1105586709	0.0502446333	
603.75	-0.1079151714	0.07502970041	
604.375	-0.09898952881	0.07638332552	
605.0	-0.07056805044	0.07841166685	
605.625	-0.0725212391	0.06360949361	
606.25	-0.1165578835	0.06726696419	
606.875	-0.1729821005	0.09211631205	
607.5	-0.1646990596	0.1856599055	
608.125	-0.02448443838	0.2543628564	
608.75	0.1904712526	0.1691958513	
609.375	0.2399078025	-0.03921335258	
610.0	0.1678852041	-0.1257466414	
610.625	0.08479697186	-0.1634312099	
611.25	0.004270471488	-0.1637710202	
611.875	-0.09103661944	-0.1247470373	
612.5	-0.1663741608	-0.06347691949	
613.125	-0.194413232	0.03889128706	
613.75	-0.09154051794	0.1486562369	
614.375	0.04769310738	0.1102730013	
615.0	0.0427601165	0.04380449588	
615.625	-0.0003830122899	0.08779885746	
616.25	-0.04149957554	0.1481631726	
616.875	-0.07592266683	0.1948181022	
617.5	-0.05879531656	0.2288241507	
618.125	-0.004987816465	0.2201028608	
618.75	0.03730636137	0.192916372	
619.375	0.1036171928	0.1615330247	
620.0	0.1973366106	0.03790234548	
620.625	0.1061816642	-0.1660025054	
621.25	-0.1008224429	-0.1846091404	
621.875	-0.2128934777	-0.07895791072	
622.5	-0.2183262225	0.06834106229	
623.125	-0.02985994643	0.1923039952	
623.75	0.1371746761	0.03573442136	
624.375	0.03798112721	-0.0566192722	
625.0	0.04071964111	-0.02919508315	
625.625	0.04880552252	-0.09418675328	
626.25	-0.05388150017	-0.1394903844	
626.875	-0.1448740587	-0.08362319896	
627.5	-0.1510078302	-0.0395089433	
628.125	-0.1156384687	-0.06930699443	
628.75	-0.07843539768	-0.1253154351	
629.375	-0.09946338971	-0.1533397859	
630.0	-0.1974130904	-0.09603265567	
630.625	-0.2261170101	0.07627978352	
631.25	-0.1383912333	0.2075124326	
631.875	-0.01428591631	0.2550467866	
632.5	0.159470765	0.1938428993	
633.125	0.2187200674	0.04255802605	
633.75	0.1685694281	-0.07885249298	
634.375	0.05643445026	-0.1451527775	
635.0	-0.02621573309	-0.1528500308	
635.625	-0.1558982281	-0.08174982018	
636.25	-0.1553130005	0.08349060287	
636.875	-0.05840788756	0.1334696963	
637.5	-0.03180102969	0.09351789216	
638.125	-0.06250567273	0.09416586478	
638.75	-0.06251846429	0.1738428768	
639.375	0.01487526387	0.2543531718	
640.0	0.1566919019	0.2403539462	
640.625	0.2534522673	0.1358790592	
641.25	0.2844198033	-0.02308967859	
641.875	0.1641454698	-0.2020788444	
642.5	-0.02522175037	-0.2181963301	
643.125	-0.1332844655	-0.1172788118	
643.75	-0.1423403672	-0.06556633418	
644.375	-0.1827263549	0.01112084056	
645.0	-0.1409495914	0.1678151101	
645.625	0.07027328537	0.2175751498	
646.25	0.1752399321	0.06797454188	
646.875	0.1007391698	-0.02258901821	
647.5	0.05796658901	0.03157306334	
648.125	0.1661387036	0.04701378173	
648.75	0.2641172523	-0.08350783187	
649.375	0.2188215223	-0.2556980852	
650.0	0.1542436984	-0.313959885	
650.625	0.145317118	-0.2956620128	
651.25	0.1896396851	-0.2479379787	
651.875	0.2457951009	-0.1869679485	
652.5	0.2737790288	-0.1214458924	
653.125	0.2621514103	-0.1401530762	
653.75	0.1696929834	-0.2555825017	
654.375	-0.09446873817	-0.3068531555	
655.0	-0.3054262	-0.06565843543	
655.625	-0.1676797026	0.2039389674	
656.25	0.04647768997	0.1765432904	
656.875	0.05637684091	0.06780701644	
657.5	0.04416043354	0.1033554141	
658.125	0.156627612	0.156100234	
658.75	0.3047080774	0.06398349863	
659.375	0.3231381966	-0.1616653631	
660.0	0.2122556425	-0.3156595506	
660.625	0.1241361416	-0.3408859138	
661.25	0.1472663256	-0.3089611659	
661.875	0.2036270904	-0.2679698302	
662.5	0.2503444103	-0.2238474473	
663.125	0.2487883437	-0.2195022303	
663.75	0.1431533848	-0.3004695953	
664.375	-0.06582311674	-0.3335310869	
665.0	-0.2879166649	-0.1933062689	
665.625	-0.3169374663	0.1086118513	
666.25	-0.08726098209	0.2819111066	
666.875	0.1301144093	0.2062290746	
667.5	0.1945629216	0.08625588261	
668.125	0.2239770273	-0.0266260275	
668.75	0.1886999189	-0.1556569457	
669.375	0.08763616054	-0.2326805877	
670.0	-0.004509249258	-0.2267321471	
670.625	-0.003639761566	-0.1950373502	
671.25	0.0507300002	-0.183991384	
671.875	0.1265740915	-0.1821189908	
672.5	0.1946412768	-0.1671770678	
673.125	0.1982703619	-0.1922956968	
673.75	0.1440909627	-0.236449021	
674.375	0.03121163301	-0.2696043202	
675.0	-0.1080710705	-0.2382233684	
675.625	-0.2028082237	-0.1209677849	
676.25	-0.1895161601	-0.01293866738	
676.875	-0.1531287021	0.01885906273	
677.5	-0.1541710729	0.04299292312	
678.125	-0.1282514887	0.1576791121	
678.75	0.05520996348	0.2270957713	
679.375	0.2220491693	0.05978318472	
680.0	0.1467759444	-0.1045919488	
680.625	0.0670932116	-0.08799834097	
681.25	0.0921342111	-0.01941724447	
681.875	0.1570999954	0.04402401805	
682.5	0.2132726401	0.08120729003	
683.125	0.2532559872	0.06832411402	
683.75	0.2702087859	0.06017681837	
684.375	0.2838452507	0.03066267351	
685.0	0.2906270826	0.02703964532	
685.625	0.2974925244	-0.01432776807	
686.25	0.2985870838	-0.06507739789	
686.875	0.2956658741	-0.1764457625	
687.5	0.2290343245	-0.3283255217	
688.125	-0.07466056139	-0.4432472368	
688.75	-0.4409578573	-0.1503935127	
689.375	-0.2658324851	0.3486505758	
690.0	0.1304313568	0.3533622838	
690.625	0.2577912462	0.2413436506	
691.25	0.3391021324	0.2609539836	
691.875	0.4774893262	0.2920455371	
692.5	0.621393352	0.1868203142	
693.125	0.673260878	-0.04814040699	
693.75	0.5902799397	-0.2698473711	
694.375	0.4305348605	-0.4123163323	
695.0	0.4481268624	-0.3075342078	
695.625	0.5096758424	-0.1103327992	
696.25	0.5147739006	0.1322585995	
696.875	0.44314696	0.3504942548	
697.5	0.4481315097	0.4005637579	
698.125	0.6114178817	0.1330589591	
698.75	0.3731387963	-0.4891650685	
699.375	-0.4511759724	-0.3285917484	
700.0	-0.2393969701	0.3808919058	
700.625	0.1666217752	0.2863966128	
701.25	0.2346070727	0.1724056116	
701.875	0.2730371068	0.2263594819	
702.5	0.3589627162	0.2286814583	
703.125	0.4290295416	0.1035626854	
703.75	0.3891026046	-0.1129047896	
704.375	0.2781559243	-0.1991092804	
705.0	0.2411130222	-0.1424877805	
705.625	0.268325101	-0.004192884297	
706.25	0.2651215887	0.1692993186	
706.875	0.2625921001	0.2777642614	
707.5	0.3162876404	0.3109610264	
708.125	0.4678088524	0.05236419069	
708.75	0.2330230874	-0.3989805658	
709.375	-0.3173830893	-0.2371858362	
710.0	-0.1591264985	0.2406825194	
710.625	0.08729886719	0.1464683164	
711.25	0.1064263956	0.1104079231	
711.875	0.2221853793	0.1017972086	
712.5	0.3143673301	-0.043280849	
713.125	0.2600806164	-0.1906394692	
713.75	0.1272005722	-0.2599892909	
714.375	0.00329954255	-0.244028606	
715.0	-0.03058795034	-0.2054792193	
715.625	0.01697308296	-0.2182423467	
716.25	0.1548821077	-0.2407013714	
716.875	0.3308080387	-0.1899801359	
717.5	0.5136407684	-0.06553247255	
718.125	0.6700900558	-0.007519433296	
718.75	0.7509923781	-0.1859047243	
719.375	0.7097188799	-0.5068610724	
720.0	0.399270037	-0.8564165596	
720.625	0.1314020224	-0.9660479344	
721.25	-0.1518412512	-0.9803743508	
721.875	-0.3505454392	-0.9805752749	
722.5	-0.714475966	-0.6889130065	
723.125	-0.8037091633	-0.05529260246	
723.75	-0.3660183579	0.4795328883	
724.375	0.05870268288	0.4586011147	
725.0	0.1777340383	0.3677291569	
725.625	0.1684253616	0.4582776001	
726.25	0.05525064729	0.6698293472	
726.875	-0.05332270914	0.9435606924	
727.5	-0.07096086149	1.359706653	
728.125	0.095053134	1.926471669	
728.75	-0.04069436297	2.833675031	
729.375	-0.4607803716	3.330886887	
730.0	0.4349773739	3.978368965	
730.625	0.7285382681	4.06685961	
731.25	-0.2902879411	3.366618585	
731.875	-2.070128126	2.745759179	
732.5	-2.901913165	1.424907461	
733.125	-2.220775074	0.8804026228	
733.75	-0.5484653912	1.460843242	
734.375	0.9107268965	0.2498893513	
735.0	-0.104079986	-0.5993265182	
735.625	-0.4698110265	0.1499132095	
736.25	-0.02990448025	0.5357143907	
736.875	0.4452327206	0.5414783348	
737.5	1.048235618	0.1635871767	
738.125	1.444868116	-0.438200545	
738.75	1.728038059	-1.180037704	
739.375	2.232481946	-1.506323224	
740.0	2.485281359	-1.449942542	
740.625	2.687815923	0.3843024557	
741.25	0.5986908571	2.273732704	
741.875	-2.175614342	0.3314425092	
742.5	-1.669254288	-2.159267256	
743.125	-0.1680204346	-1.736240281	
743.75	-0.240934687	-0.9331421692	
744.375	-0.3785465936	-0.02567618679	
745.0	0.08239925961	0.1355615857	
745.625	0.06536649661	-0.002805825849	
746.25	-0.01284697124	-0.1218908126	
746.875	-0.2261837936	0.03668781853	
747.5	-0.07897253229	0.3415860953	
748.125	0.1222792735	0.4825419376	
748.75	0.2559866576	0.4635317458	
749.375	0.06174989693	0.4760361775	
750.0	-0.4052126379	0.2979398432	
