!Created with skrf (http://scikit-rf.org).
# GHz S MA R 50.0 
!freq magS11 angS11
500.0 0.0145795705298 174.289937518
500.625 0.00975090937144 106.033571267
501.25 0.0111777230373 -142.956623112
501.875 0.0305662789368 -171.091938757
502.5 0.0332813437962 -178.305353682
503.125 0.0131519383248 46.7004797568
503.75 0.00903939560232 98.9402083257
504.375 0.00355425918456 99.7665511576
505.0 0.0085478967085 -30.2177164431
505.625 0.0426412419777 -82.6519753479
506.25 0.0222857212991 -144.461588082
506.875 0.0496377503194 -122.355424979
507.5 0.0420288833354 -122.604556165
508.125 0.0575689034414 -84.2584212867
508.75 0.0588456290178 -129.6658915
509.375 0.0575855778552 -134.828712248
510.0 0.0394228703316 -116.839148329
510.625 0.0491600678984 -156.645027824
511.25 0.0559194023729 -177.649441395
511.875 0.0458679054442 131.798624851
512.5 0.0382145260504 102.047303146
513.125 0.0616006166405 53.8559757891
513.75 0.0548677035799 35.4498432831
514.375 0.04050637 6.71182462649
515.0 0.0727448847642 7.83631335821
515.625 0.0515903557931 26.1904484828
516.25 0.0870189240158 28.5044323077
516.875 0.113252998897 65.1461269132
517.5 0.117940455721 21.5387030875
518.125 0.171045931234 62.6492841341
518.75 0.0743243372201 1.31952638071
519.375 0.0650318827807 18.1404018145
520.0 0.111618806295 -1.5811425772
520.625 0.0838201878054 -18.3817493714
521.25 0.0778289252273 -28.2174154197
521.875 0.0690725981174 -3.68518225958
522.5 0.106894185659 -32.7588738714
523.125 0.169424108485 -43.0213748687
523.75 0.211531961984 -58.7958868403
524.375 0.220852398603 -49.5851655756
525.0 0.0824138889746 -37.2183642485
525.625 0.0334112536616 -48.4553599612
526.25 0.0394898871449 -16.8240680626
526.875 0.0556453448602 -21.241157704
527.5 0.0596790033131 -26.7947926797
528.125 0.0276490028898 -70.8087133143
528.75 0.0589367687848 -73.8096002191
529.375 0.0852059592448 -114.490892209
530.0 0.0566250623971 -130.285111032
530.625 0.0370087729061 -141.681383078
531.25 0.128778230601 -139.315078321
531.875 0.177490509388 -148.653257315
532.5 0.153969326135 -171.052580059
533.125 0.080209499504 171.923062817
533.75 0.0973842692668 167.381874453
534.375 0.107767232908 177.850358404
535.0 0.100539715536 162.104607533
535.625 0.0486338990874 166.946136969
536.25 0.0550255392297 161.744444355
536.875 0.079992194449 -160.876964632
537.5 0.103964105053 -146.35444372
538.125 0.102663863315 -174.814184061
538.75 0.096940095863 179.143143962
539.375 0.0803100047754 -164.819788186
540.0 0.105346965177 -160.872707218
540.625 0.125059062171 -158.055908818
541.25 0.134532179128 -143.267340994
541.875 0.0983607830807 -144.599662796
542.5 0.111514125944 -144.156584453
543.125 0.134441605294 -167.481601445
543.75 0.128527637651 159.439537596
544.375 0.0944561792889 134.03668225
545.0 0.100274931457 88.2007763455
545.625 0.0767134249781 79.4674078285
546.25 0.0894250912383 66.1249126318
546.875 0.0869289039014 49.8546509628
547.5 0.12512322064 55.0415322167
548.125 0.112400448547 76.2028955925
548.75 0.0915110640641 90.0134570838
549.375 0.0966408483829 87.0230620953
550.0 0.10470332919 123.216472691
550.625 0.0278620668734 154.799808285
551.25 0.0368058506345 -138.603463013
551.875 0.0584493427155 -163.481040279
552.5 0.118576804568 -169.570560911
553.125 0.0843264713777 -166.093451423
553.75 0.0869045057709 -167.213994603
554.375 0.100046941252 168.922059159
555.0 0.137046316764 159.486478621
555.625 0.0865713470094 159.387001458
556.25 0.0988747680144 161.514751654
556.875 0.124162177 162.655699356
557.5 0.115847689467 165.831732671
558.125 0.10351291971 162.531667218
558.75 0.0796775638003 176.804609566
559.375 0.0605112017717 -173.948338449
560.0 0.0514820964763 -155.802360067
560.625 0.0494398647505 -126.613954396
561.25 0.0845612056844 -148.784611413
561.875 0.0951757554031 -161.502318515
562.5 0.0967976029292 170.264653174
563.125 0.0933857615809 151.178700302
563.75 0.120222644804 133.333311326
564.375 0.102515475506 120.834753521
565.0 0.0939174489322 116.876391938
565.625 0.0661228466054 122.910331352
566.25 0.0854805988299 155.542031839
566.875 0.0718506244779 177.557045774
567.5 0.0750460471493 -179.193984042
568.125 0.0825455434618 -172.744616653
568.75 0.0674758886365 -148.197321082
569.375 0.0501852426306 -112.393796992
570.0 0.0611577459313 -111.64918081
570.625 0.0869240465823 -114.618294287
571.25 0.0893794295569 -119.8674004
571.875 0.0889898111412 -131.562305435
572.5 0.112771113856 -157.505437435
573.125 0.141235622946 -176.114837813
573.75 0.103617763449 161.342991469
574.375 0.085053659508 146.054321051
575.0 0.110566514968 147.684093125
575.625 0.102873008659 158.566356707
576.25 0.0874174439043 148.826010852
576.875 0.0818157400869 130.732227254
577.5 0.0930337076335 127.117728384
578.125 0.0502881454383 170.199189513
578.75 0.0481544673982 162.788412402
579.375 0.0523097255003 158.623020214
580.0 0.0685221431571 -179.43718974
580.625 0.0772334634345 -154.918692287
581.25 0.0888389924746 -165.050161006
581.875 0.115776958804 -177.594011783
582.5 0.117700485469 -176.787079075
583.125 0.0987557759014 -176.20231167
583.75 0.0800012379532 -160.421988347
584.375 0.10055050989 -153.220122363
585.0 0.0893021150326 -140.176918706
585.625 0.0760835011734 -153.056512651
586.25 0.070121306203 -139.172043642
586.875 0.0832160572971 -138.410091419
587.5 0.0746371274605 -145.258939456
588.125 0.0611955626871 176.461721441
588.75 0.0684956881661 -156.356900862
589.375 0.08444887078 -149.307768391
590.0 0.0919923110663 -163.124322207
590.625 0.101946055157 156.944139536
591.25 0.119437023738 163.694725316
591.875 0.0953125005665 159.491267453
592.5 0.0616972403845 149.506908861
593.125 0.0643382569928 135.62805362
593.75 0.074631420278 -174.261551452
594.375 0.0591265378737 -141.630578568
595.0 0.0446746685819 -118.571773167
595.625 0.0513338846767 -118.134250687
596.25 0.0816117121572 -71.4510656131
596.875 0.0702550568951 -69.9687728667
597.5 0.059307607344 -57.9623978927
598.125 0.0590015500738 -72.2325236355
598.75 0.0788494246893 -62.9271948896
599.375 0.0928484713884 -64.8170297755
600.0 0.101771878667 -67.5956841738
600.625 0.0989514389253 -73.5367881927
601.25 0.0848992518689 -66.4152596351
601.875 0.071248576797 -79.7983816286
602.5 0.0619904829112 -72.8912284404
603.125 0.0460410279802 -85.2390549194
603.75 0.0331994990036 -18.2128117237
604.375 0.0402304787817 -25.9258717688
605.0 0.0538557453526 -29.1642730785
605.625 0.0526229316041 -10.0860581246
606.25 0.0220861471045 -13.6948441732
606.875 0.0360531482099 48.1456315197
607.5 0.0756884042584 45.0931948504
608.125 0.0699922281511 26.3250565782
608.75 0.0747424950935 28.7902265896
609.375 0.0644755964192 28.9007481888
610.0 0.0634915856416 36.0999666586
610.625 0.0655098459074 35.4409887636
611.25 0.0466481231822 18.8258306595
611.875 0.0391577677265 50.5488042678
612.5 0.0321365720962 96.4474497634
613.125 0.0401872155556 127.259292668
613.75 0.0210782724875 130.337482793
614.375 0.0694244663747 129.822697422
615.0 0.0415806803042 115.308232866
615.625 0.0405447968427 138.811411134
616.25 0.0361560934203 138.562753275
616.875 0.0618592006837 133.43607323
617.5 0.0497497851802 126.106121806
618.125 0.0441086756274 131.316128429
618.75 0.00984863239556 155.857166788
619.375 0.0443857569692 155.359911715
620.0 0.0211617916653 148.376737771
620.625 0.0113782896457 -114.762008923
621.25 0.0510472713843 -82.0992934985
621.875 0.075288200443 -133.415853704
622.5 0.0810020438756 -175.702455028
623.125 0.081209999319 173.576675127
623.75 0.0472987786147 179.243165
624.375 0.0657423585879 177.702773503
625.0 0.0416816544549 -147.990530225
625.625 0.0285292548501 -145.174687431
626.25 0.0237414750127 163.909995961
626.875 0.0173202468241 3.49871024492
627.5 0.0238513543367 -32.6198495055
628.125 0.0303689006792 -45.1235644985
628.75 0.0340562119621 -15.3926546061
629.375 0.0569297393083 -0.0625623866494
630.0 0.0599094272543 -33.2450079718
630.625 0.0694757263749 3.02700236378
631.25 0.0693708758376 7.5061557482
631.875 0.0716075032374 6.06002105935
632.5 0.060001718902 -10.0426843992
633.125 0.048198031602 -11.8024838444
633.75 0.0447849806953 -14.7955264858
634.375 0.0577017638387 32.9071807864
635.0 0.0384608324293 -18.2679250755
635.625 0.0363154277221 35.9959228025
636.25 0.0613732187222 45.1213137905
636.875 0.0625110465683 38.1407196453
637.5 0.0541179033839 51.6777095662
638.125 0.0283503841865 50.8358375837
638.75 0.0653184650491 74.3325768585
639.375 0.0838649808868 85.628250955
640.0 0.0827851353925 109.095415521
640.625 0.0496822186049 80.1588286774
641.25 0.0577868133851 112.72040751
641.875 0.0620227255761 144.804571601
642.5 0.0641878606595 161.6824712
643.125 0.055769187841 159.091394705
643.75 0.0589740735414 169.934617997
644.375 0.0760024569781 -173.289624803
645.0 0.0874851273594 -179.943643968
645.625 0.0722366422489 153.817055841
646.25 0.0793418963448 154.844964749
646.875 0.0653668504814 166.095587985
647.5 0.0825145805614 -176.420604715
648.125 0.0639325351072 166.604442062
648.75 0.0727046060522 -167.567630465
649.375 0.0516938203233 -159.537737081
650.0 0.0596558935067 -121.976768024
650.625 0.0688821785159 -93.0318657917
651.25 0.0681719144762 -66.5675984875
651.875 0.0722028458728 -44.8914733242
652.5 0.0892086631842 -24.9865938741
653.125 0.132314723522 -2.89525717912
653.75 0.107731945377 4.85349260316
654.375 0.100366326351 3.41780669006
655.0 0.133658924528 12.0210616835
655.625 0.0768951764254 12.6108836053
656.25 0.0622535856235 18.5313977311
656.875 0.0735002203072 5.09874254125
657.5 0.0805572799202 22.545938871
658.125 0.0808432826073 45.2174812668
658.75 0.0483411956374 60.5653073056
659.375 0.0774356468911 41.6768537818
660.0 0.102748294294 24.2164332524
660.625 0.125587808102 14.9994519885
661.25 0.0876174464006 2.95654761331
661.875 0.115996842142 -14.0144561788
662.5 0.123025504881 -21.8055685748
663.125 0.113418376828 -17.4492271388
663.75 0.0936266148891 1.6573655401
664.375 0.0937062318609 52.858310722
665.0 0.0805246350792 88.5645147498
665.625 0.0439737454522 108.173106027
666.25 0.0693713646001 132.278933291
666.875 0.096457550899 170.35261284
667.5 0.107990137472 -173.37260347
668.125 0.0879091296035 -177.071736834
668.75 0.122096995294 167.457629544
669.375 0.140578428243 174.285831547
670.0 0.0935379909776 -172.205705658
670.625 0.0828378270605 -173.602505277
671.25 0.1092616274 171.435813237
671.875 0.108504001786 165.823958211
672.5 0.0804172043122 153.470662556
673.125 0.0813460202925 150.261427809
673.75 0.106381079613 160.033629949
674.375 0.105944527504 167.606782476
675.0 0.125232309126 179.151730879
675.625 0.117704036733 -150.272918459
676.25 0.113615304809 -124.929400991
676.875 0.107535296658 -124.507766315
677.5 0.136602058457 -132.859109751
678.125 0.126150716964 -120.501712437
678.75 0.068435780539 -98.103982577
679.375 0.0552293698105 -79.1781247103
680.0 0.0792128967822 -81.615699323
680.625 0.130079020276 -83.0166990215
681.25 0.088335000058 -68.2547342447
681.875 0.095299337191 -89.2947281635
682.5 0.126538251516 -120.278452769
683.125 0.170734524932 -125.25670482
683.75 0.138948883015 -106.356937829
684.375 0.116218740049 -80.6148267228
685.0 0.123626922807 -38.8981133054
685.625 0.132178890715 -3.66855842061
686.25 0.119688816654 16.9695636039
686.875 0.0852902427188 44.3267348575
687.5 0.0804447947612 82.374067188
688.125 0.0817284520673 106.080094625
688.75 0.104657886278 106.056351129
689.375 0.133980427594 122.712831071
690.0 0.125960442358 135.534670089
690.625 0.113034011884 126.609010843
691.25 0.147416897246 91.8944363563
691.875 0.165472854625 73.181837653
692.5 0.139187289219 39.2542094741
693.125 0.0946752307265 -19.5741099422
693.75 0.0964973163828 -42.2434538301
694.375 0.143989633388 -37.7943476309
695.0 0.123091175481 13.8401923216
695.625 0.0969567260279 58.6171559109
696.25 0.109590397658 115.783372482
696.875 0.143622253901 163.993920293
697.5 0.14305167713 -147.72339827
698.125 0.139088301523 -134.616948554
698.75 0.122138458172 -131.31474896
699.375 0.116073054987 -130.523829634
700.0 0.093246344652 -111.744824346
700.625 0.112721438955 -90.1473487491
701.25 0.0953063339064 -65.3824186572
701.875 0.0849008197613 -70.3169841666
702.5 0.0991611817909 -76.1682081802
703.125 0.165791905207 -119.857335977
703.75 0.188423199093 -157.971813985
704.375 0.13414647847 166.586653733
705.0 0.114329417927 153.194828612
705.625 0.142362128585 -169.735260141
706.25 0.144383793202 -112.469980514
706.875 0.0961795704133 -65.7965554709
707.5 0.081843161522 -49.1697390933
708.125 0.0881417566058 29.1463961441
708.75 0.111467327007 69.9897685998
709.375 0.107483434694 103.507057402
710.0 0.102038190834 119.370350016
710.625 0.10374292315 159.064080048
711.25 0.120901014248 177.214275532
711.875 0.14483267871 164.231624889
712.5 0.157399362961 136.836799973
713.125 0.121902995966 102.75850024
713.75 0.0969984162724 52.2300837577
714.375 0.0994645050168 22.0510983786
715.0 0.12144487084 10.2924930428
715.625 0.0845232873297 48.9697491887
716.25 0.08042457881 75.3639436043
716.875 0.113762357221 97.0758083914
717.5 0.14850760966 143.798875096
718.125 0.117009815276 154.326214387
718.75 0.108998151023 -176.411441482
719.375 0.119327474184 -169.659471127
720.0 0.131165515882 -138.368864073
720.625 0.116170016944 -82.4863351884
721.25 0.0989275367598 -7.78314113341
721.875 0.0888311425013 36.0581385965
722.5 0.0737354227239 63.6914543018
723.125 0.0746502713203 55.6032481046
723.75 0.13288381357 53.8726550433
724.375 0.116020501158 0.82682906299
725.0 0.095561974587 -35.7887111604
725.625 0.0930403804357 -74.4781086356
726.25 0.107020647052 -79.4117537434
726.875 0.102593354479 -51.2812583442
727.5 0.079794008813 -45.6473689728
728.125 0.0811956192658 -9.07984412406
728.75 0.0677723341261 -4.92352980673
729.375 0.106156294981 33.4777043746
730.0 0.0745199159947 6.45835962402
730.625 0.0501561028617 16.9218315058
731.25 0.0589528044509 55.1889057667
731.875 0.0757731277363 119.565472061
732.5 0.0753516302824 149.574872967
733.125 0.0954725363128 175.729181374
733.75 0.0715354064504 161.222081838
734.375 0.0964883653431 -170.414427859
735.0 0.0778858413457 162.34455182
735.625 0.0744734759588 149.529948732
736.25 0.0120166751134 134.320493303
736.875 0.0794907820239 164.645034252
737.5 0.0859552112885 175.745358452
738.125 0.0703530169227 -177.552545826
738.75 0.0661677952717 174.481782258
739.375 0.0570527015368 -160.180706304
740.0 0.0499126387644 -146.018178159
740.625 0.0713841284481 -155.60144478
741.25 0.0453057761861 -159.62017052
741.875 0.0115398979085 -54.4214705407
742.5 0.0713726279379 -18.9953460993
743.125 0.0529798210303 46.6919187111
743.75 0.033147582971 87.5555571224
744.375 0.0319980950351 160.145673357
745.0 0.0611798963747 121.898184491
745.625 0.0642482231259 105.063451918
746.25 0.0770675544101 73.5152809255
746.875 0.0541842234282 64.6238236582
747.5 0.075876151017 1.61465494822
748.125 0.0253407904376 -3.09419839372
748.75 0.0188584485481 21.4002476239
749.375 0.0288262930899 -33.4053607616
750.0 0.0335872383052 -53.9382872459
