!Created with skrf (http://scikit-rf.org).
# GHz S RI R (50+0j) 
!freq	ReS11	ImS11	
500.0	-0.09212179424	-4.896324659	
500.625	-0.6024946747	-2.218711643	
501.25	-0.4329159524	-1.521010466	
501.875	-1.323779595	-2.082424714	
502.5	-0.4258767533	-0.02719003461	
503.125	-0.1701344353	-0.1046975975	
503.75	0.2684184812	0.3904724416	
504.375	-0.01554160665	0.05368328371	
505.0	0.09390429642	-0.2061989283	
505.625	0.02938581821	0.1065935414	
506.25	-0.364596616	-0.7102070436	
506.875	0.4702259201	0.5943400561	
507.5	0.7817731964	-1.40483291	
508.125	-0.2403524724	-3.027846413	
508.75	-0.4811254552	-1.557019519	
509.375	1.180012776	-4.591957425	
510.0	-1.768429699	0.4623187205	
510.625	-0.07339248081	-0.5182460518	
511.25	-0.6826440444	-0.08044668129	
511.875	-0.1597876846	-0.08043372211	
512.5	-0.08928894285	0.1034380476	
513.125	-0.02834542478	-0.3849815203	
513.75	-0.3421035136	0.1241994777	
514.375	0.04716713784	-0.2719429912	
515.0	-1.020052631	0.3707407847	
515.625	2.178235814	-1.860491485	
516.25	-2.894874415	-1.901498659	
516.875	0.4003507854	-0.0168281249	
517.5	-0.08649615353	-1.313405267	
518.125	0.02108879624	0.3410310136	
518.75	0.006417730208	-0.8541973441	
519.375	-0.1097429641	0.2277444591	
520.0	0.1804394926	0.1366439585	
520.625	0.6722998762	-0.2168021604	
521.25	-0.3551164682	-0.5727597805	
521.875	-0.1721637326	-0.2045481353	
522.5	-0.1942661019	0.2459416926	
523.125	-0.1839604759	-0.1626504831	
523.75	-0.2342170267	0.1794815551	
524.375	-0.4015881916	-0.1857531586	
525.0	0.1664329184	0.6477081495	
525.625	-0.1114333951	-0.08630171574	
526.25	0.1294366544	0.09112825565	
526.875	-0.2815400755	-0.005053996132	
527.5	0.05359099091	0.8171150511	
528.125	0.06965174234	0.2765538809	
528.75	-0.2065877771	0.949725818	
529.375	0.3136544029	-0.03095619102	
530.0	0.05439633539	0.8340989424	
530.625	0.2375743055	0.2863118099	
531.25	1.333317916	0.7671489698	
531.875	0.172843447	-0.8502600719	
532.5	0.1601597197	-0.2295902923	
533.125	-0.4868078218	-0.1606654636	
533.75	0.6510108883	-0.5839599713	
534.375	-0.6893091659	-0.5856210133	
535.0	-0.2709844518	-0.3812177918	
535.625	-0.7050872817	0.5702151197	
536.25	0.1167685175	0.1425880399	
536.875	0.1907330474	0.1616985806	
537.5	0.2140397883	-0.1978553684	
538.125	0.1033431666	-0.02938293943	
538.75	0.519307984	-0.3911578419	
539.375	-0.2451632878	-0.2026558582	
540.0	-0.2149712747	-0.4680418053	
540.625	-0.593019721	0.00887350448	
541.25	-0.07184149748	0.07147237393	
541.875	-0.06109311004	-0.09036954189	
542.5	-0.2114084069	-0.1609946091	
543.125	-0.08403754145	0.1047288643	
543.75	-0.2556935841	-0.1950507199	
544.375	0.006346928173	0.2602139611	
545.0	-0.1920901361	0.04875206925	
545.625	0.362158852	0.132725471	
546.25	-0.0276373734	0.05698963546	
546.875	0.5796346073	-0.04349770223	
547.5	-0.1082526731	-0.2519641854	
548.125	0.12635612	-0.3468268015	
548.75	-0.4157466344	-0.4062649811	
549.375	-0.2704713096	0.02960722721	
550.0	-0.175063622	-0.1595586252	
550.625	-0.1121209312	0.1673974921	
551.25	-0.175540421	-0.07224813183	
551.875	-0.2070917006	0.3000546032	
552.5	-0.02561228635	0.09999075885	
553.125	-0.08433353716	0.1881480463	
553.75	0.1383696156	0.09812243241	
554.375	0.1982999628	0.005545175929	
555.0	0.2494721042	-0.1664980185	
555.625	0.1812429122	-0.2683123296	
556.25	0.1561296607	-0.3268342583	
556.875	-0.08269384248	-0.3859488705	
557.5	-0.2466730378	-0.2369495002	
558.125	-0.2638799166	-0.08522713685	
558.75	-0.2553433051	-0.03040150015	
559.375	-0.2757260087	0.0742001533	
560.0	-0.1748042979	0.1592585334	
560.625	-0.1691436986	0.2384546754	
561.25	0.07677487419	0.2789068088	
561.875	-0.009186777544	0.04243475657	
562.5	0.130300263	0.1781255865	
563.125	0.0316611788	0.149400042	
563.75	0.4473680338	0.03505456437	
564.375	0.1593365357	-0.3180286281	
565.0	0.2140592454	-0.1680912949	
565.625	-0.06902816398	-0.4951941117	
566.25	-0.3483336648	-0.1448999766	
566.875	-0.1632913988	-0.1827883602	
567.5	-0.4327191626	-0.3913183232	
568.125	-0.3523668033	-0.1614764425	
568.75	-0.487543389	-0.4329776455	
569.375	-0.5653823242	0.4262960463	
570.0	-0.2060638043	0.2493500059	
570.625	-0.4260890134	0.509621843	
571.25	0.3434196513	0.3186146938	
571.875	-0.2156425776	0.2562065728	
572.5	0.6066885642	-0.1201960258	
573.125	-0.1052092609	-0.1629769306	
573.75	0.4118541625	-0.1199850383	
574.375	-0.2094482576	-0.3748629808	
575.0	0.227407526	0.169206414	
575.625	-0.02324883852	-0.4409580806	
576.25	-0.02338874875	0.0556532202	
576.875	0.2585362748	-0.5097406921	
577.5	-0.2246139156	-0.506427783	
578.125	-0.1095207354	-0.1200001977	
578.75	0.011321178	-0.3778524361	
579.375	-0.4186615276	-0.2625617167	
580.0	0.06880028482	0.1204245085	
580.625	-0.3422808823	-0.2401231563	
581.25	0.0101804392	0.2848431373	
581.875	-0.2460869061	0.1658892803	
582.5	0.1648170883	0.672476137	
583.125	0.3862040587	-0.1566297967	
583.75	-0.2743683703	0.300752259	
584.375	0.4916319185	-0.1212124145	
585.0	-0.1458481078	0.2899386757	
585.625	0.7145192093	-0.04345403408	
586.25	0.02250584129	-0.2514002726	
586.875	0.4790417246	-0.1300221057	
587.5	-0.2794109353	-0.5186108902	
588.125	0.001966846679	-0.003369231632	
588.75	0.3548359777	-0.4317791644	
589.375	0.0005906627035	-0.5546527959	
590.0	0.01216633835	-0.1979317109	
590.625	-0.4462911112	-0.29305338	
591.25	-0.2486401864	0.4000077533	
591.875	-0.06403488029	0.1071347847	
592.5	-0.04766067602	0.2617790543	
593.125	-0.06940597287	-0.06990033529	
593.75	0.1431317073	0.4728408605	
594.375	0.4563031831	0.03739393203	
595.0	0.07479511017	0.147471249	
595.625	0.4740575712	0.6364080967	
596.25	0.4443513809	-0.375455563	
596.875	0.07741752393	0.3675182656	
597.5	0.672055938	0.211198889	
598.125	0.06815422535	0.03582659693	
598.75	0.6545042239	0.5227251128	
599.375	0.2889749933	-0.3376671073	
600.0	0.3987605158	-0.05735784815	
600.625	0.5207619237	-0.4948899834	
601.25	-0.02466587449	-0.4951984529	
601.875	-0.02342557472	-0.244320513	
602.5	-0.3216618718	-0.1068136259	
603.125	-0.3148306834	0.1116539107	
603.75	-0.114206124	0.1735926238	
604.375	-0.3015215735	0.05407344071	
605.0	-0.1330398739	0.2925243158	
605.625	-0.1587976312	-0.03116429361	
606.25	-0.3500421119	0.3030463894	
606.875	-0.1059580328	0.08653599412	
607.5	-0.7819593716	0.3019101096	
608.125	0.3937310688	0.6595578341	
608.75	-0.008418613493	0.3619632165	
609.375	0.9030726402	-0.03948444914	
610.0	-0.0004946467351	-0.3084536331	
610.625	0.5361714521	-0.2939732625	
611.25	-0.2282313318	-0.4326039646	
611.875	0.1381054818	-0.2786942531	
612.5	-0.6865893942	-0.1172070734	
613.125	-0.1849792819	0.0244557542	
613.75	-0.4122982052	0.3936531192	
614.375	0.3073297961	0.07549323106	
615.0	-0.0331807923	0.3125981655	
615.625	0.1896816163	-0.0200546244	
616.25	-0.4220207648	0.3318621316	
616.875	0.01207048367	0.7122054994	
617.5	-0.126008187	0.1264283112	
618.125	-0.1984752153	0.7519474398	
618.75	0.2842661733	0.2855907021	
619.375	-0.03311323958	0.4107293571	
620.0	0.587465372	0.007990559378	
620.625	0.1930504547	-0.1991665929	
621.25	-0.2423487251	-0.5217144236	
621.875	-0.325291113	-0.1235057331	
622.5	-0.5874536182	0.04866247228	
623.125	0.0638392389	0.3725398326	
623.75	0.1869066081	0.2775456818	
624.375	0.06610243821	-0.3764771771	
625.0	0.1852621222	0.2427045621	
625.625	0.01706882609	-0.6116525408	
626.25	0.06127367676	0.06354282993	
626.875	-0.3454029057	-0.5103545571	
627.5	-0.4199636681	0.1655815705	
628.125	0.02951112995	-0.2144682827	
628.75	-0.4321428729	-0.450048485	
629.375	-0.04153784879	-0.1229265405	
630.0	-0.4829358521	-0.4259761106	
630.625	-0.5448417187	0.3402602115	
631.25	-0.1276949518	0.2736006532	
631.875	-0.2413744241	0.5985136253	
632.5	0.3952721007	0.4738274093	
633.125	0.5113770934	0.02354277193	
633.75	0.2499759426	-0.0648351401	
634.375	0.2781641065	-0.5028914488	
635.0	-0.09479064025	-0.0824084918	
635.625	-0.3352193365	-0.4080539424	
636.25	-0.3278554463	0.3695078141	
636.875	-0.0975003432	-0.0392923813	
637.5	-0.2620169587	0.5550964126	
638.125	0.2129717645	-0.06057810992	
638.75	-0.618672801	0.3119027744	
639.375	0.2752490043	0.8683193179	
640.0	0.344549425	0.1766279507	
640.625	0.3408466685	0.6487985912	
641.25	0.8783422419	-0.2447975659	
641.875	0.1451127395	-0.1439310272	
642.5	0.2345900124	-0.831216975	
643.125	-0.4540010017	0.1904939925	
643.75	-0.004017880053	-0.3964055105	
644.375	-0.7640714629	0.07677330103	
645.0	-0.03730720173	0.4293874654	
645.625	-0.07997491175	0.2013112715	
646.25	0.5138332473	0.5587047191	
646.875	0.1730965025	-0.4195082133	
647.5	0.01759285436	0.4643377112	
648.125	0.5790104356	-0.3420904619	
648.75	0.2134208872	0.3651237502	
649.375	0.9475700383	-0.9139119989	
650.0	-0.2726606182	-0.795937421	
650.625	0.49686498	0.02554595273	
651.25	1.03878837	-1.089337265	
651.875	-0.2022985805	-0.6698026044	
652.5	0.6637645019	0.3479303251	
653.125	0.9439878174	-0.6959390767	
653.75	-0.05338203675	-0.296592525	
654.375	0.3206858893	-1.015431457	
655.0	-0.9688143586	0.1299560876	
655.625	0.01669453299	0.2374421066	
656.25	-0.3920489056	0.4662062569	
656.875	0.5817437968	0.2215547629	
657.5	-0.3489936154	0.07986744361	
658.125	0.5791481291	0.5949097743	
658.75	0.6498242728	-0.09119986209	
659.375	0.4800416557	-0.06621908015	
660.0	0.9005161785	-0.9444388048	
660.625	-0.1903911855	-0.6403519191	
661.25	0.6085783689	-0.3623999812	
661.875	0.7307939258	-0.9122434528	
662.5	0.04384718906	-0.736942625	
663.125	0.6549400896	0.1693576136	
663.75	0.3679349214	-1.222841132	
664.375	-0.2908443988	-0.2723447553	
665.0	-0.4662944347	-0.8780688743	
665.625	-0.6936454124	0.7163152859	
666.25	-0.3010274512	0.1681865684	
666.875	0.3086041638	0.7941080339	
667.5	0.5489123261	-0.07763565628	
668.125	0.1451866355	0.121276539	
668.75	0.7995584578	-0.3141335024	
669.375	-0.05728803427	-0.6237357403	
670.0	0.03813795563	-0.3026628233	
670.625	0.1564332537	-0.5731931873	
671.25	-0.1849888435	-0.4045875933	
671.875	0.5497820828	-0.2836283286	
672.5	0.4000467725	-0.5509300912	
673.125	0.2180643859	-0.3501513828	
673.75	0.5759528526	-0.2083638727	
674.375	0.06483414385	-1.158283844	
675.0	-0.4742718434	0.08292199531	
675.625	-0.09661167564	-0.7526619805	
676.25	-0.8348479245	0.1641440393	
676.875	0.2335371824	-0.01025510656	
677.5	-0.9763933939	0.1650958035	
678.125	0.2470899187	0.2213155114	
678.75	-0.3622208825	0.5754981613	
679.375	1.036110024	0.1135158506	
680.0	-0.1707827813	-0.3168253693	
680.625	0.3953833214	0.1348634056	
681.25	0.366265608	-0.3137264892	
681.875	0.1125868239	-0.0806099662	
682.5	0.3287666945	0.4567252705	
683.125	0.8634810535	0.08320781275	
683.75	0.3812591462	-0.001300221209	
684.375	0.4854757349	0.3696252051	
685.0	1.061711515	-0.1900084979	
685.625	0.07844092988	0.1067108458	
686.25	1.293393684	0.0288194838	
686.875	0.1646889522	-1.006732703	
687.5	0.6433475284	0.1087277372	
688.125	0.003132583765	-1.884681815	
688.75	-0.8436853475	0.5515316548	
689.375	-1.253493858	0.1428816673	
690.0	0.8298417829	1.087226017	
690.625	0.04802841914	0.1743326346	
691.25	1.240047972	1.081158115	
691.875	0.82205848	0.170866899	
692.5	1.205859458	0.6707561632	
693.125	1.674225364	-0.1174056627	
693.75	1.172368782	-0.7149416229	
694.375	0.913308492	-0.9016567292	
695.0	0.7395821278	-0.6255847322	
695.625	1.474397996	-0.1425682391	
696.25	1.042331695	-0.1401927959	
696.875	0.4679717779	1.227604161	
697.5	1.713193025	0.8672065092	
698.125	0.6233207257	0.3010312278	
698.75	1.643375357	-1.168943358	
699.375	-1.572621814	-0.3593012245	
700.0	-0.8497956855	-0.06769514783	
700.625	0.806648538	1.159323545	
701.25	0.2013708179	0.005209009052	
701.875	0.7660081745	1.076039296	
702.5	0.6675028732	-0.07870974252	
703.125	0.8017046619	0.5897248056	
703.75	1.058566961	-0.5794704264	
704.375	0.2353212144	-0.02457014882	
705.0	0.9816454138	-0.49312508	
705.625	0.1096496664	-0.2682132671	
706.25	0.5282359048	0.9697288757	
706.875	1.159752062	0.3339459497	
707.5	0.1255816384	0.704426907	
708.125	1.577564985	0.2817760954	
708.75	0.05049769212	-0.9825111945	
709.375	-0.3084442917	-0.9118503523	
710.0	-0.3911450589	1.014609759	
710.625	0.002495788759	0.03100414506	
711.25	0.4302336326	0.4809949807	
711.875	0.4236887821	0.1469591785	
712.5	0.7470722903	-0.06986235912	
713.125	0.4087286037	-0.3351945423	
713.75	0.5485313065	-0.5768520356	
714.375	-0.3456010227	-0.6558876218	
715.0	0.3945220133	-0.1514627488	
715.625	-0.2537078921	-0.9766821196	
716.25	0.1030495819	0.04985632313	
716.875	1.592897446	-0.3661342986	
717.5	0.9204346309	-1.393814766	
718.125	0.840432427	1.653831058	
718.75	3.423145189	-1.36687988	
719.375	0.2542487799	-1.632931771	
720.0	2.594757449	-0.8709677876	
720.625	-0.2449817959	-4.097851156	
721.25	-0.1434628847	-0.9975726696	
721.875	-0.5709486364	-3.181812061	
722.5	-2.521439681	-1.447369386	
723.125	-1.027377839	-0.2506288634	
723.75	-1.51461187	1.310541277	
724.375	0.5852874016	1.001580006	
725.0	0.2824794702	0.6184284473	
725.625	0.0246740828	1.120804407	
726.25	0.6090389216	2.326219769	
726.875	0.4729186616	0.7270602613	
727.5	-1.94044031	4.085062753	
728.125	1.766186996	5.914245108	
728.75	-0.5625888851	1.567124785	
729.375	-4.313230726	17.15300009	
730.0	5.67823791	6.959336481	
730.625	-7.210441949	4.353114873	
731.25	-2.202434988	18.26025514	
731.875	3.583973538	7.03596822	
732.5	-9.935604006	-2.534767664	
733.125	-7.76486558	4.159430348	
733.75	-0.2163160449	3.641932518	
734.375	1.01951676	2.016553245	
735.0	-1.252858671	-2.080599263	
735.625	-0.4441163695	-0.1317074532	
736.25	-0.7367229282	1.535162863	
736.875	2.069170022	1.286807984	
737.5	1.413106285	-0.824537856	
738.125	3.75175055	1.404416564	
738.75	6.961342341	-5.601989581	
739.375	0.1065270685	-7.780700485	
740.0	6.728529581	9.891171713	
740.625	15.87881269	-14.04436033	
741.25	-11.84262797	-6.226160759	
741.875	-13.59290094	7.751840568	
742.5	-0.815550088	6.379577745	
743.125	6.804954206	-3.778855876	
743.75	-2.708861532	-5.298916773	
744.375	-0.6908393932	0.7837507542	
745.0	-0.3191875501	0.223067659	
745.625	0.2929255063	-0.3627844214	
746.25	0.2064798166	-0.04803930834	
746.875	-1.435095981	0.4182791303	
747.5	0.06379643526	0.8641953927	
748.125	-0.1460838148	1.090879812	
748.75	0.8413247458	1.085906674	
749.375	2.314438366	1.688212418	
750.0	-0.6468633098	-1.187362909	
