!Created with skrf (http://scikit-rf.org).
# GHz S RI R (50+0j) 
!freq	ReS11	ImS11	
500.0	0.6329264	-0.7736097668	
500.625	0.002172712764	-1.018068419	
501.25	0.04282977477	-0.2183408846	
501.875	-0.2435298436	-0.5589157604	
502.5	-0.06714853664	-0.04615348058	
503.125	-0.05221579807	-0.04394078956	
503.75	0.04651702974	0.1091021554	
504.375	-0.009651298248	0.01006376218	
505.0	0.04470228746	-0.04028025334	
505.625	-0.03977809677	-0.0061696078	
506.25	0.0218298043	-0.1172676968	
506.875	-0.06124983082	0.253458057	
507.5	0.2581728768	-0.2816633304	
508.125	-0.02636237169	-0.8335962332	
508.75	0.03178945813	-0.5401114174	
509.375	0.2800067309	-0.9403549005	
510.0	-0.4672398191	-0.1845289741	
510.625	-0.06895127413	-0.1039586824	
511.25	-0.08985356207	-0.1152768156	
511.875	-0.1377683089	-0.004777920578	
512.5	-0.01074694824	0.01599335929	
513.125	0.01468086481	-0.08675133387	
513.75	-0.08440642716	0.02560568088	
514.375	0.03277377384	-0.06137445593	
515.0	-0.2402180695	-0.07900474546	
515.625	0.5098089235	-0.2430109697	
516.25	-0.691915138	-0.6301985774	
516.875	-0.1727540617	-0.01134712149	
517.5	0.08526403305	-0.1860157407	
518.125	-0.06253656053	0.0258159241	
518.75	0.003924132046	-0.1971613987	
519.375	-0.05504317268	0.04759023056	
520.0	0.08540607834	0.02035082025	
520.625	0.09934311844	-0.02856429915	
521.25	-0.01829749097	-0.1913143046	
521.875	-0.1531327445	0.02713968241	
522.5	-0.004145510427	-0.0135620656	
523.125	-0.1179103669	0.04114322457	
523.75	-0.01025300455	0.05969622683	
524.375	-0.1986984256	-0.0887159795	
525.0	0.0484288711	0.2180326343	
525.625	-0.008607338409	-0.03535273082	
526.25	0.05913702022	0.02351094684	
526.875	-0.0805993351	-0.0111427764	
527.5	-0.05248833463	0.2446777208	
528.125	0.1236091274	0.1282430434	
528.75	-0.008453500021	0.2293793852	
529.375	0.06922514211	0.03479861009	
530.0	0.08290917032	0.2251961285	
530.625	0.0709694238	0.2115875387	
531.25	0.4321827621	0.07958153236	
531.875	0.0956449026	-0.1792416956	
532.5	0.08141529515	-0.1161538984	
533.125	-0.03481196829	0.006152299841	
533.75	0.2742382932	-0.1468941563	
534.375	-0.1863845581	-0.232831859	
535.0	-0.1284573326	-0.0766497474	
535.625	-0.1892701595	0.09904465054	
536.25	0.04244460362	0.07634578049	
536.875	0.05210454545	0.04065602425	
537.5	0.07362142179	-0.05867409085	
538.125	0.04984897365	-0.04509087709	
538.75	0.1269247792	-0.09972369931	
539.375	-0.09442635925	-0.1339320517	
540.0	-0.1113056298	-0.09589969614	
540.625	-0.1357429532	-0.03933093028	
541.25	-0.1031838283	0.01207528097	
541.875	-0.008678803225	0.01235564466	
542.5	-0.05400316448	-0.1492088801	
543.125	-0.06350124528	0.02515111567	
543.75	-0.05508793969	-0.1032017526	
544.375	-0.03788957164	0.1164473959	
545.0	-0.02553138684	0.008393603053	
545.625	0.08692946217	0.09893926365	
546.25	0.04848675688	-0.03635892552	
546.875	0.1179084896	0.03346576499	
547.5	0.03683177326	-0.1652498986	
548.125	-0.0338978709	-0.07448361827	
548.75	-0.08410701982	-0.1515027947	
549.375	-0.1489420541	-0.03783366861	
550.0	-0.02400219016	-0.0004356373973	
550.625	-0.08175608173	0.01631739343	
551.25	-0.03434052091	0.03468488116	
551.875	-0.08109214377	0.04386404256	
552.5	-0.02667140758	0.08899619558	
553.125	-0.01203021869	0.04185286085	
553.75	0.0525459394	0.05341524393	
554.375	0.0752217771	-0.01770844916	
555.0	0.08718948467	-0.05680148761	
555.625	0.07369836116	-0.1058166279	
556.25	0.0460211413	-0.1262453241	
556.875	-0.03515809785	-0.1372524137	
557.5	-0.09392384829	-0.08969976323	
558.125	-0.1099157135	-0.02425153666	
558.75	-0.09187558642	0.0007991225407	
559.375	-0.1056716359	0.01730929775	
560.0	-0.07936136562	0.08329549489	
560.625	-0.04048027133	0.08131092029	
561.25	-0.004646347195	0.1118500121	
561.875	0.04897902745	0.01704827913	
562.5	-0.01489991812	0.06521766811	
563.125	0.09731505542	0.0432170542	
563.75	0.08244815189	0.006683059422	
564.375	0.1547431792	-0.08866941099	
565.0	0.01490343975	-0.1555984077	
565.625	0.0005982928245	-0.1014281014	
566.25	-0.1507845818	-0.1557401475	
566.875	-0.1104726295	0.005755855577	
567.5	-0.0685694428	-0.153929712	
568.125	-0.2416473302	-0.1339164771	
568.75	-0.1134397268	-0.01477342645	
569.375	-0.3008448065	0.03602069178	
570.0	-0.03847124454	0.2528929855	
570.625	-0.04028289917	0.04824122609	
571.25	-0.04010422308	0.1824826646	
571.875	0.07668619748	-0.03477782753	
572.5	0.1245262079	0.0943729205	
573.125	0.06599700339	-0.2094888896	
573.75	-0.03573015067	-0.0237024971	
574.375	0.1070941824	-0.07669530129	
575.0	-0.06982832625	-0.0600651323	
575.625	0.1013701952	-0.01687811574	
576.25	0.03721508925	-0.1855913912	
576.875	-0.06615065784	-0.05829948329	
577.5	0.08597022468	-0.1091458873	
578.125	-0.1035449152	-0.2415150391	
578.75	-0.108274386	0.01883731296	
579.375	0.02856679567	-0.1179603765	
580.0	-0.1902687782	-0.01637877452	
580.625	0.1171631643	-0.07914163372	
581.25	-0.214100729	0.1584318656	
581.875	0.1402031794	0.06231408152	
582.5	-0.07840768665	0.06889599152	
583.125	0.1037264677	0.18797183	
583.75	0.02758639025	-0.1098995238	
584.375	0.03750121897	0.1757629537	
585.0	0.146843044	-0.04903152286	
585.625	0.04514933764	0.05121558148	
586.25	0.2314509397	-0.0364986547	
586.875	-0.02969698769	-0.1298105734	
587.5	0.05190933359	-0.07663076211	
588.125	-0.02195416233	-0.201800709	
588.75	-0.05603482387	-0.09312074813	
589.375	0.1558499526	-0.06238437541	
590.0	-0.1439865703	-0.2233264968	
590.625	-0.08314681791	0.03630362976	
591.25	-0.1793683249	0.007009158954	
591.875	0.002133948035	0.2564425042	
592.5	-0.007763555386	-0.1095500055	
593.125	0.006582852306	0.1561474751	
593.75	0.007757861313	-0.004045589698	
594.375	0.1802357203	0.2045324051	
595.0	0.2372929038	0.008969785274	
595.625	0.04384497292	0.03889993307	
596.25	0.192221799	0.1028309596	
596.875	0.1345504502	-0.04785525516	
597.5	0.05407337298	0.08100567291	
598.125	0.180784277	0.1528042992	
598.75	0.1449709144	0.006910353315	
599.375	0.1834340085	-0.003893327922	
600.0	0.183212188	-0.1496815062	
600.625	0.07246571221	-0.1980294581	
601.25	0.09025848506	-0.08416067018	
601.875	-0.09943650726	-0.2230234216	
602.5	-0.07316317273	0.08114024388	
603.125	-0.1058131208	-0.06073120887	
603.75	-0.1157063696	0.2142985133	
604.375	0.01713077791	-0.02728094601	
605.0	-0.169546754	0.07261245874	
605.625	0.05625256161	0.1016340229	
606.25	-0.1876679799	-0.01874155745	
606.875	-0.1906652024	0.1631821079	
607.5	-0.1458299624	0.05907726558	
608.125	-0.06471894821	0.2413966028	
608.75	0.1806169852	0.1351401408	
609.375	0.1932358589	-0.03284475755	
610.0	0.1600852221	-0.06559966828	
610.625	0.08755262093	-0.1723485082	
611.25	-0.06508780636	-0.1501464848	
611.875	-0.01406985075	-0.1394934917	
612.5	-0.2845832448	-0.06632572833	
613.125	-0.05562461312	0.04116090368	
613.75	-0.175291264	0.1094768372	
614.375	0.1619904119	0.1063447778	
615.0	-0.1002257405	0.03694610321	
615.625	0.1007607222	0.1461478263	
616.25	-0.02671990854	0.03032378414	
616.875	-0.1040010813	0.2379926025	
617.5	0.03692001892	0.146138152	
618.125	-0.05372951043	0.1781638097	
618.75	0.005725488274	0.205730613	
619.375	0.04991795069	0.1578092764	
620.0	0.2556925421	-0.07012462449	
620.625	0.08704913704	-0.075831386	
621.25	-0.133828361	-0.213248368	
621.875	-0.1355615424	-0.004259790658	
622.5	-0.2124831573	-0.0604754275	
623.125	0.001334623601	0.2310393711	
623.75	0.06485422404	-0.02152225171	
624.375	0.1209323533	-0.01847102555	
625.0	-0.0472321059	-0.03336049007	
625.625	0.1078014034	-0.06053894561	
626.25	-0.1134010657	-0.1549699778	
626.875	-0.08402962337	-0.02184823957	
627.5	-0.1418238447	-0.09163159951	
628.125	-0.1088470001	-0.06737602967	
628.75	-0.06123878437	-0.08860548044	
629.375	-0.05937753282	-0.1470945768	
630.0	-0.195489005	-0.0601537336	
630.625	-0.08629257377	0.1169511479	
631.25	-0.1713419614	0.1471716212	
631.875	0.04585375524	0.3146222862	
632.5	0.1095314133	0.07489681955	
633.125	0.2311090115	0.2145024361	
633.75	0.1385526913	-0.2023767533	
634.375	0.05310549338	-0.03887126346	
635.0	-0.02284332501	-0.2429748435	
635.625	-0.1382750839	0.02466180279	
636.25	-0.1259118575	-0.03313083364	
636.875	-0.08436066447	0.2193097388	
637.5	0.05025991481	0.01908616305	
638.125	-0.1433250917	0.09332517776	
638.75	0.04397726241	0.2103416661	
639.375	-0.03342541412	0.1280906202	
640.0	0.1259728163	0.2945283705	
640.625	0.2780544307	0.06303724344	
641.25	0.1467565095	-0.05026831806	
641.875	0.2460691225	-0.1037298575	
642.5	-0.1610816707	-0.3008976326	
643.125	-0.01423150329	0.005486467804	
643.75	-0.2380038364	-0.2683745579	
644.375	-0.09182704131	0.2236396391	
645.0	-0.2177863483	-0.08287848762	
645.625	0.1443102508	0.358453517	
646.25	0.0643439344	-0.1617416959	
646.875	0.06661416152	0.1738218849	
647.5	0.1501507623	-0.1395356579	
648.125	0.006573875808	0.1924238657	
648.75	0.4004518377	-0.1550666404	
649.375	0.01904210492	-0.2644581169	
650.0	0.1773775412	-0.1209092381	
650.625	0.2463451345	-0.4388378204	
651.25	-0.04115003405	-0.2296505254	
651.875	0.2569006338	-0.00207442	
652.5	0.355440674	-0.1884839947	
653.125	0.09375042535	-0.2051324456	
653.75	0.2543370914	-0.06047718075	
654.375	-0.1487990199	-0.434012417	
655.0	-0.1984503433	0.08573044046	
655.625	-0.2130848684	-0.03954642222	
656.25	0.1213379721	0.4009252568	
656.875	-0.01418701729	-0.1511021835	
657.5	0.08294995444	0.3021231493	
658.125	0.2093757026	-0.04544668362	
658.75	0.08844003734	0.1561050684	
659.375	0.5104716594	-0.2379281154	
660.0	-0.0379747064	-0.3062442681	
660.625	0.1748414693	-0.1614140857	
661.25	0.2021248062	-0.3691838433	
661.875	0.003637016492	-0.2980110651	
662.5	0.2667432027	-0.01990575316	
663.125	0.2812624348	-0.3295879811	
663.75	0.007011125414	-0.2162515099	
664.375	0.04437224013	-0.290338224	
665.0	-0.3597193447	-0.2244728231	
665.625	-0.1641512873	0.1739363267	
666.25	-0.1728282567	0.1492924493	
666.875	0.2017817503	0.2765949349	
667.5	0.105805981	-0.06041056573	
668.125	0.2784731888	0.1435736995	
668.75	0.1091257574	-0.303184045	
669.375	0.02965913802	-0.06284027336	
670.0	0.1234119713	-0.289888991	
670.625	-0.2272832887	-0.1680190767	
671.25	0.1416080643	-0.004494355389	
671.875	0.1427981652	-0.307976821	
672.5	0.06298008064	-0.1655109434	
673.125	0.1781197933	-0.05707753158	
673.75	0.2135181865	-0.3304786328	
674.375	-0.09646744239	-0.1563308958	
675.0	0.02199257247	-0.2101495002	
675.625	-0.2744484868	-0.1415674741	
676.25	-0.1017113985	0.08798206016	
676.875	-0.1128155301	-0.1196800986	
677.5	-0.2068581208	0.1468662487	
678.125	0.01208919221	0.0739022863	
678.75	-0.1019458158	0.230956008	
679.375	0.4300013033	0.003092577301	
680.0	-0.1167099138	-0.0489410486	
680.625	0.2612064011	-0.005248873796	
681.25	0.0008659738844	-0.2261952863	
681.875	-0.02469782327	0.279687435	
682.5	0.4679028089	0.08055428826	
683.125	0.007912504777	-0.1168484853	
683.75	0.2969222198	0.2421855597	
684.375	0.4167664154	-0.01100378743	
685.0	0.03767810935	-0.03990027101	
685.625	0.3423445804	0.1737829865	
686.25	0.2966353846	-0.2107093627	
686.875	0.1320508025	-0.1191548948	
687.5	0.3030930911	-0.2852789148	
688.125	-0.1909225821	-0.4662622306	
688.75	-0.2378241636	-0.03370159411	
689.375	-0.3645493026	0.2368733251	
690.0	0.2352048055	0.4149313216	
690.625	0.09618948969	0.02020833587	
691.25	0.360345735	0.448479195	
691.875	0.5095776626	-0.0630940542	
692.5	0.3120091143	0.3002244785	
693.125	0.8199484835	-0.02273341366	
693.75	0.2560163181	-0.4616391989	
694.375	0.5652986319	-0.1351749237	
695.0	0.5042322931	-0.4361277642	
695.625	0.2670160813	-0.0692495747	
696.25	0.4564280783	0.2285144791	
696.875	0.5138405232	0.3409407984	
697.5	0.2979247261	0.4430696176	
698.125	0.5082544473	0.08763353038	
698.75	0.3912289968	-0.3851190986	
699.375	-0.4470444207	-0.2387666401	
700.0	-0.2090538008	0.1784709914	
700.625	0.01169417771	0.4460841408	
701.25	0.2376970363	0.002229214033	
701.875	0.1425496059	0.2594398149	
702.5	0.4739908389	0.2152818597	
703.125	0.2077014528	-0.03598808181	
703.75	0.3881499549	0.01466685591	
704.375	0.2574935215	-0.3180431788	
705.0	0.130904748	-0.002835464488	
705.625	0.3347424312	0.06910267714	
706.25	0.1061036702	0.1427576481	
706.875	0.2030160708	0.3064447446	
707.5	0.3037368968	0.3132289444	
708.125	0.3880973343	0.0403142178	
708.75	0.1021060148	-0.5086459105	
709.375	-0.122484169	-0.16167176	
710.0	-0.1758639558	0.2559622897	
710.625	0.1478898097	-0.0813320413	
711.25	0.0365143704	0.3225906948	
711.875	0.2480382098	-0.1061476483	
712.5	0.2004214229	0.07183065299	
713.125	0.2973839961	-0.228430069	
713.75	-0.0266882245	-0.2330677387	
714.375	0.07244536317	-0.1424167259	
715.0	-0.07230279614	-0.2747995407	
715.625	-0.06040047771	-0.1403184124	
716.25	0.2109289295	-0.1794822414	
716.875	0.3083675968	-0.2301146776	
717.5	0.3767816964	-0.1035074633	
718.125	0.5940109543	0.07378742758	
718.75	0.7474973453	-0.1725561024	
719.375	0.3157228546	-0.6502526086	
720.0	0.6276302064	-0.2828898047	
720.625	-0.09243601117	-1.293462175	
721.25	-0.16908414	-0.2292659886	
721.875	0.02727671454	-1.301108025	
722.5	-1.088856672	-0.5102099459	
723.125	-0.2282081595	0.006152806362	
723.75	-0.5935827062	0.4432522902	
724.375	0.3459337616	0.3282248448	
725.0	0.002731074911	0.2051451752	
725.625	0.2198053338	0.5849916503	
726.25	0.3460459199	0.4581027994	
726.875	-0.2254357235	0.5866676613	
727.5	-0.1161857402	1.483193078	
728.125	0.7173503763	1.481291106	
728.75	-0.4935073144	1.559192469	
729.375	-0.8886037295	3.907834481	
730.0	1.583473748	2.807816644	
730.625	-0.3526448761	1.85952773	
731.25	-1.712134963	4.499233686	
731.875	0.9267539304	3.463786746	
732.5	-2.264863286	-0.6399891709	
733.125	-3.229468523	1.409481703	
733.75	0.3258165737	1.224159289	
734.375	0.1638386721	0.7072171222	
735.0	-0.3907662232	-1.057002774	
735.625	0.06808560946	0.1529144034	
736.25	-0.3320944964	0.5417972708	
736.875	0.759707879	0.4023076719	
737.5	0.3121608274	-0.2018800907	
738.125	1.651369022	0.2692615539	
738.75	1.39963352	-2.189539852	
739.375	0.1642854295	-1.12896535	
740.0	3.028396601	1.211438918	
740.625	5.164283121	-3.222338109	
741.25	-1.663808756	-2.211099057	
741.875	-4.601417083	-0.09487105532	
742.5	-2.824025491	-0.3216316294	
743.125	0.9369574194	-0.238197002	
743.75	0.05055207181	-1.535628837	
744.375	-0.4074800793	0.3001966878	
745.0	-0.1246563365	-0.05375716964	
745.625	0.1397380897	-0.1856221838	
746.25	0.08574257313	-0.030314937	
746.875	-0.3141464292	-0.02937999901	
747.5	0.08026200505	0.3216404178	
748.125	0.0118279426	0.2557348424	
748.75	0.3051643627	0.489549971	
749.375	0.2849010644	0.4075417917	
750.0	-0.4666073901	0.08499027344	
