!Created with skrf (http://scikit-rf.org).
# GHz S RI R (50+0j) 
!freq	ReS11	ImS11	
500.0	0.1557510026	-0.6897755393	
500.625	0.3576069962	-0.8751682055	
501.25	-0.4537484376	-0.6129074245	
501.875	-0.2104018291	-0.3632300448	
502.5	-0.01666315533	-0.09622646216	
503.125	-0.05665283899	0.002119653453	
503.75	0.01151925781	0.07055998766	
504.375	0.02207845497	-0.005387095599	
505.0	0.01563362658	-0.01476010303	
505.625	-0.0008251075322	-0.04405433354	
506.25	-0.05272825302	-0.04285962295	
506.875	-0.07860678162	0.009515117271	
507.5	-0.05137953658	-0.2953028806	
508.125	0.1061090213	-0.5442335445	
508.75	0.4425770719	-0.7977082239	
509.375	-0.08556892203	-0.9558779245	
510.0	-0.2496240396	-0.2822395169	
510.625	-0.06513428727	-0.1134537974	
511.25	-0.06130436594	-0.01842112392	
511.875	-0.09554371848	-0.02719167894	
512.5	-0.01058402464	0.03518969193	
513.125	-0.01506872073	-0.03654562222	
513.75	-0.04695960122	-0.04137693421	
514.375	-0.04240874301	-0.008561966674	
515.0	0.001950573687	-0.0362894546	
515.625	-0.004992339424	-0.2564053674	
516.25	-0.1774336903	-0.5037541902	
516.875	-0.1510144117	-0.325787566	
517.5	-0.03063816066	-0.1185491128	
518.125	-0.02404017783	-0.02160453789	
518.75	-0.0322132462	-0.1035023033	
519.375	-0.04706740056	0.02636057039	
520.0	0.08594236252	0.04397292104	
520.625	0.1260369751	-0.05119783932	
521.25	-0.02725641109	-0.2106008556	
521.875	-0.1150628075	-0.01345041186	
522.5	-0.0371132188	0.01695513089	
523.125	-0.05505847239	0.01872557537	
523.75	-0.08600911961	-0.003017280848	
524.375	-0.1180797136	0.02444488803	
525.0	-0.04560719863	0.1063558424	
525.625	0.03221732753	0.04357269634	
526.25	-0.006929526786	-0.01540986797	
526.875	-0.04752236132	0.04304641929	
527.5	-0.0351456468	0.1600788514	
528.125	0.05526292675	0.2038493399	
528.75	0.02169302077	0.1690368401	
529.375	0.02751474003	0.06265255144	
530.0	0.04034693699	0.1333122635	
530.625	0.08463290124	0.230115706	
531.25	0.3349217916	0.1029519424	
531.875	0.1948962239	-0.164872168	
532.5	-0.0557600919	-0.07905944447	
533.125	0.06329707272	-0.04369705153	
533.75	0.07175363243	-0.1641029733	
534.375	-0.08131512149	-0.2102517721	
535.0	-0.1933794875	-0.08137127546	
535.625	-0.1389817578	0.09953884945	
536.25	0.003938293471	0.0793511486	
536.875	0.07371025977	0.01380007899	
537.5	0.06067349804	-0.03285883705	
538.125	0.09664697973	-0.05692318103	
538.75	0.1002650722	-0.09770335835	
539.375	-0.05854426993	-0.1410816423	
540.0	-0.1455391727	-0.1323873755	
540.625	-0.141324477	-0.01111184858	
541.25	-0.06561811998	0.005324420674	
541.875	-0.04270342065	-0.02303464428	
542.5	-0.04667531908	-0.03700715123	
543.125	-0.06252979821	-0.03391793682	
543.75	-0.07461174479	-0.005865633422	
544.375	-0.03728187893	0.0437873895	
545.0	-0.001083532563	0.04484649022	
545.625	0.04304224981	0.0573169593	
546.25	0.08974913916	0.02895996611	
546.875	0.09608424683	-0.02929182161	
547.5	0.0598974541	-0.100583457	
548.125	-0.03059247006	-0.1430349659	
548.75	-0.1084580432	-0.103880555	
549.375	-0.09754271686	-0.05340818973	
550.0	-0.06288302415	0.006019121705	
550.625	-0.05004827375	0.006673474654	
551.25	-0.06435632962	0.0282854376	
551.875	-0.06122401148	0.05637231747	
552.5	-0.04265158183	0.06567836461	
553.125	-0.008340614617	0.055812307	
553.75	0.0407935272	0.03705653407	
554.375	0.08152881167	-0.001897181465	
555.0	0.08742801213	-0.06527567942	
555.625	0.0707932427	-0.09826994165	
556.25	0.05257067697	-0.1240641284	
556.875	-0.03558354836	-0.137658138	
557.5	-0.08987298149	-0.09270762578	
558.125	-0.1066274634	-0.03120597136	
558.75	-0.09879745285	-0.0009573690549	
559.375	-0.1001110799	0.01933547393	
560.0	-0.08638222424	0.06940404146	
560.625	-0.04338000551	0.09867173871	
561.25	0.005687134609	0.08733090414	
561.875	0.02649808193	0.04207123044	
562.5	0.01416136069	0.04642056077	
563.125	0.06260645359	0.06102350875	
563.75	0.1254614369	0.00242135323	
564.375	0.1136906808	-0.09073617547	
565.0	0.05753421366	-0.1342111532	
565.625	-0.0330535409	-0.1351961317	
566.25	-0.1024996473	-0.09435193389	
566.875	-0.1252824044	-0.06682885915	
567.5	-0.1219889514	-0.09208544515	
568.125	-0.121475958	-0.1361137913	
568.75	-0.1975250973	-0.06727838535	
569.375	-0.2027449288	0.08957728629	
570.0	-0.1029294888	0.1715706167	
570.625	-0.05593595706	0.1454113357	
571.25	-0.002927564651	0.1041615055	
571.875	0.05477000466	0.06189680642	
572.5	0.1051799996	-0.002353823106	
573.125	0.08051918414	-0.09525322317	
573.75	0.03821869171	-0.10136738	
574.375	0.006902844141	-0.05885969133	
575.0	0.02805737565	-0.03095537201	
575.625	0.03321941435	-0.0685054508	
576.25	0.03583723413	-0.09637250482	
576.875	-0.0009870133742	-0.1207180297	
577.5	0.00191323262	-0.1395674642	
578.125	-0.03999603501	-0.1417973635	
578.75	-0.07767475546	-0.1057336778	
579.375	-0.07139332675	-0.05564560858	
580.0	-0.04252217727	-0.03183757401	
580.625	-0.06673661473	-0.02299803604	
581.25	-0.0842725324	0.06691847965	
581.875	0.0009318937639	0.1305839418	
582.5	0.03732457542	0.1255983521	
583.125	0.0675293076	0.07455404764	
583.75	0.03808110571	0.0125902578	
584.375	0.02553760184	0.0510503787	
585.0	0.09998369829	0.05445366869	
585.625	0.1381460463	-0.002997400679	
586.25	0.1270049989	-0.05424355007	
586.875	0.06627097604	-0.112469548	
587.5	-0.008359619492	-0.1268881349	
588.125	-0.01684852717	-0.123912898	
588.75	0.03141727748	-0.1193732578	
589.375	0.06634956423	-0.1280486141	
590.0	-0.04945170601	-0.1582320826	
590.625	-0.1627322137	-0.03234493757	
591.25	-0.1100022181	0.09174180814	
591.875	-0.04104584848	0.09684853251	
592.5	0.002659144195	0.04875830621	
593.125	-0.02215452782	0.03946844782	
593.75	0.04140945778	0.104329867	
594.375	0.1326795209	0.09265082829	
595.0	0.1467225153	0.08762612886	
595.625	0.1399252247	0.07029307416	
596.25	0.1343093631	0.04523032272	
596.875	0.1410251184	0.03444192572	
597.5	0.1253185539	0.06759625106	
598.125	0.1214239179	0.09846282785	
598.75	0.1549707991	0.07679391992	
599.375	0.1866926567	-0.03356266643	
600.0	0.1419764804	-0.1218947999	
600.625	0.1280975521	-0.1425597308	
601.25	0.06808469821	-0.1646597386	
601.875	-0.07209791401	-0.1247881253	
602.5	-0.107459506	-0.01052776609	
603.125	-0.09631646427	0.03540288832	
603.75	-0.09658938415	0.06282279133	
604.375	-0.0828643215	0.06349053511	
605.0	-0.06070783163	0.06141046975	
605.625	-0.06677150641	0.05593813219	
606.25	-0.09574040827	0.05616226078	
606.875	-0.1467015793	0.06641120608	
607.5	-0.1512357103	0.1547145626	
608.125	-0.0209404811	0.2207945901	
608.75	0.1578591025	0.1432700186	
609.375	0.206217749	-0.02291620825	
610.0	0.1522060891	-0.1062859825	
610.625	0.07094627897	-0.1411763467	
611.25	0.005703909931	-0.1355582602	
611.875	-0.07904602011	-0.1126895039	
612.5	-0.1446525209	-0.05336473007	
613.125	-0.1631416151	0.02507863729	
613.75	-0.08502422556	0.1242893142	
614.375	0.04474756283	0.1001859495	
615.0	0.03750152121	0.03168217755	
615.625	-0.006066372293	0.07705156405	
616.25	-0.03466837055	0.1293569414	
616.875	-0.06173693813	0.1661092329	
617.5	-0.05339637262	0.1914964761	
618.125	-0.0120180257	0.1914663248	
618.75	0.02998838133	0.1691813449	
619.375	0.08530977511	0.1369028439	
620.0	0.1667299432	0.04191088385	
620.625	0.09557291935	-0.1454940926	
621.25	-0.08408548311	-0.1584910188	
621.875	-0.1746641401	-0.07613340985	
622.5	-0.192448495	0.04884764421	
623.125	-0.02976283095	0.1707506319	
623.75	0.1196238467	0.02842938948	
624.375	0.030891157	-0.04332121751	
625.0	0.04069793948	-0.02576727361	
625.625	0.04004967001	-0.08126407063	
626.25	-0.04458651526	-0.1161751527	
626.875	-0.122472715	-0.07443662187	
627.5	-0.1331831078	-0.03677038668	
628.125	-0.101346947	-0.0551062833	
628.75	-0.06365466756	-0.1040292683	
629.375	-0.08160565537	-0.1341670292	
630.0	-0.1726004652	-0.08462923038	
630.625	-0.1950970805	0.06804508662	
631.25	-0.119663691	0.171888076	
631.875	-0.02032769579	0.216301726	
632.5	0.1346461292	0.1727740837	
633.125	0.1921246933	0.03425994046	
633.75	0.1424512184	-0.07006264781	
634.375	0.05133463732	-0.1172881487	
635.0	-0.0140819998	-0.1342967847	
635.625	-0.1380433303	-0.07300170994	
636.25	-0.1322162903	0.07419620439	
636.875	-0.04985374582	0.1096612444	
637.5	-0.03324372821	0.07888277299	
638.125	-0.05475094681	0.0863679422	
638.75	-0.04796671142	0.1509106591	
639.375	0.01088775666	0.2124234757	
640.0	0.1244618747	0.2099266055	
640.625	0.2174080129	0.1287468311	
641.25	0.2508534134	-0.02071804476	
641.875	0.1338627991	-0.1773849743	
642.5	-0.01908793667	-0.1783330917	
643.125	-0.1044610059	-0.1091422883	
643.75	-0.1299220684	-0.06423957079	
644.375	-0.1548235635	0.01722017567	
645.0	-0.117026152	0.1360429557	
645.625	0.04975682136	0.1906745505	
646.25	0.1602978059	0.06615888321	
646.875	0.08686582362	-0.03272398777	
647.5	0.04036047413	0.03371997326	
648.125	0.1550070552	0.0424660601	
648.75	0.2252302434	-0.08804793871	
649.375	0.1739485276	-0.2172640272	
650.0	0.1338625216	-0.2636878695	
650.625	0.125955866	-0.2667640478	
651.25	0.1478674684	-0.2266368069	
651.875	0.1986330086	-0.1525254968	
652.5	0.2410922048	-0.09255702199	
653.125	0.2394590887	-0.1245268588	
653.75	0.1430083055	-0.2177806013	
654.375	-0.0613931286	-0.2560662166	
655.0	-0.258529593	-0.08070452352	
655.625	-0.152464927	0.1829614158	
656.25	0.04884109484	0.145844672	
656.875	0.03886005501	0.05436964629	
657.5	0.04441794317	0.09831200248	
658.125	0.140952713	0.1212568693	
658.75	0.2503450706	0.05189989592	
659.375	0.2829440195	-0.1348186104	
660.0	0.1827222949	-0.2842210863	
660.625	0.08432040102	-0.3004457237	
661.25	0.1111822714	-0.2545592306	
661.875	0.1792619388	-0.2235856602	
662.5	0.2214437392	-0.2030363594	
663.125	0.2055073482	-0.2001327505	
663.75	0.1141207812	-0.2471669456	
664.375	-0.04194815876	-0.2860532259	
665.0	-0.2553334571	-0.1759099527	
665.625	-0.2728432168	0.1064149885	
666.25	-0.06478907078	0.2337488431	
666.875	0.1013012756	0.1759707266	
667.5	0.1760918669	0.08038977831	
668.125	0.1939672353	-0.03858023226	
668.75	0.14662871	-0.1330866833	
669.375	0.07774870182	-0.1926905989	
670.0	-0.003415219461	-0.2061826232	
670.625	-0.01993333267	-0.1723446608	
671.25	0.03122941811	-0.1468707268	
671.875	0.1156680052	-0.1500097183	
672.5	0.1756931556	-0.1533408406	
673.125	0.1610609082	-0.1791890391	
673.75	0.1109828825	-0.1949402091	
674.375	0.04019255222	-0.2228283923	
675.0	-0.08998417082	-0.2187798798	
675.625	-0.1883673135	-0.09720594567	
676.25	-0.150965643	0.00112549075	
676.875	-0.1216738881	0.00190642183	
677.5	-0.1467135358	0.03814147202	
678.125	-0.09723793804	0.1466219168	
678.75	0.04763986627	0.177133492	
679.375	0.178660466	0.06477827196	
680.0	0.1416982667	-0.09470240464	
680.625	0.04249000729	-0.09064604835	
681.25	0.06335756203	-0.004244251509	
681.875	0.1475624746	0.04758211364	
682.5	0.2042609734	0.05259333758	
683.125	0.2070752827	0.03338009366	
683.75	0.2144370515	0.05642828261	
684.375	0.2584533261	0.03718852737	
685.0	0.2649499628	-0.00017086286	
685.625	0.2318230468	-0.02693652525	
686.25	0.2531662808	-0.03211180976	
686.875	0.2759062273	-0.1621797786	
687.5	0.1768025723	-0.2917524743	
688.125	-0.05767239459	-0.3543920615	
688.75	-0.3636398608	-0.1502783106	
689.375	-0.2445046467	0.3114910098	
690.0	0.1370185461	0.30023431	
690.625	0.2104278958	0.1827107019	
691.25	0.286893295	0.2292627778	
691.875	0.439820627	0.2381242566	
692.5	0.5474078006	0.1127701352	
693.125	0.5538269385	-0.07900439703	
693.75	0.4895544126	-0.2372081607	
694.375	0.3714610555	-0.3702546944	
695.0	0.3732615705	-0.299397173	
695.625	0.4135961354	-0.1276578397	
696.25	0.417339038	0.0996622145	
696.875	0.368033329	0.3111350434	
697.5	0.3920830302	0.3570626195	
698.125	0.5187301844	0.1164559165	
698.75	0.315588872	-0.3865827907	
699.375	-0.3426070753	-0.2930199594	
700.0	-0.2292649518	0.3048467755	
700.625	0.1508559124	0.2605839935	
701.25	0.21087328	0.1267581673	
701.875	0.2273499568	0.1755479961	
702.5	0.3103319502	0.1919938952	
703.125	0.382812822	0.07337766055	
703.75	0.3320916713	-0.1282929334	
704.375	0.2160378538	-0.1862771025	
705.0	0.1972189429	-0.1194685308	
705.625	0.2358507661	-0.0058863638	
706.25	0.2383660137	0.1282221614	
706.875	0.2211470891	0.2182533244	
707.5	0.2487952253	0.2626803724	
708.125	0.3901734945	0.07384077851	
708.75	0.2172097891	-0.3313511586	
709.375	-0.2635303089	-0.206329468	
710.0	-0.1302448613	0.1908135203	
710.625	0.06222271249	0.1262913371	
711.25	0.09932089987	0.09213427287	
711.875	0.1877388446	0.07020384638	
712.5	0.2577396579	-0.04669034537	
713.125	0.2155446886	-0.1715383075	
713.75	0.09423748945	-0.2331255734	
714.375	-0.01514762972	-0.2057817719	
715.0	-0.03651829004	-0.1689730822	
715.625	0.003890305816	-0.1898819082	
716.25	0.1137329403	-0.2165779918	
716.875	0.2616392519	-0.173555894	
717.5	0.4187109145	-0.06850584656	
718.125	0.5532715514	-0.02259547146	
718.75	0.6188098532	-0.1691721269	
719.375	0.5640005134	-0.4041996276	
720.0	0.3318961703	-0.7118585624	
720.625	0.08661010833	-0.8001710525	
721.25	-0.1403913062	-0.7891591154	
721.875	-0.3107879002	-0.7761213658	
722.5	-0.5942144158	-0.5567045296	
723.125	-0.6732671017	0.00628516737	
723.75	-0.2779508292	0.4197003093	
724.375	0.07442169288	0.3825320987	
725.0	0.1797869015	0.3027286995	
725.625	0.1908297774	0.3706348625	
726.25	0.09906038163	0.5477007642	
726.875	0.008991784095	0.7670795018	
727.5	0.00926395873	1.115726512	
728.125	0.1474570477	1.56547819	
728.75	0.153634881	2.049627559	
729.375	-0.4090166023	2.676448277	
730.0	0.06961260495	2.859477826	
730.625	0.5964955131	3.1732623	
731.25	-0.2136311735	2.969546034	
731.875	-1.877995073	2.249421629	
732.5	-2.57571253	1.126152485	
733.125	-1.896056463	0.7416425394	
733.75	-0.488394768	1.158517932	
734.375	0.71733022	0.2858601255	
735.0	-0.04480814903	-0.5303524618	
735.625	-0.3971082641	0.1476214208	
736.25	-0.001718346016	0.4211807509	
736.875	0.3737745013	0.4284938629	
737.5	0.9020147505	0.08503115315	
738.125	1.144837303	-0.5009272555	
738.75	1.208682791	-0.9891827395	
739.375	1.609090497	-1.205366643	
740.0	2.486357746	-1.193355648	
740.625	2.122172029	-0.5807174944	
741.25	0.5637639304	1.139101296	
741.875	-2.126687528	0.2199084274	
742.5	-1.412484722	-2.256103627	
743.125	-0.1658902048	-1.518485302	
743.75	-0.08609154446	-0.7475318875	
744.375	-0.360769677	-0.06489578049	
745.0	0.06284162167	0.1090352384	
745.625	0.03747994271	-0.01411536963	
746.25	-0.01622114978	-0.1209904998	
746.875	-0.151864938	0.07286570356	
747.5	-0.04313837193	0.2910084554	
748.125	0.1534223157	0.3460434539	
748.75	0.153389615	0.3443761768	
749.375	0.1058863568	0.3401622334	
750.0	-0.3018266234	0.3518169896	
