!Created with skrf (http://scikit-rf.org).
# GHz S RI R (50+0j) 
!freq	ReS11	ImS11	
500.0	-0.02502152045	-0.3536160815	
500.625	0.6419616258	-0.9246661937	
501.25	-0.5731961969	-0.375134219	
501.875	-0.04451378821	-0.3520835962	
502.5	-0.0628314402	-0.1727019987	
503.125	-0.02352129779	0.0253049245	
503.75	-0.04415305511	0.07077120313	
504.375	0.0297523542	-0.03795988835	
505.0	0.01070844815	0.01142512725	
505.625	-0.03140630289	-0.08746718814	
506.25	-0.01771199794	0.03854305335	
506.875	-0.3062154645	-0.08999180809	
507.5	-0.1875815758	0.04934715535	
508.125	0.3859787591	-0.3402469429	
508.75	0.6569740802	-1.142920838	
509.375	-0.2785786374	-0.6931441388	
510.0	-0.1697150193	-0.3731992173	
510.625	-0.1609495636	-0.1643539316	
511.25	-0.007542095526	-0.01302793537	
511.875	-0.09517745149	-0.08750926881	
512.5	0.04041403228	0.05330137301	
513.125	0.01215983579	-0.01690653294	
513.75	-0.06822236414	-0.09215603304	
514.375	-0.04462208261	0.07517816493	
515.0	0.01881476167	-0.3574154193	
515.625	-0.2361366175	0.06899547413	
516.25	0.2529320104	-0.5343603942	
516.875	-0.4233799644	-0.4630601667	
517.5	-0.03299714774	-0.009936539737	
518.125	-0.02262842116	-0.08362693173	
518.75	-0.05287263985	-0.02958774742	
519.375	-0.04830622206	0.003323577299	
520.0	0.1011675434	0.03358149607	
520.625	0.1094224782	-0.08372564347	
521.25	0.01238721891	-0.1262231845	
521.875	-0.1514421552	-0.09219235824	
522.5	-0.04897717655	0.0698050812	
523.125	-0.07902369271	-0.0666608159	
523.75	-0.1593508375	0.07317455153	
524.375	0.0009572961569	0.004936885155	
525.0	-0.1830039408	0.1587053561	
525.625	0.1241935073	0.02661560348	
526.25	-0.06911556549	0.0372251945	
526.875	0.01643957486	0.03696517773	
527.5	-0.1218082673	0.2054744023	
528.125	0.1040824751	0.3014314222	
528.75	0.1211751922	0.0895143633	
529.375	-0.03285787916	0.07817209423	
530.0	0.1097017423	0.1335396682	
530.625	0.0002302113301	0.1663885679	
531.25	0.281307213	0.172714299	
531.875	0.1586405714	-0.2466870505	
532.5	0.01049940299	0.03305249476	
533.125	0.008779105467	-0.1378852285	
533.75	0.08088055613	-0.0128391443	
534.375	-0.09998742146	-0.3242014793	
535.0	-0.2117738653	0.00788033224	
535.625	-0.1365065338	0.036104508	
536.25	-0.006951636987	0.1154431889	
536.875	0.05944613868	-0.02343422919	
537.5	0.07853847799	-0.008200700806	
538.125	0.09688706407	-0.1065452022	
538.75	0.0882156124	-0.07875093381	
539.375	-0.05453256456	-0.1810585736	
540.0	-0.154905014	-0.1545934271	
540.625	-0.09726934636	-0.03020190697	
541.25	-0.07067004942	-0.03381722545	
541.875	-0.05994099144	0.02138209029	
542.5	-0.01249320554	-0.08904499892	
543.125	-0.1265315666	-0.03085349307	
543.75	0.02365393898	0.04236604446	
544.375	-0.08934848521	0.04994119619	
545.0	0.07366342437	0.03080255385	
545.625	-0.007878459281	0.0806543434	
546.25	0.1317735637	0.002629708706	
546.875	0.04790402165	-0.008826012046	
547.5	0.1297430726	-0.1169073077	
548.125	-0.09793372878	-0.1350184216	
548.75	-0.04395919415	-0.07165373468	
549.375	-0.1152657174	-0.1007927841	
550.0	-0.06534337046	0.05015324131	
550.625	-0.04501235417	-0.02955149088	
551.25	-0.07028909979	0.06104289257	
551.875	-0.04739589117	0.03419612352	
552.5	-0.06769028147	0.06711209989	
553.125	0.003939103244	0.05391558024	
553.75	0.02779613597	0.04805661272	
554.375	0.08862733104	-0.009402225375	
555.0	0.07307842374	-0.06027016311	
555.625	0.08121869837	-0.09459665713	
556.25	0.05518319001	-0.1298433845	
556.875	-0.03434818256	-0.1373990985	
557.5	-0.08732282893	-0.09227152122	
558.125	-0.1086979275	-0.03717929639	
558.75	-0.09929521349	0.004079064824	
559.375	-0.09428307181	0.01484801078	
560.0	-0.1016783162	0.07394240736	
560.625	-0.02732772224	0.1044935819	
561.25	-0.01242748758	0.07815521193	
561.875	0.04893554008	0.05716719587	
562.5	-0.01498131809	0.02304273328	
563.125	0.08629139129	0.09414732399	
563.75	0.1093031079	-0.03425171007	
564.375	0.1237625907	-0.04626884843	
565.0	0.09536973057	-0.1852078431	
565.625	-0.06573111408	-0.1017134033	
566.25	-0.06349503697	-0.1301193661	
566.875	-0.1919734579	-0.05928553301	
567.5	-0.05373808177	-0.0428265874	
568.125	-0.1368301481	-0.2025364144	
568.75	-0.2241932319	0.01391030697	
569.375	-0.1609729307	-0.01583922812	
570.0	-0.16429546	0.2524417808	
570.625	0.04233267885	0.1456897111	
571.25	-0.06247860655	0.07023953567	
571.875	0.1468488491	0.0781343133	
572.5	0.008694210853	0.00401626992	
573.125	0.1666379995	-0.09706343118	
573.75	-0.03269131626	-0.1622842916	
574.375	0.03211788761	0.03178629048	
575.0	0.03175781365	-0.1250834327	
575.625	-0.005339612902	0.01473623799	
576.25	0.1166772357	-0.1247392271	
576.875	-0.07903502712	-0.1544943492	
577.5	-0.008679585543	-0.03795848838	
578.125	0.05210892538	-0.2009015258	
578.75	-0.1783134767	-0.113641522	
579.375	0.004331693115	0.03214493839	
580.0	-0.08603575109	-0.1585398446	
580.625	-0.03579807362	0.07970867884	
581.25	-0.1452487638	-0.04438947708	
581.875	0.1054674931	0.2542682963	
582.5	0.08346141139	0.01076991267	
583.125	-0.01359005331	0.1654133264	
583.75	0.1551856378	-0.01077652107	
584.375	-0.09088424546	0.06843212508	
585.0	0.1883204404	0.08710929537	
585.625	0.06349353258	-0.07199423206	
586.25	0.1285745435	0.03735132805	
586.875	0.07392107773	-0.2082061187	
587.5	-0.05065500422	-0.05256773486	
588.125	0.05669726775	-0.1452773207	
588.75	-0.02731094189	-0.1984660889	
589.375	0.00707451329	-0.03679724494	
590.0	0.0001109144015	-0.2492745037	
590.625	-0.206438146	0.08981294445	
591.25	-0.05954278895	0.0009478068043	
591.875	-0.1115105777	0.1485653691	
592.5	0.1181259469	0.023477653	
593.125	-0.1352080096	0.18853487	
593.75	0.1276786413	0.02810785497	
594.375	0.0325564732	0.1204676107	
595.0	0.1944710336	0.1670292907	
595.625	0.1283026718	-0.04048371696	
596.25	0.07823084268	0.1052378799	
596.875	0.2210953018	0.04187195313	
597.5	0.1051135224	-0.002929562435	
598.125	0.1363970289	0.1638167978	
598.75	0.2355613562	0.05191522575	
599.375	0.1341102824	-0.02783026728	
600.0	0.1945777278	-0.09077403797	
600.625	0.1346565574	-0.2206247028	
601.25	-0.02244429288	-0.1159143983	
601.875	0.0212649081	-0.1819949099	
602.5	-0.1865627443	0.04118850048	
603.125	0.007617249962	-0.03892686177	
603.75	-0.203285289	0.05015342105	
604.375	-0.01100706551	0.153875446	
605.0	-0.1363540499	-0.01671058962	
605.625	-0.08855160964	0.1570627786	
606.25	-0.04227935692	-0.02014072594	
606.875	-0.2403055176	0.0447517579	
607.5	-0.09217027402	0.1903467071	
608.125	-0.03811796918	0.1635840628	
608.75	0.1468843406	0.2089172011	
609.375	0.2570891592	-0.09719637583	
610.0	0.1016369661	-0.09116104224	
610.625	0.1364421544	-0.1407689543	
611.25	-0.06502063533	-0.1876084406	
611.875	0.001891396523	-0.0816228413	
612.5	-0.2073386834	-0.1372640099	
613.125	-0.1055078409	0.1299421011	
613.75	-0.1508709051	0.009930100317	
614.375	0.07103617772	0.199524916	
615.0	0.0396265052	-0.07402895123	
615.625	-0.07143192738	0.1755056368	
616.25	0.03915867784	0.06807112022	
616.875	-0.1090922464	0.09293453981	
617.5	-0.1163993438	0.2668968372	
618.125	0.08512227085	0.1920695747	
618.75	0.05301271751	0.1868657587	
619.375	0.1034361806	0.1786121787	
620.0	0.2063333994	-1.737398084e-05	
620.625	0.1198449693	-0.07812392683	
621.25	0.02272483159	-0.2733979444	
621.875	-0.2020879057	-0.008323867646	
622.5	-0.1751566014	-0.02293478198	
623.125	-0.06545087014	0.2381290373	
623.75	0.1394229653	-0.05645828409	
624.375	0.05261502146	0.03087296929	
625.0	-0.008892876166	-0.0964253034	
625.625	0.06576273029	-0.01193695077	
626.25	-0.0484003165	-0.1912809271	
626.875	-0.1518445318	-0.01203964841	
627.5	-0.07322168754	-0.07612866004	
628.125	-0.1299311214	-0.0770689325	
628.75	-0.06905263019	-0.05289327328	
629.375	-0.05203223675	-0.1080659343	
630.0	-0.204269587	-0.09907274079	
630.625	-0.1774866556	0.1323476373	
631.25	-0.1327233282	0.09155067775	
631.875	-0.01377340301	0.302846924	
632.5	0.1593921494	0.1136638951	
633.125	0.1006407825	0.1370568691	
633.75	0.2039690581	-0.1234303722	
634.375	-0.04520105408	-0.01206035484	
635.0	0.06001450264	-0.1809723017	
635.625	-0.190451998	-0.03264120814	
636.25	-0.05643748836	0.01389897252	
636.875	-0.1539245968	0.1559367864	
637.5	0.07821620387	0.1090769046	
638.125	-0.1264803489	0.01679829868	
638.75	-0.05304254235	0.2430423973	
639.375	0.04473615975	0.1362767774	
640.0	0.03430488537	0.2299967034	
640.625	0.2916064428	0.1609481496	
641.25	0.1768033179	-0.06066167467	
641.875	0.2088946356	-0.07871326876	
642.5	-0.06103134952	-0.3251492102	
643.125	-0.08155942681	0.004535454347	
643.75	-0.05915141807	-0.2361962562	
644.375	-0.2152825022	0.1251340754	
645.0	-0.03023478485	-0.07259372366	
645.625	-0.04727184949	0.3760370617	
646.25	0.2404957438	-0.07706237448	
646.875	-0.02259434123	0.05337502017	
647.5	0.2087313787	-0.0163818783	
648.125	-0.0516910409	0.01102109838	
648.75	0.3760506975	0.01424124272	
649.375	0.1094781806	-0.3611918588	
650.0	0.08344678743	-0.1152124949	
650.625	0.2887616905	-0.2664771706	
651.25	0.07524374267	-0.357355406	
651.875	0.1234346354	-0.003919690464	
652.5	0.3906438033	-0.05555227503	
653.125	0.1984416263	-0.2337784297	
653.75	0.1548162488	-0.05083155971	
654.375	-0.01720685181	-0.4247161377	
655.0	-0.3511645534	0.1145088366	
655.625	-0.08068919946	0.006506852931	
656.25	-0.05938452311	0.3008968433	
656.875	0.1945224002	-0.1320429059	
657.5	-0.08764772203	0.2580696881	
658.125	0.310964447	0.03085623301	
658.75	0.0859125499	0.02548765088	
659.375	0.4667062229	-0.01639230507	
660.0	0.1251127675	-0.4255645808	
660.625	0.1329536341	-0.1081210043	
661.25	0.2662480406	-0.3009874271	
661.875	0.1369082718	-0.3405672632	
662.5	0.1270448765	-0.07339813177	
663.125	0.3682337976	-0.1830166767	
663.75	0.03480713717	-0.3169876102	
664.375	0.03319025874	-0.2101058816	
665.0	-0.2684027334	-0.2963918495	
665.625	-0.2475059308	0.2002184228	
666.25	-0.1243199946	0.1345980676	
666.875	0.1209898935	0.2940009917	
667.5	0.1890162069	-0.06175995622	
668.125	0.1354159052	0.134011132	
668.75	0.2450144311	-0.2261923106	
669.375	-0.04498933362	-0.1083155189	
670.0	0.1472562028	-0.1765247861	
670.625	-0.04979353841	-0.2901519842	
671.25	-0.009078805464	-0.001786068142	
671.875	0.2570500169	-0.2544916268	
672.5	0.1188797738	-0.2211712551	
673.125	0.12797481	-0.07113875555	
673.75	0.266799785	-0.2007563817	
674.375	-0.08759274912	-0.2846236061	
675.0	0.04043896906	-0.1537559071	
675.625	-0.1884543833	-0.2191360379	
676.25	-0.2200980225	0.06775659973	
676.875	-0.009245399926	-0.05136862214	
677.5	-0.268568292	0.04057958576	
678.125	0.005122996895	0.1338620591	
678.75	-0.1176524884	0.1527487957	
679.375	0.3876096771	0.1503314346	
680.0	-0.0646924216	-0.1482986418	
680.625	0.2672633649	0.1219576551	
681.25	0.1193020536	-0.2092102691	
681.875	-0.05857163219	0.0469119423	
682.5	0.3473153446	0.2857733657	
683.125	0.1818927181	-0.2018657664	
683.75	0.07635317478	0.1334247661	
684.375	0.3666986164	0.1090501721	
685.0	0.2490025964	-0.1480908185	
685.625	0.14242505	0.198389699	
686.25	0.3256351803	-0.1543366993	
686.875	0.139200675	-0.146983702	
687.5	0.3046740846	-0.1576600986	
688.125	-0.03519867213	-0.5578364304	
688.75	-0.3431272845	-0.08678821144	
689.375	-0.3476022752	0.1224101037	
690.0	0.1627885009	0.4675877759	
690.625	0.1892258647	0.0324979232	
691.25	0.1918081539	0.5752093866	
691.875	0.614597868	0.1141682116	
692.5	0.3424208366	0.1387451735	
693.125	0.7829853257	0.1171316315	
693.75	0.5021743334	-0.4646853608	
694.375	0.3409110916	-0.1309494616	
695.0	0.5906730209	-0.3212014765	
695.625	0.4320751575	-0.2301422953	
696.25	0.2694591952	0.1251854422	
696.875	0.4273659716	0.3241392661	
697.5	0.473879692	0.2470208632	
698.125	0.3566132346	0.2588093507	
698.75	0.5203467526	-0.3616175226	
699.375	-0.4195704201	-0.4465841967	
700.0	-0.1611357913	0.1715777428	
700.625	0.01309905898	0.3855209671	
701.25	0.2531546257	0.01044016913	
701.875	0.04690738774	0.2413220756	
702.5	0.4307268757	0.2941565729	
703.125	0.3221867909	-0.06722749905	
703.75	0.3575825345	0.06341575556	
704.375	0.2912876918	-0.293113291	
705.0	0.08572790727	-0.1169743827	
705.625	0.2952928813	0.1099377798	
706.25	0.2128657578	0.1159601135	
706.875	0.1389338743	0.1796373191	
707.5	0.2726693455	0.09780186345	
708.125	0.4094121795	0.1232069763	
708.75	0.1901084893	-0.3110611175	
709.375	-0.1507298261	-0.3436566011	
710.0	-0.3540443754	0.2290538269	
710.625	0.07219187563	0.03339870359	
711.25	0.06842645259	0.2350441697	
711.875	0.2429228147	-0.03625048394	
712.5	0.1360812928	0.1254724817	
713.125	0.332675038	-0.1644769928	
713.75	0.03030425879	-0.2634393966	
714.375	0.05743415506	-0.1241142969	
715.0	-0.007068742334	-0.2592136541	
715.625	-0.07280373862	-0.1163803941	
716.25	0.2134928785	-0.1459163288	
716.875	0.3255519518	-0.2299234727	
717.5	0.2574448922	-0.06243512381	
718.125	0.4469199228	0.1016187661	
718.75	0.7549136209	-0.1320026182	
719.375	0.3509711659	-0.3073406308	
720.0	0.4793012759	-0.06604511145	
720.625	0.197605132	-1.412111939	
721.25	-0.2077896698	-0.4174745392	
721.875	0.1643753535	-1.123102269	
722.5	-0.7931760994	-0.5973960693	
723.125	-0.1568712077	-0.02272030236	
723.75	-0.6408005509	0.341078555	
724.375	0.193827901	0.3888922623	
725.0	0.01181950634	0.220927008	
725.625	0.1623154172	0.5971370421	
726.25	0.2891973138	0.5087576733	
726.875	-0.2285195367	0.5440773218	
727.5	-0.2999711876	1.436947382	
728.125	0.4971416283	1.572680234	
728.75	-0.209320449	1.390281327	
729.375	-1.243769549	3.668333603	
730.0	1.206813035	2.959361431	
730.625	-0.3214725076	1.82392446	
731.25	-1.882895833	3.998047251	
731.875	-0.5193378821	2.517738802	
732.5	-2.354655601	-0.603985314	
733.125	-3.141592665	0.6708307037	
733.75	-0.01970492981	1.303570981	
734.375	0.09208796065	0.5617002709	
735.0	-0.05520741536	-0.8694339073	
735.625	-0.1189157297	0.1729400624	
736.25	-0.3979719232	0.5537223522	
736.875	0.6836290391	0.5402502253	
737.5	0.4528528513	-0.1231186434	
738.125	1.639362424	0.4507133893	
738.75	1.609695346	-2.023946843	
739.375	0.3866926493	-1.176409053	
740.0	2.818134593	1.099764884	
740.625	5.074784927	-2.364491484	
741.25	-1.081677082	-1.379321753	
741.875	-4.687627151	0.3307579874	
742.5	-2.755097697	-0.5610880794	
743.125	0.9199394928	-0.4874870011	
743.75	0.06258797987	-1.329954713	
744.375	-0.4416562675	0.3050112835	
745.0	-0.1033016119	-0.05290180753	
745.625	0.1450825842	-0.126220856	
746.25	0.03571373474	-0.03816799751	
746.875	-0.3100900356	-0.02014311915	
747.5	0.01903062119	0.3226951244	
748.125	0.06441289631	0.3021214251	
748.75	0.232368536	0.5414970354	
749.375	0.2349569931	0.3613759487	
750.0	-0.3435090621	0.1063293082	
